! L-03C1N5
! Data taken by Rita
! Created Thu Jun 15 16:37:46 2006
# hz S ma R 50
! 2 Port Network Data from SP1.SP block
       5e+007    0.0051694        65.185       0.99784      -0.26942       0.99784      -0.26942     0.0051694        65.185
   8.975e+007    0.0088063        72.875       0.99744      -0.48343       0.99744      -0.48343     0.0088063        72.875
   1.295e+008     0.012507        75.961       0.99704       -0.6973       0.99704       -0.6973      0.012507        75.961
  1.6925e+008     0.016224        77.624       0.99665      -0.91104       0.99665      -0.91104      0.016224        77.624
    2.09e+008     0.019944        78.664       0.99627       -1.1247       0.99627       -1.1247      0.019944        78.664
  2.4875e+008     0.023665        79.373       0.99591       -1.3383       0.99591       -1.3383      0.023665        79.373
   2.885e+008     0.027386        79.879       0.99555       -1.5518       0.99555       -1.5518      0.027386        79.879
  3.2825e+008     0.031106        80.249        0.9952       -1.7652        0.9952       -1.7652      0.031106        80.249
    3.68e+008     0.034824        80.524       0.99486       -1.9786       0.99486       -1.9786      0.034824        80.524
  4.0775e+008     0.038543        80.727       0.99452        -2.192       0.99452        -2.192      0.038543        80.727
   4.475e+008      0.04226        80.874       0.99417       -2.4054       0.99417       -2.4054       0.04226        80.874
  4.8725e+008     0.045977        80.977       0.99383       -2.6187       0.99383       -2.6187      0.045977        80.977
    5.27e+008     0.049693        81.044       0.99348       -2.8321       0.99348       -2.8321      0.049693        81.044
  5.6675e+008     0.053408        81.081       0.99312       -3.0454       0.99312       -3.0454      0.053408        81.081
   6.065e+008     0.057123        81.093       0.99276       -3.2588       0.99276       -3.2588      0.057123        81.093
  6.4625e+008     0.060838        81.084       0.99239       -3.4722       0.99239       -3.4722      0.060838        81.084
    6.86e+008     0.064552        81.057       0.99202       -3.6855       0.99202       -3.6855      0.064552        81.057
  7.2575e+008     0.068266        81.014       0.99163       -3.8989       0.99163       -3.8989      0.068266        81.014
   7.655e+008     0.071979        80.957       0.99124       -4.1124       0.99124       -4.1124      0.071979        80.957
  8.0525e+008     0.075692        80.888       0.99084       -4.3258       0.99084       -4.3258      0.075692        80.888
    8.45e+008     0.079405        80.808       0.99042       -4.5393       0.99042       -4.5393      0.079405        80.808
  8.8475e+008     0.083118        80.719          0.99       -4.7529          0.99       -4.7529      0.083118        80.719
   9.245e+008      0.08683        80.621       0.98957       -4.9665       0.98957       -4.9665       0.08683        80.621
  9.6425e+008     0.090542        80.515       0.98912       -5.1801       0.98912       -5.1801      0.090542        80.515
   1.004e+009     0.094254        80.403       0.98866       -5.3938       0.98866       -5.3938      0.094254        80.403
  1.0438e+009     0.097965        80.284        0.9882       -5.6075        0.9882       -5.6075      0.097965        80.284
  1.0835e+009      0.10168         80.16       0.98772       -5.8213       0.98772       -5.8213       0.10168         80.16
  1.1233e+009      0.10539         80.03       0.98723       -6.0352       0.98723       -6.0352       0.10539         80.03
   1.163e+009       0.1091        79.896       0.98672       -6.2491       0.98672       -6.2491        0.1091        79.896
  1.2028e+009      0.11281        79.757       0.98621       -6.4631       0.98621       -6.4631       0.11281        79.757
  1.2425e+009      0.11652        79.614       0.98568       -6.6772       0.98568       -6.6772       0.11652        79.614
  1.2823e+009      0.12023        79.467       0.98514       -6.8914       0.98514       -6.8914       0.12023        79.467
   1.322e+009      0.12394        79.317       0.98459       -7.1057       0.98459       -7.1057       0.12394        79.317
  1.3618e+009      0.12765        79.164       0.98402         -7.32       0.98402         -7.32       0.12765        79.164
  1.4015e+009      0.13136        79.008       0.98344       -7.5344       0.98344       -7.5344       0.13136        79.008
  1.4413e+009      0.13507        78.849       0.98285        -7.749       0.98285        -7.749       0.13507        78.849
   1.481e+009      0.13878        78.687       0.98225       -7.9636       0.98225       -7.9636       0.13878        78.687
  1.5208e+009      0.14249        78.523       0.98163       -8.1783       0.98163       -8.1783       0.14249        78.523
  1.5605e+009       0.1462        78.357         0.981       -8.3931         0.981       -8.3931        0.1462        78.357
  1.6003e+009      0.14991        78.188       0.98036       -8.6081       0.98036       -8.6081       0.14991        78.188
    1.64e+009      0.15362        78.018        0.9797       -8.8231        0.9797       -8.8231       0.15362        78.018
  1.6798e+009      0.15733        77.846       0.97903       -9.0383       0.97903       -9.0383       0.15733        77.846
  1.7195e+009      0.16104        77.671       0.97835       -9.2536       0.97835       -9.2536       0.16104        77.671
  1.7593e+009      0.16475        77.495       0.97765        -9.469       0.97765        -9.469       0.16475        77.495
   1.799e+009      0.16845        77.318       0.97694       -9.6846       0.97694       -9.6846       0.16845        77.318
  1.8388e+009      0.17216        77.139       0.97622       -9.9003       0.97622       -9.9003       0.17216        77.139
  1.8785e+009      0.17587        76.958       0.97548       -10.116       0.97548       -10.116       0.17587        76.958
  1.9183e+009      0.17958        76.776       0.97473       -10.332       0.97473       -10.332       0.17958        76.776
   1.958e+009      0.18329        76.593       0.97396       -10.548       0.97396       -10.548       0.18329        76.593
  1.9978e+009        0.187        76.408       0.97318       -10.764       0.97318       -10.764         0.187        76.408
  2.0375e+009      0.19071        76.222       0.97239       -10.981       0.97239       -10.981       0.19071        76.222
  2.0773e+009      0.19441        76.035       0.97158       -11.197       0.97158       -11.197       0.19441        76.035
   2.117e+009      0.19812        75.847       0.97076       -11.414       0.97076       -11.414       0.19812        75.847
  2.1568e+009      0.20183        75.658       0.96992       -11.631       0.96992       -11.631       0.20183        75.658
  2.1965e+009      0.20554        75.468       0.96907       -11.848       0.96907       -11.848       0.20554        75.468
  2.2363e+009      0.20925        75.277       0.96821       -12.065       0.96821       -12.065       0.20925        75.277
   2.276e+009      0.21295        75.084       0.96733       -12.282       0.96733       -12.282       0.21295        75.084
  2.3158e+009      0.21666        74.891       0.96643         -12.5       0.96643         -12.5       0.21666        74.891
  2.3555e+009      0.22037        74.697       0.96553       -12.718       0.96553       -12.718       0.22037        74.697
  2.3953e+009      0.22408        74.502        0.9646       -12.935        0.9646       -12.935       0.22408        74.502
   2.435e+009      0.22778        74.306       0.96367       -13.153       0.96367       -13.153       0.22778        74.306
  2.4748e+009      0.23149         74.11       0.96272       -13.372       0.96272       -13.372       0.23149         74.11
  2.5145e+009       0.2352        73.912       0.96175        -13.59       0.96175        -13.59        0.2352        73.912
  2.5543e+009      0.23891        73.714       0.96077       -13.809       0.96077       -13.809       0.23891        73.714
   2.594e+009      0.24261        73.515       0.95978       -14.028       0.95978       -14.028       0.24261        73.515
  2.6338e+009      0.24632        73.315       0.95877       -14.247       0.95877       -14.247       0.24632        73.315
  2.6735e+009      0.25002        73.115       0.95774       -14.466       0.95774       -14.466       0.25002        73.115
  2.7133e+009      0.25373        72.914        0.9567       -14.685        0.9567       -14.685       0.25373        72.914
   2.753e+009      0.25744        72.712       0.95565       -14.905       0.95565       -14.905       0.25744        72.712
  2.7928e+009      0.26114        72.509       0.95458       -15.125       0.95458       -15.125       0.26114        72.509
  2.8325e+009      0.26485        72.306       0.95349       -15.345       0.95349       -15.345       0.26485        72.306
  2.8723e+009      0.26855        72.102       0.95239       -15.565       0.95239       -15.565       0.26855        72.102
   2.912e+009      0.27226        71.897       0.95128       -15.785       0.95128       -15.785       0.27226        71.897
  2.9518e+009      0.27596        71.692       0.95015       -16.006       0.95015       -16.006       0.27596        71.692
  2.9915e+009      0.27966        71.486         0.949       -16.227         0.949       -16.227       0.27966        71.486
  3.0313e+009      0.28337         71.28       0.94784       -16.448       0.94784       -16.448       0.28337         71.28
   3.071e+009      0.28707        71.073       0.94667       -16.669       0.94667       -16.669       0.28707        71.073
  3.1108e+009      0.29077        70.866       0.94548       -16.891       0.94548       -16.891       0.29077        70.866
  3.1505e+009      0.29447        70.657       0.94427       -17.113       0.94427       -17.113       0.29447        70.657
  3.1903e+009      0.29818        70.449       0.94305       -17.335       0.94305       -17.335       0.29818        70.449
    3.23e+009      0.30188        70.239       0.94181       -17.557       0.94181       -17.557       0.30188        70.239
  3.2698e+009      0.30558         70.03       0.94056       -17.779       0.94056       -17.779       0.30558         70.03
  3.3095e+009      0.30928        69.819       0.93929       -18.002       0.93929       -18.002       0.30928        69.819
  3.3493e+009      0.31298        69.608         0.938       -18.225         0.938       -18.225       0.31298        69.608
   3.389e+009      0.31668        69.397        0.9367       -18.448        0.9367       -18.448       0.31668        69.397
  3.4288e+009      0.32037        69.185       0.93539       -18.672       0.93539       -18.672       0.32037        69.185
  3.4685e+009      0.32407        68.972       0.93405       -18.896       0.93405       -18.896       0.32407        68.972
  3.5083e+009      0.32777        68.759        0.9327        -19.12        0.9327        -19.12       0.32777        68.759
   3.548e+009      0.33146        68.546       0.93134       -19.344       0.93134       -19.344       0.33146        68.546
  3.5878e+009      0.33516        68.332       0.92996       -19.569       0.92996       -19.569       0.33516        68.332
  3.6275e+009      0.33885        68.117       0.92856       -19.793       0.92856       -19.793       0.33885        68.117
  3.6673e+009      0.34255        67.902       0.92715       -20.018       0.92715       -20.018       0.34255        67.902
   3.707e+009      0.34624        67.686       0.92572       -20.244       0.92572       -20.244       0.34624        67.686
  3.7468e+009      0.34993         67.47       0.92428       -20.469       0.92428       -20.469       0.34993         67.47
  3.7865e+009      0.35362        67.254       0.92282       -20.695       0.92282       -20.695       0.35362        67.254
  3.8263e+009      0.35731        67.037       0.92134       -20.921       0.92134       -20.921       0.35731        67.037
   3.866e+009        0.361        66.819       0.91985       -21.148       0.91985       -21.148         0.361        66.819
  3.9058e+009      0.36469        66.601       0.91834       -21.374       0.91834       -21.374       0.36469        66.601
  3.9455e+009      0.36837        66.383       0.91681       -21.601       0.91681       -21.601       0.36837        66.383
  3.9853e+009      0.37206        66.164       0.91526       -21.829       0.91526       -21.829       0.37206        66.164
   4.025e+009      0.37574        65.944        0.9137       -22.056        0.9137       -22.056       0.37574        65.944
  4.0648e+009      0.37943        65.724       0.91213       -22.284       0.91213       -22.284       0.37943        65.724
  4.1045e+009      0.38311        65.504       0.91053       -22.512       0.91053       -22.512       0.38311        65.504
  4.1443e+009      0.38679        65.283       0.90892        -22.74       0.90892        -22.74       0.38679        65.283
   4.184e+009      0.39046        65.062        0.9073       -22.969        0.9073       -22.969       0.39046        65.062
  4.2238e+009      0.39414         64.84       0.90565       -23.198       0.90565       -23.198       0.39414         64.84
  4.2635e+009      0.39782        64.618       0.90399       -23.427       0.90399       -23.427       0.39782        64.618
  4.3033e+009      0.40149        64.395       0.90232       -23.657       0.90232       -23.657       0.40149        64.395
   4.343e+009      0.40516        64.172       0.90062       -23.887       0.90062       -23.887       0.40516        64.172
  4.3828e+009      0.40883        63.948       0.89891       -24.117       0.89891       -24.117       0.40883        63.948
  4.4225e+009       0.4125        63.724       0.89718       -24.347       0.89718       -24.347        0.4125        63.724
  4.4623e+009      0.41617        63.499       0.89543       -24.578       0.89543       -24.578       0.41617        63.499
   4.502e+009      0.41983        63.274       0.89367       -24.809       0.89367       -24.809       0.41983        63.274
  4.5418e+009      0.42349        63.049       0.89189        -25.04       0.89189        -25.04       0.42349        63.049
  4.5815e+009      0.42715        62.823       0.89009       -25.272       0.89009       -25.272       0.42715        62.823
  4.6213e+009      0.43081        62.597       0.88828       -25.504       0.88828       -25.504       0.43081        62.597
   4.661e+009      0.43447         62.37       0.88645       -25.736       0.88645       -25.736       0.43447         62.37
  4.7008e+009      0.43812        62.143        0.8846       -25.969        0.8846       -25.969       0.43812        62.143
  4.7405e+009      0.44177        61.915       0.88273       -26.202       0.88273       -26.202       0.44177        61.915
  4.7803e+009      0.44542        61.687       0.88084       -26.435       0.88084       -26.435       0.44542        61.687
    4.82e+009      0.44907        61.459       0.87894       -26.669       0.87894       -26.669       0.44907        61.459
  4.8598e+009      0.45271         61.23       0.87702       -26.902       0.87702       -26.902       0.45271         61.23
  4.8995e+009      0.45635            61       0.87508       -27.137       0.87508       -27.137       0.45635            61
  4.9393e+009      0.45999         60.77       0.87313       -27.371       0.87313       -27.371       0.45999         60.77
   4.979e+009      0.46363         60.54       0.87115       -27.606       0.87115       -27.606       0.46363         60.54
  5.0188e+009      0.46726        60.309       0.86916       -27.841       0.86916       -27.841       0.46726        60.309
  5.0585e+009      0.47089        60.078       0.86716       -28.076       0.86716       -28.076       0.47089        60.078
  5.0983e+009      0.47452        59.846       0.86513       -28.312       0.86513       -28.312       0.47452        59.846
   5.138e+009      0.47814        59.614       0.86308       -28.548       0.86308       -28.548       0.47814        59.614
  5.1778e+009      0.48176        59.382       0.86102       -28.784       0.86102       -28.784       0.48176        59.382
  5.2175e+009      0.48538        59.149       0.85894       -29.021       0.85894       -29.021       0.48538        59.149
  5.2573e+009      0.48899        58.916       0.85684       -29.258       0.85684       -29.258       0.48899        58.916
   5.297e+009       0.4926        58.682       0.85473       -29.495       0.85473       -29.495        0.4926        58.682
  5.3368e+009      0.49621        58.448       0.85259       -29.733       0.85259       -29.733       0.49621        58.448
  5.3765e+009      0.49981        58.213       0.85044       -29.971       0.85044       -29.971       0.49981        58.213
  5.4163e+009      0.50341        57.978       0.84827       -30.209       0.84827       -30.209       0.50341        57.978
   5.456e+009      0.50701        57.742       0.84608       -30.448       0.84608       -30.448       0.50701        57.742
  5.4958e+009       0.5106        57.507       0.84387       -30.687       0.84387       -30.687        0.5106        57.507
  5.5355e+009      0.51419         57.27       0.84165       -30.926       0.84165       -30.926       0.51419         57.27
  5.5753e+009      0.51777        57.033        0.8394       -31.166        0.8394       -31.166       0.51777        57.033
   5.615e+009      0.52135        56.796       0.83714       -31.405       0.83714       -31.405       0.52135        56.796
  5.6548e+009      0.52492        56.559       0.83486       -31.646       0.83486       -31.646       0.52492        56.559
  5.6945e+009      0.52849        56.321       0.83256       -31.886       0.83256       -31.886       0.52849        56.321
  5.7343e+009      0.53206        56.082       0.83024       -32.127       0.83024       -32.127       0.53206        56.082
   5.774e+009      0.53562        55.843       0.82791       -32.368       0.82791       -32.368       0.53562        55.843
  5.8138e+009      0.53918        55.604       0.82555        -32.61       0.82555        -32.61       0.53918        55.604
  5.8535e+009      0.54273        55.364       0.82318       -32.852       0.82318       -32.852       0.54273        55.364
  5.8933e+009      0.54627        55.124       0.82079       -33.094       0.82079       -33.094       0.54627        55.124
   5.933e+009      0.54981        54.884       0.81838       -33.336       0.81838       -33.336       0.54981        54.884
  5.9728e+009      0.55335        54.643       0.81595       -33.579       0.81595       -33.579       0.55335        54.643
  6.0125e+009      0.55688        54.402       0.81351       -33.822       0.81351       -33.822       0.55688        54.402
  6.0523e+009      0.56041         54.16       0.81104       -34.065       0.81104       -34.065       0.56041         54.16
   6.092e+009      0.56393        53.918       0.80856       -34.309       0.80856       -34.309       0.56393        53.918
  6.1318e+009      0.56744        53.675       0.80606       -34.553       0.80606       -34.553       0.56744        53.675
  6.1715e+009      0.57095        53.432       0.80354       -34.797       0.80354       -34.797       0.57095        53.432
  6.2113e+009      0.57445        53.189         0.801       -35.042         0.801       -35.042       0.57445        53.189
   6.251e+009      0.57795        52.945       0.79844       -35.287       0.79844       -35.287       0.57795        52.945
  6.2908e+009      0.58144        52.701       0.79586       -35.532       0.79586       -35.532       0.58144        52.701
  6.3305e+009      0.58492        52.456       0.79327       -35.778       0.79327       -35.778       0.58492        52.456
