! L-03C1N8
! Data taken by Rita
! Created Thu Jun 15 16:46:15 2006
# hz S ma R 50
! 2 Port Network Data from SP1.SP block
       5e+007    0.0061694        66.521       0.99756      -0.32501       0.99756      -0.32501     0.0061694        66.521
   8.975e+007     0.010554        74.082       0.99716      -0.58318       0.99716      -0.58318      0.010554        74.082
   1.295e+008     0.015016         77.02       0.99673      -0.84117       0.99673      -0.84117      0.015016         77.02
  1.6925e+008     0.019498        78.537       0.99631        -1.099       0.99631        -1.099      0.019498        78.537
    2.09e+008     0.023985        79.441       0.99588       -1.3567       0.99588       -1.3567      0.023985        79.441
  2.4875e+008     0.028473        80.025       0.99546       -1.6142       0.99546       -1.6142      0.028473        80.025
   2.885e+008      0.03296        80.416       0.99504       -1.8717       0.99504       -1.8717       0.03296        80.416
  3.2825e+008     0.037445        80.682       0.99462       -2.1291       0.99462       -2.1291      0.037445        80.682
    3.68e+008     0.041929         80.86        0.9942       -2.3864        0.9942       -2.3864      0.041929         80.86
  4.0775e+008     0.046412        80.972       0.99378       -2.6436       0.99378       -2.6436      0.046412        80.972
   4.475e+008     0.050892        81.035       0.99334       -2.9008       0.99334       -2.9008      0.050892        81.035
  4.8725e+008     0.055371        81.059        0.9929        -3.158        0.9929        -3.158      0.055371        81.059
    5.27e+008     0.059849        81.051       0.99245       -3.4151       0.99245       -3.4151      0.059849        81.051
  5.6675e+008     0.064324        81.016       0.99199       -3.6722       0.99199       -3.6722      0.064324        81.016
   6.065e+008     0.068798         80.96       0.99152       -3.9293       0.99152       -3.9293      0.068798         80.96
  6.4625e+008     0.073271        80.885       0.99104       -4.1863       0.99104       -4.1863      0.073271        80.885
    6.86e+008     0.077742        80.794       0.99054       -4.4434       0.99054       -4.4434      0.077742        80.794
  7.2575e+008     0.082211        80.689       0.99003       -4.7004       0.99003       -4.7004      0.082211        80.689
   7.655e+008     0.086679        80.572        0.9895       -4.9574        0.9895       -4.9574      0.086679        80.572
  8.0525e+008     0.091145        80.444       0.98896       -5.2144       0.98896       -5.2144      0.091145        80.444
    8.45e+008     0.095609        80.307       0.98841       -5.4715       0.98841       -5.4715      0.095609        80.307
  8.8475e+008      0.10007        80.162       0.98783       -5.7285       0.98783       -5.7285       0.10007        80.162
   9.245e+008      0.10453        80.009       0.98725       -5.9856       0.98725       -5.9856       0.10453        80.009
  9.6425e+008      0.10899        79.849       0.98664       -6.2426       0.98664       -6.2426       0.10899        79.849
   1.004e+009      0.11345        79.683       0.98602       -6.4997       0.98602       -6.4997       0.11345        79.683
  1.0438e+009      0.11791        79.512       0.98538       -6.7568       0.98538       -6.7568       0.11791        79.512
  1.0835e+009      0.12236        79.335       0.98473        -7.014       0.98473        -7.014       0.12236        79.335
  1.1233e+009      0.12681        79.154       0.98405       -7.2711       0.98405       -7.2711       0.12681        79.154
   1.163e+009      0.13126        78.969       0.98336       -7.5283       0.98336       -7.5283       0.13126        78.969
  1.2028e+009      0.13571         78.78       0.98265       -7.7856       0.98265       -7.7856       0.13571         78.78
  1.2425e+009      0.14016        78.587       0.98192       -8.0429       0.98192       -8.0429       0.14016        78.587
  1.2823e+009       0.1446        78.391       0.98118       -8.3002       0.98118       -8.3002        0.1446        78.391
   1.322e+009      0.14904        78.191       0.98041       -8.5575       0.98041       -8.5575       0.14904        78.191
  1.3618e+009      0.15348        77.989       0.97963       -8.8149       0.97963       -8.8149       0.15348        77.989
  1.4015e+009      0.15792        77.785       0.97883       -9.0724       0.97883       -9.0724       0.15792        77.785
  1.4413e+009      0.16236        77.578       0.97801       -9.3299       0.97801       -9.3299       0.16236        77.578
   1.481e+009      0.16679        77.368       0.97717       -9.5875       0.97717       -9.5875       0.16679        77.368
  1.5208e+009      0.17122        77.156       0.97632       -9.8451       0.97632       -9.8451       0.17122        77.156
  1.5605e+009      0.17565        76.943       0.97544       -10.103       0.97544       -10.103       0.17565        76.943
  1.6003e+009      0.18007        76.727       0.97455        -10.36       0.97455        -10.36       0.18007        76.727
    1.64e+009       0.1845         76.51       0.97363       -10.618       0.97363       -10.618        0.1845         76.51
  1.6798e+009      0.18892        76.291        0.9727       -10.876        0.9727       -10.876       0.18892        76.291
  1.7195e+009      0.19334         76.07       0.97175       -11.134       0.97175       -11.134       0.19334         76.07
  1.7593e+009      0.19775        75.848       0.97078       -11.392       0.97078       -11.392       0.19775        75.848
   1.799e+009      0.20217        75.624       0.96979        -11.65       0.96979        -11.65       0.20217        75.624
  1.8388e+009      0.20658        75.399       0.96878       -11.908       0.96878       -11.908       0.20658        75.399
  1.8785e+009      0.21098        75.173       0.96775       -12.167       0.96775       -12.167       0.21098        75.173
  1.9183e+009      0.21539        74.946        0.9667       -12.425        0.9667       -12.425       0.21539        74.946
   1.958e+009      0.21979        74.717       0.96563       -12.683       0.96563       -12.683       0.21979        74.717
  1.9978e+009      0.22419        74.487       0.96454       -12.942       0.96454       -12.942       0.22419        74.487
  2.0375e+009      0.22858        74.256       0.96343         -13.2       0.96343         -13.2       0.22858        74.256
  2.0773e+009      0.23298        74.025       0.96231       -13.459       0.96231       -13.459       0.23298        74.025
   2.117e+009      0.23737        73.792       0.96116       -13.718       0.96116       -13.718       0.23737        73.792
  2.1568e+009      0.24175        73.558       0.95999       -13.977       0.95999       -13.977       0.24175        73.558
  2.1965e+009      0.24614        73.323       0.95881       -14.236       0.95881       -14.236       0.24614        73.323
  2.2363e+009      0.25052        73.088        0.9576       -14.495        0.9576       -14.495       0.25052        73.088
   2.276e+009      0.25489        72.851       0.95638       -14.754       0.95638       -14.754       0.25489        72.851
  2.3158e+009      0.25926        72.614       0.95513       -15.013       0.95513       -15.013       0.25926        72.614
  2.3555e+009      0.26363        72.376       0.95387       -15.273       0.95387       -15.273       0.26363        72.376
  2.3953e+009        0.268        72.137       0.95258       -15.532       0.95258       -15.532         0.268        72.137
   2.435e+009      0.27236        71.898       0.95128       -15.792       0.95128       -15.792       0.27236        71.898
  2.4748e+009      0.27672        71.657       0.94995       -16.051       0.94995       -16.051       0.27672        71.657
  2.5145e+009      0.28107        71.417       0.94861       -16.311       0.94861       -16.311       0.28107        71.417
  2.5543e+009      0.28542        71.175       0.94724       -16.571       0.94724       -16.571       0.28542        71.175
   2.594e+009      0.28977        70.933       0.94586       -16.831       0.94586       -16.831       0.28977        70.933
  2.6338e+009      0.29411         70.69       0.94445       -17.091       0.94445       -17.091       0.29411         70.69
  2.6735e+009      0.29845        70.447       0.94303       -17.351       0.94303       -17.351       0.29845        70.447
  2.7133e+009      0.30279        70.203       0.94158       -17.612       0.94158       -17.612       0.30279        70.203
   2.753e+009      0.30712        69.958       0.94012       -17.872       0.94012       -17.872       0.30712        69.958
  2.7928e+009      0.31144        69.713       0.93863       -18.133       0.93863       -18.133       0.31144        69.713
  2.8325e+009      0.31576        69.467       0.93713       -18.394       0.93713       -18.394       0.31576        69.467
  2.8723e+009      0.32008        69.221        0.9356       -18.654        0.9356       -18.654       0.32008        69.221
   2.912e+009      0.32439        68.975       0.93405       -18.915       0.93405       -18.915       0.32439        68.975
  2.9518e+009       0.3287        68.727       0.93249       -19.177       0.93249       -19.177        0.3287        68.727
  2.9915e+009        0.333         68.48        0.9309       -19.438        0.9309       -19.438         0.333         68.48
  3.0313e+009       0.3373        68.232        0.9293       -19.699        0.9293       -19.699        0.3373        68.232
   3.071e+009       0.3416        67.983       0.92767       -19.961       0.92767       -19.961        0.3416        67.983
  3.1108e+009      0.34588        67.734       0.92602       -20.222       0.92602       -20.222       0.34588        67.734
  3.1505e+009      0.35017        67.484       0.92436       -20.484       0.92436       -20.484       0.35017        67.484
  3.1903e+009      0.35445        67.234       0.92267       -20.746       0.92267       -20.746       0.35445        67.234
    3.23e+009      0.35872        66.984       0.92096       -21.008       0.92096       -21.008       0.35872        66.984
  3.2698e+009      0.36299        66.733       0.91923        -21.27       0.91923        -21.27       0.36299        66.733
  3.3095e+009      0.36725        66.482       0.91748       -21.532       0.91748       -21.532       0.36725        66.482
  3.3493e+009      0.37151         66.23       0.91572       -21.795       0.91572       -21.795       0.37151         66.23
   3.389e+009      0.37576        65.978       0.91393       -22.057       0.91393       -22.057       0.37576        65.978
  3.4288e+009         0.38        65.726       0.91212        -22.32       0.91212        -22.32          0.38        65.726
  3.4685e+009      0.38424        65.473       0.91029       -22.583       0.91029       -22.583       0.38424        65.473
  3.5083e+009      0.38848        65.219       0.90844       -22.846       0.90844       -22.846       0.38848        65.219
   3.548e+009       0.3927        64.966       0.90657       -23.109       0.90657       -23.109        0.3927        64.966
  3.5878e+009      0.39693        64.712       0.90468       -23.372       0.90468       -23.372       0.39693        64.712
  3.6275e+009      0.40114        64.457       0.90276       -23.636       0.90276       -23.636       0.40114        64.457
  3.6673e+009      0.40535        64.203       0.90083       -23.899       0.90083       -23.899       0.40535        64.203
   3.707e+009      0.40956        63.948       0.89888       -24.163       0.89888       -24.163       0.40956        63.948
  3.7468e+009      0.41375        63.692       0.89691       -24.427       0.89691       -24.427       0.41375        63.692
  3.7865e+009      0.41794        63.436       0.89492       -24.691       0.89492       -24.691       0.41794        63.436
  3.8263e+009      0.42213         63.18        0.8929       -24.955        0.8929       -24.955       0.42213         63.18
   3.866e+009       0.4263        62.924       0.89087       -25.219       0.89087       -25.219        0.4263        62.924
  3.9058e+009      0.43047        62.667       0.88882       -25.483       0.88882       -25.483       0.43047        62.667
  3.9455e+009      0.43464         62.41       0.88674       -25.748       0.88674       -25.748       0.43464         62.41
  3.9853e+009      0.43879        62.152       0.88465       -26.013       0.88465       -26.013       0.43879        62.152
   4.025e+009      0.44294        61.895       0.88253       -26.277       0.88253       -26.277       0.44294        61.895
  4.0648e+009      0.44708        61.636        0.8804       -26.542        0.8804       -26.542       0.44708        61.636
  4.1045e+009      0.45122        61.378       0.87824       -26.807       0.87824       -26.807       0.45122        61.378
  4.1443e+009      0.45535        61.119       0.87606       -27.073       0.87606       -27.073       0.45535        61.119
   4.184e+009      0.45946         60.86       0.87387       -27.338       0.87387       -27.338       0.45946         60.86
  4.2238e+009      0.46358        60.601       0.87165       -27.603       0.87165       -27.603       0.46358        60.601
  4.2635e+009      0.46768        60.341       0.86941       -27.869       0.86941       -27.869       0.46768        60.341
  4.3033e+009      0.47178        60.082       0.86716       -28.135       0.86716       -28.135       0.47178        60.082
   4.343e+009      0.47586        59.821       0.86488       -28.401       0.86488       -28.401       0.47586        59.821
  4.3828e+009      0.47994        59.561       0.86258       -28.667       0.86258       -28.667       0.47994        59.561
  4.4225e+009      0.48401          59.3       0.86026       -28.933       0.86026       -28.933       0.48401          59.3
  4.4623e+009      0.48808        59.039       0.85792       -29.199       0.85792       -29.199       0.48808        59.039
   4.502e+009      0.49213        58.778       0.85557       -29.466       0.85557       -29.466       0.49213        58.778
  4.5418e+009      0.49618        58.516       0.85319       -29.732       0.85319       -29.732       0.49618        58.516
  4.5815e+009      0.50022        58.254       0.85079       -29.999       0.85079       -29.999       0.50022        58.254
  4.6213e+009      0.50424        57.992       0.84837       -30.266       0.84837       -30.266       0.50424        57.992
   4.661e+009      0.50826         57.73       0.84593       -30.533       0.84593       -30.533       0.50826         57.73
  4.7008e+009      0.51227        57.467       0.84347         -30.8       0.84347         -30.8       0.51227        57.467
  4.7405e+009      0.51628        57.204       0.84099       -31.067       0.84099       -31.067       0.51628        57.204
  4.7803e+009      0.52027        56.941       0.83849       -31.334       0.83849       -31.334       0.52027        56.941
    4.82e+009      0.52425        56.678       0.83597       -31.602       0.83597       -31.602       0.52425        56.678
  4.8598e+009      0.52822        56.414       0.83343       -31.869       0.83343       -31.869       0.52822        56.414
  4.8995e+009      0.53219         56.15       0.83087       -32.137       0.83087       -32.137       0.53219         56.15
  4.9393e+009      0.53614        55.886       0.82829       -32.405       0.82829       -32.405       0.53614        55.886
   4.979e+009      0.54008        55.622        0.8257       -32.673        0.8257       -32.673       0.54008        55.622
  5.0188e+009      0.54401        55.357       0.82308       -32.941       0.82308       -32.941       0.54401        55.357
  5.0585e+009      0.54794        55.093       0.82044       -33.209       0.82044       -33.209       0.54794        55.093
  5.0983e+009      0.55185        54.828       0.81778       -33.477       0.81778       -33.477       0.55185        54.828
   5.138e+009      0.55575        54.562        0.8151       -33.746        0.8151       -33.746       0.55575        54.562
  5.1778e+009      0.55964        54.297        0.8124       -34.014        0.8124       -34.014       0.55964        54.297
  5.2175e+009      0.56352        54.031       0.80969       -34.283       0.80969       -34.283       0.56352        54.031
  5.2573e+009      0.56739        53.765       0.80695       -34.552       0.80695       -34.552       0.56739        53.765
   5.297e+009      0.57125        53.499       0.80419       -34.821       0.80419       -34.821       0.57125        53.499
  5.3368e+009       0.5751        53.233       0.80142       -35.089       0.80142       -35.089        0.5751        53.233
  5.3765e+009      0.57894        52.966       0.79862       -35.358       0.79862       -35.358       0.57894        52.966
  5.4163e+009      0.58276        52.699       0.79581       -35.628       0.79581       -35.628       0.58276        52.699
   5.456e+009      0.58658        52.433       0.79297       -35.897       0.79297       -35.897       0.58658        52.433
  5.4958e+009      0.59038        52.165       0.79012       -36.166       0.79012       -36.166       0.59038        52.165
  5.5355e+009      0.59417        51.898       0.78725       -36.436       0.78725       -36.436       0.59417        51.898
  5.5753e+009      0.59795        51.631       0.78436       -36.705       0.78436       -36.705       0.59795        51.631
   5.615e+009      0.60171        51.363       0.78145       -36.975       0.78145       -36.975       0.60171        51.363
  5.6548e+009      0.60547        51.095       0.77852       -37.244       0.77852       -37.244       0.60547        51.095
  5.6945e+009      0.60921        50.827       0.77557       -37.514       0.77557       -37.514       0.60921        50.827
  5.7343e+009      0.61294        50.559        0.7726       -37.784        0.7726       -37.784       0.61294        50.559
   5.774e+009      0.61666         50.29       0.76961       -38.054       0.76961       -38.054       0.61666         50.29
  5.8138e+009      0.62036        50.022       0.76661       -38.324       0.76661       -38.324       0.62036        50.022
  5.8535e+009      0.62405        49.753       0.76359       -38.594       0.76359       -38.594       0.62405        49.753
  5.8933e+009      0.62773        49.484       0.76054       -38.864       0.76054       -38.864       0.62773        49.484
   5.933e+009      0.63139        49.215       0.75748       -39.134       0.75748       -39.134       0.63139        49.215
  5.9728e+009      0.63505        48.946        0.7544       -39.404        0.7544       -39.404       0.63505        48.946
  6.0125e+009      0.63869        48.677       0.75131       -39.674       0.75131       -39.674       0.63869        48.677
  6.0523e+009      0.64231        48.407       0.74819       -39.944       0.74819       -39.944       0.64231        48.407
   6.092e+009      0.64592        48.138       0.74506       -40.215       0.74506       -40.215       0.64592        48.138
  6.1318e+009      0.64952        47.868       0.74191       -40.485       0.74191       -40.485       0.64952        47.868
  6.1715e+009       0.6531        47.598       0.73874       -40.756       0.73874       -40.756        0.6531        47.598
  6.2113e+009      0.65667        47.328       0.73555       -41.026       0.73555       -41.026       0.65667        47.328
   6.251e+009      0.66023        47.058       0.73234       -41.296       0.73234       -41.296       0.66023        47.058
  6.2908e+009      0.66377        46.788       0.72912       -41.567       0.72912       -41.567       0.66377        46.788
  6.3305e+009       0.6673        46.517       0.72588       -41.838       0.72588       -41.838        0.6673        46.517
