! L-03C3N3
! Data taken by Rita
! Created Thu Jun 15 17:39:15 2006
# hz S ma R 50
! 2 Port Network Data from SP1.SP block
       5e+007     0.011243        66.869       0.99564      -0.59502       0.99564      -0.59502      0.011243        66.869
   7.975e+007     0.017277        72.394       0.99491      -0.94842       0.99491      -0.94842      0.017277        72.394
   1.095e+008     0.023389         74.87       0.99415       -1.3014       0.99415       -1.3014      0.023389         74.87
  1.3925e+008      0.02952        76.221       0.99338       -1.6539       0.99338       -1.6539       0.02952        76.221
    1.69e+008     0.035653        77.039       0.99261       -2.0059       0.99261       -2.0059      0.035653        77.039
  1.9875e+008     0.041783        77.561       0.99184       -2.3577       0.99184       -2.3577      0.041783        77.561
   2.285e+008     0.047907          77.9       0.99107       -2.7091       0.99107       -2.7091      0.047907          77.9
  2.5825e+008     0.054024        78.116       0.99029       -3.0601       0.99029       -3.0601      0.054024        78.116
    2.88e+008     0.060134        78.243        0.9895       -3.4109        0.9895       -3.4109      0.060134        78.243
  3.1775e+008     0.066236        78.304        0.9887       -3.7614        0.9887       -3.7614      0.066236        78.304
   3.475e+008     0.072331        78.314       0.98789       -4.1116       0.98789       -4.1116      0.072331        78.314
  3.7725e+008     0.078418        78.284       0.98707       -4.4616       0.98707       -4.4616      0.078418        78.284
    4.07e+008     0.084498        78.219       0.98622       -4.8113       0.98622       -4.8113      0.084498        78.219
  4.3675e+008      0.09057        78.127       0.98536       -5.1607       0.98536       -5.1607       0.09057        78.127
   4.665e+008     0.096634        78.012       0.98448       -5.5098       0.98448       -5.5098      0.096634        78.012
  4.9625e+008      0.10269        77.876       0.98357       -5.8588       0.98357       -5.8588       0.10269        77.876
    5.26e+008      0.10874        77.723       0.98264       -6.2074       0.98264       -6.2074       0.10874        77.723
  5.5575e+008      0.11478        77.555       0.98168       -6.5558       0.98168       -6.5558       0.11478        77.555
   5.855e+008      0.12081        77.374        0.9807       -6.9039        0.9807       -6.9039       0.12081        77.374
  6.1525e+008      0.12683        77.181        0.9797       -7.2517        0.9797       -7.2517       0.12683        77.181
    6.45e+008      0.13284        76.977       0.97866       -7.5993       0.97866       -7.5993       0.13284        76.977
  6.7475e+008      0.13884        76.764        0.9776       -7.9466        0.9776       -7.9466       0.13884        76.764
   7.045e+008      0.14483        76.543       0.97651       -8.2937       0.97651       -8.2937       0.14483        76.543
  7.3425e+008      0.15082        76.315       0.97539       -8.6404       0.97539       -8.6404       0.15082        76.315
    7.64e+008      0.15679         76.08       0.97424       -8.9869       0.97424       -8.9869       0.15679         76.08
  7.9375e+008      0.16275        75.838       0.97306       -9.3331       0.97306       -9.3331       0.16275        75.838
   8.235e+008       0.1687        75.591       0.97185        -9.679       0.97185        -9.679        0.1687        75.591
  8.5325e+008      0.17464        75.339       0.97062       -10.025       0.97062       -10.025       0.17464        75.339
    8.83e+008      0.18057        75.082       0.96935        -10.37       0.96935        -10.37       0.18057        75.082
  9.1275e+008      0.18649        74.821       0.96805       -10.715       0.96805       -10.715       0.18649        74.821
   9.425e+008      0.19239        74.556       0.96672       -11.059       0.96672       -11.059       0.19239        74.556
  9.7225e+008      0.19828        74.288       0.96536       -11.404       0.96536       -11.404       0.19828        74.288
   1.002e+009      0.20416        74.016       0.96397       -11.748       0.96397       -11.748       0.20416        74.016
  1.0318e+009      0.21003        73.741       0.96255       -12.092       0.96255       -12.092       0.21003        73.741
  1.0615e+009      0.21588        73.464        0.9611       -12.435        0.9611       -12.435       0.21588        73.464
  1.0913e+009      0.22172        73.183       0.95962       -12.778       0.95962       -12.778       0.22172        73.183
   1.121e+009      0.22755        72.901       0.95811       -13.121       0.95811       -13.121       0.22755        72.901
  1.1508e+009      0.23336        72.616       0.95656       -13.463       0.95656       -13.463       0.23336        72.616
  1.1805e+009      0.23916        72.329       0.95499       -13.805       0.95499       -13.805       0.23916        72.329
  1.2103e+009      0.24495         72.04       0.95338       -14.147       0.95338       -14.147       0.24495         72.04
    1.24e+009      0.25071         71.75       0.95175       -14.488       0.95175       -14.488       0.25071         71.75
  1.2698e+009      0.25647        71.458       0.95009       -14.829       0.95009       -14.829       0.25647        71.458
  1.2995e+009      0.26221        71.164       0.94839       -15.169       0.94839       -15.169       0.26221        71.164
  1.3293e+009      0.26793        70.869       0.94666       -15.509       0.94666       -15.509       0.26793        70.869
   1.359e+009      0.27364        70.573       0.94491       -15.849       0.94491       -15.849       0.27364        70.573
  1.3888e+009      0.27933        70.276       0.94312       -16.188       0.94312       -16.188       0.27933        70.276
  1.4185e+009        0.285        69.977       0.94131       -16.527       0.94131       -16.527         0.285        69.977
  1.4483e+009      0.29066        69.678       0.93946       -16.866       0.93946       -16.866       0.29066        69.678
   1.478e+009       0.2963        69.377       0.93759       -17.204       0.93759       -17.204        0.2963        69.377
  1.5078e+009      0.30193        69.076       0.93568       -17.542       0.93568       -17.542       0.30193        69.076
  1.5375e+009      0.30753        68.773       0.93375       -17.879       0.93375       -17.879       0.30753        68.773
  1.5673e+009      0.31312         68.47       0.93179       -18.216       0.93179       -18.216       0.31312         68.47
   1.597e+009      0.31869        68.167       0.92979       -18.552       0.92979       -18.552       0.31869        68.167
  1.6268e+009      0.32425        67.863       0.92777       -18.888       0.92777       -18.888       0.32425        67.863
  1.6565e+009      0.32978        67.558       0.92572       -19.224       0.92572       -19.224       0.32978        67.558
  1.6863e+009       0.3353        67.252       0.92365       -19.559       0.92365       -19.559        0.3353        67.252
   1.716e+009       0.3408        66.947       0.92154       -19.894       0.92154       -19.894        0.3408        66.947
  1.7458e+009      0.34627         66.64       0.91941       -20.228       0.91941       -20.228       0.34627         66.64
  1.7755e+009      0.35173        66.334       0.91724       -20.562       0.91724       -20.562       0.35173        66.334
  1.8053e+009      0.35717        66.027       0.91505       -20.895       0.91505       -20.895       0.35717        66.027
   1.835e+009      0.36259        65.719       0.91284       -21.228       0.91284       -21.228       0.36259        65.719
  1.8648e+009      0.36799        65.412       0.91059        -21.56       0.91059        -21.56       0.36799        65.412
  1.8945e+009      0.37337        65.104       0.90832       -21.892       0.90832       -21.892       0.37337        65.104
  1.9243e+009      0.37873        64.796       0.90602       -22.224       0.90602       -22.224       0.37873        64.796
   1.954e+009      0.38407        64.487       0.90369       -22.555       0.90369       -22.555       0.38407        64.487
  1.9838e+009      0.38939        64.179       0.90134       -22.885       0.90134       -22.885       0.38939        64.179
  2.0135e+009      0.39469        63.871       0.89896       -23.215       0.89896       -23.215       0.39469        63.871
  2.0433e+009      0.39997        63.562       0.89656       -23.544       0.89656       -23.544       0.39997        63.562
   2.073e+009      0.40522        63.253       0.89413       -23.873       0.89413       -23.873       0.40522        63.253
  2.1028e+009      0.41046        62.945       0.89167       -24.202       0.89167       -24.202       0.41046        62.945
  2.1325e+009      0.41567        62.636       0.88919        -24.53       0.88919        -24.53       0.41567        62.636
  2.1623e+009      0.42086        62.327       0.88668       -24.857       0.88668       -24.857       0.42086        62.327
   2.192e+009      0.42603        62.018       0.88415       -25.184       0.88415       -25.184       0.42603        62.018
  2.2218e+009      0.43118         61.71        0.8816        -25.51        0.8816        -25.51       0.43118         61.71
  2.2515e+009       0.4363        61.401       0.87901       -25.836       0.87901       -25.836        0.4363        61.401
  2.2813e+009       0.4414        61.093       0.87641       -26.161       0.87641       -26.161        0.4414        61.093
   2.311e+009      0.44648        60.784       0.87378       -26.486       0.87378       -26.486       0.44648        60.784
  2.3408e+009      0.45154        60.476       0.87113        -26.81       0.87113        -26.81       0.45154        60.476
  2.3705e+009      0.45657        60.168       0.86845       -27.134       0.86845       -27.134       0.45657        60.168
  2.4003e+009      0.46158         59.86       0.86575       -27.457       0.86575       -27.457       0.46158         59.86
    2.43e+009      0.46657        59.552       0.86302       -27.779       0.86302       -27.779       0.46657        59.552
  2.4598e+009      0.47154        59.244       0.86028       -28.101       0.86028       -28.101       0.47154        59.244
  2.4895e+009      0.47648        58.937       0.85751       -28.423       0.85751       -28.423       0.47648        58.937
  2.5193e+009      0.48139         58.63       0.85472       -28.743       0.85472       -28.743       0.48139         58.63
   2.549e+009      0.48629        58.323        0.8519       -29.064        0.8519       -29.064       0.48629        58.323
  2.5788e+009      0.49116        58.016       0.84907       -29.383       0.84907       -29.383       0.49116        58.016
  2.6085e+009        0.496        57.709       0.84621       -29.702       0.84621       -29.702         0.496        57.709
  2.6383e+009      0.50082        57.403       0.84333       -30.021       0.84333       -30.021       0.50082        57.403
   2.668e+009      0.50562        57.097       0.84043       -30.339       0.84043       -30.339       0.50562        57.097
  2.6978e+009      0.51039        56.791       0.83751       -30.656       0.83751       -30.656       0.51039        56.791
  2.7275e+009      0.51514        56.486       0.83457       -30.973       0.83457       -30.973       0.51514        56.486
  2.7573e+009      0.51986        56.181       0.83161       -31.289       0.83161       -31.289       0.51986        56.181
   2.787e+009      0.52456        55.876       0.82863       -31.604       0.82863       -31.604       0.52456        55.876
  2.8168e+009      0.52923        55.572       0.82563       -31.919       0.82563       -31.919       0.52923        55.572
  2.8465e+009      0.53388        55.268       0.82261       -32.233       0.82261       -32.233       0.53388        55.268
  2.8763e+009       0.5385        54.964       0.81956       -32.547       0.81956       -32.547        0.5385        54.964
   2.906e+009       0.5431        54.661        0.8165        -32.86        0.8165        -32.86        0.5431        54.661
  2.9358e+009      0.54767        54.358       0.81343       -33.173       0.81343       -33.173       0.54767        54.358
  2.9655e+009      0.55222        54.055       0.81033       -33.484       0.81033       -33.484       0.55222        54.055
  2.9953e+009      0.55674        53.753       0.80721       -33.796       0.80721       -33.796       0.55674        53.753
   3.025e+009      0.56124        53.451       0.80408       -34.106       0.80408       -34.106       0.56124        53.451
  3.0548e+009      0.56571         53.15       0.80093       -34.416       0.80093       -34.416       0.56571         53.15
  3.0845e+009      0.57015        52.849       0.79776       -34.725       0.79776       -34.725       0.57015        52.849
  3.1143e+009      0.57457        52.548       0.79457       -35.034       0.79457       -35.034       0.57457        52.548
   3.144e+009      0.57897        52.248       0.79137       -35.342       0.79137       -35.342       0.57897        52.248
  3.1738e+009      0.58333        51.948       0.78815       -35.649       0.78815       -35.649       0.58333        51.948
  3.2035e+009      0.58768        51.649       0.78491       -35.956       0.78491       -35.956       0.58768        51.649
  3.2333e+009      0.59199         51.35       0.78165       -36.262       0.78165       -36.262       0.59199         51.35
   3.263e+009      0.59628        51.052       0.77838       -36.567       0.77838       -36.567       0.59628        51.052
  3.2928e+009      0.60055        50.754        0.7751       -36.872        0.7751       -36.872       0.60055        50.754
  3.3225e+009      0.60478        50.456        0.7718       -37.176        0.7718       -37.176       0.60478        50.456
  3.3523e+009      0.60899        50.159       0.76848       -37.479       0.76848       -37.479       0.60899        50.159
   3.382e+009      0.61318        49.863       0.76515       -37.782       0.76515       -37.782       0.61318        49.863
  3.4118e+009      0.61734        49.567        0.7618       -38.084        0.7618       -38.084       0.61734        49.567
  3.4415e+009      0.62147        49.271       0.75844       -38.386       0.75844       -38.386       0.62147        49.271
  3.4713e+009      0.62558        48.976       0.75506       -38.686       0.75506       -38.686       0.62558        48.976
   3.501e+009      0.62966        48.682       0.75167       -38.986       0.75167       -38.986       0.62966        48.682
  3.5308e+009      0.63371        48.387       0.74827       -39.286       0.74827       -39.286       0.63371        48.387
  3.5605e+009      0.63774        48.094       0.74485       -39.584       0.74485       -39.584       0.63774        48.094
  3.5903e+009      0.64174        47.801       0.74142       -39.882       0.74142       -39.882       0.64174        47.801
    3.62e+009      0.64571        47.508       0.73798        -40.18       0.73798        -40.18       0.64571        47.508
  3.6498e+009      0.64966        47.217       0.73452       -40.476       0.73452       -40.476       0.64966        47.217
  3.6795e+009      0.65358        46.925       0.73105       -40.772       0.73105       -40.772       0.65358        46.925
  3.7093e+009      0.65747        46.634       0.72757       -41.067       0.72757       -41.067       0.65747        46.634
   3.739e+009      0.66134        46.344       0.72408       -41.362       0.72408       -41.362       0.66134        46.344
  3.7688e+009      0.66518        46.054       0.72057       -41.656       0.72057       -41.656       0.66518        46.054
  3.7985e+009        0.669        45.765       0.71705       -41.949       0.71705       -41.949         0.669        45.765
  3.8283e+009      0.67279        45.476       0.71352       -42.241       0.71352       -42.241       0.67279        45.476
   3.858e+009      0.67655        45.188       0.70998       -42.533       0.70998       -42.533       0.67655        45.188
  3.8878e+009      0.68028          44.9       0.70643       -42.824       0.70643       -42.824       0.68028          44.9
  3.9175e+009      0.68399        44.613       0.70287       -43.114       0.70287       -43.114       0.68399        44.613
  3.9473e+009      0.68767        44.327        0.6993       -43.404        0.6993       -43.404       0.68767        44.327
   3.977e+009      0.69133        44.041       0.69571       -43.692       0.69571       -43.692       0.69133        44.041
  4.0068e+009      0.69496        43.755       0.69212        -43.98       0.69212        -43.98       0.69496        43.755
  4.0365e+009      0.69856        43.471       0.68852       -44.268       0.68852       -44.268       0.69856        43.471
  4.0663e+009      0.70213        43.186       0.68491       -44.554       0.68491       -44.554       0.70213        43.186
   4.096e+009      0.70568        42.903       0.68129        -44.84       0.68129        -44.84       0.70568        42.903
  4.1258e+009       0.7092         42.62       0.67765       -45.126       0.67765       -45.126        0.7092         42.62
  4.1555e+009       0.7127        42.337       0.67402        -45.41       0.67402        -45.41        0.7127        42.337
  4.1853e+009      0.71617        42.055       0.67037       -45.694       0.67037       -45.694       0.71617        42.055
   4.215e+009      0.71961        41.774       0.66671       -45.977       0.66671       -45.977       0.71961        41.774
  4.2448e+009      0.72303        41.494       0.66305       -46.259       0.66305       -46.259       0.72303        41.494
  4.2745e+009      0.72642        41.213       0.65937       -46.541       0.65937       -46.541       0.72642        41.213
  4.3043e+009      0.72979        40.934       0.65569       -46.822       0.65569       -46.822       0.72979        40.934
   4.334e+009      0.73312        40.655         0.652       -47.102         0.652       -47.102       0.73312        40.655
  4.3638e+009      0.73644        40.377       0.64831       -47.381       0.64831       -47.381       0.73644        40.377
  4.3935e+009      0.73972        40.099       0.64461        -47.66       0.64461        -47.66       0.73972        40.099
  4.4233e+009      0.74298        39.822        0.6409       -47.937        0.6409       -47.937       0.74298        39.822
   4.453e+009      0.74621        39.546       0.63718       -48.214       0.63718       -48.214       0.74621        39.546
  4.4828e+009      0.74942         39.27       0.63346       -48.491       0.63346       -48.491       0.74942         39.27
  4.5125e+009       0.7526        38.995       0.62973       -48.766       0.62973       -48.766        0.7526        38.995
  4.5423e+009      0.75576         38.72       0.62599       -49.041       0.62599       -49.041       0.75576         38.72
   4.572e+009      0.75889        38.446       0.62225       -49.315       0.62225       -49.315       0.75889        38.446
  4.6018e+009      0.76199        38.173       0.61851       -49.589       0.61851       -49.589       0.76199        38.173
  4.6315e+009      0.76507          37.9       0.61475       -49.861       0.61475       -49.861       0.76507          37.9
  4.6613e+009      0.76812        37.628         0.611       -50.133         0.611       -50.133       0.76812        37.628
   4.691e+009      0.77115        37.356       0.60723       -50.404       0.60723       -50.404       0.77115        37.356
  4.7208e+009      0.77415        37.085       0.60347       -50.674       0.60347       -50.674       0.77415        37.085
  4.7505e+009      0.77712        36.815       0.59969       -50.944       0.59969       -50.944       0.77712        36.815
