! L-03C2N2
! Data taken by Rita
! Created Thu Jun 15 17:22:34 2006
# hz S ma R 50
! 2 Port Network Data from SP1.SP block
       5e+007    0.0075136         66.11       0.99698      -0.39481       0.99698      -0.39481     0.0075136         66.11
   8.975e+007     0.012842        73.581       0.99645      -0.70835       0.99645      -0.70835      0.012842        73.581
   1.295e+008     0.018264        76.452       0.99588       -1.0216       0.99588       -1.0216      0.018264        76.452
  1.6925e+008     0.023706        77.912       0.99531       -1.3345       0.99531       -1.3345      0.023706        77.912
    2.09e+008     0.029153        78.766       0.99473       -1.6472       0.99473       -1.6472      0.029153        78.766
  2.4875e+008     0.034599        79.301       0.99416       -1.9598       0.99416       -1.9598      0.034599        79.301
   2.885e+008     0.040043        79.646       0.99358       -2.2721       0.99358       -2.2721      0.040043        79.646
  3.2825e+008     0.045483        79.866       0.99301       -2.5842       0.99301       -2.5842      0.045483        79.866
    3.68e+008     0.050919        79.998       0.99242       -2.8963       0.99242       -2.8963      0.050919        79.998
  4.0775e+008     0.056352        80.065       0.99183       -3.2082       0.99183       -3.2082      0.056352        80.065
   4.475e+008      0.06178        80.082       0.99123       -3.5199       0.99123       -3.5199       0.06178        80.082
  4.8725e+008     0.067206        80.059       0.99061       -3.8316       0.99061       -3.8316      0.067206        80.059
    5.27e+008     0.072627        80.004       0.98998       -4.1432       0.98998       -4.1432      0.072627        80.004
  5.6675e+008     0.078045        79.923       0.98933       -4.4546       0.98933       -4.4546      0.078045        79.923
   6.065e+008     0.083459         79.82       0.98867        -4.766       0.98867        -4.766      0.083459         79.82
  6.4625e+008     0.088869        79.697       0.98798       -5.0773       0.98798       -5.0773      0.088869        79.697
    6.86e+008     0.094276        79.558       0.98728       -5.3885       0.98728       -5.3885      0.094276        79.558
  7.2575e+008     0.099678        79.405       0.98655       -5.6997       0.98655       -5.6997      0.099678        79.405
   7.655e+008      0.10508         79.24        0.9858       -6.0108        0.9858       -6.0108       0.10508         79.24
  8.0525e+008      0.11047        79.064       0.98503       -6.3218       0.98503       -6.3218       0.11047        79.064
    8.45e+008      0.11586        78.878       0.98424       -6.6328       0.98424       -6.6328       0.11586        78.878
  8.8475e+008      0.12125        78.683       0.98342       -6.9437       0.98342       -6.9437       0.12125        78.683
   9.245e+008      0.12663        78.481       0.98258       -7.2545       0.98258       -7.2545       0.12663        78.481
  9.6425e+008        0.132        78.272       0.98171       -7.5653       0.98171       -7.5653         0.132        78.272
   1.004e+009      0.13738        78.057       0.98082        -7.876       0.98082        -7.876       0.13738        78.057
  1.0438e+009      0.14274        77.835       0.97991       -8.1867       0.97991       -8.1867       0.14274        77.835
  1.0835e+009      0.14811        77.609       0.97897       -8.4973       0.97897       -8.4973       0.14811        77.609
  1.1233e+009      0.15346        77.378         0.978       -8.8079         0.978       -8.8079       0.15346        77.378
   1.163e+009      0.15881        77.143       0.97701       -9.1184       0.97701       -9.1184       0.15881        77.143
  1.2028e+009      0.16416        76.903       0.97599       -9.4289       0.97599       -9.4289       0.16416        76.903
  1.2425e+009       0.1695         76.66       0.97494       -9.7394       0.97494       -9.7394        0.1695         76.66
  1.2823e+009      0.17484        76.414       0.97387        -10.05       0.97387        -10.05       0.17484        76.414
   1.322e+009      0.18017        76.165       0.97278        -10.36       0.97278        -10.36       0.18017        76.165
  1.3618e+009      0.18549        75.912       0.97165        -10.67       0.97165        -10.67       0.18549        75.912
  1.4015e+009      0.19081        75.657        0.9705       -10.981        0.9705       -10.981       0.19081        75.657
  1.4413e+009      0.19612          75.4       0.96932       -11.291       0.96932       -11.291       0.19612          75.4
   1.481e+009      0.20142         75.14       0.96812       -11.601       0.96812       -11.601       0.20142         75.14
  1.5208e+009      0.20672        74.878       0.96689       -11.911       0.96689       -11.911       0.20672        74.878
  1.5605e+009      0.21201        74.614       0.96563       -12.222       0.96563       -12.222       0.21201        74.614
  1.6003e+009       0.2173        74.348       0.96435       -12.532       0.96435       -12.532        0.2173        74.348
    1.64e+009      0.22258         74.08       0.96304       -12.842       0.96304       -12.842       0.22258         74.08
  1.6798e+009      0.22785        73.811        0.9617       -13.152        0.9617       -13.152       0.22785        73.811
  1.7195e+009      0.23311         73.54       0.96033       -13.462       0.96033       -13.462       0.23311         73.54
  1.7593e+009      0.23837        73.267       0.95894       -13.772       0.95894       -13.772       0.23837        73.267
   1.799e+009      0.24362        72.993       0.95752       -14.082       0.95752       -14.082       0.24362        72.993
  1.8388e+009      0.24886        72.718       0.95607       -14.391       0.95607       -14.391       0.24886        72.718
  1.8785e+009       0.2541        72.441        0.9546       -14.701        0.9546       -14.701        0.2541        72.441
  1.9183e+009      0.25932        72.164       0.95309       -15.011       0.95309       -15.011       0.25932        72.164
   1.958e+009      0.26454        71.885       0.95157       -15.321       0.95157       -15.321       0.26454        71.885
  1.9978e+009      0.26975        71.605       0.95001       -15.631       0.95001       -15.631       0.26975        71.605
  2.0375e+009      0.27495        71.324       0.94843        -15.94       0.94843        -15.94       0.27495        71.324
  2.0773e+009      0.28014        71.043       0.94682        -16.25       0.94682        -16.25       0.28014        71.043
   2.117e+009      0.28533         70.76       0.94518        -16.56       0.94518        -16.56       0.28533         70.76
  2.1568e+009       0.2905        70.476       0.94352       -16.869       0.94352       -16.869        0.2905        70.476
  2.1965e+009      0.29567        70.192       0.94182       -17.179       0.94182       -17.179       0.29567        70.192
  2.2363e+009      0.30083        69.907       0.94011       -17.489       0.94011       -17.489       0.30083        69.907
   2.276e+009      0.30598        69.621       0.93836       -17.798       0.93836       -17.798       0.30598        69.621
  2.3158e+009      0.31111        69.334       0.93659       -18.108       0.93659       -18.108       0.31111        69.334
  2.3555e+009      0.31624        69.047       0.93479       -18.417       0.93479       -18.417       0.31624        69.047
  2.3953e+009      0.32136        68.759       0.93296       -18.727       0.93296       -18.727       0.32136        68.759
   2.435e+009      0.32647         68.47       0.93111       -19.036       0.93111       -19.036       0.32647         68.47
  2.4748e+009      0.33157        68.181       0.92923       -19.345       0.92923       -19.345       0.33157        68.181
  2.5145e+009      0.33666        67.891       0.92732       -19.655       0.92732       -19.655       0.33666        67.891
  2.5543e+009      0.34174        67.601       0.92539       -19.964       0.92539       -19.964       0.34174        67.601
   2.594e+009      0.34681         67.31       0.92343       -20.273       0.92343       -20.273       0.34681         67.31
  2.6338e+009      0.35186        67.019       0.92144       -20.582       0.92144       -20.582       0.35186        67.019
  2.6735e+009      0.35691        66.727       0.91943       -20.892       0.91943       -20.892       0.35691        66.727
  2.7133e+009      0.36195        66.435       0.91739       -21.201       0.91739       -21.201       0.36195        66.435
   2.753e+009      0.36697        66.142       0.91532        -21.51       0.91532        -21.51       0.36697        66.142
  2.7928e+009      0.37198        65.849       0.91323       -21.819       0.91323       -21.819       0.37198        65.849
  2.8325e+009      0.37698        65.555       0.91111       -22.128       0.91111       -22.128       0.37698        65.555
  2.8723e+009      0.38197        65.261       0.90896       -22.437       0.90896       -22.437       0.38197        65.261
   2.912e+009      0.38695        64.967       0.90679       -22.746       0.90679       -22.746       0.38695        64.967
  2.9518e+009      0.39192        64.672       0.90459       -23.055       0.90459       -23.055       0.39192        64.672
  2.9915e+009      0.39687        64.377       0.90236       -23.364       0.90236       -23.364       0.39687        64.377
  3.0313e+009      0.40181        64.082       0.90011       -23.672       0.90011       -23.672       0.40181        64.082
   3.071e+009      0.40674        63.786       0.89784       -23.981       0.89784       -23.981       0.40674        63.786
  3.1108e+009      0.41166         63.49       0.89553        -24.29       0.89553        -24.29       0.41166         63.49
  3.1505e+009      0.41656        63.194        0.8932       -24.598        0.8932       -24.598       0.41656        63.194
  3.1903e+009      0.42146        62.898       0.89085       -24.907       0.89085       -24.907       0.42146        62.898
    3.23e+009      0.42633        62.601       0.88847       -25.216       0.88847       -25.216       0.42633        62.601
  3.2698e+009       0.4312        62.304       0.88606       -25.524       0.88606       -25.524        0.4312        62.304
  3.3095e+009      0.43605        62.006       0.88363       -25.832       0.88363       -25.832       0.43605        62.006
  3.3493e+009      0.44089        61.709       0.88117       -26.141       0.88117       -26.141       0.44089        61.709
   3.389e+009      0.44571        61.411       0.87869       -26.449       0.87869       -26.449       0.44571        61.411
  3.4288e+009      0.45052        61.113       0.87618       -26.757       0.87618       -26.757       0.45052        61.113
  3.4685e+009      0.45532        60.815       0.87365       -27.065       0.87365       -27.065       0.45532        60.815
  3.5083e+009       0.4601        60.516       0.87109       -27.373       0.87109       -27.373        0.4601        60.516
   3.548e+009      0.46487        60.218        0.8685       -27.681        0.8685       -27.681       0.46487        60.218
  3.5878e+009      0.46962        59.919       0.86589       -27.989       0.86589       -27.989       0.46962        59.919
  3.6275e+009      0.47436         59.62       0.86326       -28.297       0.86326       -28.297       0.47436         59.62
  3.6673e+009      0.47908        59.321        0.8606       -28.605        0.8606       -28.605       0.47908        59.321
   3.707e+009      0.48379        59.021       0.85792       -28.913       0.85792       -28.913       0.48379        59.021
  3.7468e+009      0.48848        58.722       0.85521        -29.22       0.85521        -29.22       0.48848        58.722
  3.7865e+009      0.49316        58.422       0.85248       -29.528       0.85248       -29.528       0.49316        58.422
  3.8263e+009      0.49782        58.123       0.84972       -29.835       0.84972       -29.835       0.49782        58.123
   3.866e+009      0.50247        57.823       0.84694       -30.143       0.84694       -30.143       0.50247        57.823
  3.9058e+009       0.5071        57.523       0.84413        -30.45       0.84413        -30.45        0.5071        57.523
  3.9455e+009      0.51172        57.223        0.8413       -30.757        0.8413       -30.757       0.51172        57.223
  3.9853e+009      0.51631        56.923       0.83845       -31.064       0.83845       -31.064       0.51631        56.923
   4.025e+009       0.5209        56.622       0.83557       -31.371       0.83557       -31.371        0.5209        56.622
  4.0648e+009      0.52546        56.322       0.83267       -31.678       0.83267       -31.678       0.52546        56.322
  4.1045e+009      0.53001        56.021       0.82975       -31.985       0.82975       -31.985       0.53001        56.021
  4.1443e+009      0.53454        55.721        0.8268       -32.291        0.8268       -32.291       0.53454        55.721
   4.184e+009      0.53906         55.42       0.82383       -32.598       0.82383       -32.598       0.53906         55.42
  4.2238e+009      0.54356         55.12       0.82084       -32.904       0.82084       -32.904       0.54356         55.12
  4.2635e+009      0.54804        54.819       0.81782        -33.21       0.81782        -33.21       0.54804        54.819
  4.3033e+009       0.5525        54.518       0.81478       -33.517       0.81478       -33.517        0.5525        54.518
   4.343e+009      0.55695        54.217       0.81171       -33.823       0.81171       -33.823       0.55695        54.217
  4.3828e+009      0.56138        53.916       0.80863       -34.129       0.80863       -34.129       0.56138        53.916
  4.4225e+009      0.56579        53.615       0.80552       -34.434       0.80552       -34.434       0.56579        53.615
  4.4623e+009      0.57018        53.314       0.80239        -34.74       0.80239        -34.74       0.57018        53.314
   4.502e+009      0.57455        53.013       0.79924       -35.045       0.79924       -35.045       0.57455        53.013
  4.5418e+009      0.57891        52.712       0.79606       -35.351       0.79606       -35.351       0.57891        52.712
  4.5815e+009      0.58325        52.411       0.79286       -35.656       0.79286       -35.656       0.58325        52.411
  4.6213e+009      0.58757         52.11       0.78964       -35.961       0.78964       -35.961       0.58757         52.11
   4.661e+009      0.59187        51.809        0.7864       -36.266        0.7864       -36.266       0.59187        51.809
  4.7008e+009      0.59615        51.508       0.78314       -36.571       0.78314       -36.571       0.59615        51.508
  4.7405e+009      0.60041        51.207       0.77986       -36.875       0.77986       -36.875       0.60041        51.207
  4.7803e+009      0.60465        50.907       0.77655        -37.18       0.77655        -37.18       0.60465        50.907
    4.82e+009      0.60887        50.606       0.77323       -37.484       0.77323       -37.484       0.60887        50.606
  4.8598e+009      0.61308        50.305       0.76988       -37.788       0.76988       -37.788       0.61308        50.305
  4.8995e+009      0.61726        50.004       0.76651       -38.092       0.76651       -38.092       0.61726        50.004
  4.9393e+009      0.62143        49.703       0.76312       -38.395       0.76312       -38.395       0.62143        49.703
   4.979e+009      0.62557        49.402       0.75971       -38.699       0.75971       -38.699       0.62557        49.402
  5.0188e+009      0.62969        49.101       0.75628       -39.002       0.75628       -39.002       0.62969        49.101
  5.0585e+009       0.6338        48.801       0.75283       -39.305       0.75283       -39.305        0.6338        48.801
  5.0983e+009      0.63788          48.5       0.74937       -39.608       0.74937       -39.608       0.63788          48.5
   5.138e+009      0.64194          48.2       0.74588       -39.911       0.74588       -39.911       0.64194          48.2
  5.1778e+009      0.64598        47.899       0.74237       -40.213       0.74237       -40.213       0.64598        47.899
  5.2175e+009      0.65001        47.599       0.73884       -40.516       0.73884       -40.516       0.65001        47.599
  5.2573e+009      0.65401        47.298       0.73529       -40.818       0.73529       -40.818       0.65401        47.298
   5.297e+009      0.65799        46.998       0.73173       -41.119       0.73173       -41.119       0.65799        46.998
  5.3368e+009      0.66194        46.698       0.72814       -41.421       0.72814       -41.421       0.66194        46.698
  5.3765e+009      0.66588        46.398       0.72454       -41.722       0.72454       -41.722       0.66588        46.398
  5.4163e+009      0.66979        46.098       0.72091       -42.023       0.72091       -42.023       0.66979        46.098
   5.456e+009      0.67369        45.798       0.71727       -42.324       0.71727       -42.324       0.67369        45.798
  5.4958e+009      0.67756        45.499       0.71362       -42.625       0.71362       -42.625       0.67756        45.499
  5.5355e+009      0.68141        45.199       0.70994       -42.925       0.70994       -42.925       0.68141        45.199
  5.5753e+009      0.68524          44.9       0.70624       -43.225       0.70624       -43.225       0.68524          44.9
   5.615e+009      0.68904          44.6       0.70253       -43.525       0.70253       -43.525       0.68904          44.6
  5.6548e+009      0.69283        44.301        0.6988       -43.825        0.6988       -43.825       0.69283        44.301
  5.6945e+009      0.69659        44.002       0.69506       -44.124       0.69506       -44.124       0.69659        44.002
  5.7343e+009      0.70033        43.703       0.69129       -44.423       0.69129       -44.423       0.70033        43.703
   5.774e+009      0.70404        43.404       0.68751       -44.722       0.68751       -44.722       0.70404        43.404
  5.8138e+009      0.70774        43.106       0.68371        -45.02       0.68371        -45.02       0.70774        43.106
  5.8535e+009      0.71141        42.808        0.6799       -45.318        0.6799       -45.318       0.71141        42.808
  5.8933e+009      0.71505        42.509       0.67607       -45.616       0.67607       -45.616       0.71505        42.509
   5.933e+009      0.71868        42.211       0.67223       -45.914       0.67223       -45.914       0.71868        42.211
  5.9728e+009      0.72228        41.913       0.66837       -46.211       0.66837       -46.211       0.72228        41.913
  6.0125e+009      0.72586        41.616       0.66449       -46.508       0.66449       -46.508       0.72586        41.616
  6.0523e+009      0.72941        41.318        0.6606       -46.804        0.6606       -46.804       0.72941        41.318
   6.092e+009      0.73294        41.021       0.65669       -47.101       0.65669       -47.101       0.73294        41.021
  6.1318e+009      0.73645        40.724       0.65277       -47.397       0.65277       -47.397       0.73645        40.724
  6.1715e+009      0.73994        40.427       0.64883       -47.692       0.64883       -47.692       0.73994        40.427
  6.2113e+009       0.7434         40.13       0.64488       -47.987       0.64488       -47.987        0.7434         40.13
   6.251e+009      0.74683        39.834       0.64091       -48.282       0.64091       -48.282       0.74683        39.834
  6.2908e+009      0.75025        39.538       0.63693       -48.577       0.63693       -48.577       0.75025        39.538
  6.3305e+009      0.75364        39.242       0.63294       -48.871       0.63294       -48.871       0.75364        39.242
