! L-03C1N2
! Data taken by Rita
! Created Thu Jun 15 16:26:57 2006
# hz S ma R 50
! 2 Port Network Data from SP1.SP block
       5e+007    0.0040017        64.118       0.99826      -0.20664       0.99826      -0.20664     0.0040017        64.118
  1.0975e+008     0.008184        74.779       0.99788      -0.45342       0.99788      -0.45342      0.008184        74.779
   1.695e+008     0.012459        77.996       0.99748      -0.70004       0.99748      -0.70004      0.012459        77.996
  2.2925e+008     0.016751        79.512       0.99709      -0.94653       0.99709      -0.94653      0.016751        79.512
    2.89e+008     0.021046        80.383        0.9967       -1.1929        0.9967       -1.1929      0.021046        80.383
  3.4875e+008     0.025341        80.934       0.99632       -1.4392       0.99632       -1.4392      0.025341        80.934
   4.085e+008     0.029635          81.3       0.99595       -1.6855       0.99595       -1.6855      0.029635          81.3
  4.6825e+008     0.033928        81.546       0.99558       -1.9317       0.99558       -1.9317      0.033928        81.546
    5.28e+008      0.03822        81.708       0.99521       -2.1779       0.99521       -2.1779       0.03822        81.708
  5.8775e+008     0.042512        81.808       0.99483       -2.4241       0.99483       -2.4241      0.042512        81.808
   6.475e+008     0.046803        81.861       0.99445       -2.6704       0.99445       -2.6704      0.046803        81.861
  7.0725e+008     0.051094        81.876       0.99407       -2.9166       0.99407       -2.9166      0.051094        81.876
    7.67e+008     0.055384        81.861       0.99367       -3.1629       0.99367       -3.1629      0.055384        81.861
  8.2675e+008     0.059674        81.821       0.99327       -3.4093       0.99327       -3.4093      0.059674        81.821
   8.865e+008     0.063965         81.76       0.99285       -3.6557       0.99285       -3.6557      0.063965         81.76
  9.4625e+008     0.068255        81.681       0.99243       -3.9021       0.99243       -3.9021      0.068255        81.681
   1.006e+009     0.072546        81.587       0.99198       -4.1487       0.99198       -4.1487      0.072546        81.587
  1.0658e+009     0.076837        81.479       0.99153       -4.3953       0.99153       -4.3953      0.076837        81.479
  1.1255e+009     0.081129         81.36       0.99106       -4.6421       0.99106       -4.6421      0.081129         81.36
  1.1853e+009      0.08542        81.231       0.99058       -4.8889       0.99058       -4.8889       0.08542        81.231
   1.245e+009     0.089713        81.092       0.99008       -5.1359       0.99008       -5.1359      0.089713        81.092
  1.3048e+009     0.094006        80.946       0.98957        -5.383       0.98957        -5.383      0.094006        80.946
  1.3645e+009     0.098299        80.793       0.98904       -5.6302       0.98904       -5.6302      0.098299        80.793
  1.4243e+009      0.10259        80.633        0.9885       -5.8776        0.9885       -5.8776       0.10259        80.633
   1.484e+009      0.10689        80.467       0.98794       -6.1251       0.98794       -6.1251       0.10689        80.467
  1.5438e+009      0.11118        80.296       0.98736       -6.3728       0.98736       -6.3728       0.11118        80.296
  1.6035e+009      0.11548         80.12       0.98677       -6.6206       0.98677       -6.6206       0.11548         80.12
  1.6633e+009      0.11978         79.94       0.98616       -6.8687       0.98616       -6.8687       0.11978         79.94
   1.723e+009      0.12408        79.756       0.98553       -7.1169       0.98553       -7.1169       0.12408        79.756
  1.7828e+009      0.12838        79.568       0.98488       -7.3653       0.98488       -7.3653       0.12838        79.568
  1.8425e+009      0.13268        79.377       0.98422       -7.6139       0.98422       -7.6139       0.13268        79.377
  1.9023e+009      0.13698        79.182       0.98354       -7.8627       0.98354       -7.8627       0.13698        79.182
   1.962e+009      0.14128        78.985       0.98284       -8.1117       0.98284       -8.1117       0.14128        78.985
  2.0218e+009      0.14559        78.784       0.98212        -8.361       0.98212        -8.361       0.14559        78.784
  2.0815e+009       0.1499        78.581       0.98139       -8.6104       0.98139       -8.6104        0.1499        78.581
  2.1413e+009       0.1542        78.376       0.98063       -8.8602       0.98063       -8.8602        0.1542        78.376
   2.201e+009      0.15851        78.168       0.97986       -9.1101       0.97986       -9.1101       0.15851        78.168
  2.2608e+009      0.16282        77.958       0.97907       -9.3604       0.97907       -9.3604       0.16282        77.958
  2.3205e+009      0.16713        77.746       0.97826       -9.6108       0.97826       -9.6108       0.16713        77.746
  2.3803e+009      0.17145        77.533       0.97743       -9.8616       0.97743       -9.8616       0.17145        77.533
    2.44e+009      0.17576        77.317       0.97658       -10.113       0.97658       -10.113       0.17576        77.317
  2.4998e+009      0.18008        77.099       0.97572       -10.364       0.97572       -10.364       0.18008        77.099
  2.5595e+009       0.1844         76.88       0.97483       -10.616       0.97483       -10.616        0.1844         76.88
  2.6193e+009      0.18871         76.66       0.97392       -10.868       0.97392       -10.868       0.18871         76.66
   2.679e+009      0.19304        76.437         0.973        -11.12         0.973        -11.12       0.19304        76.437
  2.7388e+009      0.19736        76.214       0.97205       -11.372       0.97205       -11.372       0.19736        76.214
  2.7985e+009      0.20168        75.989       0.97109       -11.625       0.97109       -11.625       0.20168        75.989
  2.8583e+009      0.20601        75.762       0.97011       -11.878       0.97011       -11.878       0.20601        75.762
   2.918e+009      0.21034        75.534        0.9691       -12.132        0.9691       -12.132       0.21034        75.534
  2.9778e+009      0.21467        75.305       0.96808       -12.386       0.96808       -12.386       0.21467        75.305
  3.0375e+009        0.219        75.075       0.96703        -12.64       0.96703        -12.64         0.219        75.075
  3.0973e+009      0.22333        74.843       0.96597       -12.895       0.96597       -12.895       0.22333        74.843
   3.157e+009      0.22767        74.611       0.96488        -13.15       0.96488        -13.15       0.22767        74.611
  3.2168e+009      0.23201        74.377       0.96378       -13.405       0.96378       -13.405       0.23201        74.377
  3.2765e+009      0.23635        74.142       0.96265       -13.661       0.96265       -13.661       0.23635        74.142
  3.3363e+009      0.24069        73.906        0.9615       -13.917        0.9615       -13.917       0.24069        73.906
   3.396e+009      0.24503        73.669       0.96033       -14.173       0.96033       -14.173       0.24503        73.669
  3.4558e+009      0.24938        73.431       0.95914        -14.43       0.95914        -14.43       0.24938        73.431
  3.5155e+009      0.25372        73.191       0.95793       -14.688       0.95793       -14.688       0.25372        73.191
  3.5753e+009      0.25807        72.951        0.9567       -14.946        0.9567       -14.946       0.25807        72.951
   3.635e+009      0.26243         72.71       0.95545       -15.204       0.95545       -15.204       0.26243         72.71
  3.6948e+009      0.26678        72.468       0.95417       -15.462       0.95417       -15.462       0.26678        72.468
  3.7545e+009      0.27113        72.225       0.95287       -15.721       0.95287       -15.721       0.27113        72.225
  3.8143e+009      0.27549        71.981       0.95156       -15.981       0.95156       -15.981       0.27549        71.981
   3.874e+009      0.27985        71.736       0.95022       -16.241       0.95022       -16.241       0.27985        71.736
  3.9338e+009      0.28421         71.49       0.94885       -16.501       0.94885       -16.501       0.28421         71.49
  3.9935e+009      0.28857        71.244       0.94747       -16.762       0.94747       -16.762       0.28857        71.244
  4.0533e+009      0.29294        70.996       0.94606       -17.024       0.94606       -17.024       0.29294        70.996
   4.113e+009      0.29731        70.747       0.94463       -17.285       0.94463       -17.285       0.29731        70.747
  4.1728e+009      0.30168        70.498       0.94318       -17.548       0.94318       -17.548       0.30168        70.498
  4.2325e+009      0.30605        70.248        0.9417       -17.811        0.9417       -17.811       0.30605        70.248
  4.2923e+009      0.31042        69.997       0.94021       -18.074       0.94021       -18.074       0.31042        69.997
   4.352e+009      0.31479        69.745       0.93868       -18.338       0.93868       -18.338       0.31479        69.745
  4.4118e+009      0.31917        69.492       0.93714       -18.602       0.93714       -18.602       0.31917        69.492
  4.4715e+009      0.32355        69.238       0.93557       -18.867       0.93557       -18.867       0.32355        69.238
  4.5313e+009      0.32793        68.984       0.93398       -19.132       0.93398       -19.132       0.32793        68.984
   4.591e+009      0.33231        68.728       0.93237       -19.398       0.93237       -19.398       0.33231        68.728
  4.6508e+009      0.33669        68.472       0.93073       -19.665       0.93073       -19.665       0.33669        68.472
  4.7105e+009      0.34108        68.215       0.92907       -19.932       0.92907       -19.932       0.34108        68.215
  4.7703e+009      0.34546        67.957       0.92738       -20.199       0.92738       -20.199       0.34546        67.957
    4.83e+009      0.34985        67.698       0.92567       -20.467       0.92567       -20.467       0.34985        67.698
  4.8898e+009      0.35424        67.439       0.92394       -20.736       0.92394       -20.736       0.35424        67.439
  4.9495e+009      0.35863        67.178       0.92218       -21.005       0.92218       -21.005       0.35863        67.178
  5.0093e+009      0.36302        66.917        0.9204       -21.275        0.9204       -21.275       0.36302        66.917
   5.069e+009      0.36742        66.655       0.91859       -21.545       0.91859       -21.545       0.36742        66.655
  5.1288e+009      0.37181        66.392       0.91676       -21.816       0.91676       -21.816       0.37181        66.392
  5.1885e+009      0.37621        66.129        0.9149       -22.088        0.9149       -22.088       0.37621        66.129
  5.2483e+009       0.3806        65.864       0.91302        -22.36       0.91302        -22.36        0.3806        65.864
   5.308e+009        0.385        65.599       0.91111       -22.632       0.91111       -22.632         0.385        65.599
  5.3678e+009       0.3894        65.333       0.90918       -22.906       0.90918       -22.906        0.3894        65.333
  5.4275e+009       0.3938        65.066       0.90722        -23.18       0.90722        -23.18        0.3938        65.066
  5.4873e+009       0.3982        64.798       0.90523       -23.454       0.90523       -23.454        0.3982        64.798
   5.547e+009       0.4026         64.53       0.90322       -23.729       0.90322       -23.729        0.4026         64.53
  5.6068e+009        0.407         64.26       0.90119       -24.005       0.90119       -24.005         0.407         64.26
  5.6665e+009      0.41141         63.99       0.89913       -24.282       0.89913       -24.282       0.41141         63.99
  5.7263e+009      0.41581        63.719       0.89704       -24.559       0.89704       -24.559       0.41581        63.719
   5.786e+009      0.42021        63.447       0.89492       -24.836       0.89492       -24.836       0.42021        63.447
  5.8458e+009      0.42462        63.174       0.89278       -25.114       0.89278       -25.114       0.42462        63.174
  5.9055e+009      0.42902        62.901       0.89061       -25.393       0.89061       -25.393       0.42902        62.901
  5.9653e+009      0.43343        62.627       0.88842       -25.673       0.88842       -25.673       0.43343        62.627
   6.025e+009      0.43783        62.351        0.8862       -25.953        0.8862       -25.953       0.43783        62.351
  6.0848e+009      0.44223        62.075       0.88395       -26.234       0.88395       -26.234       0.44223        62.075
  6.1445e+009      0.44664        61.799       0.88167       -26.516       0.88167       -26.516       0.44664        61.799
  6.2043e+009      0.45104        61.521       0.87937       -26.798       0.87937       -26.798       0.45104        61.521
   6.264e+009      0.45544        61.242       0.87704       -27.081       0.87704       -27.081       0.45544        61.242
  6.3238e+009      0.45984        60.963       0.87468       -27.364       0.87468       -27.364       0.45984        60.963
  6.3835e+009      0.46424        60.683       0.87229       -27.648       0.87229       -27.648       0.46424        60.683
  6.4433e+009      0.46864        60.402       0.86988       -27.933       0.86988       -27.933       0.46864        60.402
   6.503e+009      0.47304         60.12       0.86744       -28.219       0.86744       -28.219       0.47304         60.12
  6.5628e+009      0.47744        59.838       0.86497       -28.505       0.86497       -28.505       0.47744        59.838
  6.6225e+009      0.48183        59.554       0.86247       -28.792       0.86247       -28.792       0.48183        59.554
  6.6823e+009      0.48623         59.27       0.85994        -29.08       0.85994        -29.08       0.48623         59.27
   6.742e+009      0.49062        58.985       0.85739       -29.368       0.85739       -29.368       0.49062        58.985
  6.8018e+009      0.49501        58.699        0.8548       -29.657        0.8548       -29.657       0.49501        58.699
  6.8615e+009       0.4994        58.412       0.85219       -29.947       0.85219       -29.947        0.4994        58.412
  6.9213e+009      0.50378        58.125       0.84955       -30.237       0.84955       -30.237       0.50378        58.125
   6.981e+009      0.50817        57.836       0.84687       -30.528       0.84687       -30.528       0.50817        57.836
  7.0408e+009      0.51255        57.547       0.84417        -30.82       0.84417        -30.82       0.51255        57.547
  7.1005e+009      0.51693        57.257       0.84144       -31.112       0.84144       -31.112       0.51693        57.257
  7.1603e+009       0.5213        56.966       0.83868       -31.406       0.83868       -31.406        0.5213        56.966
    7.22e+009      0.52567        56.674        0.8359       -31.699        0.8359       -31.699       0.52567        56.674
  7.2798e+009      0.53004        56.381       0.83308       -31.994       0.83308       -31.994       0.53004        56.381
  7.3395e+009      0.53441        56.088       0.83023       -32.289       0.83023       -32.289       0.53441        56.088
  7.3993e+009      0.53877        55.794       0.82735       -32.585       0.82735       -32.585       0.53877        55.794
   7.459e+009      0.54313        55.499       0.82444       -32.882       0.82444       -32.882       0.54313        55.499
  7.5188e+009      0.54748        55.203        0.8215       -33.179        0.8215       -33.179       0.54748        55.203
  7.5785e+009      0.55183        54.906       0.81853       -33.477       0.81853       -33.477       0.55183        54.906
  7.6383e+009      0.55617        54.608       0.81554       -33.776       0.81554       -33.776       0.55617        54.608
   7.698e+009      0.56051         54.31       0.81251       -34.076       0.81251       -34.076       0.56051         54.31
  7.7578e+009      0.56484        54.011       0.80945       -34.376       0.80945       -34.376       0.56484        54.011
  7.8175e+009      0.56917         53.71       0.80636       -34.677       0.80636       -34.677       0.56917         53.71
  7.8773e+009      0.57349        53.409       0.80323       -34.978       0.80323       -34.978       0.57349        53.409
   7.937e+009      0.57781        53.108       0.80008       -35.281       0.80008       -35.281       0.57781        53.108
  7.9968e+009      0.58212        52.805        0.7969       -35.584        0.7969       -35.584       0.58212        52.805
  8.0565e+009      0.58643        52.502       0.79369       -35.887       0.79369       -35.887       0.58643        52.502
  8.1163e+009      0.59072        52.198       0.79044       -36.192       0.79044       -36.192       0.59072        52.198
   8.176e+009      0.59501        51.892       0.78717       -36.497       0.78717       -36.497       0.59501        51.892
  8.2358e+009       0.5993        51.587       0.78386       -36.803       0.78386       -36.803        0.5993        51.587
  8.2955e+009      0.60357         51.28       0.78052       -37.109       0.78052       -37.109       0.60357         51.28
  8.3553e+009      0.60784        50.972       0.77715       -37.416       0.77715       -37.416       0.60784        50.972
   8.415e+009       0.6121        50.664       0.77375       -37.724       0.77375       -37.724        0.6121        50.664
  8.4748e+009      0.61636        50.355       0.77032       -38.033       0.77032       -38.033       0.61636        50.355
  8.5345e+009       0.6206        50.045       0.76685       -38.342       0.76685       -38.342        0.6206        50.045
  8.5943e+009      0.62483        49.734       0.76336       -38.652       0.76336       -38.652       0.62483        49.734
   8.654e+009      0.62906        49.423       0.75983       -38.962       0.75983       -38.962       0.62906        49.423
  8.7138e+009      0.63328        49.111       0.75628       -39.274       0.75628       -39.274       0.63328        49.111
  8.7735e+009      0.63748        48.797       0.75269       -39.586       0.75269       -39.586       0.63748        48.797
  8.8333e+009      0.64168        48.484       0.74906       -39.898       0.74906       -39.898       0.64168        48.484
   8.893e+009      0.64587        48.169       0.74541       -40.211       0.74541       -40.211       0.64587        48.169
  8.9528e+009      0.65004        47.854       0.74173       -40.525       0.74173       -40.525       0.65004        47.854
  9.0125e+009      0.65421        47.537       0.73801        -40.84       0.73801        -40.84       0.65421        47.537
  9.0723e+009      0.65836         47.22       0.73427       -41.155       0.73427       -41.155       0.65836         47.22
   9.132e+009       0.6625        46.903       0.73049        -41.47       0.73049        -41.47        0.6625        46.903
  9.1918e+009      0.66663        46.584       0.72668       -41.787       0.72668       -41.787       0.66663        46.584
  9.2515e+009      0.67075        46.265       0.72283       -42.104       0.72283       -42.104       0.67075        46.265
  9.3113e+009      0.67485        45.945       0.71896       -42.422       0.71896       -42.422       0.67485        45.945
   9.371e+009      0.67895        45.624       0.71506        -42.74       0.71506        -42.74       0.67895        45.624
  9.4308e+009      0.68302        45.302       0.71112       -43.059       0.71112       -43.059       0.68302        45.302
  9.4905e+009      0.68709         44.98       0.70715       -43.378       0.70715       -43.378       0.68709         44.98
