! L-03C1N0
! Data taken by Rita
! Created Thu Jun 15 16:17:23 2006
# hz S ma R 50
! 2 Port Network Data from SP1.SP block
       5e+007    0.0035461        65.484       0.99853      -0.18513       0.99853      -0.18513     0.0035461        65.484
  1.0975e+008    0.0073097        75.514        0.9982      -0.40623        0.9982      -0.40623     0.0073097        75.514
   1.695e+008     0.011146        78.518       0.99784      -0.62721       0.99784      -0.62721      0.011146        78.518
  2.2925e+008     0.014994        79.942       0.99749      -0.84807       0.99749      -0.84807      0.014994        79.942
    2.89e+008     0.018845        80.767       0.99715       -1.0688       0.99715       -1.0688      0.018845        80.767
  3.4875e+008     0.022695        81.298       0.99682       -1.2895       0.99682       -1.2895      0.022695        81.298
   4.085e+008     0.026544        81.656       0.99649       -1.5102       0.99649       -1.5102      0.026544        81.656
  4.6825e+008     0.030391        81.903       0.99617       -1.7308       0.99617       -1.7308      0.030391        81.903
    5.28e+008     0.034238        82.072       0.99586       -1.9514       0.99586       -1.9514      0.034238        82.072
  5.8775e+008     0.038085        82.184       0.99554        -2.172       0.99554        -2.172      0.038085        82.184
   6.475e+008      0.04193         82.25       0.99521       -2.3926       0.99521       -2.3926       0.04193         82.25
  7.0725e+008     0.045775        82.281       0.99489       -2.6132       0.99489       -2.6132      0.045775        82.281
    7.67e+008      0.04962        82.283       0.99455       -2.8338       0.99455       -2.8338       0.04962        82.283
  8.2675e+008     0.053464        82.262       0.99421       -3.0545       0.99421       -3.0545      0.053464        82.262
   8.865e+008     0.057308         82.22       0.99387       -3.2752       0.99387       -3.2752      0.057308         82.22
  9.4625e+008     0.061152        82.162       0.99351       -3.4959       0.99351       -3.4959      0.061152        82.162
   1.006e+009     0.064996        82.089       0.99314       -3.7166       0.99314       -3.7166      0.064996        82.089
  1.0658e+009      0.06884        82.003       0.99277       -3.9374       0.99277       -3.9374       0.06884        82.003
  1.1255e+009     0.072684        81.907       0.99238       -4.1583       0.99238       -4.1583      0.072684        81.907
  1.1853e+009     0.076528          81.8       0.99198       -4.3792       0.99198       -4.3792      0.076528          81.8
   1.245e+009     0.080372        81.685       0.99157       -4.6002       0.99157       -4.6002      0.080372        81.685
  1.3048e+009     0.084216        81.563       0.99115       -4.8213       0.99115       -4.8213      0.084216        81.563
  1.3645e+009      0.08806        81.433       0.99072       -5.0425       0.99072       -5.0425       0.08806        81.433
  1.4243e+009     0.091905        81.298       0.99027       -5.2637       0.99027       -5.2637      0.091905        81.298
   1.484e+009      0.09575        81.156       0.98981        -5.485       0.98981        -5.485       0.09575        81.156
  1.5438e+009     0.099596         81.01       0.98934       -5.7065       0.98934       -5.7065      0.099596         81.01
  1.6035e+009      0.10344        80.859       0.98886        -5.928       0.98886        -5.928       0.10344        80.859
  1.6633e+009      0.10729        80.704       0.98836       -6.1496       0.98836       -6.1496       0.10729        80.704
   1.723e+009      0.11113        80.545       0.98785       -6.3714       0.98785       -6.3714       0.11113        80.545
  1.7828e+009      0.11498        80.383       0.98732       -6.5933       0.98732       -6.5933       0.11498        80.383
  1.8425e+009      0.11883        80.217       0.98678       -6.8153       0.98678       -6.8153       0.11883        80.217
  1.9023e+009      0.12268        80.048       0.98623       -7.0374       0.98623       -7.0374       0.12268        80.048
   1.962e+009      0.12652        79.877       0.98566       -7.2597       0.98566       -7.2597       0.12652        79.877
  2.0218e+009      0.13037        79.702       0.98508       -7.4821       0.98508       -7.4821       0.13037        79.702
  2.0815e+009      0.13422        79.526       0.98449       -7.7047       0.98449       -7.7047       0.13422        79.526
  2.1413e+009      0.13807        79.347       0.98388       -7.9274       0.98388       -7.9274       0.13807        79.347
   2.201e+009      0.14193        79.166       0.98325       -8.1503       0.98325       -8.1503       0.14193        79.166
  2.2608e+009      0.14578        78.983       0.98262       -8.3733       0.98262       -8.3733       0.14578        78.983
  2.3205e+009      0.14963        78.798       0.98196       -8.5965       0.98196       -8.5965       0.14963        78.798
  2.3803e+009      0.15348        78.611        0.9813       -8.8199        0.9813       -8.8199       0.15348        78.611
    2.44e+009      0.15734        78.422       0.98061       -9.0434       0.98061       -9.0434       0.15734        78.422
  2.4998e+009      0.16119        78.232       0.97992       -9.2671       0.97992       -9.2671       0.16119        78.232
  2.5595e+009      0.16505        78.041        0.9792        -9.491        0.9792        -9.491       0.16505        78.041
  2.6193e+009       0.1689        77.848       0.97848       -9.7152       0.97848       -9.7152        0.1689        77.848
   2.679e+009      0.17276        77.653       0.97773       -9.9395       0.97773       -9.9395       0.17276        77.653
  2.7388e+009      0.17662        77.457       0.97698       -10.164       0.97698       -10.164       0.17662        77.457
  2.7985e+009      0.18048         77.26        0.9762       -10.389        0.9762       -10.389       0.18048         77.26
  2.8583e+009      0.18434        77.062       0.97542       -10.614       0.97542       -10.614       0.18434        77.062
   2.918e+009       0.1882        76.863       0.97461       -10.839       0.97461       -10.839        0.1882        76.863
  2.9778e+009      0.19206        76.662       0.97379       -11.064       0.97379       -11.064       0.19206        76.662
  3.0375e+009      0.19592        76.461       0.97296        -11.29       0.97296        -11.29       0.19592        76.461
  3.0973e+009      0.19978        76.258       0.97211       -11.516       0.97211       -11.516       0.19978        76.258
   3.157e+009      0.20365        76.054       0.97124       -11.742       0.97124       -11.742       0.20365        76.054
  3.2168e+009      0.20751        75.849       0.97036       -11.968       0.97036       -11.968       0.20751        75.849
  3.2765e+009      0.21138        75.644       0.96946       -12.194       0.96946       -12.194       0.21138        75.644
  3.3363e+009      0.21525        75.437       0.96855       -12.421       0.96855       -12.421       0.21525        75.437
   3.396e+009      0.21912         75.23       0.96762       -12.648       0.96762       -12.648       0.21912         75.23
  3.4558e+009      0.22299        75.022       0.96667       -12.876       0.96667       -12.876       0.22299        75.022
  3.5155e+009      0.22686        74.812       0.96571       -13.103       0.96571       -13.103       0.22686        74.812
  3.5753e+009      0.23073        74.602       0.96473       -13.331       0.96473       -13.331       0.23073        74.602
   3.635e+009       0.2346        74.392       0.96374       -13.559       0.96374       -13.559        0.2346        74.392
  3.6948e+009      0.23847         74.18       0.96273       -13.788       0.96273       -13.788       0.23847         74.18
  3.7545e+009      0.24235        73.968        0.9617       -14.016        0.9617       -14.016       0.24235        73.968
  3.8143e+009      0.24622        73.754       0.96066       -14.245       0.96066       -14.245       0.24622        73.754
   3.874e+009       0.2501        73.541        0.9596       -14.475        0.9596       -14.475        0.2501        73.541
  3.9338e+009      0.25398        73.326       0.95852       -14.704       0.95852       -14.704       0.25398        73.326
  3.9935e+009      0.25786        73.111       0.95742       -14.934       0.95742       -14.934       0.25786        73.111
  4.0533e+009      0.26174        72.895       0.95631       -15.164       0.95631       -15.164       0.26174        72.895
   4.113e+009      0.26562        72.678       0.95519       -15.395       0.95519       -15.395       0.26562        72.678
  4.1728e+009       0.2695         72.46       0.95404       -15.625       0.95404       -15.625        0.2695         72.46
  4.2325e+009      0.27338        72.242       0.95288       -15.857       0.95288       -15.857       0.27338        72.242
  4.2923e+009      0.27726        72.023        0.9517       -16.088        0.9517       -16.088       0.27726        72.023
   4.352e+009      0.28115        71.804        0.9505        -16.32        0.9505        -16.32       0.28115        71.804
  4.4118e+009      0.28503        71.584       0.94929       -16.552       0.94929       -16.552       0.28503        71.584
  4.4715e+009      0.28892        71.363       0.94806       -16.784       0.94806       -16.784       0.28892        71.363
  4.5313e+009      0.29281        71.142       0.94681       -17.017       0.94681       -17.017       0.29281        71.142
   4.591e+009       0.2967        70.919       0.94554        -17.25       0.94554        -17.25        0.2967        70.919
  4.6508e+009      0.30059        70.697       0.94426       -17.484       0.94426       -17.484       0.30059        70.697
  4.7105e+009      0.30448        70.473       0.94296       -17.718       0.94296       -17.718       0.30448        70.473
  4.7703e+009      0.30837        70.249       0.94164       -17.952       0.94164       -17.952       0.30837        70.249
    4.83e+009      0.31226        70.025        0.9403       -18.186        0.9403       -18.186       0.31226        70.025
  4.8898e+009      0.31615          69.8       0.93894       -18.421       0.93894       -18.421       0.31615          69.8
  4.9495e+009      0.32004        69.574       0.93757       -18.656       0.93757       -18.656       0.32004        69.574
  5.0093e+009      0.32394        69.347       0.93618       -18.892       0.93618       -18.892       0.32394        69.347
   5.069e+009      0.32783         69.12       0.93477       -19.128       0.93477       -19.128       0.32783         69.12
  5.1288e+009      0.33173        68.893       0.93334       -19.364       0.93334       -19.364       0.33173        68.893
  5.1885e+009      0.33563        68.664       0.93189       -19.601       0.93189       -19.601       0.33563        68.664
  5.2483e+009      0.33952        68.435       0.93043       -19.838       0.93043       -19.838       0.33952        68.435
   5.308e+009      0.34342        68.206       0.92894       -20.076       0.92894       -20.076       0.34342        68.206
  5.3678e+009      0.34732        67.976       0.92744       -20.314       0.92744       -20.314       0.34732        67.976
  5.4275e+009      0.35122        67.745       0.92592       -20.552       0.92592       -20.552       0.35122        67.745
  5.4873e+009      0.35512        67.514       0.92438       -20.791       0.92438       -20.791       0.35512        67.514
   5.547e+009      0.35902        67.282       0.92282        -21.03       0.92282        -21.03       0.35902        67.282
  5.6068e+009      0.36292         67.05       0.92124        -21.27       0.92124        -21.27       0.36292         67.05
  5.6665e+009      0.36682        66.817       0.91964        -21.51       0.91964        -21.51       0.36682        66.817
  5.7263e+009      0.37072        66.583       0.91803        -21.75       0.91803        -21.75       0.37072        66.583
   5.786e+009      0.37462        66.349       0.91639       -21.991       0.91639       -21.991       0.37462        66.349
  5.8458e+009      0.37852        66.114       0.91473       -22.232       0.91473       -22.232       0.37852        66.114
  5.9055e+009      0.38242        65.879       0.91306       -22.474       0.91306       -22.474       0.38242        65.879
  5.9653e+009      0.38632        65.643       0.91137       -22.716       0.91137       -22.716       0.38632        65.643
   6.025e+009      0.39022        65.406       0.90965       -22.958       0.90965       -22.958       0.39022        65.406
  6.0848e+009      0.39412        65.169       0.90792       -23.201       0.90792       -23.201       0.39412        65.169
  6.1445e+009      0.39802        64.931       0.90616       -23.445       0.90616       -23.445       0.39802        64.931
  6.2043e+009      0.40193        64.693       0.90439       -23.689       0.90439       -23.689       0.40193        64.693
   6.264e+009      0.40583        64.454        0.9026       -23.933        0.9026       -23.933       0.40583        64.454
  6.3238e+009      0.40973        64.214       0.90078       -24.178       0.90078       -24.178       0.40973        64.214
  6.3835e+009      0.41363        63.974       0.89895       -24.423       0.89895       -24.423       0.41363        63.974
  6.4433e+009      0.41753        63.734        0.8971       -24.668        0.8971       -24.668       0.41753        63.734
   6.503e+009      0.42143        63.492       0.89522       -24.914       0.89522       -24.914       0.42143        63.492
  6.5628e+009      0.42533        63.251       0.89333       -25.161       0.89333       -25.161       0.42533        63.251
  6.6225e+009      0.42922        63.008       0.89141       -25.408       0.89141       -25.408       0.42922        63.008
  6.6823e+009      0.43312        62.765       0.88948       -25.655       0.88948       -25.655       0.43312        62.765
   6.742e+009      0.43702        62.521       0.88752       -25.903       0.88752       -25.903       0.43702        62.521
  6.8018e+009      0.44091        62.277       0.88554       -26.152       0.88554       -26.152       0.44091        62.277
  6.8615e+009      0.44481        62.032       0.88354         -26.4       0.88354         -26.4       0.44481        62.032
  6.9213e+009       0.4487        61.787       0.88152        -26.65       0.88152        -26.65        0.4487        61.787
   6.981e+009      0.45259        61.541       0.87948       -26.899       0.87948       -26.899       0.45259        61.541
  7.0408e+009      0.45649        61.295       0.87742        -27.15       0.87742        -27.15       0.45649        61.295
  7.1005e+009      0.46038        61.047       0.87534         -27.4       0.87534         -27.4       0.46038        61.047
  7.1603e+009      0.46426          60.8       0.87324       -27.652       0.87324       -27.652       0.46426          60.8
    7.22e+009      0.46815        60.551       0.87111       -27.903       0.87111       -27.903       0.46815        60.551
  7.2798e+009      0.47204        60.302       0.86897       -28.156       0.86897       -28.156       0.47204        60.302
  7.3395e+009      0.47592        60.053        0.8668       -28.408        0.8668       -28.408       0.47592        60.053
  7.3993e+009       0.4798        59.803       0.86461       -28.661       0.86461       -28.661        0.4798        59.803
   7.459e+009      0.48368        59.552        0.8624       -28.915        0.8624       -28.915       0.48368        59.552
  7.5188e+009      0.48756        59.301       0.86017       -29.169       0.86017       -29.169       0.48756        59.301
  7.5785e+009      0.49144        59.049       0.85791       -29.424       0.85791       -29.424       0.49144        59.049
  7.6383e+009      0.49531        58.796       0.85563       -29.679       0.85563       -29.679       0.49531        58.796
   7.698e+009      0.49918        58.543       0.85334       -29.934       0.85334       -29.934       0.49918        58.543
  7.7578e+009      0.50305         58.29       0.85102        -30.19       0.85102        -30.19       0.50305         58.29
  7.8175e+009      0.50692        58.035       0.84867       -30.447       0.84867       -30.447       0.50692        58.035
  7.8773e+009      0.51078        57.781       0.84631       -30.704       0.84631       -30.704       0.51078        57.781
   7.937e+009      0.51464        57.525       0.84392       -30.961       0.84392       -30.961       0.51464        57.525
  7.9968e+009       0.5185        57.269       0.84151       -31.219       0.84151       -31.219        0.5185        57.269
  8.0565e+009      0.52235        57.012       0.83908       -31.478       0.83908       -31.478       0.52235        57.012
  8.1163e+009       0.5262        56.755       0.83663       -31.737       0.83663       -31.737        0.5262        56.755
   8.176e+009      0.53005        56.497       0.83415       -31.997       0.83415       -31.997       0.53005        56.497
  8.2358e+009       0.5339        56.239       0.83165       -32.257       0.83165       -32.257        0.5339        56.239
  8.2955e+009      0.53774         55.98       0.82913       -32.517       0.82913       -32.517       0.53774         55.98
  8.3553e+009      0.54157        55.721       0.82658       -32.778       0.82658       -32.778       0.54157        55.721
   8.415e+009      0.54541         55.46       0.82402        -33.04       0.82402        -33.04       0.54541         55.46
  8.4748e+009      0.54923          55.2       0.82143       -33.302       0.82143       -33.302       0.54923          55.2
  8.5345e+009      0.55306        54.938       0.81881       -33.564       0.81881       -33.564       0.55306        54.938
  8.5943e+009      0.55688        54.676       0.81618       -33.827       0.81618       -33.827       0.55688        54.676
   8.654e+009      0.56069        54.414       0.81352       -34.091       0.81352       -34.091       0.56069        54.414
  8.7138e+009      0.56451        54.151       0.81084       -34.355       0.81084       -34.355       0.56451        54.151
  8.7735e+009      0.56831        53.887       0.80813       -34.619       0.80813       -34.619       0.56831        53.887
  8.8333e+009      0.57211        53.623        0.8054       -34.884        0.8054       -34.884       0.57211        53.623
   8.893e+009      0.57591        53.358       0.80265        -35.15       0.80265        -35.15       0.57591        53.358
  8.9528e+009       0.5797        53.093       0.79988       -35.415       0.79988       -35.415        0.5797        53.093
  9.0125e+009      0.58348        52.827       0.79708       -35.682       0.79708       -35.682       0.58348        52.827
  9.0723e+009      0.58726         52.56       0.79426       -35.949       0.79426       -35.949       0.58726         52.56
   9.132e+009      0.59104        52.293       0.79142       -36.216       0.79142       -36.216       0.59104        52.293
  9.1918e+009       0.5948        52.025       0.78855       -36.484       0.78855       -36.484        0.5948        52.025
  9.2515e+009      0.59856        51.757       0.78566       -36.753       0.78566       -36.753       0.59856        51.757
  9.3113e+009      0.60232        51.488       0.78274       -37.022       0.78274       -37.022       0.60232        51.488
   9.371e+009      0.60607        51.219        0.7798       -37.291        0.7798       -37.291       0.60607        51.219
  9.4308e+009      0.60981        50.949       0.77684       -37.561       0.77684       -37.561       0.60981        50.949
  9.4905e+009      0.61354        50.678       0.77386       -37.831       0.77386       -37.831       0.61354        50.678
