! L-03C0N8
! Data taken by Rita
! Created Thu Jun 15 16:07:20 2006
# hz S ma R 50
! 2 Port Network Data from SP1.SP block
       5e+007    0.0028104        64.591        0.9988      -0.14563        0.9988      -0.14563     0.0028104        64.591
  1.0975e+008    0.0057693         74.86       0.99851      -0.31956       0.99851      -0.31956     0.0057693         74.86
   1.695e+008    0.0087863        78.064       0.99822      -0.49342       0.99822      -0.49342     0.0087863        78.064
  2.2925e+008     0.011813        79.656       0.99795      -0.66721       0.99795      -0.66721      0.011813        79.656
    2.89e+008     0.014841        80.623       0.99769      -0.84095       0.99769      -0.84095      0.014841        80.623
  3.4875e+008      0.01787        81.274       0.99745       -1.0147       0.99745       -1.0147       0.01787        81.274
   4.085e+008     0.020898        81.738       0.99721       -1.1884       0.99721       -1.1884      0.020898        81.738
  4.6825e+008     0.023926        82.078       0.99698        -1.362       0.99698        -1.362      0.023926        82.078
    5.28e+008     0.026954         82.33       0.99676       -1.5357       0.99676       -1.5357      0.026954         82.33
  5.8775e+008     0.029982        82.517       0.99654       -1.7094       0.99654       -1.7094      0.029982        82.517
   6.475e+008     0.033011        82.653       0.99632       -1.8831       0.99632       -1.8831      0.033011        82.653
  7.0725e+008     0.036039         82.75       0.99609       -2.0568       0.99609       -2.0568      0.036039         82.75
    7.67e+008     0.039067        82.814       0.99587       -2.2306       0.99587       -2.2306      0.039067        82.814
  8.2675e+008     0.042096        82.853       0.99564       -2.4044       0.99564       -2.4044      0.042096        82.853
   8.865e+008     0.045125        82.869       0.99541       -2.5782       0.99541       -2.5782      0.045125        82.869
  9.4625e+008     0.048155        82.866       0.99517        -2.752       0.99517        -2.752      0.048155        82.866
   1.006e+009     0.051185        82.847       0.99492        -2.926       0.99492        -2.926      0.051185        82.847
  1.0658e+009     0.054215        82.814       0.99467       -3.0999       0.99467       -3.0999      0.054215        82.814
  1.1255e+009     0.057246         82.77       0.99442       -3.2739       0.99442       -3.2739      0.057246         82.77
  1.1853e+009     0.060278        82.715       0.99416        -3.448       0.99416        -3.448      0.060278        82.715
   1.245e+009     0.063311        82.651       0.99389       -3.6222       0.99389       -3.6222      0.063311        82.651
  1.3048e+009     0.066344        82.578       0.99361       -3.7964       0.99361       -3.7964      0.066344        82.578
  1.3645e+009     0.069378        82.499       0.99333       -3.9707       0.99333       -3.9707      0.069378        82.499
  1.4243e+009     0.072413        82.412       0.99304       -4.1451       0.99304       -4.1451      0.072413        82.412
   1.484e+009     0.075449         82.32       0.99274       -4.3196       0.99274       -4.3196      0.075449         82.32
  1.5438e+009     0.078486        82.223       0.99243       -4.4941       0.99243       -4.4941      0.078486        82.223
  1.6035e+009     0.081524         82.12       0.99212       -4.6688       0.99212       -4.6688      0.081524         82.12
  1.6633e+009     0.084563        82.014       0.99179       -4.8436       0.99179       -4.8436      0.084563        82.014
   1.723e+009     0.087603        81.903       0.99146       -5.0184       0.99146       -5.0184      0.087603        81.903
  1.7828e+009     0.090644        81.789       0.99112       -5.1934       0.99112       -5.1934      0.090644        81.789
  1.8425e+009     0.093686        81.671       0.99078       -5.3685       0.99078       -5.3685      0.093686        81.671
  1.9023e+009      0.09673         81.55       0.99042       -5.5437       0.99042       -5.5437       0.09673         81.55
   1.962e+009     0.099775        81.426       0.99005       -5.7191       0.99005       -5.7191      0.099775        81.426
  2.0218e+009      0.10282          81.3       0.98968       -5.8946       0.98968       -5.8946       0.10282          81.3
  2.0815e+009      0.10587        81.171        0.9893       -6.0702        0.9893       -6.0702       0.10587        81.171
  2.1413e+009      0.10892         81.04       0.98891       -6.2459       0.98891       -6.2459       0.10892         81.04
   2.201e+009      0.11197        80.906       0.98851       -6.4218       0.98851       -6.4218       0.11197        80.906
  2.2608e+009      0.11502        80.771        0.9881       -6.5978        0.9881       -6.5978       0.11502        80.771
  2.3205e+009      0.11807        80.634       0.98768        -6.774       0.98768        -6.774       0.11807        80.634
  2.3803e+009      0.12113        80.494       0.98725       -6.9504       0.98725       -6.9504       0.12113        80.494
    2.44e+009      0.12419        80.353       0.98681       -7.1269       0.98681       -7.1269       0.12419        80.353
  2.4998e+009      0.12725        80.211       0.98637       -7.3035       0.98637       -7.3035       0.12725        80.211
  2.5595e+009      0.13031        80.067       0.98591       -7.4804       0.98591       -7.4804       0.13031        80.067
  2.6193e+009      0.13337        79.921       0.98545       -7.6574       0.98545       -7.6574       0.13337        79.921
   2.679e+009      0.13643        79.774       0.98497       -7.8346       0.98497       -7.8346       0.13643        79.774
  2.7388e+009       0.1395        79.626       0.98449        -8.012       0.98449        -8.012        0.1395        79.626
  2.7985e+009      0.14257        79.477         0.984       -8.1895         0.984       -8.1895       0.14257        79.477
  2.8583e+009      0.14564        79.326       0.98349       -8.3673       0.98349       -8.3673       0.14564        79.326
   2.918e+009      0.14871        79.174       0.98298       -8.5453       0.98298       -8.5453       0.14871        79.174
  2.9778e+009      0.15178        79.021       0.98246       -8.7234       0.98246       -8.7234       0.15178        79.021
  3.0375e+009      0.15486        78.867       0.98193       -8.9018       0.98193       -8.9018       0.15486        78.867
  3.0973e+009      0.15794        78.712       0.98138       -9.0804       0.98138       -9.0804       0.15794        78.712
   3.157e+009      0.16102        78.556       0.98083       -9.2592       0.98083       -9.2592       0.16102        78.556
  3.2168e+009       0.1641        78.399       0.98027       -9.4382       0.98027       -9.4382        0.1641        78.399
  3.2765e+009      0.16719        78.241        0.9797       -9.6174        0.9797       -9.6174       0.16719        78.241
  3.3363e+009      0.17027        78.082       0.97912       -9.7969       0.97912       -9.7969       0.17027        78.082
   3.396e+009      0.17336        77.922       0.97852       -9.9766       0.97852       -9.9766       0.17336        77.922
  3.4558e+009      0.17645        77.762       0.97792       -10.157       0.97792       -10.157       0.17645        77.762
  3.5155e+009      0.17955          77.6       0.97731       -10.337       0.97731       -10.337       0.17955          77.6
  3.5753e+009      0.18265        77.438       0.97668       -10.517       0.97668       -10.517       0.18265        77.438
   3.635e+009      0.18575        77.275       0.97605       -10.698       0.97605       -10.698       0.18575        77.275
  3.6948e+009      0.18885        77.111        0.9754       -10.879        0.9754       -10.879       0.18885        77.111
  3.7545e+009      0.19195        76.947       0.97475        -11.06       0.97475        -11.06       0.19195        76.947
  3.8143e+009      0.19506        76.781       0.97408       -11.241       0.97408       -11.241       0.19506        76.781
   3.874e+009      0.19817        76.615       0.97341       -11.423       0.97341       -11.423       0.19817        76.615
  3.9338e+009      0.20128        76.449       0.97272       -11.605       0.97272       -11.605       0.20128        76.449
  3.9935e+009       0.2044        76.281       0.97202       -11.787       0.97202       -11.787        0.2044        76.281
  4.0533e+009      0.20752        76.113       0.97131        -11.97       0.97131        -11.97       0.20752        76.113
   4.113e+009      0.21064        75.944        0.9706       -12.153        0.9706       -12.153       0.21064        75.944
  4.1728e+009      0.21376        75.775       0.96986       -12.336       0.96986       -12.336       0.21376        75.775
  4.2325e+009      0.21689        75.605       0.96912       -12.519       0.96912       -12.519       0.21689        75.605
  4.2923e+009      0.22002        75.434       0.96837       -12.703       0.96837       -12.703       0.22002        75.434
   4.352e+009      0.22315        75.263       0.96761       -12.887       0.96761       -12.887       0.22315        75.263
  4.4118e+009      0.22629        75.091       0.96683       -13.072       0.96683       -13.072       0.22629        75.091
  4.4715e+009      0.22942        74.918       0.96604       -13.256       0.96604       -13.256       0.22942        74.918
  4.5313e+009      0.23257        74.745       0.96525       -13.441       0.96525       -13.441       0.23257        74.745
   4.591e+009      0.23571        74.571       0.96444       -13.627       0.96444       -13.627       0.23571        74.571
  4.6508e+009      0.23886        74.396       0.96362       -13.812       0.96362       -13.812       0.23886        74.396
  4.7105e+009      0.24201        74.221       0.96278       -13.998       0.96278       -13.998       0.24201        74.221
  4.7703e+009      0.24516        74.045       0.96194       -14.185       0.96194       -14.185       0.24516        74.045
    4.83e+009      0.24832        73.869       0.96108       -14.371       0.96108       -14.371       0.24832        73.869
  4.8898e+009      0.25148        73.692       0.96021       -14.558       0.96021       -14.558       0.25148        73.692
  4.9495e+009      0.25464        73.515       0.95933       -14.746       0.95933       -14.746       0.25464        73.515
  5.0093e+009      0.25781        73.336       0.95844       -14.933       0.95844       -14.933       0.25781        73.336
   5.069e+009      0.26098        73.158       0.95754       -15.121       0.95754       -15.121       0.26098        73.158
  5.1288e+009      0.26415        72.978       0.95662        -15.31       0.95662        -15.31       0.26415        72.978
  5.1885e+009      0.26733        72.799       0.95569       -15.498       0.95569       -15.498       0.26733        72.799
  5.2483e+009      0.27051        72.618       0.95475       -15.688       0.95475       -15.688       0.27051        72.618
   5.308e+009      0.27369        72.437        0.9538       -15.877        0.9538       -15.877       0.27369        72.437
  5.3678e+009      0.27688        72.256       0.95283       -16.067       0.95283       -16.067       0.27688        72.256
  5.4275e+009      0.28007        72.073       0.95186       -16.257       0.95186       -16.257       0.28007        72.073
  5.4873e+009      0.28327        71.891       0.95086       -16.448       0.95086       -16.448       0.28327        71.891
   5.547e+009      0.28646        71.707       0.94986       -16.639       0.94986       -16.639       0.28646        71.707
  5.6068e+009      0.28966        71.523       0.94884       -16.831       0.94884       -16.831       0.28966        71.523
  5.6665e+009      0.29287        71.339       0.94782       -17.022       0.94782       -17.022       0.29287        71.339
  5.7263e+009      0.29607        71.154       0.94677       -17.215       0.94677       -17.215       0.29607        71.154
   5.786e+009      0.29928        70.968       0.94572       -17.407       0.94572       -17.407       0.29928        70.968
  5.8458e+009       0.3025        70.782       0.94465       -17.601       0.94465       -17.601        0.3025        70.782
  5.9055e+009      0.30572        70.595       0.94357       -17.794       0.94357       -17.794       0.30572        70.595
  5.9653e+009      0.30894        70.408       0.94247       -17.988       0.94247       -17.988       0.30894        70.408
   6.025e+009      0.31216         70.22       0.94137       -18.182       0.94137       -18.182       0.31216         70.22
  6.0848e+009      0.31539        70.032       0.94024       -18.377       0.94024       -18.377       0.31539        70.032
  6.1445e+009      0.31862        69.842       0.93911       -18.572       0.93911       -18.572       0.31862        69.842
  6.2043e+009      0.32186        69.653       0.93796       -18.768       0.93796       -18.768       0.32186        69.653
   6.264e+009       0.3251        69.462        0.9368       -18.964        0.9368       -18.964        0.3251        69.462
  6.3238e+009      0.32834        69.272       0.93562       -19.161       0.93562       -19.161       0.32834        69.272
  6.3835e+009      0.33159         69.08       0.93443       -19.358       0.93443       -19.358       0.33159         69.08
  6.4433e+009      0.33484        68.888       0.93322       -19.555       0.93322       -19.555       0.33484        68.888
   6.503e+009      0.33809        68.696       0.93201       -19.753       0.93201       -19.753       0.33809        68.696
  6.5628e+009      0.34135        68.502       0.93077       -19.952       0.93077       -19.952       0.34135        68.502
  6.6225e+009      0.34461        68.309       0.92952        -20.15       0.92952        -20.15       0.34461        68.309
  6.6823e+009      0.34787        68.114       0.92826        -20.35       0.92826        -20.35       0.34787        68.114
   6.742e+009      0.35114        67.919       0.92699        -20.55       0.92699        -20.55       0.35114        67.919
  6.8018e+009      0.35441        67.724        0.9257        -20.75        0.9257        -20.75       0.35441        67.724
  6.8615e+009      0.35769        67.528       0.92439       -20.951       0.92439       -20.951       0.35769        67.528
  6.9213e+009      0.36097        67.331       0.92307       -21.152       0.92307       -21.152       0.36097        67.331
   6.981e+009      0.36425        67.134       0.92173       -21.354       0.92173       -21.354       0.36425        67.134
  7.0408e+009      0.36754        66.936       0.92038       -21.556       0.92038       -21.556       0.36754        66.936
  7.1005e+009      0.37083        66.737       0.91902       -21.759       0.91902       -21.759       0.37083        66.737
  7.1603e+009      0.37412        66.538       0.91764       -21.962       0.91764       -21.962       0.37412        66.538
    7.22e+009      0.37741        66.338       0.91624       -22.166       0.91624       -22.166       0.37741        66.338
  7.2798e+009      0.38071        66.138       0.91483        -22.37       0.91483        -22.37       0.38071        66.138
  7.3395e+009      0.38402        65.937        0.9134       -22.575        0.9134       -22.575       0.38402        65.937
  7.3993e+009      0.38733        65.735       0.91196        -22.78       0.91196        -22.78       0.38733        65.735
   7.459e+009      0.39064        65.533        0.9105       -22.986        0.9105       -22.986       0.39064        65.533
  7.5188e+009      0.39395         65.33       0.90903       -23.192       0.90903       -23.192       0.39395         65.33
  7.5785e+009      0.39727        65.126       0.90754       -23.399       0.90754       -23.399       0.39727        65.126
  7.6383e+009      0.40059        64.922       0.90603       -23.607       0.90603       -23.607       0.40059        64.922
   7.698e+009      0.40391        64.717       0.90451       -23.815       0.90451       -23.815       0.40391        64.717
  7.7578e+009      0.40724        64.512       0.90297       -24.023       0.90297       -24.023       0.40724        64.512
  7.8175e+009      0.41057        64.306       0.90142       -24.232       0.90142       -24.232       0.41057        64.306
  7.8773e+009       0.4139        64.099       0.89985       -24.442       0.89985       -24.442        0.4139        64.099
   7.937e+009      0.41724        63.892       0.89826       -24.652       0.89826       -24.652       0.41724        63.892
  7.9968e+009      0.42058        63.684       0.89665       -24.863       0.89665       -24.863       0.42058        63.684
  8.0565e+009      0.42392        63.476       0.89503       -25.074       0.89503       -25.074       0.42392        63.476
  8.1163e+009      0.42727        63.266       0.89339       -25.286       0.89339       -25.286       0.42727        63.266
   8.176e+009      0.43062        63.056       0.89174       -25.498       0.89174       -25.498       0.43062        63.056
  8.2358e+009      0.43397        62.846       0.89006       -25.711       0.89006       -25.711       0.43397        62.846
  8.2955e+009      0.43733        62.635       0.88838       -25.925       0.88838       -25.925       0.43733        62.635
  8.3553e+009      0.44069        62.423       0.88667       -26.139       0.88667       -26.139       0.44069        62.423
   8.415e+009      0.44405         62.21       0.88494       -26.353       0.88494       -26.353       0.44405         62.21
  8.4748e+009      0.44741        61.997        0.8832       -26.569        0.8832       -26.569       0.44741        61.997
  8.5345e+009      0.45078        61.783       0.88144       -26.785       0.88144       -26.785       0.45078        61.783
  8.5943e+009      0.45415        61.569       0.87966       -27.001       0.87966       -27.001       0.45415        61.569
   8.654e+009      0.45752        61.354       0.87787       -27.218       0.87787       -27.218       0.45752        61.354
  8.7138e+009       0.4609        61.138       0.87606       -27.436       0.87606       -27.436        0.4609        61.138
  8.7735e+009      0.46428        60.921       0.87422       -27.654       0.87422       -27.654       0.46428        60.921
  8.8333e+009      0.46766        60.704       0.87237       -27.873       0.87237       -27.873       0.46766        60.704
   8.893e+009      0.47104        60.486       0.87051       -28.092       0.87051       -28.092       0.47104        60.486
  8.9528e+009      0.47443        60.268       0.86862       -28.312       0.86862       -28.312       0.47443        60.268
  9.0125e+009      0.47781        60.049       0.86671       -28.533       0.86671       -28.533       0.47781        60.049
  9.0723e+009       0.4812        59.829       0.86479       -28.754       0.86479       -28.754        0.4812        59.829
   9.132e+009       0.4846        59.608       0.86285       -28.976       0.86285       -28.976        0.4846        59.608
  9.1918e+009      0.48799        59.387       0.86089       -29.199       0.86089       -29.199       0.48799        59.387
  9.2515e+009      0.49139        59.165       0.85891       -29.422       0.85891       -29.422       0.49139        59.165
  9.3113e+009      0.49479        58.942       0.85691       -29.646       0.85691       -29.646       0.49479        58.942
   9.371e+009      0.49819        58.719       0.85489        -29.87       0.85489        -29.87       0.49819        58.719
  9.4308e+009      0.50159        58.495       0.85285       -30.095       0.85285       -30.095       0.50159        58.495
  9.4905e+009      0.50499         58.27       0.85079       -30.321       0.85079       -30.321       0.50499         58.27
