! L-03C3N9
! Data taken by Rita
! Created Thu Jun 15 17:46:12 2006
# hz S ma R 50
! 2 Port Network Data from SP1.SP block
       5e+007     0.013327        65.073       0.99446      -0.69635       0.99446      -0.69635      0.013327        65.073
   7.975e+007     0.020311        71.393       0.99371       -1.1099       0.99371       -1.1099      0.020311        71.393
   1.095e+008     0.027422        74.219       0.99289       -1.5229       0.99289       -1.5229      0.027422        74.219
  1.3925e+008      0.03457        75.727       0.99204       -1.9353       0.99204       -1.9353       0.03457        75.727
    1.69e+008     0.041728        76.608       0.99117       -2.3472       0.99117       -2.3472      0.041728        76.608
  1.9875e+008     0.048885        77.144       0.99027       -2.7586       0.99027       -2.7586      0.048885        77.144
   2.285e+008     0.056036        77.467       0.98935       -3.1694       0.98935       -3.1694      0.056036        77.467
  2.5825e+008     0.063178         77.65       0.98842       -3.5798       0.98842       -3.5798      0.063178         77.65
    2.88e+008     0.070311        77.735       0.98746       -3.9898       0.98746       -3.9898      0.070311        77.735
  3.1775e+008     0.077433        77.747       0.98647       -4.3993       0.98647       -4.3993      0.077433        77.747
   3.475e+008     0.084544        77.704       0.98546       -4.8083       0.98546       -4.8083      0.084544        77.704
  3.7725e+008     0.091643        77.617       0.98443       -5.2169       0.98443       -5.2169      0.091643        77.617
    4.07e+008      0.09873        77.496       0.98336       -5.6251       0.98336       -5.6251       0.09873        77.496
  4.3675e+008      0.10581        77.346       0.98226       -6.0329       0.98226       -6.0329       0.10581        77.346
   4.665e+008      0.11287        77.171       0.98113       -6.4402       0.98113       -6.4402       0.11287        77.171
  4.9625e+008      0.11992        76.977       0.97997       -6.8471       0.97997       -6.8471       0.11992        76.977
    5.26e+008      0.12695        76.765       0.97877       -7.2535       0.97877       -7.2535       0.12695        76.765
  5.5575e+008      0.13397        76.538       0.97753       -7.6595       0.97753       -7.6595       0.13397        76.538
   5.855e+008      0.14098        76.298       0.97626        -8.065       0.97626        -8.065       0.14098        76.298
  6.1525e+008      0.14797        76.046       0.97495       -8.4701       0.97495       -8.4701       0.14797        76.046
    6.45e+008      0.15495        75.785       0.97361       -8.8746       0.97361       -8.8746       0.15495        75.785
  6.7475e+008      0.16191        75.514       0.97222       -9.2787       0.97222       -9.2787       0.16191        75.514
   7.045e+008      0.16885        75.235        0.9708       -9.6823        0.9708       -9.6823       0.16885        75.235
  7.3425e+008      0.17578        74.949       0.96933       -10.085       0.96933       -10.085       0.17578        74.949
    7.64e+008      0.18268        74.657       0.96783       -10.488       0.96783       -10.488       0.18268        74.657
  7.9375e+008      0.18958        74.358       0.96629        -10.89       0.96629        -10.89       0.18958        74.358
   8.235e+008      0.19645        74.055        0.9647       -11.292        0.9647       -11.292       0.19645        74.055
  8.5325e+008       0.2033        73.746       0.96308       -11.692       0.96308       -11.692        0.2033        73.746
    8.83e+008      0.21014        73.433       0.96142       -12.093       0.96142       -12.093       0.21014        73.433
  9.1275e+008      0.21695        73.117       0.95971       -12.493       0.95971       -12.493       0.21695        73.117
   9.425e+008      0.22375        72.796       0.95797       -12.892       0.95797       -12.892       0.22375        72.796
  9.7225e+008      0.23052        72.473       0.95619       -13.291       0.95619       -13.291       0.23052        72.473
   1.002e+009      0.23727        72.146       0.95436       -13.689       0.95436       -13.689       0.23727        72.146
  1.0318e+009        0.244        71.817        0.9525       -14.086        0.9525       -14.086         0.244        71.817
  1.0615e+009      0.25071        71.485        0.9506       -14.483        0.9506       -14.483       0.25071        71.485
  1.0913e+009       0.2574        71.151       0.94865       -14.879       0.94865       -14.879        0.2574        71.151
   1.121e+009      0.26406        70.815       0.94667       -15.275       0.94667       -15.275       0.26406        70.815
  1.1508e+009       0.2707        70.478       0.94465        -15.67       0.94465        -15.67        0.2707        70.478
  1.1805e+009      0.27732        70.138       0.94258       -16.064       0.94258       -16.064       0.27732        70.138
  1.2103e+009      0.28391        69.797       0.94048       -16.457       0.94048       -16.457       0.28391        69.797
    1.24e+009      0.29047        69.454       0.93834        -16.85       0.93834        -16.85       0.29047        69.454
  1.2698e+009      0.29701         69.11       0.93616       -17.242       0.93616       -17.242       0.29701         69.11
  1.2995e+009      0.30353        68.765       0.93395       -17.634       0.93395       -17.634       0.30353        68.765
  1.3293e+009      0.31002        68.419       0.93169       -18.024       0.93169       -18.024       0.31002        68.419
   1.359e+009      0.31648        68.072        0.9294       -18.414        0.9294       -18.414       0.31648        68.072
  1.3888e+009      0.32292        67.724       0.92707       -18.804       0.92707       -18.804       0.32292        67.724
  1.4185e+009      0.32933        67.376       0.92471       -19.192       0.92471       -19.192       0.32933        67.376
  1.4483e+009      0.33571        67.026        0.9223        -19.58        0.9223        -19.58       0.33571        67.026
   1.478e+009      0.34206        66.676       0.91986       -19.967       0.91986       -19.967       0.34206        66.676
  1.5078e+009      0.34839        66.326       0.91739       -20.353       0.91739       -20.353       0.34839        66.326
  1.5375e+009      0.35468        65.975       0.91487       -20.738       0.91487       -20.738       0.35468        65.975
  1.5673e+009      0.36095        65.624       0.91233       -21.123       0.91233       -21.123       0.36095        65.624
   1.597e+009      0.36719        65.273       0.90975       -21.507       0.90975       -21.507       0.36719        65.273
  1.6268e+009       0.3734        64.921       0.90713        -21.89       0.90713        -21.89        0.3734        64.921
  1.6565e+009      0.37958        64.569       0.90448       -22.272       0.90448       -22.272       0.37958        64.569
  1.6863e+009      0.38573        64.217       0.90179       -22.653       0.90179       -22.653       0.38573        64.217
   1.716e+009      0.39185        63.865       0.89907       -23.034       0.89907       -23.034       0.39185        63.865
  1.7458e+009      0.39793        63.513       0.89632       -23.413       0.89632       -23.413       0.39793        63.513
  1.7755e+009      0.40399         63.16       0.89354       -23.792       0.89354       -23.792       0.40399         63.16
  1.8053e+009      0.41001        62.808       0.89072        -24.17       0.89072        -24.17       0.41001        62.808
   1.835e+009      0.41601        62.456       0.88787       -24.547       0.88787       -24.547       0.41601        62.456
  1.8648e+009      0.42197        62.104       0.88499       -24.923       0.88499       -24.923       0.42197        62.104
  1.8945e+009       0.4279        61.753       0.88208       -25.298       0.88208       -25.298        0.4279        61.753
  1.9243e+009      0.43379        61.401       0.87914       -25.673       0.87914       -25.673       0.43379        61.401
   1.954e+009      0.43966         61.05       0.87617       -26.046       0.87617       -26.046       0.43966         61.05
  1.9838e+009      0.44549        60.699       0.87316       -26.419       0.87316       -26.419       0.44549        60.699
  2.0135e+009      0.45129        60.348       0.87013        -26.79       0.87013        -26.79       0.45129        60.348
  2.0433e+009      0.45705        59.997       0.86707       -27.161       0.86707       -27.161       0.45705        59.997
   2.073e+009      0.46278        59.647       0.86398       -27.531       0.86398       -27.531       0.46278        59.647
  2.1028e+009      0.46848        59.298       0.86086       -27.899       0.86086       -27.899       0.46848        59.298
  2.1325e+009      0.47414        58.948       0.85772       -28.267       0.85772       -28.267       0.47414        58.948
  2.1623e+009      0.47977          58.6       0.85454       -28.634       0.85454       -28.634       0.47977          58.6
   2.192e+009      0.48537        58.251       0.85134           -29       0.85134           -29       0.48537        58.251
  2.2218e+009      0.49093        57.903       0.84812       -29.365       0.84812       -29.365       0.49093        57.903
  2.2515e+009      0.49646        57.556       0.84486       -29.729       0.84486       -29.729       0.49646        57.556
  2.2813e+009      0.50195        57.209       0.84158       -30.092       0.84158       -30.092       0.50195        57.209
   2.311e+009      0.50741        56.862       0.83828       -30.454       0.83828       -30.454       0.50741        56.862
  2.3408e+009      0.51283        56.517       0.83495       -30.815       0.83495       -30.815       0.51283        56.517
  2.3705e+009      0.51821        56.171        0.8316       -31.175        0.8316       -31.175       0.51821        56.171
  2.4003e+009      0.52357        55.827       0.82822       -31.534       0.82822       -31.534       0.52357        55.827
    2.43e+009      0.52888        55.483       0.82482       -31.892       0.82482       -31.892       0.52888        55.483
  2.4598e+009      0.53416        55.139        0.8214       -32.249        0.8214       -32.249       0.53416        55.139
  2.4895e+009      0.53941        54.796       0.81795       -32.606       0.81795       -32.606       0.53941        54.796
  2.5193e+009      0.54462        54.454       0.81448       -32.961       0.81448       -32.961       0.54462        54.454
   2.549e+009      0.54979        54.113       0.81099       -33.315       0.81099       -33.315       0.54979        54.113
  2.5788e+009      0.55493        53.772       0.80748       -33.668       0.80748       -33.668       0.55493        53.772
  2.6085e+009      0.56003        53.432       0.80394       -34.019       0.80394       -34.019       0.56003        53.432
  2.6383e+009      0.56509        53.093       0.80039        -34.37       0.80039        -34.37       0.56509        53.093
   2.668e+009      0.57012        52.754       0.79682        -34.72       0.79682        -34.72       0.57012        52.754
  2.6978e+009      0.57512        52.416       0.79322       -35.069       0.79322       -35.069       0.57512        52.416
  2.7275e+009      0.58008        52.079       0.78961       -35.417       0.78961       -35.417       0.58008        52.079
  2.7573e+009        0.585        51.742       0.78598       -35.764       0.78598       -35.764         0.585        51.742
   2.787e+009      0.58988        51.407       0.78233       -36.109       0.78233       -36.109       0.58988        51.407
  2.8168e+009      0.59473        51.072       0.77866       -36.454       0.77866       -36.454       0.59473        51.072
  2.8465e+009      0.59954        50.738       0.77497       -36.798       0.77497       -36.798       0.59954        50.738
  2.8763e+009      0.60432        50.404       0.77127        -37.14       0.77127        -37.14       0.60432        50.404
   2.906e+009      0.60906        50.072       0.76755       -37.481       0.76755       -37.481       0.60906        50.072
  2.9358e+009      0.61376         49.74       0.76381       -37.822       0.76381       -37.822       0.61376         49.74
  2.9655e+009      0.61843        49.409       0.76006       -38.161       0.76006       -38.161       0.61843        49.409
  2.9953e+009      0.62306        49.079       0.75629       -38.499       0.75629       -38.499       0.62306        49.079
   3.025e+009      0.62766         48.75        0.7525       -38.837        0.7525       -38.837       0.62766         48.75
  3.0548e+009      0.63222        48.421        0.7487       -39.173        0.7487       -39.173       0.63222        48.421
  3.0845e+009      0.63674        48.093       0.74489       -39.508       0.74489       -39.508       0.63674        48.093
  3.1143e+009      0.64123        47.767       0.74106       -39.842       0.74106       -39.842       0.64123        47.767
   3.144e+009      0.64568        47.441       0.73722       -40.174       0.73722       -40.174       0.64568        47.441
  3.1738e+009      0.65009        47.116       0.73336       -40.506       0.73336       -40.506       0.65009        47.116
  3.2035e+009      0.65447        46.792       0.72949       -40.837       0.72949       -40.837       0.65447        46.792
  3.2333e+009      0.65881        46.468       0.72561       -41.166       0.72561       -41.166       0.65881        46.468
   3.263e+009      0.66311        46.146       0.72172       -41.495       0.72172       -41.495       0.66311        46.146
  3.2928e+009      0.66738        45.824       0.71781       -41.822       0.71781       -41.822       0.66738        45.824
  3.3225e+009      0.67162        45.504       0.71389       -42.149       0.71389       -42.149       0.67162        45.504
  3.3523e+009      0.67582        45.184       0.70997       -42.474       0.70997       -42.474       0.67582        45.184
   3.382e+009      0.67998        44.865       0.70603       -42.798       0.70603       -42.798       0.67998        44.865
  3.4118e+009      0.68411        44.547       0.70208       -43.121       0.70208       -43.121       0.68411        44.547
  3.4415e+009       0.6882         44.23       0.69812       -43.443       0.69812       -43.443        0.6882         44.23
  3.4713e+009      0.69225        43.914       0.69415       -43.764       0.69415       -43.764       0.69225        43.914
   3.501e+009      0.69627        43.598       0.69017       -44.083       0.69017       -44.083       0.69627        43.598
  3.5308e+009      0.70026        43.284       0.68618       -44.402       0.68618       -44.402       0.70026        43.284
  3.5605e+009      0.70421        42.971       0.68218       -44.719       0.68218       -44.719       0.70421        42.971
  3.5903e+009      0.70812        42.658       0.67817       -45.036       0.67817       -45.036       0.70812        42.658
    3.62e+009        0.712        42.347       0.67416       -45.351       0.67416       -45.351         0.712        42.347
  3.6498e+009      0.71584        42.036       0.67014       -45.665       0.67014       -45.665       0.71584        42.036
  3.6795e+009      0.71965        41.726       0.66611       -45.978       0.66611       -45.978       0.71965        41.726
  3.7093e+009      0.72343        41.417       0.66207        -46.29       0.66207        -46.29       0.72343        41.417
   3.739e+009      0.72717        41.109       0.65802       -46.601       0.65802       -46.601       0.72717        41.109
  3.7688e+009      0.73087        40.802       0.65397       -46.911       0.65397       -46.911       0.73087        40.802
  3.7985e+009      0.73455        40.496       0.64992        -47.22       0.64992        -47.22       0.73455        40.496
  3.8283e+009      0.73818        40.191       0.64585       -47.527       0.64585       -47.527       0.73818        40.191
   3.858e+009      0.74178        39.887       0.64178       -47.834       0.64178       -47.834       0.74178        39.887
  3.8878e+009      0.74535        39.584       0.63771       -48.139       0.63771       -48.139       0.74535        39.584
  3.9175e+009      0.74889        39.282       0.63363       -48.443       0.63363       -48.443       0.74889        39.282
  3.9473e+009      0.75239         38.98       0.62955       -48.746       0.62955       -48.746       0.75239         38.98
   3.977e+009      0.75586         38.68       0.62546       -49.048       0.62546       -49.048       0.75586         38.68
  4.0068e+009      0.75929         38.38       0.62137       -49.349       0.62137       -49.349       0.75929         38.38
  4.0365e+009      0.76269        38.082       0.61727       -49.649       0.61727       -49.649       0.76269        38.082
  4.0663e+009      0.76606        37.784       0.61317       -49.948       0.61317       -49.948       0.76606        37.784
   4.096e+009      0.76939        37.487       0.60906       -50.245       0.60906       -50.245       0.76939        37.487
  4.1258e+009      0.77269        37.192       0.60496       -50.542       0.60496       -50.542       0.77269        37.192
  4.1555e+009      0.77596        36.897       0.60085       -50.837       0.60085       -50.837       0.77596        36.897
  4.1853e+009       0.7792        36.603       0.59673       -51.131       0.59673       -51.131        0.7792        36.603
   4.215e+009       0.7824         36.31       0.59262       -51.425       0.59262       -51.425        0.7824         36.31
  4.2448e+009      0.78557        36.018        0.5885       -51.717        0.5885       -51.717       0.78557        36.018
  4.2745e+009      0.78871        35.727       0.58438       -52.008       0.58438       -52.008       0.78871        35.727
  4.3043e+009      0.79181        35.437       0.58026       -52.297       0.58026       -52.297       0.79181        35.437
   4.334e+009      0.79489        35.148       0.57614       -52.586       0.57614       -52.586       0.79489        35.148
  4.3638e+009      0.79793         34.86       0.57201       -52.874       0.57201       -52.874       0.79793         34.86
  4.3935e+009      0.80094        34.572       0.56789        -53.16       0.56789        -53.16       0.80094        34.572
  4.4233e+009      0.80392        34.286       0.56376       -53.446       0.56376       -53.446       0.80392        34.286
   4.453e+009      0.80687            34       0.55964        -53.73       0.55964        -53.73       0.80687            34
  4.4828e+009      0.80979        33.716       0.55551       -54.013       0.55551       -54.013       0.80979        33.716
  4.5125e+009      0.81268        33.432       0.55139       -54.295       0.55139       -54.295       0.81268        33.432
  4.5423e+009      0.81553         33.15       0.54726       -54.576       0.54726       -54.576       0.81553         33.15
   4.572e+009      0.81836        32.868       0.54313       -54.856       0.54313       -54.856       0.81836        32.868
  4.6018e+009      0.82115        32.587       0.53901       -55.135       0.53901       -55.135       0.82115        32.587
  4.6315e+009      0.82392        32.307       0.53489       -55.413       0.53489       -55.413       0.82392        32.307
  4.6613e+009      0.82665        32.029       0.53076       -55.689       0.53076       -55.689       0.82665        32.029
   4.691e+009      0.82935        31.751       0.52664       -55.965       0.52664       -55.965       0.82935        31.751
  4.7208e+009      0.83203        31.473       0.52252       -56.239       0.52252       -56.239       0.83203        31.473
  4.7505e+009      0.83467        31.197        0.5184       -56.513        0.5184       -56.513       0.83467        31.197
