! L-03C2N7
! Data taken by Rita
! Created Thu Jun 15 17:28:34 2006
# hz S ma R 50
! 2 Port Network Data from SP1.SP block
       5e+007    0.0088361        67.173       0.99661      -0.46822       0.99661      -0.46822     0.0088361        67.173
   8.975e+007     0.015172        74.234       0.99598      -0.83998       0.99598      -0.83998      0.015172        74.234
   1.295e+008     0.021605        76.885       0.99532       -1.2113       0.99532       -1.2113      0.021605        76.885
  1.6925e+008     0.028058        78.194       0.99464       -1.5823       0.99464       -1.5823      0.028058        78.194
    2.09e+008     0.034514        78.929       0.99395       -1.9529       0.99395       -1.9529      0.034514        78.929
  2.4875e+008     0.040966        79.362       0.99325       -2.3232       0.99325       -2.3232      0.040966        79.362
   2.885e+008     0.047414        79.614       0.99255       -2.6931       0.99255       -2.6931      0.047414        79.614
  3.2825e+008     0.053855        79.749       0.99183       -3.0629       0.99183       -3.0629      0.053855        79.749
    3.68e+008      0.06029          79.8        0.9911       -3.4324        0.9911       -3.4324       0.06029          79.8
  4.0775e+008     0.066719        79.791       0.99035       -3.8016       0.99035       -3.8016      0.066719        79.791
   4.475e+008      0.07314        79.734       0.98958       -4.1706       0.98958       -4.1706       0.07314        79.734
  4.8725e+008     0.079555        79.639       0.98879       -4.5394       0.98879       -4.5394      0.079555        79.639
    5.27e+008     0.085963        79.514       0.98798        -4.908       0.98798        -4.908      0.085963        79.514
  5.6675e+008     0.092364        79.365       0.98714       -5.2764       0.98714       -5.2764      0.092364        79.365
   6.065e+008     0.098757        79.194       0.98627       -5.6446       0.98627       -5.6446      0.098757        79.194
  6.4625e+008      0.10514        79.005       0.98537       -6.0125       0.98537       -6.0125       0.10514        79.005
    6.86e+008      0.11152        78.801       0.98444       -6.3803       0.98444       -6.3803       0.11152        78.801
  7.2575e+008      0.11789        78.584       0.98348       -6.7478       0.98348       -6.7478       0.11789        78.584
   7.655e+008      0.12425        78.355       0.98249       -7.1151       0.98249       -7.1151       0.12425        78.355
  8.0525e+008       0.1306        78.116       0.98146       -7.4823       0.98146       -7.4823        0.1306        78.116
    8.45e+008      0.13695        77.868        0.9804       -7.8492        0.9804       -7.8492       0.13695        77.868
  8.8475e+008      0.14328        77.612       0.97931       -8.2158       0.97931       -8.2158       0.14328        77.612
   9.245e+008      0.14961        77.349       0.97819       -8.5823       0.97819       -8.5823       0.14961        77.349
  9.6425e+008      0.15592        77.079       0.97703       -8.9485       0.97703       -8.9485       0.15592        77.079
   1.004e+009      0.16223        76.804       0.97583       -9.3145       0.97583       -9.3145       0.16223        76.804
  1.0438e+009      0.16852        76.523        0.9746       -9.6803        0.9746       -9.6803       0.16852        76.523
  1.0835e+009       0.1748        76.237       0.97334       -10.046       0.97334       -10.046        0.1748        76.237
  1.1233e+009      0.18108        75.948       0.97204       -10.411       0.97204       -10.411       0.18108        75.948
   1.163e+009      0.18734        75.654        0.9707       -10.776        0.9707       -10.776       0.18734        75.654
  1.2028e+009      0.19359        75.357       0.96933       -11.141       0.96933       -11.141       0.19359        75.357
  1.2425e+009      0.19982        75.056       0.96792       -11.506       0.96792       -11.506       0.19982        75.056
  1.2823e+009      0.20605        74.753       0.96648        -11.87       0.96648        -11.87       0.20605        74.753
   1.322e+009      0.21226        74.446         0.965       -12.234         0.965       -12.234       0.21226        74.446
  1.3618e+009      0.21846        74.138       0.96348       -12.598       0.96348       -12.598       0.21846        74.138
  1.4015e+009      0.22465        73.827       0.96193       -12.961       0.96193       -12.961       0.22465        73.827
  1.4413e+009      0.23082        73.513       0.96035       -13.325       0.96035       -13.325       0.23082        73.513
   1.481e+009      0.23698        73.198       0.95873       -13.688       0.95873       -13.688       0.23698        73.198
  1.5208e+009      0.24312        72.881       0.95707        -14.05       0.95707        -14.05       0.24312        72.881
  1.5605e+009      0.24925        72.562       0.95537       -14.413       0.95537       -14.413       0.24925        72.562
  1.6003e+009      0.25537        72.242       0.95365       -14.775       0.95365       -14.775       0.25537        72.242
    1.64e+009      0.26147         71.92       0.95188       -15.137       0.95188       -15.137       0.26147         71.92
  1.6798e+009      0.26755        71.597       0.95008       -15.498       0.95008       -15.498       0.26755        71.597
  1.7195e+009      0.27362        71.273       0.94825       -15.859       0.94825       -15.859       0.27362        71.273
  1.7593e+009      0.27967        70.948       0.94638        -16.22       0.94638        -16.22       0.27967        70.948
   1.799e+009      0.28571        70.621       0.94447       -16.581       0.94447       -16.581       0.28571        70.621
  1.8388e+009      0.29173        70.294       0.94253       -16.941       0.94253       -16.941       0.29173        70.294
  1.8785e+009      0.29773        69.965       0.94055       -17.301       0.94055       -17.301       0.29773        69.965
  1.9183e+009      0.30372        69.636       0.93855       -17.661       0.93855       -17.661       0.30372        69.636
   1.958e+009      0.30969        69.306        0.9365        -18.02        0.9365        -18.02       0.30969        69.306
  1.9978e+009      0.31564        68.975       0.93442       -18.379       0.93442       -18.379       0.31564        68.975
  2.0375e+009      0.32157        68.644       0.93231       -18.738       0.93231       -18.738       0.32157        68.644
  2.0773e+009      0.32749        68.312       0.93016       -19.096       0.93016       -19.096       0.32749        68.312
   2.117e+009      0.33338         67.98       0.92798       -19.454       0.92798       -19.454       0.33338         67.98
  2.1568e+009      0.33926        67.647       0.92577       -19.812       0.92577       -19.812       0.33926        67.647
  2.1965e+009      0.34512        67.313       0.92352       -20.169       0.92352       -20.169       0.34512        67.313
  2.2363e+009      0.35096        66.979       0.92124       -20.526       0.92124       -20.526       0.35096        66.979
   2.276e+009      0.35678        66.645       0.91892       -20.882       0.91892       -20.882       0.35678        66.645
  2.3158e+009      0.36258         66.31       0.91657       -21.238       0.91657       -21.238       0.36258         66.31
  2.3555e+009      0.36836        65.976       0.91419       -21.594       0.91419       -21.594       0.36836        65.976
  2.3953e+009      0.37412         65.64       0.91178       -21.949       0.91178       -21.949       0.37412         65.64
   2.435e+009      0.37986        65.305       0.90934       -22.304       0.90934       -22.304       0.37986        65.305
  2.4748e+009      0.38557        64.969       0.90686       -22.659       0.90686       -22.659       0.38557        64.969
  2.5145e+009      0.39127        64.634       0.90435       -23.013       0.90435       -23.013       0.39127        64.634
  2.5543e+009      0.39695        64.298       0.90181       -23.367       0.90181       -23.367       0.39695        64.298
   2.594e+009       0.4026        63.961       0.89924        -23.72       0.89924        -23.72        0.4026        63.961
  2.6338e+009      0.40823        63.625       0.89663       -24.073       0.89663       -24.073       0.40823        63.625
  2.6735e+009      0.41384        63.289         0.894       -24.426         0.894       -24.426       0.41384        63.289
  2.7133e+009      0.41943        62.953       0.89133       -24.778       0.89133       -24.778       0.41943        62.953
   2.753e+009        0.425        62.616       0.88863        -25.13       0.88863        -25.13         0.425        62.616
  2.7928e+009      0.43054         62.28       0.88591       -25.481       0.88591       -25.481       0.43054         62.28
  2.8325e+009      0.43606        61.943       0.88315       -25.832       0.88315       -25.832       0.43606        61.943
  2.8723e+009      0.44155        61.607       0.88036       -26.182       0.88036       -26.182       0.44155        61.607
   2.912e+009      0.44703        61.271       0.87755       -26.532       0.87755       -26.532       0.44703        61.271
  2.9518e+009      0.45248        60.934        0.8747       -26.882        0.8747       -26.882       0.45248        60.934
  2.9915e+009       0.4579        60.598       0.87182       -27.231       0.87182       -27.231        0.4579        60.598
  3.0313e+009       0.4633        60.262       0.86892       -27.579       0.86892       -27.579        0.4633        60.262
   3.071e+009      0.46868        59.926       0.86599       -27.927       0.86599       -27.927       0.46868        59.926
  3.1108e+009      0.47403         59.59       0.86303       -28.275       0.86303       -28.275       0.47403         59.59
  3.1505e+009      0.47936        59.254       0.86004       -28.622       0.86004       -28.622       0.47936        59.254
  3.1903e+009      0.48466        58.919       0.85702       -28.969       0.85702       -28.969       0.48466        58.919
    3.23e+009      0.48994        58.583       0.85397       -29.315       0.85397       -29.315       0.48994        58.583
  3.2698e+009      0.49519        58.248        0.8509       -29.661        0.8509       -29.661       0.49519        58.248
  3.3095e+009      0.50042        57.913        0.8478       -30.006        0.8478       -30.006       0.50042        57.913
  3.3493e+009      0.50562        57.578       0.84468       -30.351       0.84468       -30.351       0.50562        57.578
   3.389e+009       0.5108        57.244       0.84152       -30.695       0.84152       -30.695        0.5108        57.244
  3.4288e+009      0.51595        56.909       0.83834       -31.039       0.83834       -31.039       0.51595        56.909
  3.4685e+009      0.52107        56.575       0.83514       -31.382       0.83514       -31.382       0.52107        56.575
  3.5083e+009      0.52617        56.241       0.83191       -31.725       0.83191       -31.725       0.52617        56.241
   3.548e+009      0.53124        55.908       0.82865       -32.067       0.82865       -32.067       0.53124        55.908
  3.5878e+009      0.53629        55.574       0.82537       -32.409       0.82537       -32.409       0.53629        55.574
  3.6275e+009       0.5413        55.241       0.82206        -32.75       0.82206        -32.75        0.5413        55.241
  3.6673e+009      0.54629        54.908       0.81873        -33.09       0.81873        -33.09       0.54629        54.908
   3.707e+009      0.55126        54.576       0.81538        -33.43       0.81538        -33.43       0.55126        54.576
  3.7468e+009      0.55619        54.244         0.812        -33.77         0.812        -33.77       0.55619        54.244
  3.7865e+009       0.5611        53.912       0.80859       -34.109       0.80859       -34.109        0.5611        53.912
  3.8263e+009      0.56599         53.58       0.80517       -34.447       0.80517       -34.447       0.56599         53.58
   3.866e+009      0.57084        53.249       0.80172       -34.785       0.80172       -34.785       0.57084        53.249
  3.9058e+009      0.57566        52.918       0.79824       -35.123       0.79824       -35.123       0.57566        52.918
  3.9455e+009      0.58046        52.588       0.79475       -35.459       0.79475       -35.459       0.58046        52.588
  3.9853e+009      0.58523        52.258       0.79123       -35.796       0.79123       -35.796       0.58523        52.258
   4.025e+009      0.58997        51.928       0.78769       -36.131       0.78769       -36.131       0.58997        51.928
  4.0648e+009      0.59469        51.599       0.78413       -36.466       0.78413       -36.466       0.59469        51.599
  4.1045e+009      0.59937         51.27       0.78054       -36.801       0.78054       -36.801       0.59937         51.27
  4.1443e+009      0.60403        50.941       0.77694       -37.135       0.77694       -37.135       0.60403        50.941
   4.184e+009      0.60866        50.613       0.77331       -37.468       0.77331       -37.468       0.60866        50.613
  4.2238e+009      0.61326        50.285       0.76966         -37.8       0.76966         -37.8       0.61326        50.285
  4.2635e+009      0.61783        49.958         0.766       -38.133         0.766       -38.133       0.61783        49.958
  4.3033e+009      0.62237        49.631       0.76231       -38.464       0.76231       -38.464       0.62237        49.631
   4.343e+009      0.62688        49.305        0.7586       -38.795        0.7586       -38.795       0.62688        49.305
  4.3828e+009      0.63136        48.979       0.75488       -39.125       0.75488       -39.125       0.63136        48.979
  4.4225e+009      0.63582        48.653       0.75113       -39.455       0.75113       -39.455       0.63582        48.653
  4.4623e+009      0.64024        48.328       0.74737       -39.784       0.74737       -39.784       0.64024        48.328
   4.502e+009      0.64463        48.003       0.74358       -40.112       0.74358       -40.112       0.64463        48.003
  4.5418e+009        0.649        47.679       0.73978        -40.44       0.73978        -40.44         0.649        47.679
  4.5815e+009      0.65333        47.355       0.73596       -40.767       0.73596       -40.767       0.65333        47.355
  4.6213e+009      0.65764        47.032       0.73213       -41.093       0.73213       -41.093       0.65764        47.032
   4.661e+009      0.66192        46.709       0.72827       -41.419       0.72827       -41.419       0.66192        46.709
  4.7008e+009      0.66616        46.387        0.7244       -41.744        0.7244       -41.744       0.66616        46.387
  4.7405e+009      0.67038        46.065       0.72051       -42.069       0.72051       -42.069       0.67038        46.065
  4.7803e+009      0.67457        45.744       0.71661       -42.393       0.71661       -42.393       0.67457        45.744
    4.82e+009      0.67872        45.423       0.71269       -42.716       0.71269       -42.716       0.67872        45.423
  4.8598e+009      0.68285        45.103       0.70875       -43.039       0.70875       -43.039       0.68285        45.103
  4.8995e+009      0.68695        44.784        0.7048        -43.36        0.7048        -43.36       0.68695        44.784
  4.9393e+009      0.69101        44.464       0.70083       -43.682       0.70083       -43.682       0.69101        44.464
   4.979e+009      0.69505        44.146       0.69685       -44.002       0.69685       -44.002       0.69505        44.146
  5.0188e+009      0.69905        43.828       0.69285       -44.322       0.69285       -44.322       0.69905        43.828
  5.0585e+009      0.70303         43.51       0.68884       -44.641       0.68884       -44.641       0.70303         43.51
  5.0983e+009      0.70697        43.193       0.68482        -44.96       0.68482        -44.96       0.70697        43.193
   5.138e+009      0.71089        42.877       0.68078       -45.277       0.68078       -45.277       0.71089        42.877
  5.1778e+009      0.71477        42.561       0.67672       -45.594       0.67672       -45.594       0.71477        42.561
  5.2175e+009      0.71863        42.245       0.67266       -45.911       0.67266       -45.911       0.71863        42.245
  5.2573e+009      0.72245        41.931       0.66858       -46.226       0.66858       -46.226       0.72245        41.931
   5.297e+009      0.72625        41.616       0.66448       -46.541       0.66448       -46.541       0.72625        41.616
  5.3368e+009      0.73001        41.303       0.66038       -46.855       0.66038       -46.855       0.73001        41.303
  5.3765e+009      0.73374         40.99       0.65626       -47.169       0.65626       -47.169       0.73374         40.99
  5.4163e+009      0.73744        40.677       0.65213       -47.482       0.65213       -47.482       0.73744        40.677
   5.456e+009      0.74111        40.365       0.64799       -47.794       0.64799       -47.794       0.74111        40.365
  5.4958e+009      0.74476        40.054       0.64384       -48.105       0.64384       -48.105       0.74476        40.054
  5.5355e+009      0.74837        39.743       0.63968       -48.416       0.63968       -48.416       0.74837        39.743
  5.5753e+009      0.75195        39.433       0.63551       -48.726       0.63551       -48.726       0.75195        39.433
   5.615e+009       0.7555        39.124       0.63132       -49.035       0.63132       -49.035        0.7555        39.124
  5.6548e+009      0.75901        38.815       0.62713       -49.343       0.62713       -49.343       0.75901        38.815
  5.6945e+009       0.7625        38.507       0.62293       -49.651       0.62293       -49.651        0.7625        38.507
  5.7343e+009      0.76596        38.199       0.61871       -49.957       0.61871       -49.957       0.76596        38.199
   5.774e+009      0.76939        37.892       0.61449       -50.263       0.61449       -50.263       0.76939        37.892
  5.8138e+009      0.77279        37.585       0.61026       -50.569       0.61026       -50.569       0.77279        37.585
  5.8535e+009      0.77615         37.28       0.60602       -50.873       0.60602       -50.873       0.77615         37.28
  5.8933e+009      0.77949        36.974       0.60177       -51.177       0.60177       -51.177       0.77949        36.974
   5.933e+009       0.7828         36.67       0.59752        -51.48       0.59752        -51.48        0.7828         36.67
  5.9728e+009      0.78607        36.366       0.59325       -51.782       0.59325       -51.782       0.78607        36.366
  6.0125e+009      0.78932        36.063       0.58898       -52.084       0.58898       -52.084       0.78932        36.063
  6.0523e+009      0.79254         35.76        0.5847       -52.384        0.5847       -52.384       0.79254         35.76
   6.092e+009      0.79572        35.458       0.58041       -52.684       0.58041       -52.684       0.79572        35.458
  6.1318e+009      0.79888        35.157       0.57612       -52.983       0.57612       -52.983       0.79888        35.157
  6.1715e+009        0.802        34.856       0.57182       -53.281       0.57182       -53.281         0.802        34.856
  6.2113e+009       0.8051        34.556       0.56751       -53.579       0.56751       -53.579        0.8051        34.556
   6.251e+009      0.80816        34.257        0.5632       -53.875        0.5632       -53.875       0.80816        34.257
  6.2908e+009       0.8112        33.958       0.55888       -54.171       0.55888       -54.171        0.8112        33.958
  6.3305e+009       0.8142         33.66       0.55456       -54.466       0.55456       -54.466        0.8142         33.66
