! Data Taken on a HP 8720C VNA using a shunt-through fixture with TRL* de-embedding
#	mhz	s	ma	r	50
50	0.96017	175.78957	0.05587	73.44465	0.05587	73.44465	0.96017	175.78957
70	0.99051	175.51018	0.07584	75.3697	0.07584	75.3697	0.99051	175.51018
90	0.98417	173.78433	0.09379	74.63035	0.09379	74.63035	0.98417	173.78433
110	0.97198	172.50285	0.11185	74.1217	0.11185	74.1217	0.97198	172.50285
130	0.97005	171.75531	0.13121	74.30903	0.13121	74.30903	0.97005	171.75531
150	0.97981	169.83003	0.15208	73.2278	0.15208	73.2278	0.97981	169.83003
170	0.96593	168.98932	0.16779	72.35742	0.16779	72.35742	0.96593	168.98932
190	0.96148	168.02007	0.18603	71.54348	0.18603	71.54348	0.96148	168.02007
210	0.95682	166.70516	0.20405	70.45172	0.20405	70.45172	0.95682	166.70516
230	0.9494	165.31698	0.22109	69.30115	0.22109	69.30115	0.9494	165.31698
250	0.94385	164.6175	0.23837	68.86401	0.23837	68.86401	0.94385	164.6175
270	0.94407	163.26027	0.25796	67.73627	0.25796	67.73627	0.94407	163.26027
290	0.93313	161.88775	0.27409	66.64453	0.27409	66.64453	0.93313	161.88775
310	0.92425	160.86722	0.28965	65.87553	0.28965	65.87553	0.92425	160.86722
330	0.9219	159.92917	0.30614	65.16198	0.30614	65.16198	0.9219	159.92917
350	0.92177	158.16724	0.32366	63.68259	0.32366	63.68259	0.92177	158.16724
370	0.90963	157.46053	0.33741	62.98709	0.33741	62.98709	0.90963	157.46053
390	0.90727	156.50342	0.35397	62.10859	0.35397	62.10859	0.90727	156.50342
410	0.90306	155.2487	0.36959	60.98807	0.36959	60.98807	0.90306	155.2487
430	0.89415	153.99881	0.38331	59.88069	0.38331	59.88069	0.89415	153.99881
450	0.88642	153.40584	0.39696	59.35579	0.39696	59.35579	0.88642	153.40584
470	0.88171	152.31149	0.41246	58.33203	0.41246	58.33203	0.88171	152.31149
490	0.86699	149.2954	0.44845	56.12949	0.44845	56.12949	0.86699	149.2954
510	0.85453	146.85028	0.47723	54.35794	0.47723	54.35794	0.85453	146.85028
530	0.84851	145.68764	0.4917	53.44442	0.4917	53.44442	0.84851	145.68764
550	0.84498	144.73776	0.5054	52.63328	0.5054	52.63328	0.84498	144.73776
570	0.83688	143.85008	0.51854	51.68003	0.51854	51.68003	0.83688	143.85008
590	0.83049	143.05094	0.52866	50.83844	0.52866	50.83844	0.83049	143.05094
610	0.82172	142.16383	0.53988	50.07422	0.53988	50.07422	0.82172	142.16383
630	0.8114	141.17593	0.55249	49.26077	0.55249	49.26077	0.8114	141.17593
650	0.80531	140.23807	0.56303	48.17922	0.56303	48.17922	0.80531	140.23807
670	0.79629	139.01817	0.57391	47.04436	0.57391	47.04436	0.79629	139.01817
690	0.79059	138.0037	0.58135	46.198	0.58135	46.198	0.79059	138.0037
710	0.78603	137.09101	0.59208	45.3913	0.59208	45.3913	0.78603	137.09101
730	0.77997	136.24835	0.60507	44.53225	0.60507	44.53225	0.77997	136.24835
750	0.76935	135.51587	0.6115	43.68564	0.6115	43.68564	0.76935	135.51587
770	0.76375	134.94229	0.62439	42.71605	0.62439	42.71605	0.76375	134.94229
790	0.75753	134.10321	0.63305	41.80209	0.63305	41.80209	0.75753	134.10321
810	0.74753	133.35781	0.6399	41.12433	0.6399	41.12433	0.74753	133.35781
830	0.73544	132.67828	0.64689	40.51635	0.64689	40.51635	0.73544	132.67828
850	0.72784	131.6499	0.65548	39.46471	0.65548	39.46471	0.72784	131.6499
870	0.71799	130.74189	0.66531	38.59015	0.66531	38.59015	0.71799	130.74189
890	0.70942	129.95542	0.67144	37.93978	0.67144	37.93978	0.70942	129.95542
910	0.70346	129.09443	0.67962	37.20072	0.67962	37.20072	0.70346	129.09443
930	0.69808	128.14833	0.68919	36.28926	0.68919	36.28926	0.69808	128.14833
950	0.68779	127.29191	0.69302	35.35085	0.69302	35.35085	0.68779	127.29191
970	0.68238	126.92226	0.70324	34.87593	0.70324	34.87593	0.68238	126.92226
990	0.67619	126.24991	0.70932	34.18152	0.70932	34.18152	0.67619	126.24991
1010	0.66801	125.48121	0.71539	33.51117	0.71539	33.51117	0.66801	125.48121
1030	0.65909	124.69389	0.72235	32.89256	0.72235	32.89256	0.65909	124.69389
1050	0.65317	123.83707	0.7279	32.13754	0.7279	32.13754	0.65317	123.83707
1070	0.64426	122.86134	0.73275	31.41685	0.73275	31.41685	0.64426	122.86134
1090	0.63719	122.05548	0.73995	30.79044	0.73995	30.79044	0.63719	122.05548
1110	0.63177	121.39707	0.74692	30.17294	0.74692	30.17294	0.63177	121.39707
1130	0.62732	120.783	0.75269	29.51149	0.75269	29.51149	0.62732	120.783
1150	0.62268	120.02944	0.75797	28.78573	0.75797	28.78573	0.62268	120.02944
1170	0.61721	119.25663	0.76385	28.1831	0.76385	28.1831	0.61721	119.25663
1190	0.61036	118.7548	0.76729	27.55735	0.76729	27.55735	0.61036	118.7548
1210	0.60355	118.20624	0.77211	27.04684	0.77211	27.04684	0.60355	118.20624
1230	0.59689	117.48124	0.77761	26.56447	0.77761	26.56447	0.59689	117.48124
1250	0.58911	116.63806	0.77852	25.79764	0.77852	25.79764	0.58911	116.63806
1270	0.5847	116.23127	0.78409	25.59758	0.78409	25.59758	0.5847	116.23127
1290	0.58137	115.44896	0.79012	24.7061	0.79012	24.7061	0.58137	115.44896
1310	0.57558	114.68694	0.79517	23.89055	0.79517	23.89055	0.57558	114.68694
1330	0.56791	114.10268	0.79937	23.42156	0.79937	23.42156	0.56791	114.10268
1350	0.56305	113.61533	0.8044	23.073	0.8044	23.073	0.56305	113.61533
1370	0.56115	112.82395	0.80939	22.35502	0.80939	22.35502	0.56115	112.82395
1390	0.5557	112.278	0.81095	21.96835	0.81095	21.96835	0.5557	112.278
1410	0.55069	111.87965	0.81499	21.55475	0.81499	21.55475	0.55069	111.87965
1430	0.54646	111.46749	0.82098	21.00959	0.82098	21.00959	0.54646	111.46749
1450	0.53972	110.81654	0.82192	20.48185	0.82192	20.48185	0.53972	110.81654
1470	0.53187	110.38863	0.82343	20.17831	0.82343	20.17831	0.53187	110.38863
1490	0.5276	109.76805	0.8286	19.4306	0.8286	19.4306	0.5276	109.76805
1510	0.52222	109.21116	0.83218	18.75723	0.83218	18.75723	0.52222	109.21116
1530	0.51541	108.72518	0.834	18.29961	0.834	18.29961	0.51541	108.72518
1550	0.51112	108.06821	0.83897	17.82201	0.83897	17.82201	0.51112	108.06821
1570	0.5088	107.47289	0.84146	17.28689	0.84146	17.28689	0.5088	107.47289
1590	0.50387	106.75129	0.84555	16.781	0.84555	16.781	0.50387	106.75129
1610	0.49918	106.27481	0.84867	16.38631	0.84867	16.38631	0.49918	106.27481
1630	0.49517	106.06796	0.85043	16.05177	0.85043	16.05177	0.49517	106.06796
1650	0.48994	105.80838	0.85261	15.59327	0.85261	15.59327	0.48994	105.80838
1670	0.48392	105.19207	0.85481	15.10129	0.85481	15.10129	0.48392	105.19207
1690	0.47655	104.59549	0.85644	14.55674	0.85644	14.55674	0.47655	104.59549
1710	0.4711	104.04915	0.85954	14.16027	0.85954	14.16027	0.4711	104.04915
1730	0.46842	103.49287	0.86476	13.8628	0.86476	13.8628	0.46842	103.49287
1750	0.46687	102.7758	0.87132	13.36554	0.87132	13.36554	0.46687	102.7758
1770	0.46262	102.05898	0.86814	12.8326	0.86814	12.8326	0.46262	102.05898
1790	0.45954	101.84053	0.87107	12.64679	0.87107	12.64679	0.45954	101.84053
1810	0.45627	101.57084	0.87371	12.27057	0.87371	12.27057	0.45627	101.57084
1830	0.45156	101.14848	0.87404	11.65038	0.87404	11.65038	0.45156	101.14848
1850	0.44429	100.92016	0.87449	11.21661	0.87449	11.21661	0.44429	100.92016
1870	0.43952	100.5144	0.87895	10.92593	0.87895	10.92593	0.43952	100.5144
1890	0.43453	99.73258	0.88263	10.46415	0.88263	10.46415	0.43453	99.73258
1910	0.43013	99.02175	0.88476	10.11012	0.88476	10.11012	0.43013	99.02175
1930	0.42703	98.5014	0.88621	9.85343	0.88621	9.85343	0.42703	98.5014
1950	0.42591	97.96347	0.88956	9.39446	0.88956	9.39446	0.42591	97.96347
1970	0.42225	97.31453	0.89059	8.93504	0.89059	8.93504	0.42225	97.31453
1990	0.4198	97.04115	0.88989	8.58633	0.88989	8.58633	0.4198	97.04115
2010	0.41669	96.87533	0.89154	8.26498	0.89154	8.26498	0.41669	96.87533
2030	0.4125	96.63269	0.89557	7.89121	0.89557	7.89121	0.4125	96.63269
2050	0.4082	96.21247	0.89796	7.38876	0.89796	7.38876	0.4082	96.21247
2070	0.4029	95.61895	0.8982	6.81096	0.8982	6.81096	0.4029	95.61895
2090	0.39865	95.17116	0.89726	6.66571	0.89726	6.66571	0.39865	95.17116
2110	0.39595	94.70193	0.8995	6.27942	0.8995	6.27942	0.39595	94.70193
2130	0.39429	94.21896	0.90412	5.6525	0.90412	5.6525	0.39429	94.21896
2150	0.39212	93.90484	0.9052	5.45938	0.9052	5.45938	0.39212	93.90484
2170	0.38903	93.60552	0.9054	5.16182	0.9054	5.16182	0.38903	93.60552
2190	0.38664	93.36975	0.90747	4.739	0.90747	4.739	0.38664	93.36975
2210	0.38338	93.08953	0.90824	4.3542	0.90824	4.3542	0.38338	93.08953
2230	0.37913	92.74663	0.90827	4.03566	0.90827	4.03566	0.37913	92.74663
2250	0.37516	92.41262	0.91185	3.67657	0.91185	3.67657	0.37516	92.41262
2270	0.37257	91.97407	0.9148	3.23307	0.9148	3.23307	0.37257	91.97407
2290	0.36896	91.54055	0.91648	2.77541	0.91648	2.77541	0.36896	91.54055
2310	0.36513	91.17701	0.91779	2.51183	0.91779	2.51183	0.36513	91.17701
2330	0.36181	90.83541	0.91881	2.34672	0.91881	2.34672	0.36181	90.83541
2350	0.35976	90.3548	0.9188	1.88056	0.9188	1.88056	0.35976	90.3548
2370	0.3559	90.05717	0.91827	1.47621	0.91827	1.47621	0.3559	90.05717
2390	0.35326	89.84712	0.92224	1.14441	0.92224	1.14441	0.35326	89.84712
2410	0.35047	89.58265	0.92453	0.86917	0.92453	0.86917	0.35047	89.58265
2430	0.34717	89.22395	0.92421	0.61348	0.92421	0.61348	0.34717	89.22395
2450	0.344	88.8334	0.92558	0.31926	0.92558	0.31926	0.344	88.8334
2470	0.34234	88.57811	0.92811	0.02921	0.92811	0.02921	0.34234	88.57811
2490	0.33937	88.34608	0.92848	-0.40044	0.92848	-0.40044	0.33937	88.34608
2510	0.33609	88.11547	0.92985	-0.7673	0.92985	-0.7673	0.33609	88.11547
2530	0.33302	87.91703	0.93148	-1.05756	0.93148	-1.05756	0.33302	87.91703
2550	0.33027	87.83413	0.92873	-1.44607	0.92873	-1.44607	0.33027	87.83413
2570	0.328	87.54976	0.93339	-1.54068	0.93339	-1.54068	0.328	87.54976
2590	0.32427	87.30232	0.93437	-2.00284	0.93437	-2.00284	0.32427	87.30232
2610	0.32034	86.77372	0.93493	-2.4618	0.93493	-2.4618	0.32034	86.77372
2630	0.31724	86.11327	0.93587	-2.75053	0.93587	-2.75053	0.31724	86.11327
2650	0.31577	85.93766	0.93553	-2.90571	0.93553	-2.90571	0.31577	85.93766
2670	0.3139	85.70314	0.9382	-3.29435	0.9382	-3.29435	0.3139	85.70314
2690	0.31166	85.54666	0.9379	-3.64624	0.9379	-3.64624	0.31166	85.54666
2710	0.30982	85.47518	0.93824	-4.02771	0.93824	-4.02771	0.30982	85.47518
2730	0.30752	85.38697	0.94001	-4.41499	0.94001	-4.41499	0.30752	85.38697
2750	0.3023	85.0716	0.94121	-4.69422	0.94121	-4.69422	0.3023	85.0716
2770	0.29571	84.6934	0.9419	-4.98281	0.9419	-4.98281	0.29571	84.6934
2790	0.29444	84.29274	0.94219	-5.23773	0.94219	-5.23773	0.29444	84.29274
2810	0.29384	83.92003	0.94273	-5.73692	0.94273	-5.73692	0.29384	83.92003
2830	0.29189	83.60758	0.94383	-6.34471	0.94383	-6.34471	0.29189	83.60758
2850	0.28915	83.36965	0.94534	-6.51177	0.94534	-6.51177	0.28915	83.36965
2870	0.28721	83.27556	0.94698	-6.49745	0.94698	-6.49745	0.28721	83.27556
2890	0.28601	83.45308	0.94728	-6.76567	0.94728	-6.76567	0.28601	83.45308
2910	0.28417	83.44509	0.94834	-7.13958	0.94834	-7.13958	0.28417	83.44509
2930	0.28094	83.23446	0.94957	-7.479	0.94957	-7.479	0.28094	83.23446
2950	0.27615	83.24411	0.94762	-7.68048	0.94762	-7.68048	0.27615	83.24411
2970	0.27346	82.69916	0.9495	-7.87921	0.9495	-7.87921	0.27346	82.69916
2990	0.271	82.16196	0.95141	-8.34764	0.95141	-8.34764	0.271	82.16196
3010	0.26901	81.74921	0.95285	-8.62459	0.95285	-8.62459	0.26901	81.74921
3030	0.26748	81.46202	0.95326	-8.76295	0.95326	-8.76295	0.26748	81.46202
3050	0.26608	81.18589	0.95195	-9.32976	0.95195	-9.32976	0.26608	81.18589
3070	0.26229	81.0325	0.95294	-9.62954	0.95294	-9.62954	0.26229	81.0325
3090	0.26059	81.06609	0.95802	-9.99754	0.95802	-9.99754	0.26059	81.06609
3110	0.25788	81.12516	0.95863	-10.23972	0.95863	-10.23972	0.25788	81.12516
3130	0.25395	81.10328	0.95534	-10.33614	0.95534	-10.33614	0.25395	81.10328
3150	0.25151	80.94913	0.95785	-10.44102	0.95785	-10.44102	0.25151	80.94913
3170	0.24837	80.25446	0.95814	-10.90139	0.95814	-10.90139	0.24837	80.25446
3190	0.24581	79.69003	0.9564	-11.20224	0.9564	-11.20224	0.24581	79.69003
3210	0.24475	79.36363	0.9563	-11.49531	0.9563	-11.49531	0.24475	79.36363
3230	0.24439	79.32781	0.95811	-11.82793	0.95811	-11.82793	0.24439	79.32781
3250	0.24221	79.5799	0.95868	-12.14304	0.95868	-12.14304	0.24221	79.5799
3270	0.24084	79.40704	0.96492	-12.53595	0.96492	-12.53595	0.24084	79.40704
3290	0.23767	79.6062	0.96342	-12.76579	0.96342	-12.76579	0.23767	79.6062
3310	0.23404	79.68967	0.96107	-13.01758	0.96107	-13.01758	0.23404	79.68967
3330	0.23094	79.49185	0.96208	-13.25369	0.96208	-13.25369	0.23094	79.49185
3350	0.22899	79.16927	0.96792	-13.21383	0.96792	-13.21383	0.22899	79.16927
3370	0.22618	78.42821	0.9646	-13.89499	0.9646	-13.89499	0.22618	78.42821
3390	0.2239	78.01862	0.96538	-14.2261	0.96538	-14.2261	0.2239	78.01862
3410	0.22258	77.92399	0.9653	-14.46712	0.9653	-14.46712	0.22258	77.92399
3430	0.22131	78.09965	0.96374	-14.7255	0.96374	-14.7255	0.22131	78.09965
3450	0.21777	78.47276	0.96443	-14.95618	0.96443	-14.95618	0.21777	78.47276
3470	0.21524	77.86169	0.96661	-15.49445	0.96661	-15.49445	0.21524	77.86169
3490	0.21273	77.57812	0.96607	-15.78137	0.96607	-15.78137	0.21273	77.57812
3510	0.21026	77.4368	0.96654	-15.98988	0.96654	-15.98988	0.21026	77.4368
3530	0.20798	77.17206	0.96883	-16.19351	0.96883	-16.19351	0.20798	77.17206
3550	0.2062	76.43781	0.97083	-16.36647	0.97083	-16.36647	0.2062	76.43781
3570	0.20428	76.33366	0.96853	-16.62494	0.96853	-16.62494	0.20428	76.33366
3590	0.20242	76.17359	0.96933	-16.89008	0.96933	-16.89008	0.20242	76.17359
3610	0.20114	76.18404	0.97083	-17.15484	0.97083	-17.15484	0.20114	76.18404
3630	0.19971	76.29043	0.97151	-17.40273	0.97151	-17.40273	0.19971	76.29043
3650	0.19619	76.11723	0.97071	-17.60784	0.97071	-17.60784	0.19619	76.11723
3670	0.19357	76.14482	0.97469	-17.9431	0.97469	-17.9431	0.19357	76.14482
3690	0.19117	75.82335	0.97418	-18.32151	0.97418	-18.32151	0.19117	75.82335
3710	0.18912	75.46268	0.97275	-18.69495	0.97275	-18.69495	0.18912	75.46268
3730	0.18752	75.19086	0.97258	-19.02405	0.97258	-19.02405	0.18752	75.19086
3750	0.18651	74.95414	0.97444	-19.27819	0.97444	-19.27819	0.18651	74.95414
3770	0.18379	75.04939	0.97241	-19.3109	0.97241	-19.3109	0.18379	75.04939
3790	0.18211	75.05218	0.97483	-19.64868	0.97483	-19.64868	0.18211	75.05218
3810	0.18046	75.07525	0.97487	-19.99507	0.97487	-19.99507	0.18046	75.07525
3830	0.17816	75.01177	0.97257	-20.25371	0.97257	-20.25371	0.17816	75.01177
3850	0.17488	74.5353	0.97487	-20.52834	0.97487	-20.52834	0.17488	74.5353
3870	0.17219	74.28237	0.97567	-20.92765	0.97567	-20.92765	0.17219	74.28237
3890	0.17115	74.00827	0.97623	-20.9252	0.97623	-20.9252	0.17115	74.00827
3910	0.16973	73.47401	0.97767	-21.14248	0.97767	-21.14248	0.16973	73.47401
3930	0.16766	72.86377	0.97929	-21.61524	0.97929	-21.61524	0.16766	72.86377
3950	0.16637	72.78485	0.9785	-21.79345	0.9785	-21.79345	0.16637	72.78485
3970	0.1642	73.03629	0.9768	-21.98179	0.9768	-21.98179	0.1642	73.03629
3990	0.16257	73.294	0.97639	-22.20246	0.97639	-22.20246	0.16257	73.294
4010	0.16069	73.22651	0.97739	-22.50184	0.97739	-22.50184	0.16069	73.22651
4030	0.15833	72.79507	0.97925	-22.86542	0.97925	-22.86542	0.15833	72.79507
4050	0.15579	72.25362	0.9808	-23.21779	0.9808	-23.21779	0.15579	72.25362
4070	0.15444	72.12185	0.98128	-23.59733	0.98128	-23.59733	0.15444	72.12185
4090	0.15393	71.6371	0.98001	-23.78649	0.98001	-23.78649	0.15393	71.6371
4110	0.15261	71.26915	0.98091	-23.99221	0.98091	-23.99221	0.15261	71.26915
4130	0.15021	71.14242	0.98263	-24.2802	0.98263	-24.2802	0.15021	71.14242
4150	0.14786	71.03588	0.9786	-24.57497	0.9786	-24.57497	0.14786	71.03588
4170	0.14719	71.34338	0.97977	-24.75106	0.97977	-24.75106	0.14719	71.34338
4190	0.14562	71.27554	0.98247	-25.06174	0.98247	-25.06174	0.14562	71.27554
4210	0.14386	71.03573	0.98328	-25.31999	0.98328	-25.31999	0.14386	71.03573
4230	0.14233	70.72783	0.98283	-25.49201	0.98283	-25.49201	0.14233	70.72783
4250	0.14112	70.35618	0.98587	-25.69729	0.98587	-25.69729	0.14112	70.35618
4270	0.13786	70.35573	0.98224	-25.96885	0.98224	-25.96885	0.13786	70.35573
4290	0.13798	70.24761	0.98289	-26.35754	0.98289	-26.35754	0.13798	70.24761
4310	0.13822	69.90287	0.98402	-26.76147	0.98402	-26.76147	0.13822	69.90287
4330	0.13727	69.58915	0.98593	-27.12413	0.98593	-27.12413	0.13727	69.58915
4350	0.13579	69.97069	0.99302	-27.43444	0.99302	-27.43444	0.13579	69.97069
4370	0.13364	70.31561	0.98796	-27.42749	0.98796	-27.42749	0.13364	70.31561
4390	0.13173	70.47136	0.98477	-27.52238	0.98477	-27.52238	0.13173	70.47136
4410	0.12954	70.54889	0.98405	-27.72376	0.98405	-27.72376	0.12954	70.54889
4430	0.12725	70.32268	0.98514	-28.03104	0.98514	-28.03104	0.12725	70.32268
4450	0.12569	69.23066	0.98612	-28.43838	0.98612	-28.43838	0.12569	69.23066
4470	0.1238	69.1796	0.98599	-28.73513	0.98599	-28.73513	0.1238	69.1796
4490	0.12294	69.30333	0.98678	-28.94679	0.98678	-28.94679	0.12294	69.30333
4510	0.12162	69.48579	0.98806	-29.18034	0.98806	-29.18034	0.12162	69.48579
4530	0.11972	69.60393	0.9886	-29.44462	0.9886	-29.44462	0.11972	69.60393
4550	0.11849	69.52772	0.9864	-29.65034	0.9864	-29.65034	0.11849	69.52772
4570	0.117	69.79763	0.98833	-29.85722	0.98833	-29.85722	0.117	69.79763
4590	0.11471	69.77561	0.99244	-30.24451	0.99244	-30.24451	0.11471	69.77561
4610	0.11258	69.57755	0.99183	-30.53388	0.99183	-30.53388	0.11258	69.57755
4630	0.11084	69.44259	0.98739	-30.69914	0.98739	-30.69914	0.11084	69.44259
4650	0.10898	69.73314	0.98777	-30.96619	0.98777	-30.96619	0.10898	69.73314
4670	0.1081	68.23824	0.98508	-31.46285	0.98508	-31.46285	0.1081	68.23824
4690	0.10668	68.37318	0.9846	-31.60371	0.9846	-31.60371	0.10668	68.37318
4710	0.10544	68.89072	0.98607	-31.73549	0.98607	-31.73549	0.10544	68.89072
4730	0.10452	69.10959	0.98776	-31.98212	0.98776	-31.98212	0.10452	69.10959
4750	0.1034	68.91453	0.98656	-32.24473	0.98656	-32.24473	0.1034	68.91453
4770	0.10155	69.13844	0.98543	-32.47469	0.98543	-32.47469	0.10155	69.13844
4790	0.09951	69.11531	0.98753	-32.92097	0.98753	-32.92097	0.09951	69.11531
4810	0.09755	69.1865	0.98935	-33.15382	0.98935	-33.15382	0.09755	69.1865
4830	0.09591	69.20529	0.98965	-33.21946	0.98965	-33.21946	0.09591	69.20529
4850	0.0949	68.53688	0.9895	-33.64008	0.9895	-33.64008	0.0949	68.53688
4870	0.09298	68.27432	0.98829	-33.68321	0.98829	-33.68321	0.09298	68.27432
4890	0.09108	68.42794	0.99006	-33.90618	0.99006	-33.90618	0.09108	68.42794
4910	0.09001	68.34798	0.98942	-34.17718	0.98942	-34.17718	0.09001	68.34798
4930	0.08968	67.93625	0.98778	-34.423	0.98778	-34.423	0.08968	67.93625
4950	0.08919	67.64612	0.99325	-34.62902	0.99325	-34.62902	0.08919	67.64612
4970	0.08729	68.11054	0.98994	-34.81654	0.98994	-34.81654	0.08729	68.11054
4990	0.08586	68.42585	0.99061	-35.22505	0.99061	-35.22505	0.08586	68.42585
5010	0.08453	68.83055	0.98987	-35.48125	0.98987	-35.48125	0.08453	68.83055
5030	0.08306	69.12986	0.98774	-35.59356	0.98774	-35.59356	0.08306	69.12986
5050	0.08131	68.69577	0.98964	-35.95216	0.98964	-35.95216	0.08131	68.69577
5070	0.07923	68.47913	0.98872	-36.19388	0.98872	-36.19388	0.07923	68.47913
5090	0.07801	68.64841	0.98833	-36.50264	0.98833	-36.50264	0.07801	68.64841
5110	0.07708	68.69875	0.99007	-36.80002	0.99007	-36.80002	0.07708	68.69875
5130	0.07619	68.60135	0.99201	-37.03316	0.99201	-37.03316	0.07619	68.60135
5150	0.07536	68.8034	0.98869	-37.1748	0.98869	-37.1748	0.07536	68.8034
5170	0.07354	69.32677	0.99111	-37.33796	0.99111	-37.33796	0.07354	69.32677
5190	0.07193	69.82215	0.99189	-37.60562	0.99189	-37.60562	0.07193	69.82215
5210	0.07036	70.03118	0.99134	-37.92757	0.99134	-37.92757	0.07036	70.03118
5230	0.06878	70.03741	0.9897	-38.19729	0.9897	-38.19729	0.06878	70.03741
5250	0.06722	70.26635	0.98712	-38.25204	0.98712	-38.25204	0.06722	70.26635
5270	0.0659	69.78633	0.99009	-38.65719	0.99009	-38.65719	0.0659	69.78633
5290	0.06437	69.83278	0.98884	-39.0789	0.98884	-39.0789	0.06437	69.83278
5310	0.06353	70.38187	0.9889	-39.16112	0.9889	-39.16112	0.06353	70.38187
5330	0.06304	71.06357	0.99088	-39.07727	0.99088	-39.07727	0.06304	71.06357
5350	0.06134	71.16165	0.99044	-39.53026	0.99044	-39.53026	0.06134	71.16165
5370	0.05927	72.01992	0.99317	-39.89612	0.99317	-39.89612	0.05927	72.01992
5390	0.05716	72.97748	0.99181	-40.21174	0.99181	-40.21174	0.05716	72.97748
5410	0.05566	73.53612	0.99154	-40.50664	0.99154	-40.50664	0.05566	73.53612
5430	0.05453	73.60674	0.99345	-40.75067	0.99345	-40.75067	0.05453	73.60674
5450	0.05259	73.50937	0.99451	-40.85397	0.99451	-40.85397	0.05259	73.50937
