! Data Taken on a HP 8720C VNA using a series-through fixture with TRL* de-embedding
#	mhz	s	ma	r	50
50	0.00738	34.1539	0.98952	-1.53398	0.98952	-1.53398	0.00738	34.1539
70	0.01122	56.41542	0.98971	-1.28205	0.98971	-1.28205	0.01122	56.41542
90	0.01388	58.76663	0.98981	-1.03561	0.98981	-1.03561	0.01388	58.76663
110	0.01561	56.44428	0.99048	-1.00303	0.99048	-1.00303	0.01561	56.44428
130	0.01695	56.66505	0.9916	-1.17304	0.9916	-1.17304	0.01695	56.66505
150	0.01874	58.6256	0.99224	-1.31473	0.99224	-1.31473	0.01874	58.6256
170	0.02119	60.92972	0.99023	-1.62985	0.99023	-1.62985	0.02119	60.92972
190	0.02333	62.4139	0.98773	-1.78338	0.98773	-1.78338	0.02333	62.4139
210	0.02539	63.53784	0.9872	-1.86217	0.9872	-1.86217	0.02539	63.53784
230	0.02732	64.6935	0.98837	-1.9595	0.98837	-1.9595	0.02732	64.6935
250	0.02873	66.20511	0.98823	-2.17506	0.98823	-2.17506	0.02873	66.20511
270	0.03049	66.24381	0.9887	-2.03246	0.9887	-2.03246	0.03049	66.24381
290	0.03258	65.87014	0.98919	-2.36537	0.98919	-2.36537	0.03258	65.87014
310	0.0351	65.66077	0.98813	-2.61594	0.98813	-2.61594	0.0351	65.66077
330	0.03808	65.77286	0.98613	-2.66526	0.98613	-2.66526	0.03808	65.77286
350	0.04154	65.94402	0.98598	-2.83327	0.98598	-2.83327	0.04154	65.94402
370	0.04354	68.34084	0.98754	-2.91385	0.98754	-2.91385	0.04354	68.34084
390	0.0453	69.90474	0.98657	-3.07128	0.98657	-3.07128	0.0453	69.90474
410	0.04721	71.01875	0.9862	-3.34493	0.9862	-3.34493	0.04721	71.01875
430	0.04914	71.73114	0.98757	-3.58881	0.98757	-3.58881	0.04914	71.73114
450	0.05046	71.75546	0.98979	-3.47165	0.98979	-3.47165	0.05046	71.75546
470	0.05239	71.5979	0.98934	-3.62058	0.98934	-3.62058	0.05239	71.5979
490	0.05842	74.76191	0.98814	-4.08043	0.98814	-4.08043	0.05842	74.76191
510	0.0636	77.15579	0.98753	-4.54569	0.98753	-4.54569	0.0636	77.15579
530	0.06604	77.74658	0.98686	-4.78258	0.98686	-4.78258	0.06604	77.74658
550	0.06689	78.55999	0.98355	-4.629	0.98355	-4.629	0.06689	78.55999
570	0.06818	78.71211	0.9845	-4.81127	0.9845	-4.81127	0.06818	78.71211
590	0.07016	78.62351	0.98374	-4.86712	0.98374	-4.86712	0.07016	78.62351
610	0.07199	78.27945	0.98387	-5.01045	0.98387	-5.01045	0.07199	78.27945
630	0.0738	77.6944	0.98528	-5.23252	0.98528	-5.23252	0.0738	77.6944
650	0.0767	76.91204	0.98615	-5.30198	0.98615	-5.30198	0.0767	76.91204
670	0.08025	77.06134	0.98659	-5.56455	0.98659	-5.56455	0.08025	77.06134
690	0.08365	77.80062	0.983	-5.75253	0.983	-5.75253	0.08365	77.80062
710	0.08686	78.59932	0.98207	-5.89718	0.98207	-5.89718	0.08686	78.59932
730	0.08946	79.3913	0.9837	-6.02735	0.9837	-6.02735	0.08946	79.3913
750	0.09069	80.57492	0.98109	-6.16955	0.98109	-6.16955	0.09069	80.57492
770	0.09133	81.77874	0.98687	-6.44517	0.98687	-6.44517	0.09133	81.77874
790	0.09223	82.16322	0.98584	-6.44789	0.98584	-6.44789	0.09223	82.16322
810	0.09287	81.92206	0.98316	-6.45285	0.98316	-6.45285	0.09287	81.92206
830	0.09344	81.2469	0.98172	-6.62079	0.98172	-6.62079	0.09344	81.2469
850	0.09483	80.32739	0.98214	-6.99804	0.98214	-6.99804	0.09483	80.32739
870	0.09687	80.08	0.98323	-6.7983	0.98323	-6.7983	0.09687	80.08
890	0.0995	79.60641	0.98073	-7.07858	0.98073	-7.07858	0.0995	79.60641
910	0.10206	79.30632	0.98008	-7.28976	0.98008	-7.28976	0.10206	79.30632
930	0.10418	79.25477	0.98169	-7.3417	0.98169	-7.3417	0.10418	79.25477
950	0.1058	79.20217	0.98094	-7.60324	0.98094	-7.60324	0.1058	79.20217
970	0.10786	79.26839	0.9794	-7.74649	0.9794	-7.74649	0.10786	79.26839
990	0.10996	78.70331	0.9784	-7.87174	0.9784	-7.87174	0.10996	78.70331
1010	0.11215	77.902	0.97705	-8.04979	0.97705	-8.04979	0.11215	77.902
1030	0.11455	77.28186	0.97689	-8.2	0.97689	-8.2	0.11455	77.28186
1050	0.11738	77.28256	0.98188	-8.09031	0.98188	-8.09031	0.11738	77.28256
1070	0.12127	77.09277	0.97803	-8.406	0.97803	-8.406	0.12127	77.09277
1090	0.12448	77.1292	0.97723	-8.58446	0.97723	-8.58446	0.12448	77.1292
1110	0.12711	77.41629	0.97797	-8.6625	0.97797	-8.6625	0.12711	77.41629
1130	0.12928	77.8281	0.97804	-8.77802	0.97804	-8.77802	0.12928	77.8281
1150	0.13107	78.08833	0.97452	-9.17	0.97452	-9.17	0.13107	78.08833
1170	0.13304	78.14032	0.9751	-9.2619	0.9751	-9.2619	0.13304	78.14032
1190	0.13469	77.89021	0.97644	-9.39417	0.97644	-9.39417	0.13469	77.89021
1210	0.13657	77.56755	0.97668	-9.48482	0.97668	-9.48482	0.13657	77.56755
1230	0.13895	77.29095	0.97556	-9.55767	0.97556	-9.55767	0.13895	77.29095
1250	0.14182	77.06799	0.97441	-9.74228	0.97441	-9.74228	0.14182	77.06799
1270	0.14513	77.15511	0.97431	-9.86859	0.97431	-9.86859	0.14513	77.15511
1290	0.14805	77.10411	0.97394	-10.18499	0.97394	-10.18499	0.14805	77.10411
1310	0.15045	77.27762	0.97465	-10.31168	0.97465	-10.31168	0.15045	77.27762
1330	0.1524	77.69925	0.97576	-10.30819	0.97576	-10.30819	0.1524	77.69925
1350	0.15421	78.05353	0.97463	-10.67344	0.97463	-10.67344	0.15421	78.05353
1370	0.15652	77.86339	0.97285	-10.72249	0.97285	-10.72249	0.15652	77.86339
1390	0.15774	77.82327	0.97201	-10.71059	0.97201	-10.71059	0.15774	77.82327
1410	0.15954	77.75935	0.97309	-10.81688	0.97309	-10.81688	0.15954	77.75935
1430	0.16185	77.65692	0.97418	-11.03819	0.97418	-11.03819	0.16185	77.65692
1450	0.16287	77.66042	0.9705	-11.18909	0.9705	-11.18909	0.16287	77.66042
1470	0.1649	77.50262	0.97082	-11.27644	0.97082	-11.27644	0.1649	77.50262
1490	0.16693	77.3196	0.97183	-11.59683	0.97183	-11.59683	0.16693	77.3196
1510	0.16832	77.247	0.97126	-11.85687	0.97126	-11.85687	0.16832	77.247
1530	0.16965	77.16599	0.96923	-11.99857	0.96923	-11.99857	0.16965	77.16599
1550	0.17276	76.70327	0.96818	-12.19932	0.96818	-12.19932	0.17276	76.70327
1570	0.17421	76.46732	0.96912	-12.43114	0.96912	-12.43114	0.17421	76.46732
1590	0.17602	76.20951	0.96812	-12.57633	0.96812	-12.57633	0.17602	76.20951
1610	0.17861	76.1439	0.96811	-12.60975	0.96811	-12.60975	0.17861	76.1439
1630	0.18149	76.21918	0.96864	-12.61421	0.96864	-12.61421	0.18149	76.21918
1650	0.18333	76.11874	0.96595	-12.78052	0.96595	-12.78052	0.18333	76.11874
1670	0.1844	75.71642	0.96689	-12.95191	0.96689	-12.95191	0.1844	75.71642
1690	0.18612	75.67022	0.96603	-13.01414	0.96603	-13.01414	0.18612	75.67022
1710	0.18804	75.5878	0.96515	-13.08124	0.96515	-13.08124	0.18804	75.5878
1730	0.1903	75.26913	0.96524	-13.22281	0.96524	-13.22281	0.1903	75.26913
1750	0.19362	74.70647	0.9665	-13.46407	0.9665	-13.46407	0.19362	74.70647
1770	0.19585	74.5851	0.96438	-13.7078	0.96438	-13.7078	0.19585	74.5851
1790	0.19779	74.64047	0.96482	-13.76926	0.96482	-13.76926	0.19779	74.64047
1810	0.20008	74.62282	0.96424	-13.92897	0.96424	-13.92897	0.20008	74.62282
1830	0.20241	74.43452	0.96255	-14.14112	0.96255	-14.14112	0.20241	74.43452
1850	0.20356	74.13012	0.96313	-14.0336	0.96313	-14.0336	0.20356	74.13012
1870	0.20491	73.96111	0.96374	-14.19375	0.96374	-14.19375	0.20491	73.96111
1890	0.20714	73.75413	0.96332	-14.42575	0.96332	-14.42575	0.20714	73.75413
1910	0.20963	73.38112	0.96335	-14.58025	0.96335	-14.58025	0.20963	73.38112
1930	0.21204	72.90332	0.96363	-14.65665	0.96363	-14.65665	0.21204	72.90332
1950	0.21432	72.57127	0.96223	-14.80313	0.96223	-14.80313	0.21432	72.57127
1970	0.2172	72.29712	0.96077	-14.96186	0.96077	-14.96186	0.2172	72.29712
1990	0.21997	72.43378	0.95788	-15.1433	0.95788	-15.1433	0.21997	72.43378
2010	0.22276	72.51947	0.95685	-15.19535	0.95685	-15.19535	0.22276	72.51947
2030	0.22539	72.37817	0.95819	-15.20517	0.95819	-15.20517	0.22539	72.37817
2050	0.22737	72.11953	0.95964	-15.49914	0.95964	-15.49914	0.22737	72.11953
2070	0.22799	72.00265	0.9569	-15.73156	0.9569	-15.73156	0.22799	72.00265
2090	0.23029	71.99828	0.95302	-15.82127	0.95302	-15.82127	0.23029	71.99828
2110	0.23312	71.81566	0.95327	-16.03899	0.95327	-16.03899	0.23312	71.81566
2130	0.23555	71.54004	0.95636	-16.30618	0.95636	-16.30618	0.23555	71.54004
2150	0.23689	71.63274	0.95434	-16.19505	0.95434	-16.19505	0.23689	71.63274
2170	0.23889	71.30512	0.95144	-16.32557	0.95144	-16.32557	0.23889	71.30512
2190	0.24243	71.21117	0.95298	-16.5224	0.95298	-16.5224	0.24243	71.21117
2210	0.24473	71.04882	0.9529	-16.70963	0.9529	-16.70963	0.24473	71.04882
2230	0.2458	70.77031	0.95081	-16.84165	0.95081	-16.84165	0.2458	70.77031
2250	0.2484	70.58222	0.95199	-16.90314	0.95199	-16.90314	0.2484	70.58222
2270	0.25101	70.53883	0.95229	-17.22188	0.95229	-17.22188	0.25101	70.53883
2290	0.25316	70.28728	0.95354	-17.32799	0.95354	-17.32799	0.25316	70.28728
2310	0.25509	70.1101	0.95289	-17.36631	0.95289	-17.36631	0.25509	70.1101
2330	0.25712	70.02289	0.94998	-17.47431	0.94998	-17.47431	0.25712	70.02289
2350	0.25957	69.77431	0.94691	-17.7821	0.94691	-17.7821	0.25957	69.77431
2370	0.26036	69.84431	0.94831	-17.78912	0.94831	-17.78912	0.26036	69.84431
2390	0.26291	69.58324	0.94908	-17.84184	0.94908	-17.84184	0.26291	69.58324
2410	0.26543	69.4003	0.94754	-17.95362	0.94754	-17.95362	0.26543	69.4003
2430	0.26732	69.36401	0.9449	-18.10138	0.9449	-18.10138	0.26732	69.36401
2450	0.26919	69.2022	0.94531	-18.22555	0.94531	-18.22555	0.26919	69.2022
2470	0.27122	69.03741	0.94635	-18.4197	0.94635	-18.4197	0.27122	69.03741
2490	0.27256	68.83257	0.94497	-18.57761	0.94497	-18.57761	0.27256	68.83257
2510	0.27419	68.73979	0.94442	-18.74423	0.94442	-18.74423	0.27419	68.73979
2530	0.27651	68.74935	0.94475	-18.92608	0.94475	-18.92608	0.27651	68.74935
2550	0.27934	68.6897	0.94285	-19.0912	0.94285	-19.0912	0.27934	68.6897
2570	0.28033	68.50095	0.94353	-19.08323	0.94353	-19.08323	0.28033	68.50095
2590	0.28223	68.25493	0.94183	-19.22326	0.94183	-19.22326	0.28223	68.25493
2610	0.28388	67.92979	0.94021	-19.39552	0.94021	-19.39552	0.28388	67.92979
2630	0.28548	67.63397	0.9389	-19.5704	0.9389	-19.5704	0.28548	67.63397
2650	0.28858	67.60619	0.93594	-19.8045	0.93594	-19.8045	0.28858	67.60619
2670	0.29164	67.44227	0.93624	-19.7932	0.93624	-19.7932	0.29164	67.44227
2690	0.29392	67.30596	0.93633	-19.86619	0.93633	-19.86619	0.29392	67.30596
2710	0.29695	67.20056	0.9362	-20.10774	0.9362	-20.10774	0.29695	67.20056
2730	0.29977	67.06775	0.93599	-20.41909	0.93599	-20.41909	0.29977	67.06775
2750	0.29895	66.78759	0.93597	-20.51844	0.93597	-20.51844	0.29895	66.78759
2770	0.29805	66.60314	0.93339	-20.49762	0.93339	-20.49762	0.29805	66.60314
2790	0.30218	66.53546	0.93358	-20.65087	0.93358	-20.65087	0.30218	66.53546
2810	0.30652	66.33375	0.93288	-21.00887	0.93288	-21.00887	0.30652	66.33375
2830	0.30895	66.02039	0.93093	-21.35907	0.93093	-21.35907	0.30895	66.02039
2850	0.31005	65.89092	0.93069	-21.24564	0.93069	-21.24564	0.31005	65.89092
2870	0.31207	65.93413	0.92959	-21.11361	0.92959	-21.11361	0.31207	65.93413
2890	0.31523	66.17505	0.92984	-21.14091	0.92984	-21.14091	0.31523	66.17505
2910	0.31839	66.33639	0.9289	-21.33326	0.9289	-21.33326	0.31839	66.33639
2930	0.32065	66.29729	0.92632	-21.57536	0.92632	-21.57536	0.32065	66.29729
2950	0.32133	66.09331	0.92366	-21.63092	0.92366	-21.63092	0.32133	66.09331
2970	0.32316	65.58784	0.92395	-21.8241	0.92395	-21.8241	0.32316	65.58784
2990	0.32475	65.32389	0.92475	-21.8837	0.92475	-21.8837	0.32475	65.32389
3010	0.32713	65.1255	0.92517	-21.99473	0.92517	-21.99473	0.32713	65.1255
3030	0.33016	64.92681	0.92423	-22.17072	0.92423	-22.17072	0.33016	64.92681
3050	0.33248	64.77214	0.92082	-22.25382	0.92082	-22.25382	0.33248	64.77214
3070	0.33315	64.38745	0.91807	-22.58818	0.91807	-22.58818	0.33315	64.38745
3090	0.33543	64.51577	0.92101	-22.83779	0.92101	-22.83779	0.33543	64.51577
3110	0.33752	64.77615	0.92103	-22.89356	0.92103	-22.89356	0.33752	64.77615
3130	0.33923	64.89807	0.91778	-22.79081	0.91778	-22.79081	0.33923	64.89807
3150	0.34193	64.72144	0.91919	-22.70927	0.91919	-22.70927	0.34193	64.72144
3170	0.34177	64.16822	0.91807	-23.0563	0.91807	-23.0563	0.34177	64.16822
3190	0.34319	63.77858	0.91442	-23.18242	0.91442	-23.18242	0.34319	63.77858
3210	0.34642	63.57726	0.91254	-23.31607	0.91254	-23.31607	0.34642	63.57726
3230	0.3501	63.53988	0.91285	-23.53126	0.91285	-23.53126	0.3501	63.53988
3250	0.35132	63.59298	0.9118	-23.74753	0.9118	-23.74753	0.35132	63.59298
3270	0.35517	63.6062	0.9138	-24.03383	0.9138	-24.03383	0.35517	63.6062
3290	0.3565	63.55343	0.91267	-24.12214	0.91267	-24.12214	0.3565	63.55343
3310	0.35741	63.46877	0.90958	-24.17072	0.90958	-24.17072	0.35741	63.46877
3330	0.35892	63.39531	0.9079	-24.22617	0.9079	-24.22617	0.35892	63.39531
3350	0.36097	63.38512	0.91323	-24.22338	0.91323	-24.22338	0.36097	63.38512
3370	0.36258	62.8752	0.90889	-24.41769	0.90889	-24.41769	0.36258	62.8752
3390	0.36386	62.54271	0.90725	-24.71033	0.90725	-24.71033	0.36386	62.54271
3410	0.36622	62.49368	0.90528	-24.81668	0.90528	-24.81668	0.36622	62.49368
3430	0.36901	62.58015	0.9036	-24.78778	0.9036	-24.78778	0.36901	62.58015
3450	0.36954	62.40013	0.90647	-25.01037	0.90647	-25.01037	0.36954	62.40013
3470	0.37159	61.95349	0.90391	-25.44932	0.90391	-25.44932	0.37159	61.95349
3490	0.37208	61.89722	0.90033	-25.42622	0.90033	-25.42622	0.37208	61.89722
3510	0.37421	61.75535	0.89937	-25.37305	0.89937	-25.37305	0.37421	61.75535
3530	0.37806	61.37183	0.90081	-25.51534	0.90081	-25.51534	0.37806	61.37183
3550	0.38052	60.91058	0.90063	-25.87218	0.90063	-25.87218	0.38052	60.91058
3570	0.38218	60.915	0.89638	-25.94855	0.89638	-25.94855	0.38218	60.915
3590	0.38431	60.91517	0.89714	-25.96572	0.89714	-25.96572	0.38431	60.91517
3610	0.38704	60.85886	0.89767	-26.08119	0.89767	-26.08119	0.38704	60.85886
3630	0.38951	60.77518	0.89567	-26.26897	0.89567	-26.26897	0.38951	60.77518
3650	0.3899	60.77465	0.89176	-26.31952	0.89176	-26.31952	0.3899	60.77465
3670	0.39413	60.54957	0.89506	-26.72822	0.89506	-26.72822	0.39413	60.54957
3690	0.39428	60.33849	0.89049	-26.95369	0.89049	-26.95369	0.39428	60.33849
3710	0.39522	60.128	0.88665	-27.02612	0.88665	-27.02612	0.39522	60.128
3730	0.39842	59.89344	0.88678	-27.07249	0.88678	-27.07249	0.39842	59.89344
3750	0.40187	59.59887	0.88872	-27.31649	0.88872	-27.31649	0.40187	59.59887
3770	0.403	59.58779	0.88526	-27.40007	0.88526	-27.40007	0.403	59.58779
3790	0.4059	59.65829	0.88738	-27.4677	0.88738	-27.4677	0.4059	59.65829
3810	0.40797	59.61028	0.88648	-27.57496	0.88648	-27.57496	0.40797	59.61028
3830	0.40869	59.39535	0.88193	-27.74338	0.88193	-27.74338	0.40869	59.39535
3850	0.40964	59.11677	0.88104	-27.96041	0.88104	-27.96041	0.40964	59.11677
3870	0.40974	58.82988	0.87811	-27.94653	0.87811	-27.94653	0.40974	58.82988
3890	0.41297	58.61293	0.87878	-28.01342	0.87878	-28.01342	0.41297	58.61293
3910	0.41624	58.29191	0.87977	-28.2281	0.87977	-28.2281	0.41624	58.29191
3930	0.41833	57.89578	0.87938	-28.51182	0.87938	-28.51182	0.41833	57.89578
3950	0.41995	57.65654	0.87751	-28.64004	0.87751	-28.64004	0.41995	57.65654
3970	0.42153	57.9017	0.87479	-28.74818	0.87479	-28.74818	0.42153	57.9017
3990	0.42445	57.87393	0.87375	-28.76646	0.87375	-28.76646	0.42445	57.87393
4010	0.42674	57.67542	0.87327	-28.86234	0.87327	-28.86234	0.42674	57.67542
4030	0.42784	57.38515	0.87266	-29.05948	0.87266	-29.05948	0.42784	57.38515
4050	0.42866	57.0589	0.8716	-29.23776	0.8716	-29.23776	0.42866	57.0589
4070	0.43113	56.95126	0.86924	-29.52841	0.86924	-29.52841	0.43113	56.95126
4090	0.43399	56.51628	0.86845	-29.56822	0.86845	-29.56822	0.43399	56.51628
4110	0.43607	56.05475	0.86851	-29.68086	0.86851	-29.68086	0.43607	56.05475
4130	0.43694	55.7754	0.86722	-29.9707	0.86722	-29.9707	0.43694	55.7754
4150	0.4369	55.79489	0.86088	-30.32281	0.86088	-30.32281	0.4369	55.79489
4170	0.44332	55.71861	0.86378	-30.24782	0.86378	-30.24782	0.44332	55.71861
4190	0.44598	55.46644	0.86462	-30.39771	0.86462	-30.39771	0.44598	55.46644
4210	0.44695	55.34851	0.86223	-30.50102	0.86223	-30.50102	0.44695	55.34851
4230	0.44827	55.37221	0.85917	-30.49499	0.85917	-30.49499	0.44827	55.37221
4250	0.45195	55.24221	0.86171	-30.52563	0.86171	-30.52563	0.45195	55.24221
4270	0.45174	54.84907	0.85732	-30.77303	0.85732	-30.77303	0.45174	54.84907
4290	0.45388	54.56458	0.85617	-30.966	0.85617	-30.966	0.45388	54.56458
4310	0.45745	54.24126	0.85752	-31.16184	0.85752	-31.16184	0.45745	54.24126
4330	0.46155	53.87712	0.85996	-31.40969	0.85996	-31.40969	0.46155	53.87712
4350	0.46528	53.61565	0.86132	-31.7506	0.86132	-31.7506	0.46528	53.61565
4370	0.46587	53.78074	0.85607	-31.74505	0.85607	-31.74505	0.46587	53.78074
4390	0.46769	53.73584	0.8541	-31.76808	0.8541	-31.76808	0.46769	53.73584
4410	0.46949	53.56789	0.85286	-31.87599	0.85286	-31.87599	0.46949	53.56789
4430	0.47105	53.22637	0.85124	-32.10158	0.85124	-32.10158	0.47105	53.22637
4450	0.47318	52.52333	0.84957	-32.45414	0.84957	-32.45414	0.47318	52.52333
4470	0.47452	52.53152	0.84745	-32.44371	0.84745	-32.44371	0.47452	52.53152
4490	0.47755	52.45025	0.84764	-32.5935	0.84764	-32.5935	0.47755	52.45025
4510	0.48073	52.24351	0.84734	-32.81087	0.84734	-32.81087	0.48073	52.24351
4530	0.48316	51.99318	0.84488	-32.94684	0.84488	-32.94684	0.48316	51.99318
4550	0.48468	51.8991	0.83972	-32.79603	0.83972	-32.79603	0.48468	51.8991
4570	0.48852	51.86303	0.84578	-32.95262	0.84578	-32.95262	0.48852	51.86303
4590	0.4891	51.30809	0.84599	-33.47582	0.84599	-33.47582	0.4891	51.30809
4610	0.48892	51.12132	0.84136	-33.65138	0.84136	-33.65138	0.48892	51.12132
4630	0.49021	51.23206	0.83637	-33.50718	0.83637	-33.50718	0.49021	51.23206
4650	0.49496	50.61192	0.83899	-33.81319	0.83899	-33.81319	0.49496	50.61192
4670	0.49528	49.9847	0.83478	-34.24891	0.83478	-34.24891	0.49528	49.9847
4690	0.49661	49.88012	0.83128	-34.29423	0.83128	-34.29423	0.49661	49.88012
4710	0.50015	49.88057	0.83024	-34.36134	0.83024	-34.36134	0.50015	49.88057
4730	0.50463	49.70654	0.83111	-34.56338	0.83111	-34.56338	0.50463	49.70654
4750	0.50626	49.21664	0.83099	-34.71432	0.83099	-34.71432	0.50626	49.21664
4770	0.5066	49.10028	0.82785	-34.94576	0.82785	-34.94576	0.5066	49.10028
4790	0.50821	48.7611	0.82713	-35.23014	0.82713	-35.23014	0.50821	48.7611
4810	0.5099	48.47023	0.82674	-35.36207	0.82674	-35.36207	0.5099	48.47023
4830	0.51178	48.1797	0.82544	-35.42815	0.82544	-35.42815	0.51178	48.1797
4850	0.51531	47.52249	0.82285	-35.80693	0.82285	-35.80693	0.51531	47.52249
4870	0.51737	47.52584	0.82348	-35.64602	0.82348	-35.64602	0.51737	47.52584
4890	0.51923	47.42733	0.82405	-35.8549	0.82405	-35.8549	0.51923	47.42733
4910	0.52074	47.12783	0.82031	-36.10974	0.82031	-36.10974	0.52074	47.12783
4930	0.52308	46.7731	0.8151	-36.22657	0.8151	-36.22657	0.52308	46.7731
4950	0.52881	46.75383	0.81835	-36.16137	0.81835	-36.16137	0.52881	46.75383
4970	0.52924	46.24025	0.81545	-36.5692	0.81545	-36.5692	0.52924	46.24025
4990	0.52877	45.86875	0.81193	-36.93364	0.81193	-36.93364	0.52877	45.86875
5010	0.53159	45.69139	0.81089	-36.98006	0.81089	-36.98006	0.53159	45.69139
5030	0.53684	45.45808	0.81212	-36.95575	0.81212	-36.95575	0.53684	45.45808
5050	0.53856	44.61661	0.81217	-37.62989	0.81217	-37.62989	0.53856	44.61661
5070	0.53701	44.60813	0.80413	-37.71844	0.80413	-37.71844	0.53701	44.60813
5090	0.54097	44.62007	0.80312	-37.68728	0.80312	-37.68728	0.54097	44.62007
5110	0.54552	44.32368	0.80593	-37.87773	0.80593	-37.87773	0.54552	44.32368
5130	0.5471	43.80947	0.80715	-38.25686	0.80715	-38.25686	0.5471	43.80947
5150	0.54355	43.58729	0.7991	-38.41752	0.7991	-38.41752	0.54355	43.58729
5170	0.54536	43.78954	0.79813	-38.28717	0.79813	-38.28717	0.54536	43.78954
5190	0.5515	43.45375	0.79939	-38.4492	0.79939	-38.4492	0.5515	43.45375
5210	0.5541	42.81321	0.79776	-38.88526	0.79776	-38.88526	0.5541	42.81321
5230	0.55273	42.35246	0.79267	-39.27026	0.79267	-39.27026	0.55273	42.35246
5250	0.55441	42.80726	0.78809	-38.97235	0.78809	-38.97235	0.55441	42.80726
5270	0.5634	42.38356	0.79442	-39.2553	0.79442	-39.2553	0.5634	42.38356
5290	0.56283	41.77392	0.78981	-39.96374	0.78981	-39.96374	0.56283	41.77392
5310	0.56222	41.74198	0.78457	-40.0907	0.78457	-40.0907	0.56222	41.74198
5330	0.56601	42.03092	0.78424	-39.73133	0.78424	-39.73133	0.56601	42.03092
5350	0.57361	41.36343	0.78951	-40.0829	0.78951	-40.0829	0.57361	41.36343
5370	0.56968	40.65474	0.78391	-40.54473	0.78391	-40.54473	0.56968	40.65474
5390	0.57111	40.65771	0.78227	-40.54949	0.78227	-40.54949	0.57111	40.65771
5410	0.57559	40.63198	0.78271	-40.71646	0.78271	-40.71646	0.57559	40.63198
5430	0.57984	40.34725	0.78272	-41.07284	0.78272	-41.07284	0.57984	40.34725
5450	0.57959	40.0833	0.77919	-41.05378	0.77919	-41.05378	0.57959	40.0833
