! Data Taken on a HP 8720C VNA using a shunt-through fixture with TRL* de-embedding
#	mhz	s	ma	r	50
50	0.92797	171.07018	0.1465	68.41191	0.1465	68.41191	0.92797	171.07018
70	0.94752	168.06163	0.20908	68.47474	0.20908	68.47474	0.94752	168.06163
90	0.93125	164.39278	0.25816	66.04942	0.25816	66.04942	0.93125	164.39278
110	0.90834	161.37661	0.30377	63.69849	0.30377	63.69849	0.90834	161.37661
130	0.89266	158.87292	0.35033	61.86887	0.35033	61.86887	0.89266	158.87292
150	0.88278	155.28836	0.39664	58.89184	0.39664	58.89184	0.88278	155.28836
170	0.85259	153.43178	0.43348	57.12428	0.43348	57.12428	0.85259	153.43178
190	0.83443	150.85019	0.47093	54.81493	0.47093	54.81493	0.83443	150.85019
210	0.81513	148.02569	0.50562	52.43542	0.50562	52.43542	0.81513	148.02569
230	0.79144	145.54404	0.53693	50.27554	0.53693	50.27554	0.79144	145.54404
250	0.77011	144.09465	0.56696	48.4433	0.56696	48.4433	0.77011	144.09465
270	0.75243	141.85925	0.59887	46.33576	0.59887	46.33576	0.75243	141.85925
290	0.72706	139.57706	0.62176	44.30995	0.62176	44.30995	0.72706	139.57706
310	0.70554	137.6347	0.64411	42.6349	0.64411	42.6349	0.70554	137.6347
330	0.69003	135.87974	0.66795	41.1399	0.66795	41.1399	0.69003	135.87974
350	0.67323	133.62064	0.68886	39.2144	0.68886	39.2144	0.67323	133.62064
370	0.65183	132.42278	0.70648	37.89331	0.70648	37.89331	0.65183	132.42278
390	0.63546	130.90375	0.72447	36.32554	0.72447	36.32554	0.63546	130.90375
410	0.6191	129.31316	0.74099	34.72014	0.74099	34.72014	0.6191	129.31316
430	0.6014	127.84876	0.75576	33.35113	0.75576	33.35113	0.6014	127.84876
450	0.5848	126.65642	0.76999	32.55758	0.76999	32.55758	0.5848	126.65642
470	0.56825	125.18158	0.78279	31.01515	0.78279	31.01515	0.56825	125.18158
490	0.53669	121.64519	0.81236	28.36045	0.81236	28.36045	0.53669	121.64519
510	0.51153	118.85846	0.83434	26.29275	0.83434	26.29275	0.51153	118.85846
530	0.49853	117.59497	0.84327	25.21555	0.84327	25.21555	0.49853	117.59497
550	0.48782	116.5907	0.85255	24.23654	0.85255	24.23654	0.48782	116.5907
570	0.47691	115.84456	0.86075	23.21757	0.86075	23.21757	0.47691	115.84456
590	0.46497	115.03527	0.86615	22.46654	0.86615	22.46654	0.46497	115.03527
610	0.45272	114.11578	0.87321	21.64999	0.87321	21.64999	0.45272	114.11578
630	0.44083	113.13391	0.88193	20.73008	0.88193	20.73008	0.44083	113.13391
650	0.42986	112.23234	0.88789	19.9646	0.88789	19.9646	0.42986	112.23234
670	0.4197	111.33185	0.89101	18.96111	0.89101	18.96111	0.4197	111.33185
690	0.41203	110.41841	0.89362	18.29518	0.89362	18.29518	0.41203	110.41841
710	0.40514	109.58944	0.89901	17.58447	0.89901	17.58447	0.40514	109.58944
730	0.39737	108.95771	0.9055	16.79223	0.9055	16.79223	0.39737	108.95771
750	0.38709	108.65136	0.90641	16.22733	0.90641	16.22733	0.38709	108.65136
770	0.37873	108.39484	0.91408	15.17821	0.91408	15.17821	0.37873	108.39484
790	0.36962	107.87778	0.91691	14.57226	0.91691	14.57226	0.36962	107.87778
810	0.35946	107.32437	0.91761	14.15459	0.91761	14.15459	0.35946	107.32437
830	0.34877	106.64539	0.91826	13.66407	0.91826	13.66407	0.34877	106.64539
850	0.33882	105.4382	0.92027	12.83341	0.92027	12.83341	0.33882	105.4382
870	0.33269	104.86884	0.92518	12.02861	0.92518	12.02861	0.33269	104.86884
890	0.32722	104.22024	0.92905	11.56556	0.92905	11.56556	0.32722	104.22024
910	0.32096	103.51319	0.93229	11.07087	0.93229	11.07087	0.32096	103.51319
930	0.31387	102.85486	0.93454	10.39491	0.93454	10.39491	0.31387	102.85486
950	0.30731	102.4387	0.93469	9.61179	0.93469	9.61179	0.30731	102.4387
970	0.30008	102.41134	0.93765	9.27901	0.93765	9.27901	0.30008	102.41134
990	0.29346	101.82786	0.94071	8.85966	0.94071	8.85966	0.29346	101.82786
1010	0.28657	101.0491	0.94385	8.3625	0.94385	8.3625	0.28657	101.0491
1030	0.28002	100.24542	0.9465	7.85683	0.9465	7.85683	0.28002	100.24542
1050	0.27598	99.3967	0.94756	7.47246	0.94756	7.47246	0.27598	99.3967
1070	0.271	98.45896	0.94676	6.81764	0.94676	6.81764	0.271	98.45896
1090	0.26697	97.85392	0.94903	6.37453	0.94903	6.37453	0.26697	97.85392
1110	0.26304	97.4565	0.95271	6.03812	0.95271	6.03812	0.26304	97.4565
1130	0.25897	97.12176	0.95546	5.64255	0.95546	5.64255	0.25897	97.12176
1150	0.25521	96.68482	0.9542	4.96117	0.9542	4.96117	0.25521	96.68482
1170	0.24925	96.25824	0.95519	4.50356	0.95519	4.50356	0.24925	96.25824
1190	0.24436	95.88538	0.95666	4.22093	0.95666	4.22093	0.24436	95.88538
1210	0.23976	95.39141	0.95845	3.88116	0.95845	3.88116	0.23976	95.39141
1230	0.23509	94.76118	0.95956	3.38529	0.95956	3.38529	0.23509	94.76118
1250	0.23043	94.13914	0.95821	2.76745	0.95821	2.76745	0.23043	94.13914
1270	0.22821	93.54842	0.96114	2.63673	0.96114	2.63673	0.22821	93.54842
1290	0.22556	92.90175	0.9613	2.04402	0.9613	2.04402	0.22556	92.90175
1310	0.22212	92.52441	0.96231	1.56958	0.96231	1.56958	0.22212	92.52441
1330	0.21826	92.46391	0.96496	1.3054	0.96496	1.3054	0.21826	92.46391
1350	0.21512	92.48999	0.96718	0.85515	0.96718	0.85515	0.21512	92.48999
1370	0.21212	92.01044	0.96842	0.4295	0.96842	0.4295	0.21212	92.01044
1390	0.20818	91.68044	0.96913	0.27209	0.96913	0.27209	0.20818	91.68044
1410	0.20429	91.42374	0.97084	-0.02966	0.97084	-0.02966	0.20429	91.42374
1430	0.20071	91.17125	0.97233	-0.5012	0.97233	-0.5012	0.20071	91.17125
1450	0.19698	90.86106	0.96969	-0.7808	0.96969	-0.7808	0.19698	90.86106
1470	0.19293	90.67513	0.97179	-1.02372	0.97179	-1.02372	0.19293	90.67513
1490	0.18969	90.17342	0.97196	-1.60326	0.97196	-1.60326	0.18969	90.17342
1510	0.18614	89.68696	0.97248	-2.0799	0.97248	-2.0799	0.18614	89.68696
1530	0.18247	89.28887	0.97368	-2.36034	0.97368	-2.36034	0.18247	89.28887
1550	0.18022	88.79439	0.97395	-2.69753	0.97395	-2.69753	0.18022	88.79439
1570	0.1772	88.36929	0.97255	-2.92183	0.97255	-2.92183	0.1772	88.36929
1590	0.17412	87.80461	0.9751	-3.25511	0.9751	-3.25511	0.17412	87.80461
1610	0.17154	87.66406	0.97677	-3.57795	0.97677	-3.57795	0.17154	87.66406
1630	0.16907	87.90613	0.97641	-3.88251	0.97641	-3.88251	0.16907	87.90613
1650	0.16531	87.88409	0.97656	-4.2725	0.97656	-4.2725	0.16531	87.88409
1670	0.16123	87.27087	0.9757	-4.66756	0.9757	-4.66756	0.16123	87.27087
1690	0.15753	86.73884	0.97664	-4.93087	0.97664	-4.93087	0.15753	86.73884
1710	0.1545	86.23863	0.978	-5.19106	0.978	-5.19106	0.1545	86.23863
1730	0.15235	85.65564	0.97899	-5.49769	0.97899	-5.49769	0.15235	85.65564
1750	0.15114	84.81002	0.97939	-5.82127	0.97939	-5.82127	0.15114	84.81002
1770	0.14905	84.44366	0.97852	-6.31394	0.97852	-6.31394	0.14905	84.44366
1790	0.14726	84.61412	0.98092	-6.49403	0.98092	-6.49403	0.14726	84.61412
1810	0.14487	84.74576	0.98142	-6.72296	0.98142	-6.72296	0.14487	84.74576
1830	0.14152	84.53679	0.97991	-7.04166	0.97991	-7.04166	0.14152	84.53679
1850	0.13738	83.95918	0.98137	-7.17054	0.98137	-7.17054	0.13738	83.95918
1870	0.1345	83.32852	0.98252	-7.56682	0.98252	-7.56682	0.1345	83.32852
1890	0.13218	82.71195	0.98347	-7.98694	0.98347	-7.98694	0.13218	82.71195
1910	0.13038	81.92705	0.98206	-8.26929	0.98206	-8.26929	0.13038	81.92705
1930	0.12901	81.04587	0.98066	-8.42442	0.98066	-8.42442	0.12901	81.04587
1950	0.12789	80.39495	0.98622	-8.63509	0.98622	-8.63509	0.12789	80.39495
1970	0.12679	80.30463	0.98428	-8.92848	0.98428	-8.92848	0.12679	80.30463
1990	0.1253	80.46626	0.98197	-9.12055	0.98197	-9.12055	0.1253	80.46626
2010	0.1232	80.66522	0.98156	-9.40853	0.98156	-9.40853	0.1232	80.66522
2030	0.12045	80.68546	0.98359	-9.79094	0.98359	-9.79094	0.12045	80.68546
2050	0.11717	80.30951	0.98688	-10.06761	0.98688	-10.06761	0.11717	80.30951
2070	0.11425	79.69789	0.9854	-10.46101	0.9854	-10.46101	0.11425	79.69789
2090	0.11257	79.06834	0.98237	-10.67335	0.98237	-10.67335	0.11257	79.06834
2110	0.1112	78.39059	0.98413	-11.07423	0.98413	-11.07423	0.1112	78.39059
2130	0.10971	77.8879	0.98884	-11.548	0.98884	-11.548	0.10971	77.8879
2150	0.10818	78.03704	0.98646	-11.49383	0.98646	-11.49383	0.10818	78.03704
2170	0.10719	78.13943	0.98633	-11.6777	0.98633	-11.6777	0.10719	78.13943
2190	0.10575	78.37492	0.98538	-11.86552	0.98538	-11.86552	0.10575	78.37492
2210	0.10355	78.34479	0.98525	-12.21173	0.98525	-12.21173	0.10355	78.34479
2230	0.1008	78.06544	0.98614	-12.64101	0.98614	-12.64101	0.1008	78.06544
2250	0.09818	77.96837	0.98674	-12.84825	0.98674	-12.84825	0.09818	77.96837
2270	0.09627	77.6615	0.98923	-13.09531	0.98923	-13.09531	0.09627	77.6615
2290	0.09443	77.24786	0.99005	-13.60877	0.99005	-13.60877	0.09443	77.24786
2310	0.09252	77.00113	0.98957	-13.8743	0.98957	-13.8743	0.09252	77.00113
2330	0.09072	76.75905	0.98831	-13.93496	0.98831	-13.93496	0.09072	76.75905
2350	0.08954	75.9235	0.98696	-14.39116	0.98696	-14.39116	0.08954	75.9235
2370	0.08729	76.21536	0.99036	-14.63228	0.99036	-14.63228	0.08729	76.21536
2390	0.08554	76.01665	0.99081	-14.79071	0.99081	-14.79071	0.08554	76.01665
2410	0.08356	75.6931	0.98964	-14.94975	0.98964	-14.94975	0.08356	75.6931
2430	0.08134	75.44266	0.98882	-15.15607	0.98882	-15.15607	0.08134	75.44266
2450	0.07965	75.29554	0.99087	-15.41964	0.99087	-15.41964	0.07965	75.29554
2470	0.07835	75.19092	0.99296	-15.76346	0.99296	-15.76346	0.07835	75.19092
2490	0.07641	75.21773	0.99071	-16.00771	0.99071	-16.00771	0.07641	75.21773
2510	0.0742	75.40193	0.98966	-16.21897	0.98966	-16.21897	0.0742	75.40193
2530	0.07211	75.59357	0.99023	-16.45223	0.99023	-16.45223	0.07211	75.59357
2550	0.0705	75.46677	0.98771	-16.75079	0.98771	-16.75079	0.0705	75.46677
2570	0.06822	74.87384	0.99446	-16.94789	0.99446	-16.94789	0.06822	74.87384
2590	0.06633	74.21651	0.99278	-17.2509	0.99278	-17.2509	0.06633	74.21651
2610	0.06464	73.67561	0.99099	-17.62863	0.99099	-17.62863	0.06464	73.67561
2630	0.06311	73.31147	0.99074	-17.93228	0.99074	-17.93228	0.06311	73.31147
2650	0.06185	73.06381	0.98699	-17.89545	0.98699	-17.89545	0.06185	73.06381
2670	0.06098	72.97966	0.99046	-18.23736	0.99046	-18.23736	0.06098	72.97966
2690	0.0592	73.19565	0.99142	-18.52094	0.99142	-18.52094	0.0592	73.19565
2710	0.05752	73.70944	0.99233	-18.83334	0.99233	-18.83334	0.05752	73.70944
2730	0.05591	74.1522	0.99345	-19.18954	0.99345	-19.18954	0.05591	74.1522
2750	0.05338	73.7886	0.99274	-19.53226	0.99274	-19.53226	0.05338	73.7886
2770	0.05085	72.87408	0.99202	-19.73112	0.99202	-19.73112	0.05085	72.87408
2790	0.04933	72.08569	0.99316	-19.76036	0.99316	-19.76036	0.04933	72.08569
2810	0.04849	71.44606	0.9925	-20.08929	0.9925	-20.08929	0.04849	71.44606
2830	0.04775	71.02206	0.99091	-20.62748	0.99091	-20.62748	0.04775	71.02206
2850	0.04631	70.92478	0.99371	-20.72471	0.99371	-20.72471	0.04631	70.92478
2870	0.04557	71.36695	0.99173	-20.83918	0.99173	-20.83918	0.04557	71.36695
2890	0.04398	72.86011	0.99269	-21.01996	0.99269	-21.01996	0.04398	72.86011
2910	0.04205	74.11801	0.99283	-21.2657	0.99283	-21.2657	0.04205	74.11801
2930	0.03994	74.47184	0.99132	-21.52849	0.99132	-21.52849	0.03994	74.47184
2950	0.03744	73.87019	0.99025	-21.71386	0.99025	-21.71386	0.03744	73.87019
2970	0.03518	71.64347	0.992	-21.95455	0.992	-21.95455	0.03518	71.64347
2990	0.03363	69.79394	0.99286	-22.16784	0.99286	-22.16784	0.03363	69.79394
3010	0.03294	69.02134	0.99303	-22.39228	0.99303	-22.39228	0.03294	69.02134
3030	0.03269	69.2883	0.99261	-22.68483	0.99261	-22.68483	0.03269	69.2883
3050	0.03191	69.82029	0.9916	-23.12079	0.9916	-23.12079	0.03191	69.82029
3070	0.03006	71.05076	0.9906	-23.33938	0.9906	-23.33938	0.03006	71.05076
3090	0.02808	73.40026	0.99392	-23.55538	0.99392	-23.55538	0.02808	73.40026
3110	0.02602	74.99441	0.99463	-23.73316	0.99463	-23.73316	0.02602	74.99441
3130	0.02384	74.94188	0.99239	-23.87833	0.99239	-23.87833	0.02384	74.94188
3150	0.02147	73.3344	0.99351	-24.03772	0.99351	-24.03772	0.02147	73.3344
3170	0.0199	70.04611	0.9929	-24.42906	0.9929	-24.42906	0.0199	70.04611
3190	0.01887	67.09831	0.99094	-24.51178	0.99094	-24.51178	0.01887	67.09831
3210	0.01823	67.07532	0.99112	-24.7305	0.99112	-24.7305	0.01823	67.07532
3230	0.01773	70.49526	0.99195	-25.1295	0.99195	-25.1295	0.01773	70.49526
3250	0.0169	75.81009	0.98696	-25.35275	0.98696	-25.35275	0.0169	75.81009
3270	0.01569	80.25886	0.99533	-25.54421	0.99533	-25.54421	0.01569	80.25886
3290	0.01358	86.96042	0.99524	-25.83169	0.99524	-25.83169	0.01358	86.96042
3310	0.01113	92.63798	0.99337	-26.12037	0.99337	-26.12037	0.01113	92.63798
3330	0.00861	95.09938	0.99412	-26.31757	0.99412	-26.31757	0.00861	95.09938
3350	0.00603	93.23705	0.9997	-26.33274	0.9997	-26.33274	0.00603	93.23705
3370	0.00466	93.13693	0.99535	-26.60479	0.99535	-26.60479	0.00466	93.13693
3390	0.00405	94.76875	0.99335	-26.89361	0.99335	-26.89361	0.00405	94.76875
3410	0.00355	101.67292	0.99264	-27.21736	0.99264	-27.21736	0.00355	101.67292
3430	0.0032	119.15665	0.9924	-27.5179	0.9924	-27.5179	0.0032	119.15665
3450	0.00369	154.29394	0.99204	-27.66077	0.99204	-27.66077	0.00369	154.29394
3470	0.00451	-111.62855	0.99248	-28.0524	0.99248	-28.0524	0.00451	-111.62855
3490	0.00548	-165.42421	0.99223	-28.30798	0.99223	-28.30798	0.00548	-165.42421
3510	0.00647	-148.73957	0.99372	-28.45512	0.99372	-28.45512	0.00647	-148.73957
3530	0.00745	-135.08675	0.99592	-28.54869	0.99592	-28.54869	0.00745	-135.08675
3550	0.00841	-129.84343	0.99432	-28.67081	0.99432	-28.67081	0.00841	-129.84343
3570	0.00929	-130.61743	0.99253	-28.92704	0.99253	-28.92704	0.00929	-130.61743
3590	0.01023	-129.75031	0.99323	-29.25053	0.99323	-29.25053	0.01023	-129.75031
3610	0.01135	-128.81609	0.99505	-29.51035	0.99505	-29.51035	0.01135	-128.81609
3630	0.01276	-129.05991	0.99615	-29.68134	0.99615	-29.68134	0.01276	-129.05991
3650	0.01457	-131.39802	0.99425	-29.84413	0.99425	-29.84413	0.01457	-131.39802
3670	0.01621	-128.99764	0.99456	-30.2338	0.99456	-30.2338	0.01621	-128.99764
3690	0.01739	-126.88454	0.99427	-30.42295	0.99427	-30.42295	0.01739	-126.88454
3710	0.01848	-125.2863	0.99307	-30.66374	0.99307	-30.66374	0.01848	-125.2863
3730	0.01953	-124.55704	0.99188	-30.99278	0.99188	-30.99278	0.01953	-124.55704
3750	0.02023	-125.17748	0.99288	-31.23104	0.99288	-31.23104	0.02023	-125.17748
3770	0.02107	-127.81838	0.99062	-31.23287	0.99062	-31.23287	0.02107	-127.81838
3790	0.0225	-127.92196	0.99403	-31.44238	0.99403	-31.44238	0.0225	-127.92196
3810	0.02405	-128.5415	0.99425	-31.73137	0.99425	-31.73137	0.02405	-128.5415
3830	0.02577	-129.80303	0.99081	-32.01947	0.99081	-32.01947	0.02577	-129.80303
3850	0.02823	-128.9053	0.99165	-32.27415	0.99165	-32.27415	0.02823	-128.9053
3870	0.02964	-127.49911	0.99238	-32.39093	0.99238	-32.39093	0.02964	-127.49911
3890	0.03053	-125.76206	0.99367	-32.55207	0.99367	-32.55207	0.03053	-125.76206
3910	0.03143	-124.91083	0.99477	-32.86554	0.99477	-32.86554	0.03143	-124.91083
3930	0.03236	-125.18521	0.99472	-33.20849	0.99472	-33.20849	0.03236	-125.18521
3950	0.03283	-125.848	0.99239	-33.22729	0.99239	-33.22729	0.03283	-125.848
3970	0.03421	-126.84008	0.99234	-33.52479	0.99234	-33.52479	0.03421	-126.84008
3990	0.03581	-127.40236	0.99192	-33.75611	0.99192	-33.75611	0.03581	-127.40236
4010	0.03744	-127.72208	0.9916	-33.96953	0.9916	-33.96953	0.03744	-127.72208
4030	0.03892	-127.72489	0.99182	-34.21004	0.99182	-34.21004	0.03892	-127.72489
4050	0.0401	-127.07486	0.99294	-34.51941	0.99294	-34.51941	0.0401	-127.07486
4070	0.04083	-126.47982	0.99566	-34.83493	0.99566	-34.83493	0.04083	-126.47982
4090	0.04153	-126.5789	0.99354	-35.12272	0.99354	-35.12272	0.04153	-126.5789
4110	0.04235	-127.08097	0.99258	-35.3285	0.99258	-35.3285	0.04235	-127.08097
4130	0.04317	-127.76811	0.99383	-35.44233	0.99383	-35.44233	0.04317	-127.76811
4150	0.04366	-128.49562	0.99339	-35.4986	0.99339	-35.4986	0.04366	-128.49562
4170	0.0454	-128.8617	0.99104	-35.94031	0.99104	-35.94031	0.0454	-128.8617
4190	0.04709	-129.1686	0.99305	-36.14442	0.99305	-36.14442	0.04709	-129.1686
4210	0.04842	-129.29732	0.99346	-36.35907	0.99346	-36.35907	0.04842	-129.29732
4230	0.04932	-129.11345	0.99181	-36.58134	0.99181	-36.58134	0.04932	-129.11345
4250	0.04998	-128.46721	0.99311	-36.5572	0.99311	-36.5572	0.04998	-128.46721
4270	0.05092	-127.87232	0.99111	-36.85283	0.99111	-36.85283	0.05092	-127.87232
4290	0.05117	-128.89567	0.99248	-37.2178	0.99248	-37.2178	0.05117	-128.89567
4310	0.05142	-130.22726	0.99406	-37.52025	0.99406	-37.52025	0.05142	-130.22726
4330	0.05204	-131.33411	0.99586	-37.78048	0.99586	-37.78048	0.05204	-131.33411
4350	0.05302	-132.46031	1.00104	-38.17096	1.00104	-38.17096	0.05302	-132.46031
4370	0.05465	-133.18716	0.99524	-38.26022	0.99524	-38.26022	0.05465	-133.18716
4390	0.05629	-133.84748	0.99109	-38.30866	0.99109	-38.30866	0.05629	-133.84748
4410	0.05768	-134.02348	0.99163	-38.51687	0.99163	-38.51687	0.05768	-134.02348
4430	0.05864	-133.6461	0.99481	-38.86406	0.99481	-38.86406	0.05864	-133.6461
4450	0.05913	-132.99498	0.99349	-39.10812	0.99349	-39.10812	0.05913	-132.99498
4470	0.0622	-133.03773	0.99314	-39.29725	0.99314	-39.29725	0.0622	-133.03773
4490	0.06249	-133.30207	0.99111	-39.56457	0.99111	-39.56457	0.06249	-133.30207
4510	0.06276	-133.99237	0.99234	-39.69873	0.99234	-39.69873	0.06276	-133.99237
4530	0.06391	-134.72132	0.99559	-39.79106	0.99559	-39.79106	0.06391	-134.72132
4550	0.06497	-134.50998	0.99349	-40.23553	0.99349	-40.23553	0.06497	-134.50998
4570	0.06668	-135.81032	0.99301	-40.26622	0.99301	-40.26622	0.06668	-135.81032
4590	0.06791	-136.66443	0.99654	-40.55713	0.99654	-40.55713	0.06791	-136.66443
4610	0.06896	-136.77321	0.99704	-40.86483	0.99704	-40.86483	0.06896	-136.77321
4630	0.07019	-136.59058	0.99359	-41.10321	0.99359	-41.10321	0.07019	-136.59058
4650	0.07199	-137.32356	0.99142	-41.34354	0.99142	-41.34354	0.07199	-137.32356
4670	0.07234	-136.78957	0.98958	-41.63426	0.98958	-41.63426	0.07234	-136.78957
4690	0.07285	-137.61217	0.98973	-41.80351	0.98973	-41.80351	0.07285	-137.61217
4710	0.07365	-138.4179	0.9906	-42.04322	0.9906	-42.04322	0.07365	-138.4179
4730	0.07473	-138.70302	0.99129	-42.3576	0.99129	-42.3576	0.07473	-138.70302
4750	0.07601	-138.83355	0.99123	-42.56322	0.99123	-42.56322	0.07601	-138.83355
4770	0.07725	-139.31257	0.99081	-42.62014	0.99081	-42.62014	0.07725	-139.31257
4790	0.07843	-139.6739	0.99213	-43.00852	0.99213	-43.00852	0.07843	-139.6739
4810	0.07982	-139.75561	0.99321	-43.2547	0.99321	-43.2547	0.07982	-139.75561
4830	0.08126	-139.7837	0.9932	-43.30928	0.9932	-43.30928	0.08126	-139.7837
4850	0.0822	-140.37215	0.99236	-43.5471	0.99236	-43.5471	0.0822	-140.37215
4870	0.08312	-139.92698	0.99215	-43.77517	0.99215	-43.77517	0.08312	-139.92698
4890	0.08405	-140.18418	0.99243	-43.87668	0.99243	-43.87668	0.08405	-140.18418
4910	0.08465	-140.38001	0.99128	-44.06583	0.99128	-44.06583	0.08465	-140.38001
4930	0.08504	-140.38758	0.99038	-44.35483	0.99038	-44.35483	0.08504	-140.38758
4950	0.08587	-140.71686	0.99502	-44.55391	0.99502	-44.55391	0.08587	-140.71686
4970	0.08616	-141.82862	0.99125	-44.49927	0.99125	-44.49927	0.08616	-141.82862
4990	0.08714	-142.38111	0.9923	-44.83157	0.9923	-44.83157	0.08714	-142.38111
5010	0.08848	-142.85456	0.99201	-45.21925	0.99201	-45.21925	0.08848	-142.85456
5030	0.08991	-143.36201	0.98951	-45.53381	0.98951	-45.53381	0.08991	-143.36201
5050	0.09126	-143.64934	0.9893	-45.84988	0.9893	-45.84988	0.09126	-143.64934
5070	0.09226	-143.3791	0.98924	-45.83692	0.98924	-45.83692	0.09226	-143.3791
5090	0.09358	-143.80023	0.98649	-46.19243	0.98649	-46.19243	0.09358	-143.80023
5110	0.09466	-144.25029	0.9876	-46.53358	0.9876	-46.53358	0.09466	-144.25029
5130	0.0953	-144.57898	0.99172	-46.67957	0.99172	-46.67957	0.0953	-144.57898
5150	0.09559	-145.14809	0.99053	-46.65162	0.99053	-46.65162	0.09559	-145.14809
5170	0.097	-145.2376	0.99149	-46.97434	0.99149	-46.97434	0.097	-145.2376
5190	0.09831	-145.43928	0.98895	-47.136	0.98895	-47.136	0.09831	-145.43928
5210	0.09957	-145.64211	0.98651	-47.34399	0.98651	-47.34399	0.09957	-145.64211
5230	0.1007	-145.82712	0.986	-47.61633	0.986	-47.61633	0.1007	-145.82712
5250	0.10151	-146.06747	0.98757	-47.78169	0.98757	-47.78169	0.10151	-146.06747
5270	0.10174	-146.42531	0.98515	-48.07122	0.98515	-48.07122	0.10174	-146.42531
5290	0.10244	-146.64151	0.98503	-48.30871	0.98503	-48.30871	0.10244	-146.64151
5310	0.10383	-146.93732	0.9876	-48.4775	0.9876	-48.4775	0.10383	-146.93732
5330	0.10553	-147.37401	0.99006	-48.64804	0.99006	-48.64804	0.10553	-147.37401
