! P/N: L-05C6N8_SHUNT								
! Measured by Marlon								
! Sep. 23, 2003								
! Measure with a Shunt-through-fixture								
#	mhz	s	ma	r	50			
50	0.93866	175.04252	0.08882	71.81329	0.08882	71.81329	0.93866	175.04252
70	0.96122	173.31388	0.12314	72.16631	0.12314	72.16631	0.96122	173.31388
90	0.95175	170.46155	0.15357	71.51331	0.15357	71.51331	0.95175	170.46155
110	0.94021	168.31093	0.18417	70.8705	0.18417	70.8705	0.94021	168.31093
130	0.93774	166.83233	0.21584	69.9869	0.21584	69.9869	0.93774	166.83233
150	0.93662	164.14102	0.24632	67.34437	0.24632	67.34437	0.93662	164.14102
170	0.91529	162.86245	0.27031	66.30042	0.27031	66.30042	0.91529	162.86245
190	0.91226	161.1737	0.29999	65.36389	0.29999	65.36389	0.91226	161.1737
210	0.90471	159.1547	0.32782	63.77449	0.32782	63.77449	0.90471	159.1547
230	0.88843	157.16633	0.35187	61.79022	0.35187	61.79022	0.88843	157.16633
250	0.87789	155.85045	0.37582	60.68736	0.37582	60.68736	0.87789	155.85045
270	0.86938	153.63096	0.40001	58.86546	0.40001	58.86546	0.86938	153.63096
290	0.85491	151.98109	0.42148	57.49569	0.42148	57.49569	0.85491	151.98109
310	0.84338	150.57188	0.44471	56.21179	0.44471	56.21179	0.84338	150.57188
330	0.8364	149.06042	0.46905	54.72926	0.46905	54.72926	0.8364	149.06042
350	0.82826	147.08986	0.48866	52.84528	0.48866	52.84528	0.82826	147.08986
370	0.80956	145.51291	0.5068	51.85782	0.5068	51.85782	0.80956	145.51291
390	0.79784	144.21019	0.52858	50.6812	0.52858	50.6812	0.79784	144.21019
410	0.78722	142.7997	0.54807	49.25335	0.54807	49.25335	0.78722	142.7997
430	0.77548	141.29092	0.56372	47.85728	0.56372	47.85728	0.77548	141.29092
450	0.76402	140.08484	0.57837	47.1211	0.57837	47.1211	0.76402	140.08484
470	0.75559	138.57416	0.59508	45.79561	0.59508	45.79561	0.75559	138.57416
490	0.73392	135.35231	0.63206	43.13797	0.63206	43.13797	0.73392	135.35231
510	0.71496	132.95681	0.66057	41.19811	0.66057	41.19811	0.71496	132.95681
530	0.70362	131.87561	0.6733	40.27686	0.6733	40.27686	0.70362	131.87561
550	0.69375	130.54717	0.68441	38.92594	0.68441	38.92594	0.69375	130.54717
570	0.67911	129.42993	0.69755	38.33586	0.69755	38.33586	0.67911	129.42993
590	0.66551	128.4478	0.70963	37.12073	0.70963	37.12073	0.66551	128.4478
610	0.65237	127.5871	0.71845	35.84125	0.71845	35.84125	0.65237	127.5871
630	0.63958	126.63284	0.72623	34.79307	0.72623	34.79307	0.63958	126.63284
650	0.62748	125.16871	0.73963	34.00676	0.73963	34.00676	0.62748	125.16871
670	0.6096	123.7832	0.74928	32.89762	0.74928	32.89762	0.6096	123.7832
690	0.59854	122.71646	0.75982	31.99036	0.75982	31.99036	0.59854	122.71646
710	0.59255	121.49533	0.76871	31.0971	0.76871	31.0971	0.59255	121.49533
730	0.58748	120.0419	0.77539	30.18467	0.77539	30.18467	0.58748	120.0419
750	0.57681	118.6736	0.7813	29.37458	0.7813	29.37458	0.57681	118.6736
770	0.56728	118.06715	0.79167	28.67726	0.79167	28.67726	0.56728	118.06715
790	0.56142	117.53197	0.79844	27.74661	0.79844	27.74661	0.56142	117.53197
810	0.55443	116.90522	0.80184	27.00652	0.80184	27.00652	0.55443	116.90522
830	0.54473	116.06603	0.80593	26.44412	0.80593	26.44412	0.54473	116.06603
850	0.53395	114.93558	0.81858	25.60973	0.81858	25.60973	0.53395	114.93558
870	0.51989	114.05768	0.82181	24.65797	0.82181	24.65797	0.51989	114.05768
890	0.51445	113.32438	0.82593	23.9307	0.82593	23.9307	0.51445	113.32438
910	0.51026	112.19412	0.8304	23.18856	0.8304	23.18856	0.51026	112.19412
930	0.50362	110.79547	0.83502	22.43801	0.83502	22.43801	0.50362	110.79547
950	0.49458	109.92708	0.83996	21.93129	0.83996	21.93129	0.49458	109.92708
970	0.49149	109.92112	0.84573	21.10436	0.84573	21.10436	0.49149	109.92112
990	0.48747	109.34534	0.8496	20.29626	0.8496	20.29626	0.48747	109.34534
1010	0.48075	108.57296	0.85342	19.68606	0.85342	19.68606	0.48075	108.57296
1030	0.47132	107.85754	0.85832	19.20437	0.85832	19.20437	0.47132	107.85754
1050	0.4609	107.33298	0.86467	18.53343	0.86467	18.53343	0.4609	107.33298
1070	0.4551	107.01944	0.8682	17.87642	0.8682	17.87642	0.4551	107.01944
1090	0.45177	106.14742	0.871	17.20326	0.871	17.20326	0.45177	106.14742
1110	0.44579	105.13031	0.87508	16.73256	0.87508	16.73256	0.44579	105.13031
1130	0.43714	104.37763	0.88003	16.40024	0.88003	16.40024	0.43714	104.37763
1150	0.43091	104.29507	0.8831	15.85945	0.8831	15.85945	0.43091	104.29507
1170	0.42718	103.98812	0.88195	15.14666	0.88195	15.14666	0.42718	103.98812
1190	0.42198	103.26958	0.88329	14.73655	0.88329	14.73655	0.42198	103.26958
1210	0.41382	102.50056	0.88619	14.27894	0.88619	14.27894	0.41382	102.50056
1230	0.40339	101.94594	0.88974	13.6375	0.88974	13.6375	0.40339	101.94594
1250	0.39355	101.77436	0.89305	12.88983	0.89305	12.88983	0.39355	101.77436
1270	0.39079	100.74949	0.89433	12.49926	0.89433	12.49926	0.39079	100.74949
1290	0.38564	99.48888	0.90027	12.05523	0.90027	12.05523	0.38564	99.48888
1310	0.37786	98.3919	0.90468	11.56797	0.90468	11.56797	0.37786	98.3919
1330	0.37048	97.77399	0.90616	11.07009	0.90616	11.07009	0.37048	97.77399
1350	0.3698	97.86664	0.90806	10.61658	0.90806	10.61658	0.3698	97.86664
1370	0.36926	96.80471	0.90943	10.10975	0.90943	10.10975	0.36926	96.80471
1390	0.36372	95.7313	0.91137	9.76701	0.91137	9.76701	0.36372	95.7313
1410	0.35706	95.18215	0.91325	9.29668	0.91325	9.29668	0.35706	95.18215
1430	0.35172	95.05559	0.9147	8.66521	0.9147	8.66521	0.35172	95.05559
1450	0.34876	94.6125	0.91562	8.09715	0.91562	8.09715	0.34876	94.6125
1470	0.34587	93.38982	0.9153	7.72666	0.9153	7.72666	0.34587	93.38982
1490	0.33999	92.25157	0.92179	7.29631	0.92179	7.29631	0.33999	92.25157
1510	0.33457	91.68664	0.925	6.89707	0.925	6.89707	0.33457	91.68664
1530	0.33223	91.61532	0.92362	6.51984	0.92362	6.51984	0.33223	91.61532
1550	0.3348	91.38935	0.92515	6.0555	0.92515	6.0555	0.3348	91.38935
1570	0.33332	90.08041	0.92798	5.68875	0.92798	5.68875	0.33332	90.08041
1590	0.32712	89.54748	0.92937	5.29603	0.92937	5.29603	0.32712	89.54748
1610	0.3212	89.60664	0.93046	4.88085	0.93046	4.88085	0.3212	89.60664
1630	0.31775	89.76931	0.93177	4.48368	0.93177	4.48368	0.31775	89.76931
1650	0.31614	89.24226	0.93321	4.182	0.93321	4.182	0.31614	89.24226
1670	0.31119	87.90503	0.93167	3.64996	0.93167	3.64996	0.31119	87.90503
1690	0.30492	87.32813	0.93264	3.39591	0.93264	3.39591	0.30492	87.32813
1710	0.30163	87.35844	0.93573	3.03597	0.93573	3.03597	0.30163	87.35844
1730	0.30212	87.39655	0.93938	2.51679	0.93938	2.51679	0.30212	87.39655
1750	0.30373	86.39673	0.9408	2.11552	0.9408	2.11552	0.30373	86.39673
1770	0.29646	85.68173	0.93785	1.9101	0.93785	1.9101	0.29646	85.68173
1790	0.29113	85.72148	0.94102	1.56074	0.94102	1.56074	0.29113	85.72148
1810	0.28766	85.94024	0.94299	1.1224	0.94299	1.1224	0.28766	85.94024
1830	0.28498	85.79893	0.94214	0.68303	0.94214	0.68303	0.28498	85.79893
1850	0.28107	84.79515	0.94252	0.36361	0.94252	0.36361	0.28107	84.79515
1870	0.27316	83.91963	0.94649	-0.02029	0.94649	-0.02029	0.27316	83.91963
1890	0.26848	83.76329	0.94621	-0.37611	0.94621	-0.37611	0.26848	83.76329
1910	0.26727	83.60995	0.94469	-0.75133	0.94469	-0.75133	0.26727	83.60995
1930	0.26749	82.96115	0.94412	-1.11229	0.94412	-1.11229	0.26749	82.96115
1950	0.26488	81.53615	0.94579	-1.34417	0.94579	-1.34417	0.26488	81.53615
1970	0.25892	81.50653	0.94819	-1.64605	0.94819	-1.64605	0.25892	81.50653
1990	0.25514	81.33167	0.9475	-2.04991	0.9475	-2.04991	0.25514	81.33167
2010	0.2539	81.02552	0.948	-2.48516	0.948	-2.48516	0.2539	81.02552
2030	0.25335	80.38525	0.95074	-2.8293	0.95074	-2.8293	0.25335	80.38525
2050	0.24939	78.9912	0.95347	-2.90792	0.95347	-2.90792	0.24939	78.9912
2070	0.24238	78.89451	0.95426	-3.34145	0.95426	-3.34145	0.24238	78.89451
2090	0.24089	78.90472	0.95442	-3.70881	0.95442	-3.70881	0.24089	78.90472
2110	0.24164	78.37587	0.95401	-3.96616	0.95401	-3.96616	0.24164	78.37587
2130	0.24143	77.24367	0.95399	-4.21289	0.95399	-4.21289	0.24143	77.24367
2150	0.23707	76.02547	0.95627	-4.69167	0.95627	-4.69167	0.23707	76.02547
2170	0.23427	76.50192	0.95784	-5.01947	0.95784	-5.01947	0.23427	76.50192
2190	0.23425	76.80507	0.96016	-5.27745	0.96016	-5.27745	0.23425	76.80507
2210	0.23376	76.27019	0.96016	-5.60668	0.96016	-5.60668	0.23376	76.27019
2230	0.23109	75.13954	0.95832	-5.95005	0.95832	-5.95005	0.23109	75.13954
2250	0.22608	74.56241	0.95862	-6.05235	0.95862	-6.05235	0.22608	74.56241
2270	0.22292	75.30242	0.96143	-6.32421	0.96143	-6.32421	0.22292	75.30242
2290	0.22319	75.12142	0.95956	-6.79207	0.95956	-6.79207	0.22319	75.12142
2310	0.22337	74.34262	0.95948	-7.0826	0.95948	-7.0826	0.22337	74.34262
2330	0.22124	73.55525	0.96201	-7.24598	0.96201	-7.24598	0.22124	73.55525
2350	0.21588	73.61457	0.96242	-7.756	0.96242	-7.756	0.21588	73.61457
2370	0.21505	74.78722	0.95962	-8.12646	0.95962	-8.12646	0.21505	74.78722
2390	0.21534	74.7225	0.96039	-8.2836	0.96039	-8.2836	0.21534	74.7225
2410	0.21286	73.90903	0.96272	-8.584	0.96272	-8.584	0.21286	73.90903
2430	0.20665	73.12359	0.96309	-8.9872	0.96309	-8.9872	0.20665	73.12359
2450	0.1987	73.43119	0.95647	-9.05569	0.95647	-9.05569	0.1987	73.43119
2470	0.19806	73.74035	0.96611	-9.65287	0.96611	-9.65287	0.19806	73.74035
2490	0.19776	72.50217	0.96605	-9.86062	0.96605	-9.86062	0.19776	72.50217
2510	0.19595	70.93537	0.96474	-10.1184	0.96474	-10.1184	0.19595	70.93537
2530	0.19289	70.16068	0.96638	-10.53176	0.96638	-10.53176	0.19289	70.16068
2550	0.19094	71.2009	0.97092	-10.87233	0.97092	-10.87233	0.19094	71.2009
2570	0.19473	71.76236	0.96982	-10.97002	0.96982	-10.97002	0.19473	71.76236
2590	0.19378	71.44379	0.96755	-11.21227	0.96755	-11.21227	0.19378	71.44379
2610	0.18884	71.13467	0.9665	-11.5697	0.9665	-11.5697	0.18884	71.13467
2630	0.18237	71.43216	0.96698	-11.87302	0.96698	-11.87302	0.18237	71.43216
2650	0.17859	72.64101	0.96717	-11.81305	0.96717	-11.81305	0.17859	72.64101
2670	0.17893	71.87908	0.96942	-12.22032	0.96942	-12.22032	0.17893	71.87908
2690	0.1767	70.60715	0.97048	-12.45282	0.97048	-12.45282	0.1767	70.60715
2710	0.17271	69.61244	0.97154	-12.81527	0.97154	-12.81527	0.17271	69.61244
2730	0.16917	69.48127	0.97261	-13.23873	0.97261	-13.23873	0.16917	69.48127
2750	0.16973	70.59911	0.97257	-13.28057	0.97257	-13.28057	0.16973	70.59911
2770	0.1714	69.96918	0.97147	-13.63813	0.97147	-13.63813	0.1714	69.96918
2790	0.16889	68.97337	0.97274	-13.96946	0.97274	-13.96946	0.16889	68.97337
2810	0.16438	68.79236	0.97272	-14.16194	0.97272	-14.16194	0.16438	68.79236
2830	0.16078	69.47373	0.97136	-14.29018	0.97136	-14.29018	0.16078	69.47373
2850	0.16178	69.93194	0.97223	-14.61596	0.97223	-14.61596	0.16178	69.93194
2870	0.16216	67.80362	0.97136	-15.04062	0.97136	-15.04062	0.16216	67.80362
2890	0.15915	66.91953	0.97305	-15.21018	0.97305	-15.21018	0.15915	66.91953
2910	0.15701	67.3841	0.97403	-15.46144	0.97403	-15.46144	0.15701	67.3841
2930	0.15745	68.62543	0.97375	-15.86626	0.97375	-15.86626	0.15745	68.62543
2950	0.15969	69.39526	0.97442	-16.23157	0.97442	-16.23157	0.15969	69.39526
2970	0.15602	69.1698	0.97623	-16.34986	0.97623	-16.34986	0.15602	69.1698
2990	0.14969	69.06734	0.97869	-16.60854	0.97869	-16.60854	0.14969	69.06734
3010	0.14461	69.49858	0.97797	-16.91163	0.97797	-16.91163	0.14461	69.49858
3030	0.14265	69.8737	0.97466	-17.21896	0.97466	-17.21896	0.14265	69.8737
3050	0.14354	68.60237	0.97371	-17.54621	0.97371	-17.54621	0.14354	68.60237
3070	0.1395	66.81842	0.9746	-17.75259	0.9746	-17.75259	0.1395	66.81842
3090	0.13577	66.83985	0.97492	-18.21565	0.97492	-18.21565	0.13577	66.83985
3110	0.13435	67.75223	0.97578	-18.51436	0.97578	-18.51436	0.13435	67.75223
3130	0.13491	68.37673	0.97725	-18.60316	0.97725	-18.60316	0.13491	68.37673
3150	0.13482	67.27015	0.97838	-18.81191	0.97838	-18.81191	0.13482	67.27015
3170	0.12877	66.32756	0.97475	-19.06542	0.97475	-19.06542	0.12877	66.32756
3190	0.12486	66.82327	0.9798	-19.19475	0.9798	-19.19475	0.12486	66.82327
3210	0.12398	67.42031	0.98143	-19.38292	0.98143	-19.38292	0.12398	67.42031
3230	0.12515	67.17137	0.97685	-19.66681	0.97685	-19.66681	0.12515	67.17137
3250	0.12554	65.51887	0.97256	-19.93718	0.97256	-19.93718	0.12554	65.51887
3270	0.11987	65.38099	0.97896	-20.21622	0.97896	-20.21622	0.11987	65.38099
3290	0.11703	66.814	0.98077	-20.61964	0.98077	-20.61964	0.11703	66.814
3310	0.11624	67.95149	0.98108	-20.98176	0.98108	-20.98176	0.11624	67.95149
3330	0.11538	67.66945	0.98167	-21.2915	0.98167	-21.2915	0.11538	67.66945
3350	0.11097	65.58636	0.98301	-21.69241	0.98301	-21.69241	0.11097	65.58636
3370	0.10607	65.21842	0.98462	-21.63985	0.98462	-21.63985	0.10607	65.21842
3390	0.10574	65.68059	0.98318	-21.84898	0.98318	-21.84898	0.10574	65.68059
3410	0.10795	65.45892	0.98014	-22.17293	0.98014	-22.17293	0.10795	65.45892
3430	0.10988	64.4125	0.97804	-22.45016	0.97804	-22.45016	0.10988	64.4125
3450	0.10797	63.77353	0.98045	-22.50449	0.98045	-22.50449	0.10797	63.77353
3470	0.10387	65.88372	0.98143	-22.87323	0.98143	-22.87323	0.10387	65.88372
3490	0.10212	68.32178	0.98158	-23.17002	0.98158	-23.17002	0.10212	68.32178
3510	0.10104	68.98418	0.98507	-23.35862	0.98507	-23.35862	0.10104	68.98418
3530	0.09835	67.83913	0.9889	-23.5129	0.9889	-23.5129	0.09835	67.83913
3550	0.09123	66.92661	0.9829	-23.81691	0.9829	-23.81691	0.09123	66.92661
3570	0.0881	67.91407	0.9829	-24.24882	0.9829	-24.24882	0.0881	67.91407
3590	0.08872	67.91188	0.98223	-24.44137	0.98223	-24.44137	0.08872	67.91188
3610	0.08901	66.57842	0.98293	-24.6165	0.98293	-24.6165	0.08901	66.57842
3630	0.08684	64.94402	0.98461	-24.86778	0.98461	-24.86778	0.08684	64.94402
3650	0.08203	65.41095	0.98439	-25.16047	0.98439	-25.16047	0.08203	65.41095
3670	0.08241	67.99685	0.98679	-25.46173	0.98679	-25.46173	0.08241	67.99685
3690	0.08243	67.68239	0.98909	-25.69092	0.98909	-25.69092	0.08243	67.68239
3710	0.0804	65.77527	0.98796	-25.93883	0.98796	-25.93883	0.0804	65.77527
3730	0.07635	63.99539	0.98475	-26.23164	0.98475	-26.23164	0.07635	63.99539
3750	0.072	64.47492	0.98553	-26.53093	0.98553	-26.53093	0.072	64.47492
3770	0.07312	66.50627	0.98186	-26.81842	0.98186	-26.81842	0.07312	66.50627
3790	0.07436	65.20601	0.98631	-27.23265	0.98631	-27.23265	0.07436	65.20601
3810	0.07291	63.641	0.98783	-27.43036	0.98783	-27.43036	0.07291	63.641
3830	0.069	63.72986	0.98519	-27.43745	0.98519	-27.43745	0.069	63.72986
3850	0.06589	66.24298	0.98697	-27.64896	0.98697	-27.64896	0.06589	66.24298
3870	0.06782	68.76121	0.98502	-27.86593	0.98502	-27.86593	0.06782	68.76121
3890	0.06731	67.38601	0.98617	-28.00443	0.98617	-28.00443	0.06731	67.38601
3910	0.06404	66.24071	0.98678	-28.23526	0.98678	-28.23526	0.06404	66.24071
3930	0.05957	67.34484	0.98625	-28.5571	0.98625	-28.5571	0.05957	67.34484
3950	0.05728	70.61415	0.98705	-28.79651	0.98705	-28.79651	0.05728	70.61415
3970	0.05808	69.98769	0.98628	-28.74368	0.98628	-28.74368	0.05808	69.98769
3990	0.0559	66.9007	0.9871	-29.20369	0.9871	-29.20369	0.0559	66.9007
4010	0.05234	65.50618	0.98844	-29.61787	0.98844	-29.61787	0.05234	65.50618
4030	0.04948	66.9529	0.98921	-29.82562	0.98921	-29.82562	0.04948	66.9529
4050	0.0498	69.38539	0.98831	-30.06439	0.98831	-30.06439	0.0498	69.38539
4070	0.05224	66.91068	0.98622	-30.31221	0.98622	-30.31221	0.05224	66.91068
4090	0.0508	65.38935	0.98807	-30.6112	0.98807	-30.6112	0.0508	65.38935
4110	0.04764	67.86203	0.98997	-30.82742	0.98997	-30.82742	0.04764	67.86203
4130	0.04502	73.5801	0.99074	-30.97857	0.99074	-30.97857	0.04502	73.5801
4150	0.04528	78.0057	0.99192	-31.23403	0.99192	-31.23403	0.04528	78.0057
4170	0.04331	74.79489	0.99358	-31.72402	0.99358	-31.72402	0.04331	74.79489
4190	0.03819	73.01667	0.99204	-31.92163	0.99204	-31.92163	0.03819	73.01667
4210	0.03404	74.34337	0.98878	-32.20252	0.98878	-32.20252	0.03404	74.34337
4230	0.03293	77.06238	0.98623	-32.56608	0.98623	-32.56608	0.03293	77.06238
4250	0.03489	76.07618	0.9878	-32.63546	0.9878	-32.63546	0.03489	76.07618
4270	0.03498	71.71696	0.98943	-32.64582	0.98943	-32.64582	0.03498	71.71696
4290	0.03133	72.68674	0.98814	-32.89605	0.98814	-32.89605	0.03133	72.68674
4310	0.0291	78.06649	0.98819	-33.25197	0.98819	-33.25197	0.0291	78.06649
4330	0.02936	83.78479	0.99028	-33.59812	0.99028	-33.59812	0.02936	83.78479
4350	0.0291	82.61782	0.99163	-33.83776	0.99163	-33.83776	0.0291	82.61782
4370	0.02362	78.49839	0.98976	-34.10158	0.98976	-34.10158	0.02362	78.49839
4390	0.01934	81.51945	0.98879	-34.37267	0.98879	-34.37267	0.01934	81.51945
4410	0.01865	84.78269	0.99271	-34.63216	0.99271	-34.63216	0.01865	84.78269
4430	0.02082	83.3231	0.99793	-34.8248	0.99793	-34.8248	0.02082	83.3231
4450	0.02208	74.10899	0.99323	-34.85905	0.99323	-34.85905	0.02208	74.10899
4470	0.01974	73.11041	0.99212	-35.2485	0.99212	-35.2485	0.01974	73.11041
4490	0.01877	85.21315	0.99185	-35.47939	0.99185	-35.47939	0.01877	85.21315
4510	0.01937	95.4028	0.98956	-35.63123	0.98956	-35.63123	0.01937	95.4028
4530	0.0201	97.48445	0.98692	-35.81326	0.98692	-35.81326	0.0201	97.48445
4550	0.01796	94.08258	0.99004	-36.16449	0.99004	-36.16449	0.01796	94.08258
4570	0.01358	106.00961	0.99298	-36.5019	0.99298	-36.5019	0.01358	106.00961
4590	0.01411	118.77916	0.99323	-36.66219	0.99323	-36.66219	0.01411	118.77916
4610	0.01573	122.08286	0.99185	-36.81181	0.99185	-36.81181	0.01573	122.08286
4630	0.01561	117.05883	0.99056	-37.07029	0.99056	-37.07029	0.01561	117.05883
4650	0.01189	116.29169	0.9918	-37.51022	0.9918	-37.51022	0.01189	116.29169
4670	0.01179	141.41725	0.989	-37.55847	0.989	-37.55847	0.01179	141.41725
4690	0.01471	143.35654	0.99042	-37.89338	0.99042	-37.89338	0.01471	143.35654
4710	0.01611	141.43064	0.99077	-38.26769	0.99077	-38.26769	0.01611	141.43064
4730	0.0148	145.53333	0.98962	-38.52495	0.98962	-38.52495	0.0148	145.53333
4750	0.01294	156.13117	0.99149	-38.59949	0.99149	-38.59949	0.01294	156.13117
4770	0.01615	168.61531	0.99058	-38.68105	0.99058	-38.68105	0.01615	168.61531
4790	0.01819	166.92834	0.99051	-38.95847	0.99051	-38.95847	0.01819	166.92834
4810	0.01779	163.98693	0.99226	-39.20756	0.99226	-39.20756	0.01779	163.98693
4830	0.01623	95.76042	0.99441	-39.39686	0.99441	-39.39686	0.01623	95.76042
4850	0.01729	-178.72915	0.99313	-39.68767	0.99313	-39.68767	0.01729	-178.72915
4870	0.02151	108.11274	0.99001	-39.89877	0.99001	-39.89877	0.02151	108.11274
4890	0.02335	176.41778	0.98825	-40.22467	0.98825	-40.22467	0.02335	176.41778
4910	0.0237	33.37272	0.98896	-40.43665	0.98896	-40.43665	0.0237	33.37272
4930	0.02463	-175.7491	0.99081	-40.583	0.99081	-40.583	0.02463	-175.7491
4950	0.02938	-167.58779	0.99	-40.98904	0.99	-40.98904	0.02938	-167.58779
4970	0.03353	-167.96964	0.98919	-40.84238	0.98919	-40.84238	0.03353	-167.96964
4990	0.03272	-166.27041	0.99117	-41.2666	0.99117	-41.2666	0.03272	-166.27041
5010	0.03136	-160.66104	0.99263	-41.57538	0.99263	-41.57538	0.03136	-160.66104
5030	0.03186	-153.37222	0.99212	-41.62987	0.99212	-41.62987	0.03186	-153.37222
5050	0.03463	-150.69434	0.99001	-41.83874	0.99001	-41.83874	0.03463	-150.69434
5070	0.03381	-155.19098	0.9911	-42.37766	0.9911	-42.37766	0.03381	-155.19098
5090	0.03205	-154.37044	0.9909	-42.6109	0.9909	-42.6109	0.03205	-154.37044
5110	0.03199	-152.33191	0.99083	-42.77999	0.99083	-42.77999	0.03199	-152.33191
5130	0.03438	-151.90637	0.99095	-42.99112	0.99095	-42.99112	0.03438	-151.90637
5150	0.03805	-154.65656	0.98999	-43.21504	0.98999	-43.21504	0.03805	-154.65656
5170	0.03803	-158.60812	0.9897	-43.34351	0.9897	-43.34351	0.03803	-158.60812
5190	0.03745	-156.39389	0.98664	-43.58623	0.98664	-43.58623	0.03745	-156.39389
5210	0.03821	-151.93723	0.98836	-43.8588	0.98836	-43.8588	0.03821	-151.93723
5230	0.04069	-149.23097	0.99319	-44.12228	0.99319	-44.12228	0.04069	-149.23097
5250	0.04369	-152.33746	0.9902	-44.38316	0.9902	-44.38316	0.04369	-152.33746
5270	0.04178	-155.47479	0.98844	-44.63436	0.98844	-44.63436	0.04178	-155.47479
5290	0.04152	-153.68182	0.98538	-44.59001	0.98538	-44.59001	0.04152	-153.68182
5310	0.04363	-151.11288	0.98792	-44.76536	0.98792	-44.76536	0.04363	-151.11288
5330	0.04718	-150.82411	0.99309	-45.21154	0.99309	-45.21154	0.04718	-150.82411
5350	0.04951	-154.7735	0.98806	-45.51556	0.98806	-45.51556	0.04951	-154.7735
5370	0.04711	-153.12765	0.98977	-45.74044	0.98977	-45.74044	0.04711	-153.12765
5390	0.04815	-149.85276	0.99038	-45.82797	0.99038	-45.82797	0.04815	-149.85276
5410	0.05165	-148.6431	0.9911	-45.94557	0.9911	-45.94557	0.05165	-148.6431
