! Data Taken on a HP 8720C VNA using a series-through fixture with TRL* de-embedding
#	mhz	s	ma	r	50
50	0.0052	50.17728	0.9884	-0.90225	0.9884	-0.90225	0.0052	50.17728
70	0.0091	48.79241	0.9924	-0.78736	0.9924	-0.78736	0.0091	48.79241
90	0.01037	42.67655	0.99301	-0.79171	0.99301	-0.79171	0.01037	42.67655
110	0.011	38.12743	0.99139	-0.91385	0.99139	-0.91385	0.011	38.12743
130	0.01178	38.68515	0.98988	-1.09518	0.98988	-1.09518	0.01178	38.68515
150	0.01228	45.13213	0.99192	-1.21993	0.99192	-1.21993	0.01228	45.13213
170	0.0144	49.1486	0.99091	-1.12513	0.99091	-1.12513	0.0144	49.1486
190	0.01601	51.32252	0.98761	-1.39659	0.98761	-1.39659	0.01601	51.32252
210	0.01715	52.60123	0.98754	-1.54782	0.98754	-1.54782	0.01715	52.60123
230	0.01777	53.78458	0.99056	-1.51575	0.99056	-1.51575	0.01777	53.78458
250	0.0177	55.52486	0.99093	-1.66067	0.99093	-1.66067	0.0177	55.52486
270	0.01925	56.55062	0.98981	-1.53384	0.98981	-1.53384	0.01925	56.55062
290	0.02063	56.50836	0.98924	-1.70634	0.98924	-1.70634	0.02063	56.50836
310	0.02252	56.02918	0.98862	-1.86521	0.98862	-1.86521	0.02252	56.02918
330	0.02491	56.08503	0.98856	-1.888	0.98856	-1.888	0.02491	56.08503
350	0.02716	57.98865	0.99078	-1.84277	0.99078	-1.84277	0.02716	57.98865
370	0.02829	61.73957	0.99056	-1.93925	0.99056	-1.93925	0.02829	61.73957
390	0.02892	64.70005	0.99034	-2.15032	0.99034	-2.15032	0.02892	64.70005
410	0.02956	66.40161	0.99027	-2.35471	0.99027	-2.35471	0.02956	66.40161
430	0.03027	66.82112	0.99076	-2.44438	0.99076	-2.44438	0.03027	66.82112
450	0.03061	66.38085	0.99249	-2.32441	0.99249	-2.32441	0.03061	66.38085
470	0.03165	66.57771	0.99037	-2.50901	0.99037	-2.50901	0.03165	66.57771
490	0.03523	70.14791	0.9889	-2.76803	0.9889	-2.76803	0.03523	70.14791
510	0.03859	72.73673	0.98632	-2.99762	0.98632	-2.99762	0.03859	72.73673
530	0.04045	73.29253	0.98365	-3.1063	0.98365	-3.1063	0.04045	73.29253
550	0.04101	74.06668	0.98464	-3.01493	0.98464	-3.01493	0.04101	74.06668
570	0.04118	74.65891	0.98621	-3.25294	0.98621	-3.25294	0.04118	74.65891
590	0.04202	74.50859	0.98582	-3.30228	0.98582	-3.30228	0.04202	74.50859
610	0.04307	73.81608	0.98746	-3.38097	0.98746	-3.38097	0.04307	73.81608
630	0.04442	72.82303	0.99007	-3.51207	0.99007	-3.51207	0.04442	72.82303
650	0.04667	71.81235	0.98762	-3.52366	0.98762	-3.52366	0.04667	71.81235
670	0.04945	72.21881	0.98834	-3.67419	0.98834	-3.67419	0.04945	72.21881
690	0.05194	73.69243	0.98777	-3.85312	0.98777	-3.85312	0.05194	73.69243
710	0.05409	75.59486	0.9869	-3.98147	0.9869	-3.98147	0.05409	75.59486
730	0.05558	77.53464	0.98569	-4.03188	0.98569	-4.03188	0.05558	77.53464
750	0.0559	79.36714	0.98302	-4.02859	0.98302	-4.02859	0.0559	79.36714
770	0.05553	81.39522	0.99034	-4.35226	0.99034	-4.35226	0.05553	81.39522
790	0.05522	82.10592	0.99047	-4.37378	0.99047	-4.37378	0.05522	82.10592
810	0.05486	81.6563	0.9876	-4.32051	0.9876	-4.32051	0.05486	81.6563
830	0.05468	80.39809	0.98508	-4.35188	0.98508	-4.35188	0.05468	80.39809
850	0.05527	78.87774	0.98548	-4.55942	0.98548	-4.55942	0.05527	78.87774
870	0.05672	78.38216	0.98428	-4.30121	0.98428	-4.30121	0.05672	78.38216
890	0.05869	78.09779	0.98346	-4.62109	0.98346	-4.62109	0.05869	78.09779
910	0.06039	78.10136	0.98423	-4.87542	0.98423	-4.87542	0.06039	78.10136
930	0.06156	78.26879	0.98506	-4.89914	0.98506	-4.89914	0.06156	78.26879
950	0.06251	78.27521	0.98174	-5.00577	0.98174	-5.00577	0.06251	78.27521
970	0.06334	78.61627	0.9833	-5.12631	0.9833	-5.12631	0.06334	78.61627
990	0.06418	77.95518	0.98324	-5.1974	0.98324	-5.1974	0.06418	77.95518
1010	0.0654	76.85338	0.9828	-5.32408	0.9828	-5.32408	0.0654	76.85338
1030	0.06719	75.87352	0.98307	-5.49227	0.98307	-5.49227	0.06719	75.87352
1050	0.06951	75.5794	0.98496	-5.56875	0.98496	-5.56875	0.06951	75.5794
1070	0.07236	75.48471	0.98532	-5.57671	0.98532	-5.57671	0.07236	75.48471
1090	0.07471	76.10548	0.98474	-5.6939	0.98474	-5.6939	0.07471	76.10548
1110	0.07657	76.90112	0.98397	-5.72047	0.98397	-5.72047	0.07657	76.90112
1130	0.07781	77.6016	0.98327	-5.71316	0.98327	-5.71316	0.07781	77.6016
1150	0.07815	78.20741	0.9825	-5.98525	0.9825	-5.98525	0.07815	78.20741
1170	0.07878	78.62134	0.98231	-6.04652	0.98231	-6.04652	0.07878	78.62134
1190	0.07944	78.33675	0.98496	-6.0923	0.98496	-6.0923	0.07944	78.33675
1210	0.08045	77.74229	0.98585	-6.18827	0.98585	-6.18827	0.08045	77.74229
1230	0.08193	77.16613	0.98352	-6.36195	0.98352	-6.36195	0.08193	77.16613
1250	0.0838	76.87597	0.97961	-6.60275	0.97961	-6.60275	0.0838	76.87597
1270	0.08637	76.87678	0.98123	-6.47563	0.98123	-6.47563	0.08637	76.87678
1290	0.08853	77.09005	0.98068	-6.66892	0.98068	-6.66892	0.08853	77.09005
1310	0.09024	77.6337	0.98144	-6.81067	0.98144	-6.81067	0.09024	77.6337
1330	0.09157	78.40324	0.98354	-6.83042	0.98354	-6.83042	0.09157	78.40324
1350	0.09264	79.07179	0.98356	-6.9592	0.98356	-6.9592	0.09264	79.07179
1370	0.09377	79.10439	0.98206	-7.18818	0.98206	-7.18818	0.09377	79.10439
1390	0.09447	79.22527	0.98031	-7.12282	0.98031	-7.12282	0.09447	79.22527
1410	0.09547	79.28389	0.98051	-7.11061	0.98051	-7.11061	0.09547	79.28389
1430	0.09681	79.29424	0.98178	-7.25524	0.98178	-7.25524	0.09681	79.29424
1450	0.09774	79.43474	0.98019	-7.41664	0.98019	-7.41664	0.09774	79.43474
1470	0.09864	79.62504	0.98156	-7.41623	0.98156	-7.41623	0.09864	79.62504
1490	0.09973	79.65129	0.98262	-7.65617	0.98262	-7.65617	0.09973	79.65129
1510	0.10038	79.80521	0.98058	-7.84951	0.98058	-7.84951	0.10038	79.80521
1530	0.1008	79.91456	0.97804	-7.92216	0.97804	-7.92216	0.1008	79.91456
1550	0.10207	79.34312	0.98299	-8.01288	0.98299	-8.01288	0.10207	79.34312
1570	0.10308	78.80408	0.98196	-8.15945	0.98196	-8.15945	0.10308	78.80408
1590	0.10436	78.4149	0.98135	-8.22289	0.98135	-8.22289	0.10436	78.4149
1610	0.10623	78.39399	0.9804	-8.2482	0.9804	-8.2482	0.10623	78.39399
1630	0.10825	78.59979	0.97888	-8.28824	0.97888	-8.28824	0.10825	78.59979
1650	0.10924	78.53075	0.97704	-8.40369	0.97704	-8.40369	0.10924	78.53075
1670	0.1104	78.61793	0.97924	-8.5955	0.97924	-8.5955	0.1104	78.61793
1690	0.11121	78.67869	0.97799	-8.65078	0.97799	-8.65078	0.11121	78.67869
1710	0.1123	78.63836	0.97787	-8.67204	0.97787	-8.67204	0.1123	78.63836
1730	0.11379	78.44878	0.97974	-8.72901	0.97974	-8.72901	0.11379	78.44878
1750	0.11525	78.08829	0.98075	-8.85853	0.98075	-8.85853	0.11525	78.08829
1770	0.11686	77.60173	0.98022	-8.90818	0.98022	-8.90818	0.11686	77.60173
1790	0.11812	77.65786	0.97933	-8.88846	0.97933	-8.88846	0.11812	77.65786
1810	0.11908	77.76842	0.97809	-8.93979	0.97809	-8.93979	0.11908	77.76842
1830	0.11997	77.74926	0.9773	-9.05711	0.9773	-9.05711	0.11997	77.74926
1850	0.12121	77.72036	0.9786	-9.08985	0.9786	-9.08985	0.12121	77.72036
1870	0.12195	77.47351	0.97796	-9.33938	0.97796	-9.33938	0.12195	77.47351
1890	0.12301	77.24764	0.97884	-9.50237	0.97884	-9.50237	0.12301	77.24764
1910	0.1244	76.90477	0.97895	-9.59854	0.97895	-9.59854	0.1244	76.90477
1930	0.12609	76.4651	0.97812	-9.66909	0.97812	-9.66909	0.12609	76.4651
1950	0.12805	76.10699	0.97838	-9.7767	0.97838	-9.7767	0.12805	76.10699
1970	0.12957	75.97609	0.97801	-9.9111	0.97801	-9.9111	0.12957	75.97609
1990	0.13136	75.91376	0.97594	-9.71933	0.97594	-9.71933	0.13136	75.91376
2010	0.13342	75.99191	0.97449	-9.70223	0.97449	-9.70223	0.13342	75.99191
2030	0.13539	76.13714	0.97532	-9.95055	0.97532	-9.95055	0.13539	76.13714
2050	0.13645	76.13081	0.97942	-10.14501	0.97942	-10.14501	0.13645	76.13081
2070	0.13724	76.08357	0.97568	-10.28353	0.97568	-10.28353	0.13724	76.08357
2090	0.13879	76.05659	0.97285	-10.27492	0.97285	-10.27492	0.13879	76.05659
2110	0.14044	75.95228	0.9732	-10.48773	0.9732	-10.48773	0.14044	75.95228
2130	0.1418	75.86246	0.97558	-10.80594	0.97558	-10.80594	0.1418	75.86246
2150	0.14279	76.06845	0.97535	-10.62891	0.97535	-10.62891	0.14279	76.06845
2170	0.14421	75.91429	0.97428	-10.70646	0.97428	-10.70646	0.14421	75.91429
2190	0.14613	75.72195	0.97502	-10.80448	0.97502	-10.80448	0.14613	75.72195
2210	0.14773	75.5439	0.97485	-10.94682	0.97485	-10.94682	0.14773	75.5439
2230	0.14891	75.37166	0.97309	-11.08532	0.97309	-11.08532	0.14891	75.37166
2250	0.15034	75.13582	0.97108	-11.09982	0.97108	-11.09982	0.15034	75.13582
2270	0.15204	75.30972	0.97551	-11.00358	0.97551	-11.00358	0.15204	75.30972
2290	0.15369	75.29341	0.97636	-11.32109	0.97636	-11.32109	0.15369	75.29341
2310	0.15523	75.16674	0.97498	-11.49949	0.97498	-11.49949	0.15523	75.16674
2330	0.15644	75.13173	0.97311	-11.46373	0.97311	-11.46373	0.15644	75.13173
2350	0.15697	75.51257	0.97284	-11.6166	0.97284	-11.6166	0.15697	75.51257
2370	0.15765	75.12541	0.971	-11.57422	0.971	-11.57422	0.15765	75.12541
2390	0.15978	74.88751	0.97243	-11.67174	0.97243	-11.67174	0.15978	74.88751
2410	0.16122	74.88354	0.97263	-11.77297	0.97263	-11.77297	0.16122	74.88354
2430	0.16194	74.93788	0.97105	-11.86974	0.97105	-11.86974	0.16194	74.93788
2450	0.16394	74.61462	0.97103	-12.08193	0.97103	-12.08193	0.16394	74.61462
2470	0.16538	74.61816	0.97249	-12.13266	0.97249	-12.13266	0.16538	74.61816
2490	0.16631	74.55033	0.97019	-12.19482	0.97019	-12.19482	0.16631	74.55033
2510	0.16734	74.54217	0.96866	-12.22983	0.96866	-12.22983	0.16734	74.54217
2530	0.16863	74.61056	0.96944	-12.30242	0.96944	-12.30242	0.16863	74.61056
2550	0.1699	74.65823	0.9711	-12.58056	0.9711	-12.58056	0.1699	74.65823
2570	0.17137	74.63629	0.97134	-12.34298	0.97134	-12.34298	0.17137	74.63629
2590	0.17269	74.50084	0.97003	-12.56951	0.97003	-12.56951	0.17269	74.50084
2610	0.17337	74.11995	0.96925	-12.81017	0.96925	-12.81017	0.17337	74.11995
2630	0.174	73.6786	0.96826	-12.88876	0.96826	-12.88876	0.174	73.6786
2650	0.1763	73.6786	0.96351	-12.9028	0.96351	-12.9028	0.1763	73.6786
2670	0.17797	73.82942	0.96597	-13.00749	0.96597	-13.00749	0.17797	73.82942
2690	0.1801	73.58344	0.96583	-13.1154	0.96583	-13.1154	0.1801	73.58344
2710	0.18211	73.52892	0.96523	-13.2025	0.96523	-13.2025	0.18211	73.52892
2730	0.18342	73.69627	0.96615	-13.3	0.96615	-13.3	0.18342	73.69627
2750	0.18343	73.55801	0.97039	-13.49433	0.97039	-13.49433	0.18343	73.55801
2770	0.18253	73.1964	0.96555	-13.50815	0.96555	-13.50815	0.18253	73.1964
2790	0.18467	73.08689	0.96582	-13.50951	0.96582	-13.50951	0.18467	73.08689
2810	0.18758	73.00428	0.96629	-13.75503	0.96629	-13.75503	0.18758	73.00428
2830	0.18986	72.87221	0.96537	-14.08402	0.96537	-14.08402	0.18986	72.87221
2850	0.19096	72.76314	0.96485	-13.91845	0.96485	-13.91845	0.19096	72.76314
2870	0.1926	72.77533	0.96393	-13.86025	0.96393	-13.86025	0.1926	72.77533
2890	0.19466	73.26493	0.96561	-13.83792	0.96561	-13.83792	0.19466	73.26493
2910	0.19646	73.65151	0.96515	-13.94727	0.96515	-13.94727	0.19646	73.65151
2930	0.19736	73.72657	0.96225	-14.1086	0.96225	-14.1086	0.19736	73.72657
2950	0.19669	73.65348	0.96104	-14.06669	0.96104	-14.06669	0.19669	73.65348
2970	0.19754	73.16787	0.96164	-14.07267	0.96164	-14.07267	0.19754	73.16787
2990	0.19886	72.78924	0.9624	-14.26971	0.9624	-14.26971	0.19886	72.78924
3010	0.20059	72.55626	0.962	-14.40037	0.962	-14.40037	0.20059	72.55626
3030	0.20273	72.39837	0.96047	-14.4732	0.96047	-14.4732	0.20273	72.39837
3050	0.20538	72.13581	0.95918	-14.76268	0.95918	-14.76268	0.20538	72.13581
3070	0.20577	72.05954	0.95886	-14.86731	0.95886	-14.86731	0.20577	72.05954
3090	0.20715	72.3111	0.96316	-14.91883	0.96316	-14.91883	0.20715	72.3111
3110	0.20837	72.71277	0.96239	-14.91668	0.96239	-14.91668	0.20837	72.71277
3130	0.20912	73.00322	0.95717	-14.88322	0.95717	-14.88322	0.20912	73.00322
3150	0.20989	72.83755	0.9584	-14.86372	0.9584	-14.86372	0.20989	72.83755
3170	0.20969	72.32386	0.95817	-15.06685	0.95817	-15.06685	0.20969	72.32386
3190	0.21059	71.84469	0.95593	-15.1633	0.95593	-15.1633	0.21059	71.84469
3210	0.21294	71.58792	0.95536	-15.24837	0.95536	-15.24837	0.21294	71.58792
3230	0.21594	71.60154	0.95657	-15.33178	0.95657	-15.33178	0.21594	71.60154
3250	0.21767	71.79367	0.95611	-15.33772	0.95611	-15.33772	0.21767	71.79367
3270	0.21962	72.01373	0.96038	-15.75731	0.96038	-15.75731	0.21962	72.01373
3290	0.22027	72.23021	0.95912	-15.76509	0.95912	-15.76509	0.22027	72.23021
3310	0.22052	72.41053	0.9558	-15.73708	0.9558	-15.73708	0.22052	72.41053
3330	0.22088	72.47591	0.95375	-15.70607	0.95375	-15.70607	0.22088	72.47591
3350	0.22155	72.30133	0.95616	-15.36162	0.95616	-15.36162	0.22155	72.30133
3370	0.22263	71.72719	0.95346	-15.87442	0.95346	-15.87442	0.22263	71.72719
3390	0.22359	71.31114	0.95307	-16.06987	0.95307	-16.06987	0.22359	71.31114
3410	0.22541	71.18311	0.95256	-16.09929	0.95256	-16.09929	0.22541	71.18311
3430	0.22753	71.28652	0.9518	-16.12238	0.9518	-16.12238	0.22753	71.28652
3450	0.22784	71.37818	0.95295	-16.30732	0.95295	-16.30732	0.22784	71.37818
3470	0.22846	71.01685	0.95275	-16.57726	0.95275	-16.57726	0.22846	71.01685
3490	0.22938	71.10833	0.95132	-16.60861	0.95132	-16.60861	0.22938	71.10833
3510	0.23078	71.00926	0.95089	-16.52503	0.95089	-16.52503	0.23078	71.00926
3530	0.23244	70.60346	0.95167	-16.49538	0.95167	-16.49538	0.23244	70.60346
3550	0.23377	70.3019	0.9518	-16.73373	0.9518	-16.73373	0.23377	70.3019
3570	0.23576	70.3425	0.94785	-16.79019	0.94785	-16.79019	0.23576	70.3425
3590	0.23695	70.22897	0.94834	-16.80753	0.94834	-16.80753	0.23695	70.22897
3610	0.23874	70.0974	0.9514	-16.88833	0.9514	-16.88833	0.23874	70.0974
3630	0.24035	70.14998	0.95267	-17.02504	0.95267	-17.02504	0.24035	70.14998
3650	0.23879	70.65501	0.94529	-17.10001	0.94529	-17.10001	0.23879	70.65501
3670	0.24249	70.43075	0.94833	-17.27491	0.94833	-17.27491	0.24249	70.43075
3690	0.24293	70.34769	0.94754	-17.41776	0.94754	-17.41776	0.24293	70.34769
3710	0.24346	70.16941	0.94525	-17.44085	0.94525	-17.44085	0.24346	70.16941
3730	0.24507	69.8662	0.94399	-17.4315	0.94399	-17.4315	0.24507	69.8662
3750	0.24645	69.61501	0.94642	-17.65204	0.94642	-17.65204	0.24645	69.61501
3770	0.24792	69.64434	0.94266	-17.75603	0.94266	-17.75603	0.24792	69.64434
3790	0.24987	69.71006	0.94512	-17.79977	0.94512	-17.79977	0.24987	69.71006
3810	0.25108	69.78006	0.94487	-17.84378	0.94487	-17.84378	0.25108	69.78006
3830	0.25135	69.79783	0.94118	-17.90878	0.94118	-17.90878	0.25135	69.79783
3850	0.25145	69.68242	0.94159	-17.97573	0.94159	-17.97573	0.25145	69.68242
3870	0.25232	69.3944	0.9406	-18.21139	0.9406	-18.21139	0.25232	69.3944
3890	0.2542	69.2044	0.94186	-18.2002	0.94186	-18.2002	0.2542	69.2044
3910	0.25579	68.88248	0.94316	-18.21636	0.94316	-18.21636	0.25579	68.88248
3930	0.25682	68.47467	0.94349	-18.37919	0.94349	-18.37919	0.25682	68.47467
3950	0.25813	68.303	0.94309	-18.65305	0.94309	-18.65305	0.25813	68.303
3970	0.25988	68.36416	0.94008	-18.43242	0.94008	-18.43242	0.25988	68.36416
3990	0.26119	68.51951	0.93948	-18.56724	0.93948	-18.56724	0.26119	68.51951
4010	0.26229	68.5691	0.93989	-18.67498	0.93989	-18.67498	0.26229	68.5691
4030	0.26321	68.37549	0.94023	-18.72221	0.94023	-18.72221	0.26321	68.37549
4050	0.2637	67.86368	0.93976	-19.02451	0.93976	-19.02451	0.2637	67.86368
4070	0.2646	67.80596	0.94064	-19.13492	0.94064	-19.13492	0.2646	67.80596
4090	0.2659	67.44572	0.93869	-19.15076	0.93869	-19.15076	0.2659	67.44572
4110	0.26737	66.90241	0.9374	-19.27066	0.9374	-19.27066	0.26737	66.90241
4130	0.26868	66.48116	0.93687	-19.47141	0.93687	-19.47141	0.26868	66.48116
4150	0.26943	66.67274	0.93379	-19.50796	0.93379	-19.50796	0.26943	66.67274
4170	0.27311	66.92649	0.93455	-19.45976	0.93455	-19.45976	0.27311	66.92649
4190	0.27597	66.77347	0.93615	-19.56942	0.93615	-19.56942	0.27597	66.77347
4210	0.27692	66.73296	0.93523	-19.68809	0.93523	-19.68809	0.27692	66.73296
4230	0.27683	66.8725	0.9334	-19.7067	0.9334	-19.7067	0.27683	66.8725
4250	0.27859	66.808	0.93724	-19.55594	0.93724	-19.55594	0.27859	66.808
4270	0.27801	66.52973	0.93333	-19.70348	0.93333	-19.70348	0.27801	66.52973
4290	0.27963	66.02297	0.93081	-19.93421	0.93081	-19.93421	0.27963	66.02297
4310	0.28221	65.63323	0.93216	-20.13993	0.93216	-20.13993	0.28221	65.63323
4330	0.28499	65.47249	0.93686	-20.31842	0.93686	-20.31842	0.28499	65.47249
4350	0.28773	65.41925	0.94139	-20.57344	0.94139	-20.57344	0.28773	65.41925
4370	0.28808	65.63193	0.93513	-20.41046	0.93513	-20.41046	0.28808	65.63193
4390	0.28933	65.8703	0.93211	-20.48217	0.93211	-20.48217	0.28933	65.8703
4410	0.29013	65.97626	0.9312	-20.52875	0.9312	-20.52875	0.29013	65.97626
4430	0.29076	65.7584	0.93135	-20.52281	0.93135	-20.52281	0.29076	65.7584
4450	0.29309	64.99194	0.93167	-20.66939	0.93167	-20.66939	0.29309	64.99194
4470	0.29095	64.99157	0.93134	-20.79759	0.93134	-20.79759	0.29095	64.99157
4490	0.29331	64.74967	0.931	-20.98301	0.931	-20.98301	0.29331	64.74967
4510	0.29599	64.5308	0.93144	-21.09799	0.93144	-21.09799	0.29599	64.5308
4530	0.29762	64.45229	0.93105	-21.10019	0.93105	-21.10019	0.29762	64.45229
4550	0.29961	64.48421	0.92582	-21.03263	0.92582	-21.03263	0.29961	64.48421
4570	0.3011	64.56517	0.92742	-21.09639	0.92742	-21.09639	0.3011	64.56517
4590	0.30133	64.27907	0.93118	-21.60029	0.93118	-21.60029	0.30133	64.27907
4610	0.30085	64.11786	0.93061	-21.82811	0.93061	-21.82811	0.30085	64.11786
4630	0.30106	64.09716	0.92676	-21.68879	0.92676	-21.68879	0.30106	64.09716
4650	0.30425	63.75622	0.92828	-21.71641	0.92828	-21.71641	0.30425	63.75622
4670	0.30423	63.14244	0.92618	-21.97663	0.92618	-21.97663	0.30423	63.14244
4690	0.30548	62.96248	0.92318	-21.8916	0.92318	-21.8916	0.30548	62.96248
4710	0.30792	62.82334	0.92277	-21.9795	0.92277	-21.9795	0.30792	62.82334
4730	0.3108	62.62589	0.92494	-22.30349	0.92494	-22.30349	0.3108	62.62589
4750	0.31276	62.56485	0.92616	-22.47173	0.92616	-22.47173	0.31276	62.56485
4770	0.31221	62.64549	0.92188	-22.42407	0.92188	-22.42407	0.31221	62.64549
4790	0.3125	62.31866	0.92318	-22.6552	0.92318	-22.6552	0.3125	62.31866
4810	0.31315	62.04648	0.92485	-22.7302	0.92485	-22.7302	0.31315	62.04648
4830	0.31414	61.82709	0.92492	-22.62677	0.92492	-22.62677	0.31414	61.82709
4850	0.31595	61.19454	0.92459	-22.73522	0.92459	-22.73522	0.31595	61.19454
4870	0.31706	61.11361	0.92486	-22.98776	0.92486	-22.98776	0.31706	61.11361
4890	0.31899	61.03722	0.9248	-23.09616	0.9248	-23.09616	0.31899	61.03722
4910	0.32072	60.82503	0.92196	-23.17745	0.92196	-23.17745	0.32072	60.82503
4930	0.32231	60.56818	0.91872	-23.19856	0.91872	-23.19856	0.32231	60.56818
4950	0.3248	60.58931	0.92229	-22.97629	0.92229	-22.97629	0.3248	60.58931
4970	0.32452	60.27597	0.92031	-23.32486	0.92031	-23.32486	0.32452	60.27597
4990	0.32381	59.8911	0.91709	-23.57971	0.91709	-23.57971	0.32381	59.8911
5010	0.3251	59.69818	0.91675	-23.57889	0.91675	-23.57889	0.3251	59.69818
5030	0.32802	59.5533	0.9188	-23.54633	0.9188	-23.54633	0.32802	59.5533
5050	0.32946	58.90518	0.91814	-24.09185	0.91814	-24.09185	0.32946	58.90518
5070	0.33057	58.82658	0.91351	-24.10263	0.91351	-24.10263	0.33057	58.82658
5090	0.33309	59.00959	0.915	-24.1027	0.915	-24.1027	0.33309	59.00959
5110	0.33601	58.82443	0.91787	-24.18528	0.91787	-24.18528	0.33601	58.82443
5130	0.33753	58.31604	0.91806	-24.39975	0.91806	-24.39975	0.33753	58.31604
5150	0.33509	58.20397	0.9122	-24.75171	0.9122	-24.75171	0.33509	58.20397
5170	0.33569	58.54798	0.91234	-24.5201	0.91234	-24.5201	0.33569	58.54798
5190	0.33833	58.18577	0.91276	-24.62556	0.91276	-24.62556	0.33833	58.18577
5210	0.33987	57.60196	0.91152	-24.9579	0.91152	-24.9579	0.33987	57.60196
5230	0.3396	57.25853	0.90871	-25.21198	0.90871	-25.21198	0.3396	57.25853
5250	0.33934	57.59481	0.90644	-24.88777	0.90644	-24.88777	0.33934	57.59481
5270	0.34435	57.1282	0.91303	-25.08595	0.91303	-25.08595	0.34435	57.1282
5290	0.34517	56.62264	0.91054	-25.63247	0.91054	-25.63247	0.34517	56.62264
5310	0.34545	56.60276	0.90732	-25.69916	0.90732	-25.69916	0.34545	56.60276
5330	0.34704	56.8485	0.9077	-25.34764	0.9077	-25.34764	0.34704	56.8485
5350	0.35005	56.39513	0.91205	-25.52928	0.91205	-25.52928	0.35005	56.39513
5370	0.34918	55.87391	0.91126	-25.79827	0.91126	-25.79827	0.34918	55.87391
5390	0.35049	55.75642	0.90938	-25.83736	0.90938	-25.83736	0.35049	55.75642
5410	0.35292	55.78244	0.90835	-26.00769	0.90835	-26.00769	0.35292	55.78244
5430	0.35519	55.6488	0.90804	-26.29172	0.90804	-26.29172	0.35519	55.6488
5450	0.35576	55.00939	0.90623	-26.29324	0.90623	-26.29324	0.35576	55.00939
5470	0.35695	55.28959	0.90602	-26.27385	0.90602	-26.27385	0.35695	55.28959
