! Data Taken on a HP 8720C VNA using a shunt-through fixture with TRL* de-embedding
#	mhz	s	ma	r	50
50	0.96354	177.80005	0.02336	72.68366	0.02336	72.68366	0.96354	177.80005
70	0.99359	178.03948	0.03244	78.59338	0.03244	78.59338	0.99359	178.03948
90	0.99407	176.86686	0.04026	76.96158	0.04026	76.96158	0.99407	176.86686
110	0.9866	176.18167	0.04719	75.84955	0.04719	75.84955	0.9866	176.18167
130	0.98596	176.07476	0.05434	77.24684	0.05434	77.24684	0.98596	176.07476
150	1.0001	174.82836	0.06361	77.07131	0.06361	77.07131	1.0001	174.82836
170	0.98336	174.68946	0.07067	77.4763	0.07067	77.4763	0.98336	174.68946
190	0.9846	174.2062	0.0786	77.37735	0.0786	77.37735	0.9846	174.2062
210	0.9857	173.33695	0.08633	76.91876	0.08633	76.91876	0.9857	173.33695
230	0.9809	172.5181	0.09372	76.34848	0.09372	76.34848	0.9809	172.5181
250	0.97681	172.66406	0.1015	76.01807	0.1015	76.01807	0.97681	172.66406
270	0.98275	171.70272	0.11047	75.75714	0.11047	75.75714	0.98275	171.70272
290	0.97674	170.83621	0.11749	75.11016	0.11749	75.11016	0.97674	170.83621
310	0.9725	170.32272	0.12446	74.80924	0.12446	74.80924	0.9725	170.32272
330	0.97468	169.86307	0.1321	74.72949	0.1321	74.72949	0.97468	169.86307
350	0.97894	168.60074	0.13994	73.88898	0.13994	73.88898	0.97894	168.60074
370	0.96862	168.41378	0.14714	73.52995	0.14714	73.52995	0.96862	168.41378
390	0.96947	167.9341	0.15488	73.20755	0.15488	73.20755	0.96947	167.9341
410	0.97017	167.20819	0.16247	72.59383	0.16247	72.59383	0.97017	167.20819
430	0.96726	166.50715	0.16966	71.91064	0.16966	71.91064	0.96726	166.50715
450	0.96516	166.32669	0.1767	71.92961	0.1767	71.92961	0.96516	166.32669
470	0.9674	165.62135	0.18495	71.47475	0.18495	71.47475	0.9674	165.62135
490	0.96499	163.72614	0.20366	70.5244	0.20366	70.5244	0.96499	163.72614
510	0.96053	162.37226	0.2191	69.87113	0.2191	69.87113	0.96053	162.37226
530	0.9577	161.88453	0.22753	69.62523	0.22753	69.62523	0.9577	161.88453
550	0.9613	161.18139	0.2352	69.21468	0.2352	69.21468	0.9613	161.18139
570	0.95984	160.60217	0.24203	68.50199	0.24203	68.50199	0.95984	160.60217
590	0.95962	159.96025	0.24836	68.00153	0.24836	68.00153	0.95962	159.96025
610	0.95543	159.3759	0.25481	67.58855	0.25481	67.58855	0.95543	159.3759
630	0.94951	158.89683	0.26184	67.11875	0.26184	67.11875	0.94951	158.89683
650	0.9515	158.4982	0.26985	66.42832	0.26985	66.42832	0.9515	158.4982
670	0.94738	157.39522	0.27654	65.58091	0.27654	65.58091	0.94738	157.39522
690	0.94211	156.75382	0.28241	65.16693	0.28241	65.16693	0.94211	156.75382
710	0.94325	156.16534	0.28955	64.75728	0.28955	64.75728	0.94325	156.16534
730	0.94736	155.48765	0.29767	64.13672	0.29767	64.13672	0.94736	155.48765
750	0.94001	154.84511	0.30415	63.30383	0.30415	63.30383	0.94001	154.84511
770	0.94109	154.57694	0.31152	62.81081	0.31152	62.81081	0.94109	154.57694
790	0.94151	154.06723	0.31861	62.27358	0.31861	62.27358	0.94151	154.06723
810	0.93651	153.5571	0.32427	61.87291	0.32427	61.87291	0.93651	153.5571
830	0.92915	153.03777	0.32945	61.41953	0.32945	61.41953	0.92915	153.03777
850	0.93026	152.25048	0.33711	60.35419	0.33711	60.35419	0.93026	152.25048
870	0.92455	151.49062	0.34421	59.54425	0.34421	59.54425	0.92455	151.49062
890	0.91815	151.01287	0.34922	59.21887	0.34922	59.21887	0.91815	151.01287
910	0.91621	150.49102	0.356	58.86978	0.356	58.86978	0.91621	150.49102
930	0.91662	149.7671	0.36398	58.27225	0.36398	58.27225	0.91662	149.7671
950	0.90993	148.85136	0.36813	57.48509	0.36813	57.48509	0.90993	148.85136
970	0.90879	148.70881	0.37573	57.02373	0.37573	57.02373	0.90879	148.70881
990	0.90758	148.23771	0.38169	56.62501	0.38169	56.62501	0.90758	148.23771
1010	0.90286	147.59291	0.38734	56.16031	0.38734	56.16031	0.90286	147.59291
1030	0.89654	146.9318	0.39337	55.62378	0.39337	55.62378	0.89654	146.9318
1050	0.89586	146.41441	0.39988	55.13228	0.39988	55.13228	0.89586	146.41441
1070	0.88997	145.52517	0.40455	54.47046	0.40455	54.47046	0.88997	145.52517
1090	0.88757	144.88406	0.41086	53.95105	0.41086	53.95105	0.88757	144.88406
1110	0.88566	144.34912	0.41762	53.48043	0.41762	53.48043	0.88566	144.34912
1130	0.88293	143.7826	0.42356	52.99508	0.42356	52.99508	0.88293	143.7826
1150	0.87978	143.051	0.42739	52.46159	0.42739	52.46159	0.87978	143.051
1170	0.8806	142.57653	0.43347	51.98785	0.43347	51.98785	0.8806	142.57653
1190	0.8763	142.05145	0.43874	51.48244	0.43874	51.48244	0.8763	142.05145
1210	0.87373	141.59312	0.44495	51.04502	0.44495	51.04502	0.87373	141.59312
1230	0.87249	141.0781	0.45131	50.59406	0.45131	50.59406	0.87249	141.0781
1250	0.86484	140.14214	0.45452	49.86688	0.45452	49.86688	0.86484	140.14214
1270	0.86017	139.91584	0.45774	49.73521	0.45774	49.73521	0.86017	139.91584
1290	0.86024	139.25003	0.46514	49.16242	0.46514	49.16242	0.86024	139.25003
1310	0.85835	138.39916	0.4716	48.44369	0.4716	48.44369	0.85835	138.39916
1330	0.85367	137.66337	0.476	47.86147	0.476	47.86147	0.85367	137.66337
1350	0.85126	137.38848	0.48129	47.6855	0.48129	47.6855	0.85126	137.38848
1370	0.85341	136.58861	0.48878	46.99686	0.48878	46.99686	0.85341	136.58861
1390	0.84838	136.1606	0.4926	46.73636	0.4926	46.73636	0.84838	136.1606
1410	0.84632	135.82773	0.49686	46.44552	0.49686	46.44552	0.84632	135.82773
1430	0.84747	135.37939	0.50216	45.92306	0.50216	45.92306	0.84747	135.37939
1450	0.84216	134.67114	0.50556	45.225	0.50556	45.225	0.84216	134.67114
1470	0.83657	134.41785	0.50873	45.01394	0.50873	45.01394	0.83657	134.41785
1490	0.8342	133.76983	0.51514	44.42114	0.51514	44.42114	0.8342	133.76983
1510	0.83061	133.11311	0.52036	43.74572	0.52036	43.74572	0.83061	133.11311
1530	0.82585	132.58989	0.52368	43.22513	0.52368	43.22513	0.82585	132.58989
1550	0.82448	132.0985	0.52807	43.03523	0.52807	43.03523	0.82448	132.0985
1570	0.8241	131.57541	0.53389	42.52407	0.53389	42.52407	0.8241	131.57541
1590	0.82052	130.89955	0.53757	42.13421	0.53757	42.13421	0.82052	130.89955
1610	0.81711	130.36406	0.54078	41.72029	0.54078	41.72029	0.81711	130.36406
1630	0.81486	130.02645	0.54441	41.24044	0.54441	41.24044	0.81486	130.02645
1650	0.81242	129.70857	0.54851	40.7562	0.54851	40.7562	0.81242	129.70857
1670	0.80865	129.18169	0.55402	40.26593	0.55402	40.26593	0.80865	129.18169
1690	0.80223	128.57438	0.55779	39.78076	0.55779	39.78076	0.80223	128.57438
1710	0.79655	128.09303	0.56133	39.43805	0.56133	39.43805	0.79655	128.09303
1730	0.7943	127.64264	0.56601	39.14216	0.56601	39.14216	0.7943	127.64264
1750	0.79751	126.82692	0.57315	38.56452	0.57315	38.56452	0.79751	126.82692
1770	0.7922	126.0986	0.57403	37.99858	0.57403	37.99858	0.7922	126.0986
1790	0.7905	125.91314	0.57825	37.88969	0.57825	37.88969	0.7905	125.91314
1810	0.78988	125.66406	0.58274	37.58703	0.58274	37.58703	0.78988	125.66406
1830	0.78759	125.19176	0.58615	36.95824	0.58615	36.95824	0.78759	125.19176
1850	0.7806	124.78356	0.58878	36.38939	0.58878	36.38939	0.7806	124.78356
1870	0.77675	124.49639	0.59344	36.18989	0.59344	36.18989	0.77675	124.49639
1890	0.7743	123.86836	0.59906	35.62182	0.59906	35.62182	0.7743	123.86836
1910	0.77042	123.18965	0.60274	35.17069	0.60274	35.17069	0.77042	123.18965
1930	0.76595	122.62954	0.60498	34.94424	0.60498	34.94424	0.76595	122.62954
1950	0.76538	122.2364	0.60967	34.67248	0.60967	34.67248	0.76538	122.2364
1970	0.76485	121.57654	0.6127	34.22047	0.6127	34.22047	0.76485	121.57654
1990	0.76335	121.12707	0.61453	33.77521	0.61453	33.77521	0.76335	121.12707
2010	0.76028	120.8467	0.61736	33.44038	0.61736	33.44038	0.76028	120.8467
2030	0.75652	120.60345	0.62173	33.14965	0.62173	33.14965	0.75652	120.60345
2050	0.75438	120.17469	0.62647	32.66664	0.62647	32.66664	0.75438	120.17469
2070	0.74882	119.48821	0.62967	31.96148	0.62967	31.96148	0.74882	119.48821
2090	0.7446	119.13484	0.62991	31.65445	0.62991	31.65445	0.7446	119.13484
2110	0.74268	118.75753	0.63342	31.37823	0.63342	31.37823	0.74268	118.75753
2130	0.74195	118.28037	0.6397	31.0019	0.6397	31.0019	0.74195	118.28037
2150	0.73924	117.90858	0.64155	30.63096	0.64155	30.63096	0.73924	117.90858
2170	0.73568	117.55403	0.64313	30.32086	0.64313	30.32086	0.73568	117.55403
2190	0.73541	117.17769	0.64725	29.92924	0.64725	29.92924	0.73541	117.17769
2210	0.7337	116.63986	0.65078	29.40231	0.65078	29.40231	0.7337	116.63986
2230	0.72912	116.06094	0.65323	28.8925	0.65323	28.8925	0.72912	116.06094
2250	0.72348	115.82141	0.65682	28.75854	0.65682	28.75854	0.72348	115.82141
2270	0.72536	115.45699	0.66207	28.3279	0.66207	28.3279	0.72536	115.45699
2290	0.72107	115.0147	0.66354	27.80193	0.66354	27.80193	0.72107	115.0147
2310	0.71641	114.7453	0.66533	27.48175	0.66533	27.48175	0.71641	114.7453
2330	0.71485	114.50068	0.66896	27.28392	0.66896	27.28392	0.71485	114.50068
2350	0.71758	113.73388	0.67336	26.74041	0.67336	26.74041	0.71758	113.73388
2370	0.70932	113.47757	0.67377	26.31234	0.67377	26.31234	0.70932	113.47757
2390	0.70693	113.25512	0.67679	26.18958	0.67679	26.18958	0.70693	113.25512
2410	0.70586	113.00883	0.68029	25.89724	0.68029	25.89724	0.70586	113.00883
2430	0.70407	112.63245	0.68326	25.3486	0.68326	25.3486	0.70407	112.63245
2450	0.70205	111.97114	0.68572	24.84513	0.68572	24.84513	0.70205	111.97114
2470	0.6984	111.75268	0.68977	24.61603	0.68977	24.61603	0.6984	111.75268
2490	0.69671	111.51466	0.69223	24.37802	0.69223	24.37802	0.69671	111.51466
2510	0.69422	111.19036	0.69487	24.07811	0.69487	24.07811	0.69422	111.19036
2530	0.69103	110.85642	0.69746	23.67486	0.69746	23.67486	0.69103	110.85642
2550	0.69007	110.7328	0.69779	23.13838	0.69779	23.13838	0.69007	110.7328
2570	0.68811	110.44259	0.70544	23.07801	0.70544	23.07801	0.68811	110.44259
2590	0.68453	110.01797	0.70652	22.55714	0.70652	22.55714	0.68453	110.01797
2610	0.67869	109.57553	0.7074	22.14168	0.7074	22.14168	0.67869	109.57553
2630	0.67367	109.21327	0.70989	21.90811	0.70989	21.90811	0.67367	109.21327
2650	0.67623	109.0106	0.71122	21.44349	0.71122	21.44349	0.67623	109.0106
2670	0.67309	108.79023	0.71352	21.12925	0.71352	21.12925	0.67309	108.79023
2690	0.67132	108.53128	0.71659	20.82571	0.71659	20.82571	0.67132	108.53128
2710	0.67089	108.28105	0.7195	20.46784	0.7195	20.46784	0.67089	108.28105
2730	0.66932	108.02588	0.722	20.01741	0.722	20.01741	0.66932	108.02588
2750	0.6616	107.69111	0.72457	19.46292	0.72457	19.46292	0.6616	107.69111
2770	0.65269	107.40002	0.7267	19.3711	0.7267	19.3711	0.65269	107.40002
2790	0.65301	107.13033	0.72941	19.00722	0.72941	19.00722	0.65301	107.13033
2810	0.65408	106.72733	0.73077	18.52207	0.73077	18.52207	0.65408	106.72733
2830	0.65227	106.27049	0.7315	18.07152	0.7315	18.07152	0.65227	106.27049
2850	0.64878	106.07349	0.73499	17.81654	0.73499	17.81654	0.64878	106.07349
2870	0.64475	105.6391	0.73805	17.63888	0.73805	17.63888	0.64475	105.6391
2890	0.6443	105.71283	0.73991	17.54374	0.73991	17.54374	0.6443	105.71283
2910	0.64479	105.68275	0.74309	17.15892	0.74309	17.15892	0.64479	105.68275
2930	0.64368	105.45155	0.7464	16.56574	0.7464	16.56574	0.64368	105.45155
2950	0.63851	105.43645	0.74497	16.29907	0.74497	16.29907	0.63851	105.43645
2970	0.63484	104.93605	0.74892	15.96617	0.74892	15.96617	0.63484	104.93605
2990	0.63172	104.51448	0.75291	15.6335	0.75291	15.6335	0.63172	104.51448
3010	0.62907	104.08588	0.75545	15.30734	0.75545	15.30734	0.62907	104.08588
3030	0.62713	103.62091	0.75619	14.97023	0.75619	14.97023	0.62713	103.62091
3050	0.62647	103.14671	0.75594	14.58098	0.75594	14.58098	0.62647	103.14671
3070	0.62114	102.96058	0.7581	14.2874	0.7581	14.2874	0.62114	102.96058
3090	0.62069	102.8243	0.76317	13.84898	0.76317	13.84898	0.62069	102.8243
3110	0.61877	102.78604	0.76444	13.51089	0.76444	13.51089	0.61877	102.78604
3130	0.61438	102.81855	0.7631	13.34704	0.7631	13.34704	0.61438	102.81855
3150	0.61193	102.81921	0.76822	13.26007	0.76822	13.26007	0.61193	102.81921
3170	0.60694	102.139	0.77129	12.87551	0.77129	12.87551	0.60694	102.139
3190	0.6029	101.68137	0.77219	12.389	0.77219	12.389	0.6029	101.68137
3210	0.60266	101.35339	0.77394	12.00191	0.77394	12.00191	0.60266	101.35339
3230	0.6044	101.15108	0.77659	11.7121	0.77659	11.7121	0.6044	101.15108
3250	0.60155	101.15944	0.77716	11.3139	0.77716	11.3139	0.60155	101.15944
3270	0.60162	100.87629	0.7834	10.82528	0.7834	10.82528	0.60162	100.87629
3290	0.59783	100.67819	0.78417	10.56151	0.78417	10.56151	0.59783	100.67819
3310	0.59398	100.50043	0.78446	10.26159	0.78446	10.26159	0.59398	100.50043
3330	0.59122	100.34688	0.78694	9.95632	0.78694	9.95632	0.59122	100.34688
3350	0.58804	100.28995	0.79192	9.96833	0.79192	9.96833	0.58804	100.28995
3370	0.58653	99.7377	0.79175	9.51879	0.79175	9.51879	0.58653	99.7377
3390	0.58428	99.2022	0.7935	9.06687	0.7935	9.06687	0.58428	99.2022
3410	0.58228	98.97098	0.79411	8.69276	0.79411	8.69276	0.58228	98.97098
3430	0.58033	99.01639	0.79456	8.44949	0.79456	8.44949	0.58033	99.01639
3450	0.57714	98.99562	0.79986	8.3629	0.79986	8.3629	0.57714	98.99562
3470	0.57425	98.48119	0.80228	7.54958	0.80228	7.54958	0.57425	98.48119
3490	0.5709	98.4193	0.80164	7.17289	0.80164	7.17289	0.5709	98.4193
3510	0.5678	98.29184	0.80261	7.04669	0.80261	7.04669	0.5678	98.29184
3530	0.56568	97.87664	0.80629	6.92877	0.80629	6.92877	0.56568	97.87664
3550	0.56534	97.24739	0.8102	6.52084	0.8102	6.52084	0.56534	97.24739
3570	0.5599	97.02306	0.80793	6.16279	0.80793	6.16279	0.5599	97.02306
3590	0.55772	96.89949	0.81131	5.87132	0.81131	5.87132	0.55772	96.89949
3610	0.55723	96.68827	0.81567	5.5142	0.81567	5.5142	0.55723	96.68827
3630	0.55634	96.41604	0.81731	5.13433	0.81731	5.13433	0.55634	96.41604
3650	0.5524	96.32446	0.81352	4.94963	0.81352	4.94963	0.5524	96.32446
3670	0.55232	96.03498	0.81921	4.56288	0.81921	4.56288	0.55232	96.03498
3690	0.54776	95.77441	0.81916	4.04234	0.81916	4.04234	0.54776	95.77441
3710	0.54384	95.4899	0.81784	3.74757	0.81784	3.74757	0.54384	95.4899
3730	0.54239	95.1598	0.81913	3.6525	0.81913	3.6525	0.54239	95.1598
3750	0.54193	94.79365	0.82627	3.34546	0.82627	3.34546	0.54193	94.79365
3770	0.53815	94.74132	0.82473	2.93537	0.82473	2.93537	0.53815	94.74132
3790	0.53697	94.72043	0.82783	2.61727	0.82783	2.61727	0.53697	94.72043
3810	0.53539	94.53319	0.82982	2.31924	0.82982	2.31924	0.53539	94.53319
3830	0.53229	94.17031	0.82962	2.02722	0.82962	2.02722	0.53229	94.17031
3850	0.52848	93.81099	0.83082	1.78498	0.83082	1.78498	0.52848	93.81099
3870	0.52437	93.56241	0.83279	1.38277	0.83279	1.38277	0.52437	93.56241
3890	0.52263	93.29374	0.83419	1.08724	0.83419	1.08724	0.52263	93.29374
3910	0.52076	92.93233	0.83684	0.83916	0.83684	0.83916	0.52076	92.93233
3930	0.5188	92.51383	0.84079	0.51141	0.84079	0.51141	0.5188	92.51383
3950	0.51936	92.18215	0.84436	-0.09112	0.84436	-0.09112	0.51936	92.18215
3970	0.51505	92.146	0.84192	-0.18116	0.84192	-0.18116	0.51505	92.146
3990	0.51357	92.02411	0.84297	-0.30768	0.84297	-0.30768	0.51357	92.02411
4010	0.51091	91.7608	0.84482	-0.56438	0.84482	-0.56438	0.51091	91.7608
4030	0.50689	91.37545	0.84676	-0.93883	0.84676	-0.93883	0.50689	91.37545
4050	0.50508	90.96246	0.85002	-1.31252	0.85002	-1.31252	0.50508	90.96246
4070	0.50323	90.6154	0.84977	-1.97498	0.84977	-1.97498	0.50323	90.6154
4090	0.50103	90.16108	0.84982	-2.14032	0.84982	-2.14032	0.50103	90.16108
4110	0.50062	89.76562	0.85263	-2.36862	0.85263	-2.36862	0.50062	89.76562
4130	0.5	89.47594	0.85597	-2.77617	0.85597	-2.77617	0.5	89.47594
4150	0.49309	89.21984	0.85294	-3.03541	0.85294	-3.03541	0.49309	89.21984
4170	0.49392	89.24379	0.85464	-3.19977	0.85464	-3.19977	0.49392	89.24379
4190	0.49449	88.97039	0.85814	-3.58609	0.85814	-3.58609	0.49449	88.97039
4210	0.49189	88.63355	0.85865	-3.94261	0.85865	-3.94261	0.49189	88.63355
4230	0.48762	88.40623	0.85719	-4.12407	0.85719	-4.12407	0.48762	88.40623
4250	0.48762	88.4005	0.86053	-4.0917	0.86053	-4.0917	0.48762	88.4005
4270	0.48427	87.96095	0.86092	-4.51673	0.86092	-4.51673	0.48427	87.96095
4290	0.48255	87.55299	0.86283	-4.90935	0.86283	-4.90935	0.48255	87.55299
4310	0.4815	87.11142	0.86599	-5.30306	0.86599	-5.30306	0.4815	87.11142
4330	0.4809	86.65743	0.86986	-5.75889	0.86986	-5.75889	0.4809	86.65743
4350	0.48123	86.29855	0.87367	-6.36539	0.87367	-6.36539	0.48123	86.29855
4370	0.47727	86.37959	0.87015	-6.25851	0.87015	-6.25851	0.47727	86.37959
4390	0.47513	86.29356	0.86952	-6.50199	0.86952	-6.50199	0.47513	86.29356
4410	0.47252	86.18403	0.86948	-6.76146	0.86948	-6.76146	0.47252	86.18403
4430	0.46939	85.95652	0.87026	-7.02104	0.87026	-7.02104	0.46939	85.95652
4450	0.4679	85.27856	0.87459	-7.58328	0.87459	-7.58328	0.4679	85.27856
4470	0.46335	84.87359	0.87325	-7.81338	0.87325	-7.81338	0.46335	84.87359
4490	0.46278	84.78664	0.87465	-8.08859	0.87465	-8.08859	0.46278	84.78664
4510	0.46246	84.61549	0.87678	-8.45492	0.87678	-8.45492	0.46246	84.61549
4530	0.46033	84.24615	0.87786	-8.81623	0.87786	-8.81623	0.46033	84.24615
4550	0.45599	83.85291	0.87642	-8.93425	0.87642	-8.93425	0.45599	83.85291
4570	0.45673	83.90601	0.88075	-8.98953	0.88075	-8.98953	0.45673	83.90601
4590	0.45438	83.40798	0.88638	-9.57039	0.88638	-9.57039	0.45438	83.40798
4610	0.44987	83.16614	0.88503	-9.99613	0.88503	-9.99613	0.44987	83.16614
4630	0.44584	83.13137	0.87997	-10.1313	0.87997	-10.1313	0.44584	83.13137
4650	0.44661	82.39811	0.88604	-10.38569	0.88604	-10.38569	0.44661	82.39811
4670	0.44391	81.85124	0.88532	-11.06992	0.88532	-11.06992	0.44391	81.85124
4690	0.44117	81.67044	0.88444	-11.21857	0.88444	-11.21857	0.44117	81.67044
4710	0.44009	81.49257	0.886	-11.33503	0.886	-11.33503	0.44009	81.49257
4730	0.44007	81.18558	0.88919	-11.62811	0.88919	-11.62811	0.44007	81.18558
4750	0.43826	80.84858	0.88978	-12.01213	0.88978	-12.01213	0.43826	80.84858
4770	0.4351	80.69331	0.8897	-12.18058	0.8897	-12.18058	0.4351	80.69331
4790	0.43245	80.25462	0.8908	-12.62296	0.8908	-12.62296	0.43245	80.25462
4810	0.43012	79.93431	0.89295	-12.90526	0.89295	-12.90526	0.43012	79.93431
4830	0.42819	79.74019	0.89612	-13.05551	0.89612	-13.05551	0.42819	79.74019
4850	0.42697	79.28601	0.90032	-13.56379	0.90032	-13.56379	0.42697	79.28601
4870	0.4233	78.91187	0.90011	-13.69976	0.90011	-13.69976	0.4233	78.91187
4890	0.42161	78.61703	0.90025	-13.88925	0.90025	-13.88925	0.42161	78.61703
4910	0.4201	78.17838	0.89839	-14.22053	0.89839	-14.22053	0.4201	78.17838
4930	0.41856	77.75009	0.89646	-14.56578	0.89646	-14.56578	0.41856	77.75009
4950	0.41841	77.86351	0.90068	-14.58102	0.90068	-14.58102	0.41841	77.86351
4970	0.41676	77.24664	0.90173	-15.02577	0.90173	-15.02577	0.41676	77.24664
4990	0.41307	76.85523	0.90002	-15.48716	0.90002	-15.48716	0.41307	76.85523
5010	0.41044	76.8366	0.90054	-15.65164	0.90054	-15.65164	0.41044	76.8366
5030	0.40934	76.82766	0.90376	-15.71904	0.90376	-15.71904	0.40934	76.82766
5050	0.40762	75.95491	0.90563	-16.40262	0.90563	-16.40262	0.40762	75.95491
5070	0.40413	75.64102	0.90104	-16.66716	0.90104	-16.66716	0.40413	75.64102
5090	0.40225	75.48805	0.90162	-16.80236	0.90162	-16.80236	0.40225	75.48805
5110	0.40216	75.13899	0.9061	-17.16257	0.9061	-17.16257	0.40216	75.13899
5130	0.40192	74.65383	0.90979	-17.70774	0.90979	-17.70774	0.40192	74.65383
5150	0.39753	74.50956	0.90455	-18.00338	0.90455	-18.00338	0.39753	74.50956
5170	0.3946	74.4966	0.90623	-17.97686	0.90623	-17.97686	0.3946	74.4966
5190	0.39402	74.35698	0.90956	-18.04778	0.90956	-18.04778	0.39402	74.35698
5210	0.39221	73.90266	0.91153	-18.51003	0.91153	-18.51003	0.39221	73.90266
5230	0.38822	73.35377	0.91032	-19.14171	0.91032	-19.14171	0.38822	73.35377
5250	0.38366	73.33873	0.90527	-19.20518	0.90527	-19.20518	0.38366	73.33873
5270	0.38614	73.09339	0.9137	-19.34011	0.9137	-19.34011	0.38614	73.09339
5290	0.38404	72.37231	0.91302	-19.9511	0.91302	-19.9511	0.38404	72.37231
5310	0.38169	72.10549	0.91111	-20.23645	0.91111	-20.23645	0.38169	72.10549
5330	0.38121	72.28624	0.91223	-20.15832	0.91223	-20.15832	0.38121	72.28624
5350	0.38254	71.97122	0.917	-20.44267	0.917	-20.44267	0.38254	71.97122
5370	0.3776	71.34599	0.91777	-20.99031	0.91777	-20.99031	0.3776	71.34599
5390	0.37394	71.2202	0.91854	-21.25422	0.91854	-21.25422	0.37394	71.2202
5410	0.372	71.08042	0.92017	-21.52812	0.92017	-21.52812	0.372	71.08042
5430	0.37061	70.69347	0.92159	-21.82335	0.92159	-21.82335	0.37061	70.69347
5450	0.36699	70.10645	0.91983	-21.86883	0.91983	-21.86883	0.36699	70.10645
5470	0.3664	70.00201	0.92214	-22.15946	0.92214	-22.15946	0.3664	70.00201
