! Data Taken on a HP 8720C VNA using a series-through fixture with TRL* de-embedding
#	mhz	s	ma	r	50
50	0.00846	21.13308	0.99303	-1.53736	0.99303	-1.53736	0.00846	21.13308
70	0.01423	58.08781	0.99218	-1.15785	0.99218	-1.15785	0.01423	58.08781
90	0.01629	62.82084	0.99034	-1.1379	0.99034	-1.1379	0.01629	62.82084
110	0.01724	58.94806	0.98958	-1.27508	0.98958	-1.27508	0.01724	58.94806
130	0.01861	58.84523	0.98992	-1.4468	0.98992	-1.4468	0.01861	58.84523
150	0.02076	63.64795	0.98931	-1.61033	0.98931	-1.61033	0.02076	63.64795
170	0.02497	64.64951	0.99006	-1.41412	0.99006	-1.41412	0.02497	64.64951
190	0.02742	64.16467	0.98971	-1.79651	0.98971	-1.79651	0.02742	64.16467
210	0.02907	65.20273	0.98782	-2.09309	0.98782	-2.09309	0.02907	65.20273
230	0.03085	67.76528	0.98529	-2.22644	0.98529	-2.22644	0.03085	67.76528
250	0.03368	68.84626	0.98444	-2.70612	0.98444	-2.70612	0.03368	68.84626
270	0.03571	67.77624	0.98593	-2.62108	0.98593	-2.62108	0.03571	67.77624
290	0.03765	67.52146	0.98701	-2.61604	0.98701	-2.61604	0.03765	67.52146
310	0.04033	68.16277	0.98675	-2.73397	0.98675	-2.73397	0.04033	68.16277
330	0.04388	69.02031	0.98602	-2.96125	0.98602	-2.96125	0.04388	69.02031
350	0.04769	68.6535	0.98756	-3.22766	0.98756	-3.22766	0.04769	68.6535
370	0.05042	69.94388	0.98914	-3.2664	0.98914	-3.2664	0.05042	69.94388
390	0.0521	71.70737	0.98727	-3.52886	0.98727	-3.52886	0.0521	71.70737
410	0.0543	73.18252	0.98564	-3.79099	0.98564	-3.79099	0.0543	73.18252
430	0.05706	73.87318	0.9859	-3.92614	0.9859	-3.92614	0.05706	73.87318
450	0.0589	73.54848	0.98761	-3.90511	0.98761	-3.90511	0.0589	73.54848
470	0.06067	73.11187	0.98678	-4.10457	0.98678	-4.10457	0.06067	73.11187
490	0.06707	76.34671	0.98755	-4.67857	0.98755	-4.67857	0.06707	76.34671
510	0.07307	78.53378	0.98426	-4.99664	0.98426	-4.99664	0.07307	78.53378
530	0.07644	78.57556	0.97908	-5.02814	0.97908	-5.02814	0.07644	78.57556
550	0.07782	78.99631	0.98202	-5.34225	0.98202	-5.34225	0.07782	78.99631
570	0.07863	79.27247	0.98509	-5.53937	0.98509	-5.53937	0.07863	79.27247
590	0.08084	79.24109	0.98328	-5.49601	0.98328	-5.49601	0.08084	79.24109
610	0.08353	78.98172	0.98168	-5.65401	0.98168	-5.65401	0.08353	78.98172
630	0.08634	78.41206	0.98221	-6.00596	0.98221	-6.00596	0.08634	78.41206
650	0.08943	77.28802	0.98353	-6.09518	0.98353	-6.09518	0.08943	77.28802
670	0.09259	77.51803	0.98414	-6.25148	0.98414	-6.25148	0.09259	77.51803
690	0.09646	78.39516	0.98217	-6.4237	0.98217	-6.4237	0.09646	78.39516
710	0.10055	79.10621	0.98119	-6.62645	0.98119	-6.62645	0.10055	79.10621
730	0.10385	79.55162	0.98155	-6.82433	0.98155	-6.82433	0.10385	79.55162
750	0.10475	80.34558	0.98034	-6.93188	0.98034	-6.93188	0.10475	80.34558
770	0.10577	81.50113	0.98365	-7.33383	0.98365	-7.33383	0.10577	81.50113
790	0.10739	81.87493	0.98177	-7.38365	0.98177	-7.38365	0.10739	81.87493
810	0.10889	81.50966	0.97997	-7.38731	0.97997	-7.38731	0.10889	81.50966
830	0.1099	80.65303	0.97912	-7.47564	0.97912	-7.47564	0.1099	80.65303
850	0.11049	79.75779	0.97574	-7.60424	0.97574	-7.60424	0.11049	79.75779
870	0.11314	79.99626	0.97938	-7.79185	0.97938	-7.79185	0.11314	79.99626
890	0.11692	79.61075	0.97926	-8.14698	0.97926	-8.14698	0.11692	79.61075
910	0.12008	79.05513	0.97831	-8.38227	0.97831	-8.38227	0.12008	79.05513
930	0.1221	78.69186	0.97759	-8.46951	0.97759	-8.46951	0.1221	78.69186
950	0.12364	78.79199	0.97635	-8.63969	0.97635	-8.63969	0.12364	78.79199
970	0.12667	79.08937	0.97622	-8.92652	0.97622	-8.92652	0.12667	79.08937
990	0.12964	78.55155	0.97635	-9.08698	0.97635	-9.08698	0.12964	78.55155
1010	0.1321	77.76152	0.97616	-9.20498	0.97616	-9.20498	0.1321	77.76152
1030	0.13432	77.20232	0.9753	-9.3353	0.9753	-9.3353	0.13432	77.20232
1050	0.13732	77.25711	0.97369	-9.50365	0.97369	-9.50365	0.13732	77.25711
1070	0.14213	77.20185	0.97315	-9.65186	0.97315	-9.65186	0.14213	77.20185
1090	0.14572	77.14357	0.97453	-9.73807	0.97453	-9.73807	0.14572	77.14357
1110	0.14854	77.12088	0.97538	-9.846	0.97538	-9.846	0.14854	77.12088
1130	0.15081	77.24518	0.9742	-10.05307	0.9742	-10.05307	0.15081	77.24518
1150	0.1525	77.70064	0.97044	-10.43039	0.97044	-10.43039	0.1525	77.70064
1170	0.1557	77.766	0.97102	-10.52668	0.97102	-10.52668	0.1557	77.766
1190	0.15781	77.41118	0.97238	-10.7052	0.97238	-10.7052	0.15781	77.41118
1210	0.15963	76.98134	0.97188	-10.89573	0.97188	-10.89573	0.15963	76.98134
1230	0.16183	76.72047	0.96975	-11.09066	0.96975	-11.09066	0.16183	76.72047
1250	0.165	76.77146	0.96913	-11.34496	0.96913	-11.34496	0.165	76.77146
1270	0.16926	76.67358	0.97017	-11.3209	0.97017	-11.3209	0.16926	76.67358
1290	0.17278	76.36773	0.97002	-11.7318	0.97002	-11.7318	0.17278	76.36773
1310	0.1752	76.41364	0.97003	-11.96347	0.97003	-11.96347	0.1752	76.41364
1330	0.17719	76.81875	0.97044	-11.95017	0.97044	-11.95017	0.17719	76.81875
1350	0.18048	77.03824	0.9704	-12.17467	0.9704	-12.17467	0.18048	77.03824
1370	0.18302	76.76889	0.96804	-12.3529	0.96804	-12.3529	0.18302	76.76889
1390	0.18418	76.63637	0.96675	-12.3154	0.96675	-12.3154	0.18418	76.63637
1410	0.1859	76.61878	0.96738	-12.45288	0.96738	-12.45288	0.1859	76.61878
1430	0.18831	76.65215	0.9685	-12.77856	0.9685	-12.77856	0.18831	76.65215
1450	0.18975	76.63034	0.96642	-12.92817	0.96642	-12.92817	0.18975	76.63034
1470	0.19299	76.27301	0.96486	-12.94502	0.96486	-12.94502	0.19299	76.27301
1490	0.1953	75.90364	0.96669	-13.28737	0.96669	-13.28737	0.1953	75.90364
1510	0.19693	75.80217	0.96652	-13.56258	0.96652	-13.56258	0.19693	75.80217
1530	0.19875	75.8553	0.96405	-13.6808	0.96405	-13.6808	0.19875	75.8553
1550	0.20228	75.5565	0.96409	-13.85501	0.96409	-13.85501	0.20228	75.5565
1570	0.204	74.95041	0.96347	-14.1289	0.96347	-14.1289	0.204	74.95041
1590	0.20612	74.68923	0.96286	-14.31799	0.96286	-14.31799	0.20612	74.68923
1610	0.20904	74.67849	0.96206	-14.44041	0.96206	-14.44041	0.20904	74.67849
1630	0.21237	74.74527	0.96119	-14.54322	0.96119	-14.54322	0.21237	74.74527
1650	0.21484	74.63817	0.96062	-14.70243	0.96062	-14.70243	0.21484	74.63817
1670	0.21656	74.13324	0.95951	-14.94621	0.95951	-14.94621	0.21656	74.13324
1690	0.21838	73.91959	0.95831	-15.00941	0.95831	-15.00941	0.21838	73.91959
1710	0.22074	73.96168	0.95861	-15.08087	0.95861	-15.08087	0.22074	73.96168
1730	0.22376	73.95091	0.95975	-15.25781	0.95975	-15.25781	0.22376	73.95091
1750	0.22718	73.30555	0.95888	-15.54588	0.95888	-15.54588	0.22718	73.30555
1770	0.22848	73.03556	0.9558	-15.79206	0.9558	-15.79206	0.22848	73.03556
1790	0.23101	73.21955	0.95762	-15.86542	0.95762	-15.86542	0.23101	73.21955
1810	0.23394	73.25645	0.95694	-15.97389	0.95694	-15.97389	0.23394	73.25645
1830	0.23655	72.92329	0.95335	-16.14523	0.95335	-16.14523	0.23655	72.92329
1850	0.23822	72.37515	0.95339	-16.22705	0.95339	-16.22705	0.23822	72.37515
1870	0.24036	71.96395	0.95481	-16.44952	0.95481	-16.44952	0.24036	71.96395
1890	0.24251	71.8626	0.95401	-16.67726	0.95401	-16.67726	0.24251	71.8626
1910	0.24542	71.69292	0.95221	-16.79768	0.95221	-16.79768	0.24542	71.69292
1930	0.24896	71.31515	0.95116	-16.84253	0.95116	-16.84253	0.24896	71.31515
1950	0.25206	70.82797	0.95312	-16.98795	0.95312	-16.98795	0.25206	70.82797
1970	0.25414	70.59513	0.95189	-17.31062	0.95189	-17.31062	0.25414	70.59513
1990	0.25734	70.75433	0.94982	-17.37362	0.94982	-17.37362	0.25734	70.75433
2010	0.26072	70.77048	0.94863	-17.373	0.94863	-17.373	0.26072	70.77048
2030	0.26337	70.48663	0.94882	-17.48841	0.94882	-17.48841	0.26337	70.48663
2050	0.26439	70.12397	0.94969	-17.88299	0.94969	-17.88299	0.26439	70.12397
2070	0.26633	70.0457	0.9468	-18.19925	0.9468	-18.19925	0.26633	70.0457
2090	0.26909	69.9189	0.9431	-18.14703	0.9431	-18.14703	0.26909	69.9189
2110	0.27244	69.62639	0.94377	-18.33827	0.94377	-18.33827	0.27244	69.62639
2130	0.27544	69.27759	0.94679	-18.74325	0.94679	-18.74325	0.27544	69.27759
2150	0.27649	69.20858	0.94288	-18.69063	0.94288	-18.69063	0.27649	69.20858
2170	0.27926	69.31179	0.94217	-18.78521	0.94217	-18.78521	0.27926	69.31179
2190	0.28306	69.18716	0.94311	-19.07627	0.94311	-19.07627	0.28306	69.18716
2210	0.28611	68.82436	0.94228	-19.30699	0.94228	-19.30699	0.28611	68.82436
2230	0.28788	68.39846	0.93993	-19.41106	0.93993	-19.41106	0.28788	68.39846
2250	0.28903	68.26993	0.93997	-19.51268	0.93997	-19.51268	0.28903	68.26993
2270	0.29197	68.23948	0.94222	-19.74616	0.94222	-19.74616	0.29197	68.23948
2290	0.2956	68.04035	0.93931	-19.96084	0.93931	-19.96084	0.2956	68.04035
2310	0.29845	67.74353	0.93718	-20.06096	0.93718	-20.06096	0.29845	67.74353
2330	0.30029	67.46089	0.93685	-20.13377	0.93685	-20.13377	0.30029	67.46089
2350	0.3021	67.34519	0.93444	-20.44961	0.93444	-20.44961	0.3021	67.34519
2370	0.30456	67.34652	0.93362	-20.59317	0.93362	-20.59317	0.30456	67.34652
2390	0.30759	67.21205	0.93367	-20.62562	0.93367	-20.62562	0.30759	67.21205
2410	0.31001	66.95861	0.9326	-20.73872	0.9326	-20.73872	0.31001	66.95861
2430	0.3116	66.69466	0.93116	-20.96176	0.93116	-20.96176	0.3116	66.69466
2450	0.31316	66.62032	0.93277	-21.1616	0.93277	-21.1616	0.31316	66.62032
2470	0.31688	66.3849	0.93083	-21.30964	0.93083	-21.30964	0.31688	66.3849
2490	0.3196	66.11955	0.92915	-21.39476	0.92915	-21.39476	0.3196	66.11955
2510	0.32139	65.91887	0.92796	-21.5282	0.92796	-21.5282	0.32139	65.91887
2530	0.32299	65.81247	0.92666	-21.73331	0.92666	-21.73331	0.32299	65.81247
2550	0.32578	65.76504	0.92388	-21.9455	0.92388	-21.9455	0.32578	65.76504
2570	0.32795	65.56859	0.9272	-22.01076	0.9272	-22.01076	0.32795	65.56859
2590	0.3298	65.32742	0.92531	-22.19356	0.92531	-22.19356	0.3298	65.32742
2610	0.33133	65.03436	0.92344	-22.39123	0.92344	-22.39123	0.33133	65.03436
2630	0.33347	64.77003	0.92242	-22.58059	0.92242	-22.58059	0.33347	64.77003
2650	0.33802	64.70279	0.91866	-22.81796	0.91866	-22.81796	0.33802	64.70279
2670	0.34034	64.50329	0.91886	-22.86721	0.91886	-22.86721	0.34034	64.50329
2690	0.34313	64.24603	0.91896	-22.99991	0.91896	-22.99991	0.34313	64.24603
2710	0.34627	64.06106	0.91864	-23.18225	0.91864	-23.18225	0.34627	64.06106
2730	0.34917	63.95692	0.91783	-23.39689	0.91783	-23.39689	0.34917	63.95692
2750	0.35077	63.82062	0.91666	-23.64292	0.91666	-23.64292	0.35077	63.82062
2770	0.35025	63.55764	0.91426	-23.77919	0.91426	-23.77919	0.35025	63.55764
2790	0.35362	63.30022	0.91376	-23.88193	0.91376	-23.88193	0.35362	63.30022
2810	0.35751	63.08186	0.91197	-24.12823	0.91197	-24.12823	0.35751	63.08186
2830	0.36025	62.89922	0.90962	-24.44151	0.90962	-24.44151	0.36025	62.89922
2850	0.36188	62.71213	0.91135	-24.49159	0.91135	-24.49159	0.36188	62.71213
2870	0.36458	62.58558	0.909	-24.35943	0.909	-24.35943	0.36458	62.58558
2890	0.36777	62.83109	0.90816	-24.50001	0.90816	-24.50001	0.36777	62.83109
2910	0.37118	62.86802	0.90838	-24.78254	0.90838	-24.78254	0.37118	62.86802
2930	0.37419	62.63292	0.90741	-25.05211	0.90741	-25.05211	0.37419	62.63292
2950	0.37574	62.57957	0.90122	-25.12977	0.90122	-25.12977	0.37574	62.57957
2970	0.37716	62.16843	0.90352	-25.26146	0.90352	-25.26146	0.37716	62.16843
2990	0.379	61.83384	0.90531	-25.48357	0.90531	-25.48357	0.379	61.83384
3010	0.38172	61.65548	0.90384	-25.58642	0.90384	-25.58642	0.38172	61.65548
3030	0.38526	61.57141	0.89978	-25.62349	0.89978	-25.62349	0.38526	61.57141
3050	0.389	61.37806	0.89727	-25.91142	0.89727	-25.91142	0.389	61.37806
3070	0.38872	60.87077	0.89499	-26.23849	0.89499	-26.23849	0.38872	60.87077
3090	0.39155	60.88191	0.89776	-26.36339	0.89776	-26.36339	0.39155	60.88191
3110	0.39417	61.01784	0.89651	-26.44868	0.89651	-26.44868	0.39417	61.01784
3130	0.39608	61.05277	0.89145	-26.49069	0.89145	-26.49069	0.39608	61.05277
3150	0.39951	60.92882	0.89203	-26.3196	0.89203	-26.3196	0.39951	60.92882
3170	0.39896	60.36463	0.89528	-26.90132	0.89528	-26.90132	0.39896	60.36463
3190	0.40044	60.04578	0.89058	-27.03335	0.89058	-27.03335	0.40044	60.04578
3210	0.40416	59.91768	0.88737	-27.13759	0.88737	-27.13759	0.40416	59.91768
3230	0.40857	59.86989	0.8874	-27.33744	0.8874	-27.33744	0.40857	59.86989
3250	0.41043	59.7362	0.88476	-27.45774	0.88476	-27.45774	0.41043	59.7362
3270	0.41409	59.56643	0.88933	-27.8867	0.88933	-27.8867	0.41409	59.56643
3290	0.41454	59.55711	0.88668	-27.93637	0.88668	-27.93637	0.41454	59.55711
3310	0.41569	59.57385	0.88217	-27.98464	0.88217	-27.98464	0.41569	59.57385
3330	0.41877	59.50736	0.87996	-28.10581	0.87996	-28.10581	0.41877	59.50736
3350	0.4224	59.27336	0.88305	-28.07062	0.88305	-28.07062	0.4224	59.27336
3370	0.42351	58.60759	0.88066	-28.53839	0.88066	-28.53839	0.42351	58.60759
3390	0.42481	58.34024	0.8778	-28.82792	0.8778	-28.82792	0.42481	58.34024
3410	0.42759	58.33099	0.87454	-28.87668	0.87454	-28.87668	0.42759	58.33099
3430	0.43096	58.36751	0.87256	-28.83387	0.87256	-28.83387	0.43096	58.36751
3450	0.43184	58.16544	0.87519	-29.06043	0.87519	-29.06043	0.43184	58.16544
3470	0.43303	57.57641	0.87244	-29.52957	0.87244	-29.52957	0.43303	57.57641
3490	0.43481	57.50815	0.86826	-29.60829	0.86826	-29.60829	0.43481	57.50815
3510	0.43846	57.40858	0.86795	-29.59571	0.86795	-29.59571	0.43846	57.40858
3530	0.44306	57.0532	0.87066	-29.70845	0.87066	-29.70845	0.44306	57.0532
3550	0.44552	56.54505	0.86934	-30.08068	0.86934	-30.08068	0.44552	56.54505
3570	0.44559	56.65646	0.86327	-30.14183	0.86327	-30.14183	0.44559	56.65646
3590	0.44904	56.56413	0.86326	-30.20308	0.86326	-30.20308	0.44904	56.56413
3610	0.45231	56.38531	0.86377	-30.49738	0.86377	-30.49738	0.45231	56.38531
3630	0.45426	56.24669	0.86204	-30.86651	0.86204	-30.86651	0.45426	56.24669
3650	0.45611	56.28441	0.85802	-30.76105	0.85802	-30.76105	0.45611	56.28441
3670	0.46092	55.87331	0.85932	-31.19558	0.85932	-31.19558	0.46092	55.87331
3690	0.46163	55.69048	0.85609	-31.44642	0.85609	-31.44642	0.46163	55.69048
3710	0.46333	55.40708	0.85314	-31.47096	0.85314	-31.47096	0.46333	55.40708
3730	0.46698	54.99337	0.85268	-31.48642	0.85268	-31.48642	0.46698	54.99337
3750	0.46939	54.71868	0.85431	-31.9698	0.85431	-31.9698	0.46939	54.71868
3770	0.4703	54.84052	0.84767	-31.99301	0.84767	-31.99301	0.4703	54.84052
3790	0.47471	54.83727	0.84919	-32.03384	0.84919	-32.03384	0.47471	54.83727
3810	0.47746	54.70003	0.84855	-32.20768	0.84855	-32.20768	0.47746	54.70003
3830	0.47784	54.4668	0.84448	-32.47918	0.84448	-32.47918	0.47784	54.4668
3850	0.4796	54.22244	0.8447	-32.66234	0.8447	-32.66234	0.4796	54.22244
3870	0.48066	53.91053	0.84199	-32.9708	0.84199	-32.9708	0.48066	53.91053
3890	0.4832	53.73488	0.84025	-32.9965	0.84025	-32.9965	0.4832	53.73488
3910	0.48701	53.44363	0.84069	-33.09033	0.84069	-33.09033	0.48701	53.44363
3930	0.49082	53.00417	0.84131	-33.36203	0.84131	-33.36203	0.49082	53.00417
3950	0.49239	52.60311	0.83696	-33.68022	0.83696	-33.68022	0.49239	52.60311
3970	0.49477	52.87052	0.8327	-33.585	0.8327	-33.585	0.49477	52.87052
3990	0.49837	52.8685	0.8313	-33.62766	0.8313	-33.62766	0.49837	52.8685
4010	0.50044	52.59234	0.8309	-33.82168	0.8309	-33.82168	0.50044	52.59234
4030	0.50095	52.16167	0.83057	-34.13781	0.83057	-34.13781	0.50095	52.16167
4050	0.5026	51.8205	0.83041	-34.50419	0.83041	-34.50419	0.5026	51.8205
4070	0.50491	51.61777	0.82681	-34.72948	0.82681	-34.72948	0.50491	51.61777
4090	0.50822	51.11774	0.82451	-34.78555	0.82451	-34.78555	0.50822	51.11774
4110	0.51116	50.66594	0.82427	-34.93351	0.82427	-34.93351	0.51116	50.66594
4130	0.51269	50.43319	0.82365	-35.17437	0.82365	-35.17437	0.51269	50.43319
4150	0.51216	50.41561	0.81697	-35.24907	0.81697	-35.24907	0.51216	50.41561
4170	0.52065	50.2856	0.81863	-35.32788	0.81863	-35.32788	0.52065	50.2856
4190	0.52454	50.02856	0.81873	-35.68648	0.81873	-35.68648	0.52454	50.02856
4210	0.525	49.8287	0.81543	-35.87874	0.81543	-35.87874	0.525	49.8287
4230	0.52554	49.7414	0.81161	-35.82266	0.81161	-35.82266	0.52554	49.7414
4250	0.53196	49.69319	0.81485	-35.80035	0.81485	-35.80035	0.53196	49.69319
4270	0.53007	49.21924	0.8092	-36.24246	0.8092	-36.24246	0.53007	49.21924
4290	0.53279	48.84129	0.80764	-36.50931	0.80764	-36.50931	0.53279	48.84129
4310	0.53711	48.47191	0.80786	-36.75103	0.80786	-36.75103	0.53711	48.47191
4330	0.54169	48.10275	0.80831	-37.03813	0.80831	-37.03813	0.54169	48.10275
4350	0.54687	47.8046	0.80815	-37.36148	0.80815	-37.36148	0.54687	47.8046
4370	0.54721	47.84444	0.80388	-37.29823	0.80388	-37.29823	0.54721	47.84444
4390	0.54875	47.73338	0.80033	-37.37828	0.80033	-37.37828	0.54875	47.73338
4410	0.55064	47.6034	0.79758	-37.54139	0.79758	-37.54139	0.55064	47.6034
4430	0.55265	47.36217	0.79587	-37.78603	0.79587	-37.78603	0.55265	47.36217
4450	0.55509	46.69307	0.7956	-38.16932	0.7956	-38.16932	0.55509	46.69307
4470	0.55693	46.32534	0.79206	-38.18646	0.79206	-38.18646	0.55693	46.32534
4490	0.56045	46.13172	0.79161	-38.43597	0.79161	-38.43597	0.56045	46.13172
4510	0.5632	45.94162	0.79096	-38.77827	0.79096	-38.77827	0.5632	45.94162
4530	0.56495	45.78687	0.7882	-38.95771	0.7882	-38.95771	0.56495	45.78687
4550	0.56773	45.90164	0.7828	-38.6026	0.7828	-38.6026	0.56773	45.90164
4570	0.57299	45.51273	0.78595	-38.9141	0.78595	-38.9141	0.57299	45.51273
4590	0.57371	44.85177	0.78721	-39.51425	0.78721	-39.51425	0.57371	44.85177
4610	0.57282	44.59912	0.78302	-39.78708	0.78302	-39.78708	0.57282	44.59912
4630	0.57383	44.64829	0.77687	-39.70438	0.77687	-39.70438	0.57383	44.64829
4650	0.58085	44.10596	0.77931	-39.82568	0.77931	-39.82568	0.58085	44.10596
4670	0.58111	43.50542	0.77603	-40.31719	0.77603	-40.31719	0.58111	43.50542
4690	0.58333	43.32328	0.77235	-40.40092	0.77235	-40.40092	0.58333	43.32328
4710	0.58739	43.2191	0.76986	-40.52609	0.76986	-40.52609	0.58739	43.2191
4730	0.59202	42.99557	0.76885	-40.81328	0.76885	-40.81328	0.59202	42.99557
4750	0.59483	42.59857	0.76836	-41.05448	0.76836	-41.05448	0.59483	42.59857
4770	0.59502	42.34973	0.76373	-41.23332	0.76373	-41.23332	0.59502	42.34973
4790	0.59534	42.00062	0.76107	-41.51804	0.76107	-41.51804	0.59534	42.00062
4810	0.59811	41.67332	0.76075	-41.75777	0.76075	-41.75777	0.59811	41.67332
4830	0.60263	41.3022	0.76113	-41.95466	0.76113	-41.95466	0.60263	41.3022
4850	0.60518	40.63389	0.75855	-42.26392	0.75855	-42.26392	0.60518	40.63389
4870	0.6073	40.66223	0.75599	-42.24807	0.75599	-42.24807	0.6073	40.66223
4890	0.60995	40.43362	0.75552	-42.50319	0.75552	-42.50319	0.60995	40.43362
4910	0.6123	40.0766	0.75138	-42.79617	0.75138	-42.79617	0.6123	40.0766
4930	0.61522	39.75809	0.74596	-42.95074	0.74596	-42.95074	0.61522	39.75809
4950	0.62135	39.68343	0.74974	-42.84741	0.74974	-42.84741	0.62135	39.68343
4970	0.61953	38.97886	0.74619	-43.36695	0.74619	-43.36695	0.61953	38.97886
4990	0.61894	38.67832	0.74081	-43.70493	0.74081	-43.70493	0.61894	38.67832
5010	0.62339	38.52964	0.73925	-43.78183	0.73925	-43.78183	0.62339	38.52964
5030	0.63052	38.16629	0.74109	-43.86405	0.74109	-43.86405	0.63052	38.16629
5050	0.63174	37.10738	0.73986	-44.56384	0.73986	-44.56384	0.63174	37.10738
5070	0.63048	37.32761	0.73121	-44.62243	0.73121	-44.62243	0.63048	37.32761
5090	0.63573	37.44811	0.7295	-44.60782	0.7295	-44.60782	0.63573	37.44811
5110	0.64122	37.07681	0.73107	-44.89064	0.73107	-44.89064	0.64122	37.07681
5130	0.64272	36.37296	0.73091	-45.38171	0.73091	-45.38171	0.64272	36.37296
5150	0.63799	36.04712	0.72265	-45.5321	0.72265	-45.5321	0.63799	36.04712
5170	0.64003	36.33365	0.7205	-45.38257	0.7205	-45.38257	0.64003	36.33365
5190	0.64752	35.88996	0.72004	-45.64701	0.72004	-45.64701	0.64752	35.88996
5210	0.65036	35.15372	0.71719	-46.18548	0.71719	-46.18548	0.65036	35.15372
5230	0.64768	34.67395	0.71188	-46.59094	0.71188	-46.59094	0.64768	34.67395
5250	0.64785	35.11098	0.70806	-46.18923	0.70806	-46.18923	0.64785	35.11098
5270	0.66173	34.68057	0.71357	-46.66723	0.71357	-46.66723	0.66173	34.68057
5290	0.66111	33.96102	0.70807	-47.3593	0.70807	-47.3593	0.66111	33.96102
5310	0.66044	33.85257	0.70239	-47.42111	0.70239	-47.42111	0.66044	33.85257
5330	0.66562	34.13961	0.70164	-47.06611	0.70164	-47.06611	0.66562	34.13961
5350	0.67401	33.49076	0.70529	-47.56555	0.70529	-47.56555	0.67401	33.49076
5370	0.66819	32.7686	0.6999	-48.08156	0.6999	-48.08156	0.66819	32.7686
5390	0.6702	32.69585	0.69715	-48.16369	0.69715	-48.16369	0.6702	32.69585
5410	0.67676	32.65759	0.69587	-48.35202	0.69587	-48.35202	0.67676	32.65759
5430	0.68247	32.3813	0.69411	-48.71283	0.69411	-48.71283	0.68247	32.3813
