! Data Taken on a HP 8720C VNA using a shunt-through fixture with TRL* de-embedding
#	mhz	s	ma	r	50
50	0.95545	175.62923	0.05945	71.95571	0.05945	71.95571	0.95545	175.62923
70	0.98201	174.65057	0.08887	74.15199	0.08887	74.15199	0.98201	174.65057
90	0.97716	172.61496	0.11244	73.61159	0.11244	73.61159	0.97716	172.61496
110	0.96664	171.18786	0.13407	73.24035	0.13407	73.24035	0.96664	171.18786
130	0.96467	170.3044	0.15614	73.34123	0.15614	73.34123	0.96467	170.3044
150	0.97394	168.16932	0.1795	71.61434	0.1795	71.61434	0.97394	168.16932
170	0.95566	167.28921	0.19944	70.90407	0.19944	70.90407	0.95566	167.28921
190	0.95069	166.04744	0.22054	69.90681	0.22054	69.90681	0.95069	166.04744
210	0.94568	164.43379	0.24132	68.57571	0.24132	68.57571	0.94568	164.43379
230	0.93696	162.88808	0.26137	67.2491	0.26137	67.2491	0.93696	162.88808
250	0.93049	162.30014	0.28139	66.65046	0.28139	66.65046	0.93049	162.30014
270	0.92918	160.69858	0.30407	65.27484	0.30407	65.27484	0.92918	160.69858
290	0.91644	159.12445	0.3217	63.99776	0.3217	63.99776	0.91644	159.12445
310	0.90599	157.78922	0.33943	63.02699	0.33943	63.02699	0.90599	157.78922
330	0.90157	156.48456	0.35852	62.13606	0.35852	62.13606	0.90157	156.48456
350	0.89694	154.58233	0.37636	60.66426	0.37636	60.66426	0.89694	154.58233
370	0.88389	153.87541	0.39376	59.54503	0.39376	59.54503	0.88389	153.87541
390	0.87737	152.85957	0.41205	58.41339	0.41205	58.41339	0.87737	152.85957
410	0.87168	151.50288	0.42866	57.14699	0.42866	57.14699	0.87168	151.50288
430	0.8639	150.12163	0.44365	55.97977	0.44365	55.97977	0.8639	150.12163
450	0.85393	149.38039	0.45972	55.50186	0.45972	55.50186	0.85393	149.38039
470	0.84806	148.03725	0.47679	54.04587	0.47679	54.04587	0.84806	148.03725
490	0.82819	144.8923	0.51434	51.68104	0.51434	51.68104	0.82819	144.8923
510	0.8122	142.39478	0.54543	49.92962	0.54543	49.92962	0.8122	142.39478
530	0.80502	141.13578	0.56207	49.07446	0.56207	49.07446	0.80502	141.13578
550	0.79865	139.84824	0.57525	48.15897	0.57525	48.15897	0.79865	139.84824
570	0.79066	138.97552	0.58661	47.1893	0.58661	47.1893	0.79066	138.97552
590	0.78158	137.98448	0.59707	46.19518	0.59707	46.19518	0.78158	137.98448
610	0.77148	136.9668	0.60841	45.26993	0.60841	45.26993	0.77148	136.9668
630	0.76124	136.00667	0.62082	44.34983	0.62082	44.34983	0.76124	136.00667
650	0.75256	135.18072	0.63288	43.21412	0.63288	43.21412	0.75256	135.18072
670	0.7401	134.05499	0.64278	42.15831	0.64278	42.15831	0.7401	134.05499
690	0.73381	132.94144	0.6513	41.483	0.6513	41.483	0.73381	132.94144
710	0.72941	131.82437	0.66235	40.62686	0.66235	40.62686	0.72941	131.82437
730	0.72313	130.79539	0.67433	39.53942	0.67433	39.53942	0.72313	130.79539
750	0.71174	130.05343	0.68014	38.68109	0.68014	38.68109	0.71174	130.05343
770	0.70378	129.43941	0.69053	37.69671	0.69053	37.69671	0.70378	129.43941
790	0.6963	128.74915	0.69967	36.85392	0.69967	36.85392	0.6963	128.74915
810	0.68556	128.07436	0.70613	36.17472	0.70613	36.17472	0.68556	128.07436
830	0.67253	127.4012	0.71214	35.472	0.71214	35.472	0.67253	127.4012
850	0.66289	126.61034	0.72356	34.34959	0.72356	34.34959	0.66289	126.61034
870	0.65321	125.40214	0.72913	33.37161	0.72913	33.37161	0.65321	125.40214
890	0.64528	124.55929	0.73582	32.68481	0.73582	32.68481	0.64528	124.55929
910	0.63859	123.69546	0.744	31.96481	0.744	31.96481	0.63859	123.69546
930	0.63137	122.73856	0.75168	31.10853	0.75168	31.10853	0.63137	122.73856
950	0.62057	121.93072	0.75455	30.23409	0.75455	30.23409	0.62057	121.93072
970	0.61403	121.55438	0.7651	29.79346	0.7651	29.79346	0.61403	121.55438
990	0.60714	120.84732	0.76998	29.09343	0.76998	29.09343	0.60714	120.84732
1010	0.5985	120.0635	0.77426	28.38219	0.77426	28.38219	0.5985	120.0635
1030	0.58904	119.29604	0.78031	27.75034	0.78031	27.75034	0.58904	119.29604
1050	0.58205	118.47716	0.78779	27.13084	0.78779	27.13084	0.58205	118.47716
1070	0.57408	117.49423	0.78947	26.29647	0.78947	26.29647	0.57408	117.49423
1090	0.56775	116.63409	0.79611	25.68701	0.79611	25.68701	0.56775	116.63409
1110	0.56205	115.9783	0.80341	25.11138	0.80341	25.11138	0.56205	115.9783
1130	0.55649	115.41813	0.80859	24.47798	0.80859	24.47798	0.55649	115.41813
1150	0.55103	114.65457	0.8104	23.79468	0.8104	23.79468	0.55103	114.65457
1170	0.54538	113.98615	0.81633	23.14981	0.81633	23.14981	0.54538	113.98615
1190	0.53876	113.39775	0.82047	22.60895	0.82047	22.60895	0.53876	113.39775
1210	0.53245	112.8152	0.82542	22.04239	0.82542	22.04239	0.53245	112.8152
1230	0.52604	112.16062	0.82995	21.40937	0.82995	21.40937	0.52604	112.16062
1250	0.51744	111.35243	0.82902	20.75797	0.82902	20.75797	0.51744	111.35243
1270	0.51248	110.7688	0.83409	20.52979	0.83409	20.52979	0.51248	110.7688
1290	0.50833	110.04264	0.83962	19.79275	0.83962	19.79275	0.50833	110.04264
1310	0.50309	109.34484	0.84396	19.06963	0.84396	19.06963	0.50309	109.34484
1330	0.49707	108.76121	0.84758	18.59303	0.84758	18.59303	0.49707	108.76121
1350	0.49277	108.29244	0.85311	18.30532	0.85311	18.30532	0.49277	108.29244
1370	0.48871	107.57422	0.85678	17.59721	0.85678	17.59721	0.48871	107.57422
1390	0.48275	107.09185	0.85914	17.2776	0.85914	17.2776	0.48275	107.09185
1410	0.47824	106.68445	0.86263	16.85113	0.86263	16.85113	0.47824	106.68445
1430	0.47464	106.24142	0.86632	16.21803	0.86632	16.21803	0.47464	106.24142
1450	0.46751	105.70239	0.86594	15.67414	0.86594	15.67414	0.46751	105.70239
1470	0.46044	105.26379	0.86841	15.30786	0.86841	15.30786	0.46044	105.26379
1490	0.45519	104.63848	0.87227	14.72185	0.87227	14.72185	0.45519	104.63848
1510	0.44992	104.06433	0.87574	14.08439	0.87574	14.08439	0.44992	104.06433
1530	0.44437	103.56611	0.87838	13.52977	0.87838	13.52977	0.44437	103.56611
1550	0.43988	102.95544	0.88104	13.15825	0.88104	13.15825	0.43988	102.95544
1570	0.43591	102.41965	0.88348	12.81293	0.88348	12.81293	0.43591	102.41965
1590	0.43087	101.83383	0.88503	12.20602	0.88503	12.20602	0.43087	101.83383
1610	0.42655	101.37625	0.88711	11.74146	0.88711	11.74146	0.42655	101.37625
1630	0.42286	101.09086	0.88961	11.44226	0.88961	11.44226	0.42286	101.09086
1650	0.41783	100.88727	0.89098	10.95046	0.89098	10.95046	0.41783	100.88727
1670	0.41188	100.21829	0.89353	10.49861	0.89353	10.49861	0.41188	100.21829
1690	0.40565	99.64318	0.89391	10.09527	0.89391	10.09527	0.40565	99.64318
1710	0.40048	99.17192	0.89653	9.729	0.89653	9.729	0.40048	99.17192
1730	0.39708	98.64394	0.90218	9.34601	0.90218	9.34601	0.39708	98.64394
1750	0.39545	97.72803	0.90809	8.8501	0.90809	8.8501	0.39545	97.72803
1770	0.39084	97.17393	0.90473	8.28548	0.90473	8.28548	0.39084	97.17393
1790	0.38793	97.03198	0.90709	8.05486	0.90709	8.05486	0.38793	97.03198
1810	0.38486	96.77168	0.90946	7.67516	0.90946	7.67516	0.38486	96.77168
1830	0.38033	96.315	0.91022	7.12619	0.91022	7.12619	0.38033	96.315
1850	0.37364	96.03632	0.91184	6.85054	0.91184	6.85054	0.37364	96.03632
1870	0.36961	95.58184	0.91411	6.51015	0.91411	6.51015	0.36961	95.58184
1890	0.36544	94.88265	0.9167	6.03618	0.9167	6.03618	0.36544	94.88265
1910	0.36151	94.14864	0.91773	5.61655	0.91773	5.61655	0.36151	94.14864
1930	0.35826	93.52595	0.91768	5.28252	0.91768	5.28252	0.35826	93.52595
1950	0.35614	93.09704	0.91945	4.90862	0.91945	4.90862	0.35614	93.09704
1970	0.35346	92.42995	0.92162	4.58655	0.92162	4.58655	0.35346	92.42995
1990	0.35042	92.20475	0.9204	4.26744	0.9204	4.26744	0.35042	92.20475
2010	0.3475	92.09225	0.92183	3.97186	0.92183	3.97186	0.3475	92.09225
2030	0.34424	91.89526	0.92626	3.62533	0.92626	3.62533	0.34424	91.89526
2050	0.33933	91.54864	0.92835	3.05832	0.92835	3.05832	0.33933	91.54864
2070	0.33514	90.95454	0.92817	2.56704	0.92817	2.56704	0.33514	90.95454
2090	0.33111	90.45788	0.92604	2.34638	0.92604	2.34638	0.33111	90.45788
2110	0.3285	89.88992	0.92861	1.99518	0.92861	1.99518	0.3285	89.88992
2130	0.32663	89.34915	0.93436	1.49834	0.93436	1.49834	0.32663	89.34915
2150	0.32291	89.20127	0.93356	1.22688	0.93356	1.22688	0.32291	89.20127
2170	0.32055	88.98986	0.93353	1.04708	0.93353	1.04708	0.32055	88.98986
2190	0.31847	88.68908	0.9345	0.65103	0.9345	0.65103	0.31847	88.68908
2210	0.31562	88.30812	0.93568	0.22852	0.93568	0.22852	0.31562	88.30812
2230	0.31175	87.88874	0.93692	-0.1428	0.93692	-0.1428	0.31175	87.88874
2250	0.30744	87.50526	0.9386	-0.4974	0.9386	-0.4974	0.30744	87.50526
2270	0.3043	87.34565	0.94196	-0.88736	0.94196	-0.88736	0.3043	87.34565
2290	0.30115	87.07763	0.94168	-1.33621	0.94168	-1.33621	0.30115	87.07763
2310	0.29781	86.69937	0.94174	-1.58915	0.94174	-1.58915	0.29781	86.69937
2330	0.29485	86.21848	0.94296	-1.75334	0.94296	-1.75334	0.29485	86.21848
2350	0.29365	85.65199	0.94302	-2.29795	0.94302	-2.29795	0.29365	85.65199
2370	0.28963	85.49658	0.94535	-2.54835	0.94535	-2.54835	0.28963	85.49658
2390	0.28715	85.16385	0.94808	-2.75548	0.94808	-2.75548	0.28715	85.16385
2410	0.28433	84.7965	0.94866	-3.02148	0.94866	-3.02148	0.28433	84.7965
2430	0.28106	84.47403	0.94745	-3.39588	0.94745	-3.39588	0.28106	84.47403
2450	0.27904	84.21271	0.94772	-3.87556	0.94772	-3.87556	0.27904	84.21271
2470	0.27571	84.17052	0.95065	-4.21886	0.95065	-4.21886	0.27571	84.17052
2490	0.27367	83.74141	0.95172	-4.3982	0.95172	-4.3982	0.27367	83.74141
2510	0.27095	83.43403	0.95248	-4.61926	0.95248	-4.61926	0.27095	83.43403
2530	0.26748	83.36947	0.9523	-4.96714	0.9523	-4.96714	0.26748	83.36947
2550	0.26502	83.2813	0.94837	-5.40642	0.94837	-5.40642	0.26502	83.2813
2570	0.2623	83.10082	0.95374	-5.58782	0.95374	-5.58782	0.2623	83.10082
2590	0.2587	82.62796	0.95476	-5.93565	0.95476	-5.93565	0.2587	82.62796
2610	0.25526	82.10087	0.95506	-6.29223	0.95506	-6.29223	0.25526	82.10087
2630	0.25271	81.72363	0.95555	-6.59926	0.95555	-6.59926	0.25271	81.72363
2650	0.2514	81.66629	0.95442	-6.89778	0.95442	-6.89778	0.2514	81.66629
2670	0.24976	81.36149	0.95571	-7.21133	0.95571	-7.21133	0.24976	81.36149
2690	0.2475	81.24083	0.95715	-7.5297	0.95715	-7.5297	0.2475	81.24083
2710	0.24532	81.15936	0.95814	-7.82107	0.95814	-7.82107	0.24532	81.15936
2730	0.24279	81.02396	0.95877	-8.12297	0.95877	-8.12297	0.24279	81.02396
2750	0.23833	80.79338	0.95987	-8.5423	0.95987	-8.5423	0.23833	80.79338
2770	0.2336	80.26229	0.96017	-8.80628	0.96017	-8.80628	0.2336	80.26229
2790	0.23137	79.84164	0.96096	-9.15634	0.96096	-9.15634	0.23137	79.84164
2810	0.23013	79.53083	0.96149	-9.63439	0.96149	-9.63439	0.23013	79.53083
2830	0.22855	79.23658	0.96233	-10.10224	0.96233	-10.10224	0.22855	79.23658
2850	0.2254	78.77298	0.9653	-10.24166	0.9653	-10.24166	0.2254	78.77298
2870	0.22434	78.61728	0.96376	-10.24935	0.96376	-10.24935	0.22434	78.61728
2890	0.22227	79.00416	0.96487	-10.41419	0.96487	-10.41419	0.22227	79.00416
2910	0.22012	79.26336	0.96559	-10.77071	0.96559	-10.77071	0.22012	79.26336
2930	0.21765	79.16616	0.96514	-11.21707	0.96514	-11.21707	0.21765	79.16616
2950	0.21353	78.92534	0.96495	-11.51498	0.96495	-11.51498	0.21353	78.92534
2970	0.21096	78.17035	0.96714	-11.82211	0.96714	-11.82211	0.21096	78.17035
2990	0.20819	77.63174	0.9665	-11.98932	0.9665	-11.98932	0.20819	77.63174
3010	0.20619	77.25945	0.96744	-12.19961	0.96744	-12.19961	0.20619	77.25945
3030	0.20504	76.99548	0.96952	-12.55597	0.96952	-12.55597	0.20504	76.99548
3050	0.20401	76.77396	0.96743	-13.08145	0.96743	-13.08145	0.20401	76.77396
3070	0.20072	76.60271	0.96782	-13.4131	0.96782	-13.4131	0.20072	76.60271
3090	0.1985	76.78599	0.97176	-13.64231	0.97176	-13.64231	0.1985	76.78599
3110	0.19597	76.92763	0.97243	-13.86015	0.97243	-13.86015	0.19597	76.92763
3130	0.1929	76.85966	0.97002	-14.04271	0.97002	-14.04271	0.1929	76.85966
3150	0.19015	76.64233	0.97176	-14.05108	0.97176	-14.05108	0.19015	76.64233
3170	0.18719	75.98211	0.97389	-14.53536	0.97389	-14.53536	0.18719	75.98211
3190	0.185	75.39625	0.97187	-14.7921	0.97187	-14.7921	0.185	75.39625
3210	0.18395	75.06298	0.97193	-15.084	0.97193	-15.084	0.18395	75.06298
3230	0.18335	75.06915	0.97393	-15.43904	0.97393	-15.43904	0.18335	75.06915
3250	0.18139	75.41025	0.97141	-15.65043	0.97141	-15.65043	0.18139	75.41025
3270	0.17997	75.57964	0.97785	-16.19989	0.97785	-16.19989	0.17997	75.57964
3290	0.17658	75.7108	0.97694	-16.43328	0.97694	-16.43328	0.17658	75.7108
3310	0.17285	75.72423	0.97517	-16.62851	0.97517	-16.62851	0.17285	75.72423
3330	0.16983	75.53252	0.97644	-16.82572	0.97644	-16.82572	0.16983	75.53252
3350	0.16796	75.04025	0.98208	-16.82732	0.98208	-16.82732	0.16796	75.04025
3370	0.16501	74.33887	0.97762	-17.55487	0.97762	-17.55487	0.16501	74.33887
3390	0.16329	73.94909	0.97653	-17.79148	0.97653	-17.79148	0.16329	73.94909
3410	0.1623	73.85075	0.97627	-18.03608	0.97627	-18.03608	0.1623	73.85075
3430	0.16094	74.01689	0.97636	-18.3821	0.97636	-18.3821	0.16094	74.01689
3450	0.15748	74.41378	0.97839	-18.51746	0.97839	-18.51746	0.15748	74.41378
3470	0.15569	74.12149	0.97832	-18.92351	0.97832	-18.92351	0.15569	74.12149
3490	0.15305	74.10133	0.97857	-19.16724	0.97857	-19.16724	0.15305	74.10133
3510	0.1504	73.77702	0.97896	-19.31427	0.97896	-19.31427	0.1504	73.77702
3530	0.14825	73.0975	0.97986	-19.43349	0.97986	-19.43349	0.14825	73.0975
3550	0.1468	72.5369	0.98212	-19.59706	0.98212	-19.59706	0.1468	72.5369
3570	0.1448	72.62243	0.97901	-20.06349	0.97901	-20.06349	0.1448	72.62243
3590	0.143	72.42429	0.9812	-20.31899	0.9812	-20.31899	0.143	72.42429
3610	0.14147	72.22423	0.98428	-20.55755	0.98428	-20.55755	0.14147	72.22423
3630	0.13973	72.26044	0.98481	-20.85707	0.98481	-20.85707	0.13973	72.26044
3650	0.13675	72.72759	0.98034	-21.1794	0.98034	-21.1794	0.13675	72.72759
3670	0.1346	72.14566	0.98303	-21.6168	0.98303	-21.6168	0.1346	72.14566
3690	0.13238	71.90465	0.98196	-21.84718	0.98196	-21.84718	0.13238	71.90465
3710	0.13049	71.58354	0.98163	-22.10986	0.98163	-22.10986	0.13049	71.58354
3730	0.12907	71.18151	0.98311	-22.43391	0.98311	-22.43391	0.12907	71.18151
3750	0.12801	71.11799	0.98408	-22.63818	0.98408	-22.63818	0.12801	71.11799
3770	0.12614	71.51964	0.98216	-22.82718	0.98216	-22.82718	0.12614	71.51964
3790	0.12464	71.67939	0.98567	-23.13667	0.98567	-23.13667	0.12464	71.67939
3810	0.12278	71.73415	0.98592	-23.41255	0.98592	-23.41255	0.12278	71.73415
3830	0.12005	71.60048	0.98262	-23.61574	0.98262	-23.61574	0.12005	71.60048
3850	0.11613	70.97464	0.98391	-23.82211	0.98391	-23.82211	0.11613	70.97464
3870	0.11475	70.82636	0.98453	-24.16087	0.98453	-24.16087	0.11475	70.82636
3890	0.11399	70.37354	0.98675	-24.31504	0.98675	-24.31504	0.11399	70.37354
3910	0.11285	69.80643	0.98787	-24.59405	0.98787	-24.59405	0.11285	69.80643
3930	0.11114	69.41199	0.9874	-25.01204	0.9874	-25.01204	0.11114	69.41199
3950	0.10944	69.57392	0.98704	-25.28787	0.98704	-25.28787	0.10944	69.57392
3970	0.10754	70.0243	0.98575	-25.42715	0.98575	-25.42715	0.10754	70.0243
3990	0.10568	70.31602	0.98414	-25.66573	0.98414	-25.66573	0.10568	70.31602
4010	0.10367	70.21736	0.98414	-25.89747	0.98414	-25.89747	0.10367	70.21736
4030	0.10136	69.79082	0.98557	-26.1302	0.98557	-26.1302	0.10136	69.79082
4050	0.09867	69.39314	0.9862	-26.48576	0.9862	-26.48576	0.09867	69.39314
4070	0.09798	69.17183	0.98694	-26.89268	0.98694	-26.89268	0.09798	69.17183
4090	0.09679	68.52851	0.98765	-27.1148	0.98765	-27.1148	0.09679	68.52851
4110	0.09537	68.08935	0.9891	-27.37877	0.9891	-27.37877	0.09537	68.08935
4130	0.09384	68.06586	0.9896	-27.69401	0.9896	-27.69401	0.09384	68.06586
4150	0.09222	68.25493	0.98502	-27.85279	0.98502	-27.85279	0.09222	68.25493
4170	0.09098	68.60805	0.98668	-28.19043	0.98668	-28.19043	0.09098	68.60805
4190	0.08939	68.7652	0.98966	-28.45037	0.98966	-28.45037	0.08939	68.7652
4210	0.08749	68.74822	0.9896	-28.64072	0.9896	-28.64072	0.08749	68.74822
4230	0.08568	68.53943	0.98772	-28.78318	0.98772	-28.78318	0.08568	68.53943
4250	0.08466	68.08161	0.99074	-28.91301	0.99074	-28.91301	0.08466	68.08161
4270	0.08253	67.62754	0.98874	-29.26248	0.98874	-29.26248	0.08253	67.62754
4290	0.08232	67.64918	0.99006	-29.65329	0.99006	-29.65329	0.08232	67.64918
4310	0.0819	67.80748	0.99173	-29.87459	0.99173	-29.87459	0.0819	67.80748
4330	0.08081	67.99484	0.99318	-30.03264	0.99318	-30.03264	0.08081	67.99484
4350	0.08029	68.33508	0.99628	-30.55079	0.99628	-30.55079	0.08029	68.33508
4370	0.07821	68.96562	0.99314	-30.71001	0.99314	-30.71001	0.07821	68.96562
4390	0.07622	69.67984	0.99115	-30.8571	0.99115	-30.8571	0.07622	69.67984
4410	0.07434	69.95911	0.99186	-31.04343	0.99186	-31.04343	0.07434	69.95911
4430	0.07252	69.54995	0.9935	-31.31814	0.9935	-31.31814	0.07252	69.54995
4450	0.07064	68.46402	0.99093	-31.72819	0.99093	-31.72819	0.07064	68.46402
4470	0.0681	69.6038	0.99339	-31.86701	0.99339	-31.86701	0.0681	69.6038
4490	0.06749	69.86605	0.99306	-32.01322	0.99306	-32.01322	0.06749	69.86605
4510	0.0667	69.74783	0.99302	-32.28354	0.99302	-32.28354	0.0667	69.74783
4530	0.06518	69.67243	0.9935	-32.62245	0.9935	-32.62245	0.06518	69.67243
4550	0.06397	69.98945	0.9919	-32.80217	0.9919	-32.80217	0.06397	69.98945
4570	0.06219	71.04935	0.99371	-33.01999	0.99371	-33.01999	0.06219	71.04935
4590	0.06065	71.66615	0.99736	-33.35648	0.99736	-33.35648	0.06065	71.66615
4610	0.05896	71.91303	0.99663	-33.68327	0.99663	-33.68327	0.05896	71.91303
4630	0.05702	72.10294	0.99182	-33.94816	0.99182	-33.94816	0.05702	72.10294
4650	0.05502	72.78863	0.98975	-34.17515	0.98975	-34.17515	0.05502	72.78863
4670	0.05384	71.39674	0.98948	-34.54233	0.98948	-34.54233	0.05384	71.39674
4690	0.05245	71.81878	0.98832	-34.63399	0.98832	-34.63399	0.05245	71.81878
4710	0.05152	72.74262	0.98994	-34.86038	0.98994	-34.86038	0.05152	72.74262
4730	0.05087	73.46174	0.99349	-35.27259	0.99349	-35.27259	0.05087	73.46174
4750	0.04945	73.87521	0.99362	-35.56264	0.99362	-35.56264	0.04945	73.87521
4770	0.04799	75.04205	0.99278	-35.53841	0.99278	-35.53841	0.04799	75.04205
4790	0.04639	75.76654	0.99251	-35.97843	0.99251	-35.97843	0.04639	75.76654
4810	0.04468	76.31702	0.99354	-36.27617	0.99354	-36.27617	0.04468	76.31702
4830	0.043	76.78941	0.99521	-36.37503	0.99521	-36.37503	0.043	76.78941
4850	0.04166	77.10724	0.9955	-36.76838	0.9955	-36.76838	0.04166	77.10724
4870	0.04044	77.2604	0.99508	-36.91651	0.99508	-36.91651	0.04044	77.2604
4890	0.03911	78.14155	0.99489	-37.05226	0.99489	-37.05226	0.03911	78.14155
4910	0.0382	78.41998	0.99322	-37.25373	0.99322	-37.25373	0.0382	78.41998
4930	0.03758	78.19155	0.99187	-37.49499	0.99187	-37.49499	0.03758	78.19155
4950	0.03647	78.97865	0.9962	-37.64607	0.9962	-37.64607	0.03647	78.97865
4970	0.03598	80.93024	0.9932	-37.91709	0.9932	-37.91709	0.03598	80.93024
4990	0.03506	82.43474	0.99376	-38.2615	0.99376	-38.2615	0.03506	82.43474
5010	0.03403	84.41418	0.99404	-38.50014	0.99404	-38.50014	0.03403	84.41418
5030	0.03283	86.77316	0.99253	-38.6739	0.99253	-38.6739	0.03283	86.77316
5050	0.03099	88.39887	0.99007	-39.04374	0.99007	-39.04374	0.03099	88.39887
5070	0.02953	89.03681	0.99173	-39.23512	0.99173	-39.23512	0.02953	89.03681
5090	0.02884	90.30295	0.99131	-39.54745	0.99131	-39.54745	0.02884	90.30295
5110	0.02817	91.58596	0.99338	-39.91291	0.99338	-39.91291	0.02817	91.58596
5130	0.02749	92.89038	0.99643	-40.1971	0.99643	-40.1971	0.02749	92.89038
5150	0.02747	94.83664	0.99291	-40.19903	0.99291	-40.19903	0.02747	94.83664
5170	0.02706	97.80806	0.99373	-40.45062	0.99373	-40.45062	0.02706	97.80806
5190	0.02589	101.18083	0.99398	-40.73447	0.99398	-40.73447	0.02589	101.18083
5210	0.02486	104.62331	0.99251	-40.96118	0.99251	-40.96118	0.02486	104.62331
5230	0.02424	107.80655	0.99033	-41.13579	0.99033	-41.13579	0.02424	107.80655
5250	0.02365	110.40434	0.99054	-41.3578	0.99054	-41.3578	0.02365	110.40434
5270	0.02265	112.21008	0.99323	-41.75745	0.99323	-41.75745	0.02265	112.21008
5290	0.02192	114.74832	0.99167	-42.04309	0.99167	-42.04309	0.02192	114.74832
5310	0.02175	118.0341	0.99093	-42.15954	0.99093	-42.15954	0.02175	118.0341
5330	0.02205	121.74711	0.99181	-42.24451	0.99181	-42.24451	0.02205	121.74711
5350	0.0223	125.23172	0.9909	-42.6286	0.9909	-42.6286	0.0223	125.23172
5370	0.02221	130.7215	0.99448	-42.8042	0.99448	-42.8042	0.02221	130.7215
5390	0.02203	136.78323	0.99398	-43.0865	0.99398	-43.0865	0.02203	136.78323
5410	0.02224	140.99628	0.99368	-43.40275	0.99368	-43.40275	0.02224	140.99628
5430	0.02271	143.43517	0.99445	-43.65664	0.99445	-43.65664	0.02271	143.43517
