! P/N: L-05C5N6_SER								
! Measured by Marlon								
! Sep. 23, 2003								
! Measure with a Series-through-fixture								
#	mhz	s	ma	r	50			
50	0.02868	37.17172	0.9633	-0.25412	0.9633	-0.25412	0.02868	37.17172
70	0.03908	40.2039	0.97047	-0.87814	0.97047	-0.87814	0.03908	40.2039
90	0.04305	39.76397	0.96736	-1.1907	0.96736	-1.1907	0.04305	39.76397
110	0.04362	43.78775	0.96677	-1.68865	0.96677	-1.68865	0.04362	43.78775
130	0.04551	52.51336	0.97046	-2.37697	0.97046	-2.37697	0.04551	52.51336
150	0.05518	58.48124	0.96912	-2.76879	0.96912	-2.76879	0.05518	58.48124
170	0.06284	56.34128	0.97191	-3.13241	0.97191	-3.13241	0.06284	56.34128
190	0.06432	55.04086	0.97013	-3.42039	0.97013	-3.42039	0.06432	55.04086
210	0.06574	57.78443	0.96761	-3.79363	0.96761	-3.79363	0.06574	57.78443
230	0.07127	62.78644	0.96622	-4.19786	0.96622	-4.19786	0.07127	62.78644
250	0.08305	63.27135	0.96581	-4.36371	0.96581	-4.36371	0.08305	63.27135
270	0.08783	59.95737	0.96272	-5.04027	0.96272	-5.04027	0.08783	59.95737
290	0.08891	60.53782	0.96162	-5.40523	0.96162	-5.40523	0.08891	60.53782
310	0.09285	63.5374	0.96067	-5.69085	0.96067	-5.69085	0.09285	63.5374
330	0.10129	66.26451	0.95865	-6.00001	0.95865	-6.00001	0.10129	66.26451
350	0.11094	64.81125	0.95491	-6.30622	0.95491	-6.30622	0.11094	64.81125
370	0.11294	63.10218	0.9582	-6.88509	0.9582	-6.88509	0.11294	63.10218
390	0.11425	64.8943	0.95941	-7.23189	0.95941	-7.23189	0.11425	64.8943
410	0.11993	67.35513	0.9592	-7.52629	0.9592	-7.52629	0.11993	67.35513
430	0.12951	68.35771	0.95814	-7.84219	0.95814	-7.84219	0.12951	68.35771
450	0.13704	66.48058	0.95671	-8.14768	0.95671	-8.14768	0.13704	66.48058
470	0.13698	66.37112	0.95506	-8.50247	0.95506	-8.50247	0.13698	66.37112
490	0.14955	69.11472	0.95266	-9.51798	0.95266	-9.51798	0.14955	69.11472
510	0.16343	71.51766	0.95224	-10.2909	0.95224	-10.2909	0.16343	71.51766
530	0.17242	72.04016	0.95262	-10.58996	0.95262	-10.58996	0.17242	72.04016
550	0.17554	70.79645	0.94871	-10.85594	0.94871	-10.85594	0.17554	70.79645
570	0.17346	71.79053	0.95028	-11.17816	0.95028	-11.17816	0.17346	71.79053
590	0.17791	72.93248	0.94577	-11.50425	0.94577	-11.50425	0.17791	72.93248
610	0.18459	72.72422	0.94169	-11.92307	0.94169	-11.92307	0.18459	72.72422
630	0.19037	71.00417	0.94101	-12.38774	0.94101	-12.38774	0.19037	71.00417
650	0.19323	68.94722	0.94321	-12.71561	0.94321	-12.71561	0.19323	68.94722
670	0.19712	69.7372	0.94506	-12.97408	0.94506	-12.97408	0.19712	69.7372
690	0.20798	70.33847	0.94143	-13.39516	0.94143	-13.39516	0.20798	70.33847
710	0.22026	69.96704	0.93812	-13.86984	0.93812	-13.86984	0.22026	69.96704
730	0.22889	69.06172	0.93749	-14.28543	0.93749	-14.28543	0.22889	69.06172
750	0.22927	69.28418	0.93848	-14.52564	0.93848	-14.52564	0.22927	69.28418
770	0.23376	70.86593	0.93759	-15.07703	0.93759	-15.07703	0.23376	70.86593
790	0.24132	71.26191	0.93383	-15.44587	0.93383	-15.44587	0.24132	71.26191
810	0.24823	70.7153	0.93205	-15.66548	0.93205	-15.66548	0.24823	70.7153
830	0.25215	69.81992	0.93236	-15.91603	0.93236	-15.91603	0.25215	69.81992
850	0.25221	69.52023	0.93014	-16.52459	0.93014	-16.52459	0.25221	69.52023
870	0.25894	70.07484	0.92518	-16.91954	0.92518	-16.91954	0.25894	70.07484
890	0.26928	69.77275	0.92463	-17.18684	0.92463	-17.18684	0.26928	69.77275
910	0.27807	69.05733	0.92362	-17.54108	0.92362	-17.54108	0.27807	69.05733
930	0.28334	68.54806	0.92033	-18.01962	0.92033	-18.01962	0.28334	68.54806
950	0.28636	69.04052	0.91596	-18.48264	0.91596	-18.48264	0.28636	69.04052
970	0.29423	69.47907	0.91773	-18.80919	0.91773	-18.80919	0.29423	69.47907
990	0.30303	69.03016	0.91535	-19.09345	0.91535	-19.09345	0.30303	69.03016
1010	0.30862	68.31794	0.91316	-19.41762	0.91316	-19.41762	0.30862	68.31794
1030	0.31131	68.03046	0.91271	-19.81064	0.91271	-19.81064	0.31131	68.03046
1050	0.31585	68.91976	0.91283	-20.24823	0.91283	-20.24823	0.31585	68.91976
1070	0.32619	69.00373	0.90773	-20.57142	0.90773	-20.57142	0.32619	69.00373
1090	0.33258	68.5366	0.90481	-20.99358	0.90481	-20.99358	0.33258	68.5366
1110	0.3351	68.21371	0.90437	-21.28813	0.90437	-21.28813	0.3351	68.21371
1130	0.33564	68.36132	0.90461	-21.54578	0.90461	-21.54578	0.33564	68.36132
1150	0.33787	68.93667	0.90171	-22.17446	0.90171	-22.17446	0.33787	68.93667
1170	0.3455	68.36266	0.89748	-22.43848	0.89748	-22.43848	0.3455	68.36266
1190	0.34923	67.15546	0.89453	-22.70751	0.89453	-22.70751	0.34923	67.15546
1210	0.35164	66.18062	0.89507	-23.17594	0.89507	-23.17594	0.35164	66.18062
1230	0.35538	65.79845	0.8956	-23.72357	0.8956	-23.72357	0.35538	65.79845
1250	0.36324	65.864	0.88694	-23.91565	0.88694	-23.91565	0.36324	65.864
1270	0.37395	65.12675	0.88257	-24.18949	0.88257	-24.18949	0.37395	65.12675
1290	0.38106	64.3776	0.88337	-24.8397	0.88337	-24.8397	0.38106	64.3776
1310	0.38447	64.15064	0.88253	-25.30972	0.88253	-25.30972	0.38447	64.15064
1330	0.38785	64.4585	0.87923	-25.49333	0.87923	-25.49333	0.38785	64.4585
1350	0.39868	64.79234	0.87862	-25.73466	0.87862	-25.73466	0.39868	64.79234
1370	0.4054	63.71565	0.87553	-26.14724	0.87553	-26.14724	0.4054	63.71565
1390	0.40782	62.92475	0.87421	-26.33663	0.87421	-26.33663	0.40782	62.92475
1410	0.41101	62.7212	0.87183	-26.73143	0.87183	-26.73143	0.41101	62.7212
1430	0.41776	62.81478	0.86765	-27.33165	0.86765	-27.33165	0.41776	62.81478
1450	0.42851	62.32356	0.86294	-27.70871	0.86294	-27.70871	0.42851	62.32356
1470	0.43733	61.47018	0.85842	-27.93005	0.85842	-27.93005	0.43733	61.47018
1490	0.4426	61.18524	0.85841	-28.31463	0.85841	-28.31463	0.4426	61.18524
1510	0.44781	61.42679	0.85673	-28.76795	0.85673	-28.76795	0.44781	61.42679
1530	0.45486	61.81753	0.85234	-29.17387	0.85234	-29.17387	0.45486	61.81753
1550	0.46399	61.64488	0.84933	-29.39454	0.84933	-29.39454	0.46399	61.64488
1570	0.46839	60.92555	0.84666	-29.83376	0.84666	-29.83376	0.46839	60.92555
1590	0.46867	60.75908	0.84676	-30.22568	0.84676	-30.22568	0.46867	60.75908
1610	0.4714	60.78176	0.8446	-30.58267	0.8446	-30.58267	0.4714	60.78176
1630	0.47821	60.6092	0.83976	-30.9069	0.83976	-30.9069	0.47821	60.6092
1650	0.48576	59.83632	0.83642	-31.19034	0.83642	-31.19034	0.48576	59.83632
1670	0.48887	59.13943	0.83407	-31.57553	0.83407	-31.57553	0.48887	59.13943
1690	0.49075	59.07482	0.83034	-31.78683	0.83034	-31.78683	0.49075	59.07482
1710	0.49637	59.10109	0.82679	-32.11185	0.82679	-32.11185	0.49637	59.10109
1730	0.5055	58.86433	0.82451	-32.57015	0.82451	-32.57015	0.5055	58.86433
1750	0.51273	58.19813	0.82414	-32.91331	0.82414	-32.91331	0.51273	58.19813
1770	0.51093	57.82996	0.81983	-33.06607	0.81983	-33.06607	0.51093	57.82996
1790	0.51425	57.92917	0.81817	-33.48919	0.81817	-33.48919	0.51425	57.92917
1810	0.51978	57.59291	0.81342	-34.04375	0.81342	-34.04375	0.51978	57.59291
1830	0.52508	56.70103	0.80559	-34.47777	0.80559	-34.47777	0.52508	56.70103
1850	0.52817	55.91603	0.80048	-34.42617	0.80048	-34.42617	0.52817	55.91603
1870	0.53485	55.65843	0.80378	-34.93098	0.80378	-34.93098	0.53485	55.65843
1890	0.54048	55.31741	0.79797	-35.2986	0.79797	-35.2986	0.54048	55.31741
1910	0.5481	55.04473	0.79004	-35.47464	0.79004	-35.47464	0.5481	55.04473
1930	0.55642	54.71469	0.78521	-35.63253	0.78521	-35.63253	0.55642	54.71469
1950	0.55976	53.92417	0.78699	-36.17357	0.78699	-36.17357	0.55976	53.92417
1970	0.5621	53.65386	0.78561	-36.75521	0.78561	-36.75521	0.5621	53.65386
1990	0.56761	53.39086	0.77863	-37.20416	0.77863	-37.20416	0.56761	53.39086
2010	0.57368	52.96898	0.774	-37.38514	0.774	-37.38514	0.57368	52.96898
2030	0.57891	52.36637	0.77324	-37.47651	0.77324	-37.47651	0.57891	52.36637
2050	0.58307	51.7055	0.77141	-37.97021	0.77141	-37.97021	0.58307	51.7055
2070	0.58791	51.91387	0.76811	-38.49797	0.76811	-38.49797	0.58791	51.91387
2090	0.59436	51.7585	0.76136	-38.88732	0.76136	-38.88732	0.59436	51.7585
2110	0.60249	51.37359	0.75685	-39.04391	0.75685	-39.04391	0.60249	51.37359
2130	0.60909	50.88547	0.75528	-39.14484	0.75528	-39.14484	0.60909	50.88547
2150	0.60762	50.41255	0.75243	-39.63865	0.75243	-39.63865	0.60762	50.41255
2170	0.61227	50.48798	0.74809	-39.89327	0.74809	-39.89327	0.61227	50.48798
2190	0.61954	50.14815	0.74535	-40.25777	0.74535	-40.25777	0.61954	50.14815
2210	0.624	49.56048	0.74122	-40.54868	0.74122	-40.54868	0.624	49.56048
2230	0.62622	48.95125	0.73619	-40.75869	0.73619	-40.75869	0.62622	48.95125
2250	0.63275	48.60559	0.73427	-41.05667	0.73427	-41.05667	0.63275	48.60559
2270	0.63815	48.41701	0.73027	-41.63572	0.73027	-41.63572	0.63815	48.41701
2290	0.64332	48.26598	0.7225	-41.88975	0.7225	-41.88975	0.64332	48.26598
2310	0.65019	47.79713	0.71944	-42.09707	0.71944	-42.09707	0.65019	47.79713
2330	0.65653	47.23073	0.72083	-42.46062	0.72083	-42.46062	0.65653	47.23073
2350	0.6559	47.36264	0.71764	-43.10795	0.71764	-43.10795	0.6559	47.36264
2370	0.6594	47.45207	0.7082	-43.2635	0.7082	-43.2635	0.6594	47.45207
2390	0.66499	47.09361	0.70489	-43.31591	0.70489	-43.31591	0.66499	47.09361
2410	0.66869	46.42222	0.70343	-43.63574	0.70343	-43.63574	0.66869	46.42222
2430	0.66967	45.73969	0.70088	-44.1472	0.70088	-44.1472	0.66967	45.73969
2450	0.6703	45.51464	0.69563	-44.32814	0.69563	-44.32814	0.6703	45.51464
2470	0.68006	45.40582	0.69172	-44.52696	0.69172	-44.52696	0.68006	45.40582
2490	0.68469	44.69735	0.68734	-44.80251	0.68734	-44.80251	0.68469	44.69735
2510	0.68761	44.00454	0.68238	-45.22411	0.68238	-45.22411	0.68761	44.00454
2530	0.69154	43.7254	0.67752	-45.69323	0.67752	-45.69323	0.69154	43.7254
2550	0.69849	44.04056	0.67426	-45.94349	0.67426	-45.94349	0.69849	44.04056
2570	0.70766	43.69621	0.67093	-46.20063	0.67093	-46.20063	0.70766	43.69621
2590	0.70841	43.40987	0.66663	-46.41395	0.66663	-46.41395	0.70841	43.40987
2610	0.70738	43.19801	0.66411	-46.63488	0.66411	-46.63488	0.70738	43.19801
2630	0.70817	43.00888	0.66214	-46.97763	0.66214	-46.97763	0.70817	43.00888
2650	0.71134	42.72245	0.65542	-47.61927	0.65542	-47.61927	0.71134	42.72245
2670	0.71898	42.27416	0.6506	-47.5579	0.6506	-47.5579	0.71898	42.27416
2690	0.72497	42.07388	0.64976	-47.79081	0.64976	-47.79081	0.72497	42.07388
2710	0.72795	41.60934	0.64756	-48.03674	0.64756	-48.03674	0.72795	41.60934
2730	0.72924	41.11113	0.64181	-48.26169	0.64181	-48.26169	0.72924	41.11113
2750	0.73282	41.55269	0.63346	-48.67879	0.63346	-48.67879	0.73282	41.55269
2770	0.73982	40.79117	0.6299	-48.77447	0.6299	-48.77447	0.73982	40.79117
2790	0.74309	40.25363	0.62802	-49.19504	0.62802	-49.19504	0.74309	40.25363
2810	0.74473	39.96917	0.62462	-49.53236	0.62462	-49.53236	0.74473	39.96917
2830	0.74793	39.89506	0.61906	-49.74662	0.61906	-49.74662	0.74793	39.89506
2850	0.75695	39.91678	0.61325	-50.16632	0.61325	-50.16632	0.75695	39.91678
2870	0.75924	39.16307	0.60959	-50.1354	0.60959	-50.1354	0.75924	39.16307
2890	0.76189	38.81708	0.60606	-50.47058	0.60606	-50.47058	0.76189	38.81708
2910	0.76706	38.65666	0.60244	-50.94721	0.60244	-50.94721	0.76706	38.65666
2930	0.77415	38.57892	0.5984	-51.363	0.5984	-51.363	0.77415	38.57892
2950	0.77981	38.60028	0.59348	-51.53805	0.59348	-51.53805	0.77981	38.60028
2970	0.77878	38.38974	0.58824	-51.62802	0.58824	-51.62802	0.77878	38.38974
2990	0.77839	37.96525	0.58558	-52.14799	0.58558	-52.14799	0.77839	37.96525
3010	0.77877	37.5144	0.58116	-52.6712	0.58116	-52.6712	0.77877	37.5144
3030	0.78116	37.14888	0.57478	-52.91537	0.57478	-52.91537	0.78116	37.14888
3050	0.78794	36.90452	0.57038	-52.74261	0.57038	-52.74261	0.78794	36.90452
3070	0.7919	36.56702	0.57086	-52.9039	0.57086	-52.9039	0.7919	36.56702
3090	0.79351	36.12243	0.56652	-53.70197	0.56652	-53.70197	0.79351	36.12243
3110	0.79546	35.93646	0.56039	-54.10787	0.56039	-54.10787	0.79546	35.93646
3130	0.79937	35.90515	0.55518	-53.95478	0.55518	-53.95478	0.79937	35.90515
3150	0.80579	35.45494	0.55321	-53.938	0.55321	-53.938	0.80579	35.45494
3170	0.80352	35.11771	0.54762	-54.39631	0.54762	-54.39631	0.80352	35.11771
3190	0.80593	34.87283	0.54561	-54.71976	0.54561	-54.71976	0.80593	34.87283
3210	0.81148	34.55969	0.54162	-55.02769	0.54162	-55.02769	0.81148	34.55969
3230	0.81706	34.13418	0.53463	-55.31908	0.53463	-55.31908	0.81706	34.13418
3250	0.818	33.66872	0.52819	-55.47255	0.52819	-55.47255	0.818	33.66872
3270	0.82082	33.79158	0.52678	-55.68626	0.52678	-55.68626	0.82082	33.79158
3290	0.82382	33.29592	0.52337	-56.27942	0.52337	-56.27942	0.82382	33.29592
3310	0.82545	32.89998	0.51824	-56.62648	0.51824	-56.62648	0.82545	32.89998
3330	0.82685	32.79128	0.5129	-56.62261	0.5129	-56.62261	0.82685	32.79128
3350	0.83182	32.62661	0.51	-56.68364	0.51	-56.68364	0.83182	32.62661
3370	0.83641	32.07085	0.50949	-57.17379	0.50949	-57.17379	0.83641	32.07085
3390	0.83876	31.7222	0.50295	-57.61718	0.50295	-57.61718	0.83876	31.7222
3410	0.8417	31.47009	0.49534	-57.85567	0.49534	-57.85567	0.8417	31.47009
3430	0.84741	31.31156	0.49069	-57.89312	0.49069	-57.89312	0.84741	31.31156
3450	0.85743	31.35126	0.49207	-57.89537	0.49207	-57.89537	0.85743	31.35126
3470	0.85089	30.53279	0.4852	-58.96635	0.4852	-58.96635	0.85089	30.53279
3490	0.84718	30.78015	0.47813	-58.82762	0.47813	-58.82762	0.84718	30.78015
3510	0.85158	30.76667	0.47556	-58.66953	0.47556	-58.66953	0.85158	30.76667
3530	0.85892	30.10365	0.47526	-59.03788	0.47526	-59.03788	0.85892	30.10365
3550	0.8535	29.34034	0.46805	-59.83392	0.46805	-59.83392	0.8535	29.34034
3570	0.85609	29.2881	0.46125	-59.83788	0.46125	-59.83788	0.85609	29.2881
3590	0.86428	29.08511	0.45768	-60.0393	0.45768	-60.0393	0.86428	29.08511
3610	0.86902	28.72866	0.45376	-60.30504	0.45376	-60.30504	0.86902	28.72866
3630	0.86915	28.40464	0.44937	-60.52968	0.44937	-60.52968	0.86915	28.40464
3650	0.87144	28.48748	0.44781	-60.63555	0.44781	-60.63555	0.87144	28.48748
3670	0.87559	27.66889	0.44193	-61.47661	0.44193	-61.47661	0.87559	27.66889
3690	0.87202	27.43445	0.43492	-61.60235	0.43492	-61.60235	0.87202	27.43445
3710	0.87231	27.23449	0.43126	-61.49972	0.43126	-61.49972	0.87231	27.23449
3730	0.87832	26.73982	0.43009	-61.64694	0.43009	-61.64694	0.87832	26.73982
3750	0.88216	25.84171	0.42516	-62.51345	0.42516	-62.51345	0.88216	25.84171
3770	0.88338	26.18394	0.41769	-62.53377	0.41769	-62.53377	0.88338	26.18394
3790	0.89143	25.77906	0.41553	-62.73083	0.41553	-62.73083	0.89143	25.77906
3810	0.89411	25.45323	0.4128	-62.89235	0.4128	-62.89235	0.89411	25.45323
3830	0.89078	25.39368	0.40792	-63.01765	0.40792	-63.01765	0.89078	25.39368
3850	0.89233	25.14877	0.40355	-63.31772	0.40355	-63.31772	0.89233	25.14877
3870	0.8927	24.85074	0.39727	-63.71584	0.39727	-63.71584	0.8927	24.85074
3890	0.89326	24.62798	0.39344	-63.73376	0.39344	-63.73376	0.89326	24.62798
3910	0.89848	24.29135	0.39143	-63.9463	0.39143	-63.9463	0.89848	24.29135
3930	0.90432	23.76004	0.38895	-64.49269	0.38895	-64.49269	0.90432	23.76004
3950	0.89826	23.06159	0.38208	-65.07655	0.38208	-65.07655	0.89826	23.06159
3970	0.90392	23.11398	0.37619	-64.43358	0.37619	-64.43358	0.90392	23.11398
3990	0.90921	22.67653	0.37327	-64.70402	0.37327	-64.70402	0.90921	22.67653
4010	0.91085	22.19311	0.37022	-65.28724	0.37022	-65.28724	0.91085	22.19311
4030	0.90947	21.83384	0.36543	-65.84792	0.36543	-65.84792	0.90947	21.83384
4050	0.90964	21.49515	0.35882	-66.31607	0.35882	-66.31607	0.90964	21.49515
4070	0.91361	21.41695	0.35327	-65.90594	0.35327	-65.90594	0.91361	21.41695
4090	0.9169	21.15998	0.35173	-66.14502	0.35173	-66.14502	0.9169	21.15998
4110	0.91722	20.62599	0.34929	-66.58339	0.34929	-66.58339	0.91722	20.62599
4130	0.91522	20.11236	0.34396	-66.92272	0.34396	-66.92272	0.91522	20.11236
4150	0.91447	20.31211	0.3367	-67.01621	0.3367	-67.01621	0.91447	20.31211
4170	0.92397	19.77695	0.3362	-67.22667	0.3362	-67.22667	0.92397	19.77695
4190	0.92334	19.00825	0.33194	-67.7415	0.33194	-67.7415	0.92334	19.00825
4210	0.92082	18.5894	0.32556	-68.09888	0.32556	-68.09888	0.92082	18.5894
4230	0.9222	18.44784	0.31945	-68.27962	0.31945	-68.27962	0.9222	18.44784
4250	0.93082	17.85517	0.31666	-68.70718	0.31666	-68.70718	0.93082	17.85517
4270	0.93041	17.49731	0.31187	-68.48843	0.31187	-68.48843	0.93041	17.49731
4290	0.9318	17.18823	0.30798	-68.68174	0.30798	-68.68174	0.9318	17.18823
4310	0.93269	16.77921	0.30408	-69.15356	0.30408	-69.15356	0.93269	16.77921
4330	0.93243	16.33	0.29945	-69.60501	0.29945	-69.60501	0.93243	16.33
4350	0.93204	16.10877	0.29356	-69.57188	0.29356	-69.57188	0.93204	16.10877
4370	0.93681	15.50119	0.29072	-69.83311	0.29072	-69.83311	0.93681	15.50119
4390	0.93665	15.00035	0.28592	-70.24644	0.28592	-70.24644	0.93665	15.00035
4410	0.94087	14.68938	0.28223	-70.62319	0.28223	-70.62319	0.94087	14.68938
4430	0.94953	14.47239	0.27932	-70.82313	0.27932	-70.82313	0.94953	14.47239
4450	0.95349	14.07449	0.27354	-70.75445	0.27354	-70.75445	0.95349	14.07449
4470	0.94606	13.82112	0.26715	-70.3505	0.26715	-70.3505	0.94606	13.82112
4490	0.94928	13.30731	0.26443	-70.9753	0.26443	-70.9753	0.94928	13.30731
4510	0.94794	12.80056	0.2594	-71.6744	0.2594	-71.6744	0.94794	12.80056
4530	0.94216	12.54373	0.25212	-71.86036	0.25212	-71.86036	0.94216	12.54373
4550	0.94739	12.75502	0.24869	-71.3127	0.24869	-71.3127	0.94739	12.75502
4570	0.95612	11.64303	0.24723	-72.27123	0.24723	-72.27123	0.95612	11.64303
4590	0.95097	10.89615	0.24171	-72.85649	0.24171	-72.85649	0.95097	10.89615
4610	0.94746	10.94027	0.23613	-72.80032	0.23613	-72.80032	0.94746	10.94027
4630	0.95186	11.17752	0.23216	-72.4886	0.23216	-72.4886	0.95186	11.17752
4650	0.96122	9.98627	0.22913	-72.96123	0.22913	-72.96123	0.96122	9.98627
4670	0.95236	9.57244	0.22282	-73.54216	0.22282	-73.54216	0.95236	9.57244
4690	0.95666	9.38422	0.21827	-73.63022	0.21827	-73.63022	0.95666	9.38422
4710	0.96112	9.00261	0.21362	-73.8848	0.21362	-73.8848	0.96112	9.00261
4730	0.96104	8.49422	0.20913	-74.26879	0.20913	-74.26879	0.96104	8.49422
4750	0.9601	8.41136	0.20713	-74.04852	0.20713	-74.04852	0.9601	8.41136
4770	0.95527	7.91514	0.20157	-74.55949	0.20157	-74.55949	0.95527	7.91514
4790	0.95711	7.39551	0.19645	-74.68601	0.19645	-74.68601	0.95711	7.39551
4810	0.96123	6.93802	0.19214	-74.82356	0.19214	-74.82356	0.96123	6.93802
4830	0.96455	6.52726	0.18819	-75.08929	0.18819	-75.08929	0.96455	6.52726
4850	0.96527	6.04693	0.18337	-75.32196	0.18337	-75.32196	0.96527	6.04693
4870	0.96817	5.8517	0.17855	-75.36288	0.17855	-75.36288	0.96817	5.8517
4890	0.96628	5.24402	0.17366	-75.82001	0.17366	-75.82001	0.96628	5.24402
4910	0.96196	4.94908	0.16816	-75.95724	0.16816	-75.95724	0.96196	4.94908
4930	0.96051	5.01092	0.16323	-75.77788	0.16323	-75.77788	0.96051	5.01092
4950	0.97019	4.79238	0.16181	-76.02469	0.16181	-76.02469	0.97019	4.79238
4970	0.96993	3.69755	0.15613	-76.65744	0.15613	-76.65744	0.96993	3.69755
4990	0.96037	3.35222	0.15036	-76.49259	0.15036	-76.49259	0.96037	3.35222
5010	0.96297	3.17379	0.14638	-76.3244	0.14638	-76.3244	0.96297	3.17379
5030	0.9755	2.70172	0.14352	-76.58641	0.14352	-76.58641	0.9755	2.70172
5050	0.97206	1.59753	0.1386	-77.35146	0.1386	-77.35146	0.97206	1.59753
5070	0.96732	1.8299	0.13277	-77.25545	0.13277	-77.25545	0.96732	1.8299
5090	0.9798	2.03916	0.12912	-76.56178	0.12912	-76.56178	0.9798	2.03916
5110	0.98638	1.66693	0.1255	-76.70964	0.1255	-76.70964	0.98638	1.66693
5130	0.97861	0.86584	0.1209	-77.58202	0.1209	-77.58202	0.97861	0.86584
5150	0.96268	0.49949	0.11542	-77.5057	0.11542	-77.5057	0.96268	0.49949
5170	0.97345	0.91676	0.11132	-76.96582	0.11132	-76.96582	0.97345	0.91676
5190	0.97965	0.13493	0.10727	-77.051	0.10727	-77.051	0.97965	0.13493
5210	0.97581	-0.67804	0.10272	-77.34749	0.10272	-77.34749	0.97581	-0.67804
5230	0.96884	-0.77046	0.09785	-77.3983	0.09785	-77.3983	0.96884	-0.77046
5250	0.97812	0.19306	0.09356	-76.70317	0.09356	-76.70317	0.97812	0.19306
5270	0.98699	-1.26536	0.09017	-77.01991	0.09017	-77.01991	0.98699	-1.26536
5290	0.97591	-1.99973	0.08522	-77.0033	0.08522	-77.0033	0.97591	-1.99973
5310	0.9707	-1.75401	0.08061	-76.40363	0.08061	-76.40363	0.9707	-1.75401
5330	0.97961	-1.37321	0.07678	-75.69966	0.07678	-75.69966	0.97961	-1.37321
5350	0.99338	-2.80334	0.07269	-76.09867	0.07269	-76.09867	0.99338	-2.80334
5370	0.97297	-3.26054	0.06769	-75.16983	0.06769	-75.16983	0.97297	-3.26054
5390	0.97075	-2.8313	0.06359	-74.20256	0.06359	-74.20256	0.97075	-2.8313
5410	0.97896	-2.9578	0.05979	-73.52428	0.05979	-73.52428	0.97896	-2.9578
