! Data Taken on a HP 8720C VNA using a shunt-through fixture with TRL* de-embedding
#	mhz	s	ma	r	50
50	0.9181	168.26053	0.18767	67.66484	0.18767	67.66484	0.9181	168.26053
70	0.93104	164.58154	0.25777	65.31041	0.25777	65.31041	0.93104	164.58154
90	0.90496	160.47342	0.31531	62.186	0.31531	62.186	0.90496	160.47342
110	0.87375	156.9526	0.36923	59.37002	0.36923	59.37002	0.87375	156.9526
130	0.85177	153.83358	0.42261	56.93114	0.42261	56.93114	0.85177	153.83358
150	0.83381	149.72892	0.47274	53.9283	0.47274	53.9283	0.83381	149.72892
170	0.79765	147.34696	0.51117	51.90731	0.51117	51.90731	0.79765	147.34696
190	0.77393	144.54542	0.551	49.22664	0.551	49.22664	0.77393	144.54542
210	0.74927	141.6734	0.58601	46.51378	0.58601	46.51378	0.74927	141.6734
230	0.72088	139.05623	0.61645	44.18789	0.61645	44.18789	0.72088	139.05623
250	0.69657	136.99549	0.64903	42.45981	0.64903	42.45981	0.69657	136.99549
270	0.67526	134.41794	0.67791	40.08912	0.67791	40.08912	0.67526	134.41794
290	0.6503	132.30988	0.69687	38.16527	0.69687	38.16527	0.6503	132.30988
310	0.62803	130.17165	0.71798	36.60733	0.71798	36.60733	0.62803	130.17165
330	0.60909	127.86605	0.74193	35.08186	0.74193	35.08186	0.60909	127.86605
350	0.58836	125.61835	0.75806	33.00298	0.75806	33.00298	0.58836	125.61835
370	0.5692	124.52734	0.77628	31.84106	0.77628	31.84106	0.5692	124.52734
390	0.55122	122.88579	0.79298	30.24202	0.79298	30.24202	0.55122	122.88579
410	0.53422	121.31446	0.8069	28.70419	0.8069	28.70419	0.53422	121.31446
430	0.51735	119.98033	0.81879	27.47858	0.81879	27.47858	0.51735	119.98033
450	0.49914	118.59662	0.83146	26.56881	0.83146	26.56881	0.49914	118.59662
470	0.48405	117.21038	0.84056	25.13457	0.84056	25.13457	0.48405	117.21038
490	0.45358	113.72556	0.86421	22.72069	0.86421	22.72069	0.45358	113.72556
510	0.42897	111.02915	0.88373	20.95338	0.88373	20.95338	0.42897	111.02915
530	0.41638	109.81306	0.89257	20.0936	0.89257	20.0936	0.41638	109.81306
550	0.40699	108.57421	0.89631	19.03705	0.89631	19.03705	0.40699	108.57421
570	0.39531	107.7582	0.90092	18.22976	0.90092	18.22976	0.39531	107.7582
590	0.3843	107.09532	0.90444	17.57344	0.90444	17.57344	0.3843	107.09532
610	0.37367	106.12036	0.90901	16.87168	0.90901	16.87168	0.37367	106.12036
630	0.36332	104.86191	0.91543	16.04493	0.91543	16.04493	0.36332	104.86191
650	0.35339	103.84244	0.92318	15.13053	0.92318	15.13053	0.35339	103.84244
670	0.34506	103.2724	0.92564	14.26243	0.92564	14.26243	0.34506	103.2724
690	0.33876	102.29146	0.92665	13.63143	0.92665	13.63143	0.33876	102.29146
710	0.33255	101.36597	0.92926	13.00755	0.92926	13.00755	0.33255	101.36597
730	0.32541	100.81882	0.93299	12.32487	0.93299	12.32487	0.32541	100.81882
750	0.3173	100.82954	0.93389	11.68153	0.93389	11.68153	0.3173	100.82954
770	0.30848	100.25047	0.93853	10.93116	0.93853	10.93116	0.30848	100.25047
790	0.29966	99.79007	0.94291	10.45591	0.94291	10.45591	0.29966	99.79007
810	0.29053	99.22543	0.94431	10.04045	0.94431	10.04045	0.29053	99.22543
830	0.28167	98.44917	0.94361	9.47942	0.94361	9.47942	0.28167	98.44917
850	0.27455	97.46944	0.94533	8.57741	0.94533	8.57741	0.27455	97.46944
870	0.26784	96.74509	0.94878	8.2304	0.94878	8.2304	0.26784	96.74509
890	0.26219	95.90474	0.94954	7.72297	0.94954	7.72297	0.26219	95.90474
910	0.25677	95.05423	0.95157	7.22229	0.95157	7.22229	0.25677	95.05423
930	0.25115	94.37962	0.95501	6.73741	0.95501	6.73741	0.25115	94.37962
950	0.24528	94.1472	0.95619	6.11927	0.95619	6.11927	0.24528	94.1472
970	0.23942	93.74423	0.95723	5.56933	0.95723	5.56933	0.23942	93.74423
990	0.23401	92.93148	0.95825	5.2363	0.95825	5.2363	0.23401	92.93148
1010	0.22839	91.89501	0.95921	4.84763	0.95921	4.84763	0.22839	91.89501
1030	0.22294	90.8646	0.96057	4.37471	0.96057	4.37471	0.22294	90.8646
1050	0.21906	90.11374	0.96332	4.03285	0.96332	4.03285	0.21906	90.11374
1070	0.21575	89.01383	0.96331	3.4276	0.96331	3.4276	0.21575	89.01383
1090	0.21265	88.35245	0.96497	3.09227	0.96497	3.09227	0.21265	88.35245
1110	0.20953	87.95764	0.96681	2.74745	0.96681	2.74745	0.20953	87.95764
1130	0.20611	87.6317	0.96798	2.28609	0.96798	2.28609	0.20611	87.6317
1150	0.20202	87.15121	0.9683	1.77355	0.9683	1.77355	0.20202	87.15121
1170	0.19786	86.90067	0.96752	1.45962	0.96752	1.45962	0.19786	86.90067
1190	0.19326	86.44156	0.97043	1.17386	0.97043	1.17386	0.19326	86.44156
1210	0.18912	85.72466	0.97291	0.79024	0.97291	0.79024	0.18912	85.72466
1230	0.18556	84.84873	0.97288	0.34164	0.97288	0.34164	0.18556	84.84873
1250	0.18182	84.06046	0.97037	0.01982	0.97037	0.01982	0.18182	84.06046
1270	0.17987	83.47213	0.97289	-0.25611	0.97289	-0.25611	0.17987	83.47213
1290	0.17761	82.83374	0.97265	-0.88019	0.97265	-0.88019	0.17761	82.83374
1310	0.17496	82.42246	0.97363	-1.29627	0.97363	-1.29627	0.17496	82.42246
1330	0.1721	82.19241	0.97623	-1.42796	0.97623	-1.42796	0.1721	82.19241
1350	0.16953	81.77472	0.9772	-1.67863	0.9772	-1.67863	0.16953	81.77472
1370	0.16628	81.47515	0.97716	-2.19293	0.97716	-2.19293	0.16628	81.47515
1390	0.16276	81.22482	0.97621	-2.46905	0.97621	-2.46905	0.16276	81.22482
1410	0.15952	80.92727	0.97801	-2.78649	0.97801	-2.78649	0.15952	80.92727
1430	0.1565	80.52978	0.98112	-3.17975	0.98112	-3.17975	0.1565	80.52978
1450	0.15299	80.0233	0.97903	-3.4383	0.97903	-3.4383	0.15299	80.0233
1470	0.14916	79.54488	0.98117	-3.58784	0.98117	-3.58784	0.14916	79.54488
1490	0.14623	78.94156	0.98216	-4.16523	0.98216	-4.16523	0.14623	78.94156
1510	0.14307	78.37619	0.98157	-4.64964	0.98157	-4.64964	0.14307	78.37619
1530	0.13994	77.84564	0.98079	-4.89705	0.98079	-4.89705	0.13994	77.84564
1550	0.13844	77.18076	0.98302	-5.14032	0.98302	-5.14032	0.13844	77.18076
1570	0.13612	76.68964	0.97963	-5.41366	0.97963	-5.41366	0.13612	76.68964
1590	0.13358	76.39688	0.97982	-5.71274	0.97982	-5.71274	0.13358	76.39688
1610	0.13091	76.18164	0.9814	-5.99291	0.9814	-5.99291	0.13091	76.18164
1630	0.12799	75.90893	0.98286	-6.23529	0.98286	-6.23529	0.12799	75.90893
1650	0.12446	75.42966	0.98336	-6.44682	0.98336	-6.44682	0.12446	75.42966
1670	0.12144	74.72884	0.98401	-6.67575	0.98401	-6.67575	0.12144	74.72884
1690	0.11834	73.84945	0.98358	-7.02736	0.98358	-7.02736	0.11834	73.84945
1710	0.11592	72.91449	0.98415	-7.36171	0.98415	-7.36171	0.11592	72.91449
1730	0.1144	72.0122	0.9857	-7.6476	0.9857	-7.6476	0.1144	72.0122
1750	0.11349	71.196	0.98607	-7.96259	0.98607	-7.96259	0.11349	71.196
1770	0.11184	70.80346	0.98501	-8.47367	0.98501	-8.47367	0.11184	70.80346
1790	0.10999	70.6065	0.98647	-8.59596	0.98647	-8.59596	0.10999	70.6065
1810	0.10777	70.58006	0.98692	-8.79732	0.98692	-8.79732	0.10777	70.58006
1830	0.10501	70.41839	0.98591	-9.15623	0.98591	-9.15623	0.10501	70.41839
1850	0.10162	69.53508	0.98606	-9.36175	0.98606	-9.36175	0.10162	69.53508
1870	0.09873	68.28433	0.98785	-9.78543	0.98785	-9.78543	0.09873	68.28433
1890	0.09679	67.15109	0.98911	-10.00044	0.98911	-10.00044	0.09679	67.15109
1910	0.09552	65.92426	0.98969	-10.16041	0.98969	-10.16041	0.09552	65.92426
1930	0.09473	64.76918	0.98962	-10.40111	0.98962	-10.40111	0.09473	64.76918
1950	0.09423	64.2275	0.98915	-10.84053	0.98915	-10.84053	0.09423	64.2275
1970	0.09329	64.17665	0.98853	-11.10836	0.98853	-11.10836	0.09329	64.17665
1990	0.09164	64.30146	0.9879	-11.249	0.9879	-11.249	0.09164	64.30146
2010	0.08951	64.19925	0.98843	-11.33874	0.98843	-11.33874	0.08951	64.19925
2030	0.08702	63.77305	0.98957	-11.532	0.98957	-11.532	0.08702	63.77305
2050	0.08411	63.23159	0.98903	-12.06129	0.98903	-12.06129	0.08411	63.23159
2070	0.08193	62.01633	0.98931	-12.4557	0.98931	-12.4557	0.08193	62.01633
2090	0.08072	60.80586	0.98689	-12.56811	0.98689	-12.56811	0.08072	60.80586
2110	0.07983	59.77928	0.98747	-12.86471	0.98747	-12.86471	0.07983	59.77928
2130	0.07896	59.11393	0.99073	-13.31746	0.99073	-13.31746	0.07896	59.11393
2150	0.07806	58.98534	0.99023	-13.40411	0.99023	-13.40411	0.07806	58.98534
2170	0.07707	59.21656	0.99029	-13.64157	0.99029	-13.64157	0.07707	59.21656
2190	0.07551	59.23425	0.98923	-13.8998	0.98923	-13.8998	0.07551	59.23425
2210	0.07329	58.91726	0.98941	-14.16576	0.98941	-14.16576	0.07329	58.91726
2230	0.07069	58.39746	0.99078	-14.45553	0.99078	-14.45553	0.07069	58.39746
2250	0.06836	58.05968	0.99088	-14.81434	0.99088	-14.81434	0.06836	58.05968
2270	0.06669	56.89917	0.99155	-14.84495	0.99155	-14.84495	0.06669	56.89917
2290	0.06505	55.814	0.99227	-15.31519	0.99227	-15.31519	0.06505	55.814
2310	0.06346	54.86072	0.99251	-15.65201	0.99251	-15.65201	0.06346	54.86072
2330	0.06221	54.0333	0.99143	-15.75919	0.99143	-15.75919	0.06221	54.0333
2350	0.06179	53.26311	0.98788	-16.01736	0.98788	-16.01736	0.06179	53.26311
2370	0.05947	52.53204	0.99128	-16.26482	0.99128	-16.26482	0.05947	52.53204
2390	0.05761	51.73949	0.99289	-16.52412	0.99289	-16.52412	0.05761	51.73949
2410	0.05594	50.89454	0.99214	-16.7042	0.99214	-16.7042	0.05594	50.89454
2430	0.05428	50.04402	0.99085	-16.85796	0.99085	-16.85796	0.05428	50.04402
2450	0.05261	49.27253	0.99327	-17.18233	0.99327	-17.18233	0.05261	49.27253
2470	0.05128	48.43566	0.99593	-17.47777	0.99593	-17.47777	0.05128	48.43566
2490	0.0496	47.52829	0.99341	-17.73422	0.99341	-17.73422	0.0496	47.52829
2510	0.04789	46.81157	0.99167	-17.96161	0.99167	-17.96161	0.04789	46.81157
2530	0.04624	46.21148	0.99145	-18.17076	0.99145	-18.17076	0.04624	46.21148
2550	0.0446	45.31877	0.98831	-18.37341	0.98831	-18.37341	0.0446	45.31877
2570	0.04329	43.37849	0.99385	-18.54309	0.99385	-18.54309	0.04329	43.37849
2590	0.04187	41.53872	0.99393	-18.8463	0.99393	-18.8463	0.04187	41.53872
2610	0.04058	39.85798	0.9923	-19.20873	0.9923	-19.20873	0.04058	39.85798
2630	0.03952	38.39593	0.99118	-19.55675	0.99118	-19.55675	0.03952	38.39593
2650	0.03856	37.21336	0.99126	-19.81733	0.99126	-19.81733	0.03856	37.21336
2670	0.03763	36.12911	0.9922	-19.87577	0.9922	-19.87577	0.03763	36.12911
2690	0.03616	35.16301	0.99176	-20.19403	0.99176	-20.19403	0.03616	35.16301
2710	0.03467	33.9284	0.99145	-20.49464	0.99145	-20.49464	0.03467	33.9284
2730	0.03329	32.08562	0.99258	-20.71502	0.99258	-20.71502	0.03329	32.08562
2750	0.03183	29.34204	0.99634	-21.00752	0.99634	-21.00752	0.03183	29.34204
2770	0.03053	26.68035	0.99245	-21.25122	0.99245	-21.25122	0.03053	26.68035
2790	0.03008	23.91466	0.99259	-21.39252	0.99259	-21.39252	0.03008	23.91466
2810	0.02976	21.83375	0.99304	-21.7421	0.99304	-21.7421	0.02976	21.83375
2830	0.02917	20.32607	0.99283	-22.20215	0.99283	-22.20215	0.02917	20.32607
2850	0.02822	18.37984	0.99378	-22.26634	0.99378	-22.26634	0.02822	18.37984
2870	0.02743	17.80274	0.99339	-22.32275	0.99339	-22.32275	0.02743	17.80274
2890	0.02581	16.49678	0.99312	-22.37874	0.99312	-22.37874	0.02581	16.49678
2910	0.02417	14.0997	0.99407	-22.62714	0.99407	-22.62714	0.02417	14.0997
2930	0.02298	10.24533	0.99494	-23.01424	0.99494	-23.01424	0.02298	10.24533
2950	0.02239	4.56361	0.99199	-23.23979	0.99199	-23.23979	0.02239	4.56361
2970	0.02242	-1.36669	0.98985	-23.42071	0.98985	-23.42071	0.02242	-1.36669
2990	0.02281	-5.28298	0.99239	-23.69189	0.99239	-23.69189	0.02281	-5.28298
3010	0.02291	-7.21609	0.99422	-23.89579	0.99422	-23.89579	0.02291	-7.21609
3030	0.02259	-8.2677	0.99404	-24.07413	0.99404	-24.07413	0.02259	-8.2677
3050	0.02221	-10.61028	0.99463	-24.46782	0.99463	-24.46782	0.02221	-10.61028
3070	0.02057	-15.49786	0.99022	-24.94253	0.99022	-24.94253	0.02057	-15.49786
3090	0.01953	-20.26946	0.99361	-25.09955	0.99361	-25.09955	0.01953	-20.26946
3110	0.01933	-25.98897	0.99481	-25.19566	0.99481	-25.19566	0.01933	-25.98897
3130	0.01999	-32.36618	0.99189	-25.3462	0.99189	-25.3462	0.01999	-32.36618
3150	0.02124	-37.75678	0.99101	-25.52502	0.99101	-25.52502	0.02124	-37.75678
3170	0.02249	-40.03884	0.99341	-25.79943	0.99341	-25.79943	0.02249	-40.03884
3190	0.02358	-41.30826	0.99177	-25.92142	0.99177	-25.92142	0.02358	-41.30826
3210	0.02362	-42.57513	0.9914	-26.17188	0.9914	-26.17188	0.02362	-42.57513
3230	0.02278	-44.86154	0.99274	-26.53455	0.99274	-26.53455	0.02278	-44.86154
3250	0.02231	-49.2016	0.99136	-26.69599	0.99136	-26.69599	0.02231	-49.2016
3270	0.02162	-55.3868	0.99575	-27.10082	0.99575	-27.10082	0.02162	-55.3868
3290	0.02216	-61.39391	0.99528	-27.34225	0.99528	-27.34225	0.02216	-61.39391
3310	0.02368	-66.15458	0.99328	-27.48137	0.99328	-27.48137	0.02368	-66.15458
3330	0.02582	-69.0693	0.99337	-27.57444	0.99337	-27.57444	0.02582	-69.0693
3350	0.0281	-70.00742	0.99953	-27.67291	0.99953	-27.67291	0.0281	-70.00742
3370	0.02911	-71.38205	0.99282	-28.11478	0.99282	-28.11478	0.02911	-71.38205
3390	0.02947	-71.8932	0.99225	-28.4035	0.99225	-28.4035	0.02947	-71.8932
3410	0.02982	-73.01641	0.99262	-28.54988	0.99262	-28.54988	0.02982	-73.01641
3430	0.03035	-75.62386	0.99216	-28.66638	0.99216	-28.66638	0.03035	-75.62386
3450	0.03081	-79.98432	0.99251	-28.96717	0.99251	-28.96717	0.03081	-79.98432
3470	0.03213	-82.03258	0.99275	-29.37596	0.99275	-29.37596	0.03213	-82.03258
3490	0.03376	-83.87754	0.99278	-29.60555	0.99278	-29.60555	0.03376	-83.87754
3510	0.03568	-84.80167	0.99301	-29.78054	0.99301	-29.78054	0.03568	-84.80167
3530	0.03751	-84.95126	0.99323	-29.93836	0.99323	-29.93836	0.03751	-84.95126
3550	0.03852	-85.33649	0.99265	-30.02935	0.99265	-30.02935	0.03852	-85.33649
3570	0.03911	-86.13649	0.9928	-30.2883	0.9928	-30.2883	0.03911	-86.13649
3590	0.0395	-86.78297	0.99366	-30.46719	0.99366	-30.46719	0.0395	-86.78297
3610	0.0402	-87.87745	0.99448	-30.69858	0.99448	-30.69858	0.0402	-87.87745
3630	0.04139	-89.60707	0.99453	-31.00716	0.99453	-31.00716	0.04139	-89.60707
3650	0.04292	-91.74457	0.99311	-31.3098	0.99311	-31.3098	0.04292	-91.74457
3670	0.04415	-92.71956	0.99394	-31.54768	0.99394	-31.54768	0.04415	-92.71956
3690	0.04528	-92.94171	0.99262	-31.76602	0.99262	-31.76602	0.04528	-92.94171
3710	0.04638	-93.32433	0.99217	-31.99452	0.99217	-31.99452	0.04638	-93.32433
3730	0.04726	-94.09661	0.99283	-32.22937	0.99283	-32.22937	0.04726	-94.09661
3750	0.04747	-94.8036	0.99209	-32.43321	0.99209	-32.43321	0.04747	-94.8036
3770	0.04808	-96.35612	0.99142	-32.62692	0.99142	-32.62692	0.04808	-96.35612
3790	0.04942	-97.67181	0.99279	-32.89477	0.99279	-32.89477	0.04942	-97.67181
3810	0.05032	-99.23251	0.99215	-33.07877	0.99215	-33.07877	0.05032	-99.23251
3830	0.05116	-100.79135	0.98954	-33.20461	0.98954	-33.20461	0.05116	-100.79135
3850	0.05384	-101.37283	0.98915	-33.4817	0.98915	-33.4817	0.05384	-101.37283
3870	0.05545	-101.34339	0.99123	-33.6527	0.99123	-33.6527	0.05545	-101.34339
3890	0.05673	-101.18844	0.99464	-33.91529	0.99464	-33.91529	0.05673	-101.18844
3910	0.05758	-101.45012	0.99513	-34.19993	0.99513	-34.19993	0.05758	-101.45012
3930	0.05805	-102.08356	0.99326	-34.45717	0.99326	-34.45717	0.05805	-102.08356
3950	0.05838	-102.45693	0.99441	-34.65768	0.99441	-34.65768	0.05838	-102.45693
3970	0.05959	-103.52849	0.99349	-34.8707	0.99349	-34.8707	0.05959	-103.52849
3990	0.06067	-104.62444	0.99138	-35.0042	0.99138	-35.0042	0.06067	-104.62444
4010	0.0619	-105.49206	0.99078	-35.20255	0.99078	-35.20255	0.0619	-105.49206
4030	0.06332	-106.08206	0.99217	-35.51495	0.99217	-35.51495	0.06332	-106.08206
4050	0.06476	-106.54859	0.99375	-35.89542	0.99375	-35.89542	0.06476	-106.54859
4070	0.06564	-106.59334	0.99324	-36.27075	0.99324	-36.27075	0.06564	-106.59334
4090	0.06609	-107.04856	0.99157	-36.37227	0.99157	-36.37227	0.06609	-107.04856
4110	0.06656	-107.58853	0.9908	-36.5027	0.9908	-36.5027	0.06656	-107.58853
4130	0.06708	-108.12146	0.99067	-36.70055	0.99067	-36.70055	0.06708	-108.12146
4150	0.06727	-108.78941	0.98866	-36.74008	0.98866	-36.74008	0.06727	-108.78941
4170	0.06897	-109.76008	0.98981	-37.06857	0.98981	-37.06857	0.06897	-109.76008
4190	0.07024	-110.55631	0.99135	-37.34934	0.99135	-37.34934	0.07024	-110.55631
4210	0.07134	-111.00353	0.99203	-37.55748	0.99203	-37.55748	0.07134	-111.00353
4230	0.07243	-111.10013	0.99177	-37.7164	0.99177	-37.7164	0.07243	-111.10013
4250	0.07352	-111.01745	0.99171	-37.89787	0.99171	-37.89787	0.07352	-111.01745
4270	0.07428	-110.82008	0.99056	-38.02848	0.99056	-38.02848	0.07428	-110.82008
4290	0.07429	-111.73782	0.99105	-38.37919	0.99105	-38.37919	0.07429	-111.73782
4310	0.07406	-112.79362	0.99264	-38.71677	0.99264	-38.71677	0.07406	-112.79362
4330	0.07412	-113.62615	0.99503	-38.99451	0.99503	-38.99451	0.07412	-113.62615
4350	0.075	-114.48978	0.99814	-39.35227	0.99814	-39.35227	0.075	-114.48978
4370	0.07642	-115.76908	0.99375	-39.48144	0.99375	-39.48144	0.07642	-115.76908
4390	0.07794	-116.75308	0.99236	-39.58716	0.99236	-39.58716	0.07794	-116.75308
4410	0.07909	-117.28665	0.99211	-39.74352	0.99211	-39.74352	0.07909	-117.28665
4430	0.07989	-117.38089	0.99211	-39.97196	0.99211	-39.97196	0.07989	-117.38089
4450	0.08084	-117.21316	0.99233	-40.24122	0.99233	-40.24122	0.08084	-117.21316
4470	0.08329	-117.84864	0.99215	-40.61339	0.99215	-40.61339	0.08329	-117.84864
4490	0.08306	-118.22275	0.99062	-40.85331	0.99062	-40.85331	0.08306	-118.22275
4510	0.08346	-118.65819	0.99124	-40.91738	0.99124	-40.91738	0.08346	-118.65819
4530	0.08495	-119.35416	0.99319	-40.95419	0.99319	-40.95419	0.08495	-119.35416
4550	0.08511	-120.38638	0.99136	-41.30456	0.99136	-41.30456	0.08511	-120.38638
4570	0.08664	-121.20978	0.99122	-41.41105	0.99122	-41.41105	0.08664	-121.20978
4590	0.08777	-122.00681	0.99536	-41.63794	0.99536	-41.63794	0.08777	-122.00681
4610	0.08889	-122.38499	0.99601	-41.88127	0.99601	-41.88127	0.08889	-122.38499
4630	0.09028	-122.55187	0.99201	-42.14171	0.99201	-42.14171	0.09028	-122.55187
4650	0.09214	-123.31505	0.98875	-42.52457	0.98875	-42.52457	0.09214	-123.31505
4670	0.09232	-123.2213	0.98858	-42.77048	0.98858	-42.77048	0.09232	-123.2213
4690	0.09296	-123.83914	0.98788	-42.90195	0.98788	-42.90195	0.09296	-123.83914
4710	0.09329	-124.48624	0.98828	-43.07485	0.98828	-43.07485	0.09329	-124.48624
4730	0.09359	-125.00121	0.98941	-43.33404	0.98941	-43.33404	0.09359	-125.00121
4750	0.09525	-125.74361	0.9889	-43.61331	0.9889	-43.61331	0.09525	-125.74361
4770	0.09613	-126.07843	0.99012	-43.76286	0.99012	-43.76286	0.09613	-126.07843
4790	0.09731	-126.74691	0.99139	-44.08337	0.99139	-44.08337	0.09731	-126.74691
4810	0.09846	-127.11179	0.99112	-44.27745	0.99112	-44.27745	0.09846	-127.11179
4830	0.09957	-127.1999	0.99032	-44.34863	0.99032	-44.34863	0.09957	-127.1999
4850	0.10095	-127.70218	0.99262	-44.60141	0.99262	-44.60141	0.10095	-127.70218
4870	0.1018	-127.63628	0.99031	-44.86132	0.99031	-44.86132	0.1018	-127.63628
4890	0.10299	-128.13868	0.99043	-44.98923	0.99043	-44.98923	0.10299	-128.13868
4910	0.10352	-128.70056	0.98916	-45.22024	0.98916	-45.22024	0.10352	-128.70056
4930	0.10355	-129.06935	0.98821	-45.5164	0.98821	-45.5164	0.10355	-129.06935
4950	0.10444	-129.24877	0.99485	-45.56673	0.99485	-45.56673	0.10444	-129.24877
4970	0.10455	-130.12877	0.98879	-45.58323	0.98879	-45.58323	0.10455	-130.12877
4990	0.10528	-130.78223	0.99006	-45.96792	0.99006	-45.96792	0.10528	-130.78223
5010	0.10647	-131.39253	0.98996	-46.25713	0.98996	-46.25713	0.10647	-131.39253
5030	0.10771	-131.98922	0.9871	-46.38995	0.9871	-46.38995	0.10771	-131.98922
5050	0.10832	-132.44797	0.98738	-46.70824	0.98738	-46.70824	0.10832	-132.44797
5070	0.11029	-132.31024	0.98854	-46.93042	0.98854	-46.93042	0.11029	-132.31024
5090	0.1107	-132.78533	0.98663	-47.16297	0.98663	-47.16297	0.1107	-132.78533
5110	0.11149	-133.42766	0.98583	-47.45249	0.98583	-47.45249	0.11149	-133.42766
5130	0.11277	-133.96055	0.98702	-47.70072	0.98702	-47.70072	0.11277	-133.96055
5150	0.11274	-134.27616	0.98775	-47.66463	0.98775	-47.66463	0.11274	-134.27616
5170	0.11366	-134.7445	0.98989	-48.00887	0.98989	-48.00887	0.11366	-134.7445
5190	0.11529	-135.13613	0.98624	-48.17156	0.98624	-48.17156	0.11529	-135.13613
5210	0.11669	-135.43899	0.98314	-48.37693	0.98314	-48.37693	0.11669	-135.43899
5230	0.11756	-135.67961	0.98321	-48.64463	0.98321	-48.64463	0.11756	-135.67961
5250	0.1182	-135.92316	0.98535	-48.7897	0.98535	-48.7897	0.1182	-135.92316
5270	0.11943	-136.1491	0.98668	-49.14824	0.98668	-49.14824	0.11943	-136.1491
5290	0.11993	-136.22841	0.98623	-49.39221	0.98623	-49.39221	0.11993	-136.22841
5310	0.12087	-136.59597	0.98666	-49.5304	0.98666	-49.5304	0.12087	-136.59597
5330	0.12215	-137.28896	0.98754	-49.66049	0.98754	-49.66049	0.12215	-137.28896
