! Data Taken on a HP 8720C VNA using a series-through fixture with TRL* de-embedding
#	mhz	s	ma	r	50
50	0.01515	47.51038	0.98909	-1.39494	0.98909	-1.39494	0.01515	47.51038
70	0.02462	64.38276	0.99031	-1.73791	0.99031	-1.73791	0.02462	64.38276
90	0.02874	69.98337	0.99071	-1.89975	0.99071	-1.89975	0.02874	69.98337
110	0.03262	70.47572	0.98931	-2.21788	0.98931	-2.21788	0.03262	70.47572
130	0.03808	70.14111	0.98685	-2.65662	0.98685	-2.65662	0.03808	70.14111
150	0.04356	71.3786	0.98577	-2.80722	0.98577	-2.80722	0.04356	71.3786
170	0.04907	71.85879	0.98705	-3.11568	0.98705	-3.11568	0.04907	71.85879
190	0.05531	72.70098	0.98577	-3.40611	0.98577	-3.40611	0.05531	72.70098
210	0.06092	73.17611	0.98435	-3.79043	0.98435	-3.79043	0.06092	73.17611
230	0.06561	73.34837	0.98385	-4.20907	0.98385	-4.20907	0.06561	73.34837
250	0.07013	74.07515	0.98399	-4.43087	0.98399	-4.43087	0.07013	74.07515
270	0.07537	73.76053	0.9831	-4.69331	0.9831	-4.69331	0.07537	73.76053
290	0.0806	73.49351	0.98198	-5.12494	0.98198	-5.12494	0.0806	73.49351
310	0.08637	73.15448	0.98031	-5.46892	0.98031	-5.46892	0.08637	73.15448
330	0.09271	72.78759	0.97848	-5.71181	0.97848	-5.71181	0.09271	72.78759
350	0.09911	72.60072	0.97761	-6.08362	0.97761	-6.08362	0.09911	72.60072
370	0.10454	73.90853	0.97912	-6.41473	0.97912	-6.41473	0.10454	73.90853
390	0.1097	74.43577	0.979	-6.80527	0.979	-6.80527	0.1097	74.43577
410	0.11496	74.57242	0.97784	-7.19973	0.97784	-7.19973	0.11496	74.57242
430	0.12025	74.58116	0.97696	-7.49107	0.97696	-7.49107	0.12025	74.58116
450	0.12501	74.59737	0.97836	-7.52071	0.97836	-7.52071	0.12501	74.59737
470	0.12982	73.98828	0.97641	-8.02626	0.97641	-8.02626	0.12982	73.98828
490	0.14263	75.96566	0.97579	-8.93722	0.97579	-8.93722	0.14263	75.96566
510	0.15399	77.27032	0.97322	-9.80764	0.97322	-9.80764	0.15399	77.27032
530	0.16013	77.23504	0.9695	-10.3394	0.9695	-10.3394	0.16013	77.23504
550	0.16295	77.78458	0.96949	-10.38212	0.96949	-10.38212	0.16295	77.78458
570	0.16765	77.54488	0.97074	-10.74665	0.97074	-10.74665	0.16765	77.54488
590	0.17337	77.10884	0.96925	-10.87814	0.96925	-10.87814	0.17337	77.10884
610	0.17849	76.67361	0.96896	-11.13414	0.96896	-11.13414	0.17849	76.67361
630	0.18307	76.28949	0.97008	-11.58592	0.97008	-11.58592	0.18307	76.28949
650	0.18885	75.8599	0.96906	-12.01839	0.96906	-12.01839	0.18885	75.8599
670	0.19627	75.53201	0.96601	-12.48708	0.96601	-12.48708	0.19627	75.53201
690	0.20236	75.66402	0.9632	-12.87772	0.9632	-12.87772	0.20236	75.66402
710	0.20862	75.68025	0.96198	-13.15944	0.96198	-13.15944	0.20862	75.68025
730	0.21484	75.61351	0.96206	-13.39676	0.96206	-13.39676	0.21484	75.61351
750	0.21909	76.10506	0.96145	-13.74954	0.96145	-13.74954	0.21909	76.10506
770	0.22317	76.13805	0.96007	-14.2762	0.96007	-14.2762	0.22317	76.13805
790	0.22737	75.95805	0.95726	-14.5172	0.95726	-14.5172	0.22737	75.95805
810	0.2309	75.64297	0.95508	-14.70008	0.95508	-14.70008	0.2309	75.64297
830	0.2341	75.20428	0.95461	-14.94643	0.95461	-14.94643	0.2341	75.20428
850	0.23843	74.58698	0.95597	-15.2718	0.95597	-15.2718	0.23843	74.58698
870	0.2436	74.26818	0.95004	-15.73715	0.95004	-15.73715	0.2436	74.26818
890	0.24974	73.74185	0.94768	-16.10598	0.94768	-16.10598	0.24974	73.74185
910	0.25528	73.0626	0.9464	-16.4525	0.9464	-16.4525	0.25528	73.0626
930	0.25995	72.50207	0.94482	-16.85963	0.94482	-16.85963	0.25995	72.50207
950	0.26473	72.54885	0.94267	-17.41898	0.94267	-17.41898	0.26473	72.54885
970	0.27108	72.3199	0.94187	-17.56986	0.94187	-17.56986	0.27108	72.3199
990	0.27668	71.69446	0.94027	-17.80238	0.94027	-17.80238	0.27668	71.69446
1010	0.28168	71.04583	0.93924	-18.11448	0.93924	-18.11448	0.28168	71.04583
1030	0.28666	70.57378	0.93814	-18.47668	0.93814	-18.47668	0.28666	70.57378
1050	0.29262	70.30457	0.93436	-18.83204	0.93436	-18.83204	0.29262	70.30457
1070	0.29962	70.02922	0.93233	-19.26539	0.93233	-19.26539	0.29962	70.02922
1090	0.30545	69.76727	0.93192	-19.50181	0.93192	-19.50181	0.30545	69.76727
1110	0.31118	69.56265	0.93069	-19.67716	0.93069	-19.67716	0.31118	69.56265
1130	0.31684	69.39487	0.92824	-19.96484	0.92824	-19.96484	0.31684	69.39487
1150	0.3214	69.17907	0.92618	-20.57571	0.92618	-20.57571	0.3214	69.17907
1170	0.32697	68.81831	0.9241	-20.84272	0.9241	-20.84272	0.32697	68.81831
1190	0.33177	68.47922	0.92293	-21.18952	0.92293	-21.18952	0.33177	68.47922
1210	0.33647	68.1475	0.92206	-21.57646	0.92206	-21.57646	0.33647	68.1475
1230	0.34131	67.83036	0.92013	-21.94818	0.92013	-21.94818	0.34131	67.83036
1250	0.34617	67.55654	0.91508	-22.23359	0.91508	-22.23359	0.34617	67.55654
1270	0.35327	67.35647	0.9147	-22.26814	0.9147	-22.26814	0.35327	67.35647
1290	0.35898	66.88666	0.91391	-22.87526	0.91391	-22.87526	0.35898	66.88666
1310	0.36352	66.63552	0.91155	-23.37527	0.91155	-23.37527	0.36352	66.63552
1330	0.36797	66.63058	0.90899	-23.58643	0.90899	-23.58643	0.36797	66.63058
1350	0.37428	66.43857	0.91014	-23.82497	0.91014	-23.82497	0.37428	66.43857
1370	0.37982	65.92994	0.90653	-24.43073	0.90653	-24.43073	0.37982	65.92994
1390	0.38267	65.69095	0.90296	-24.67893	0.90296	-24.67893	0.38267	65.69095
1410	0.38706	65.3995	0.90218	-24.90126	0.90218	-24.90126	0.38706	65.3995
1430	0.39304	65.01496	0.90224	-25.22347	0.90224	-25.22347	0.39304	65.01496
1450	0.39647	64.77822	0.89649	-25.5654	0.89649	-25.5654	0.39647	64.77822
1470	0.40096	64.39441	0.89355	-25.70086	0.89355	-25.70086	0.40096	64.39441
1490	0.4058	63.91825	0.89324	-26.22504	0.89324	-26.22504	0.4058	63.91825
1510	0.40943	63.5447	0.89093	-26.64991	0.89093	-26.64991	0.40943	63.5447
1530	0.41288	63.2706	0.88679	-26.8773	0.88679	-26.8773	0.41288	63.2706
1550	0.41976	62.8947	0.88579	-27.19891	0.88579	-27.19891	0.41976	62.8947
1570	0.42379	62.40201	0.88442	-27.587	0.88442	-27.587	0.42379	62.40201
1590	0.42809	62.10992	0.8818	-27.89537	0.8818	-27.89537	0.42809	62.10992
1610	0.43274	61.84834	0.87875	-28.202	0.87875	-28.202	0.43274	61.84834
1630	0.43759	61.53031	0.87616	-28.52796	0.87616	-28.52796	0.43759	61.53031
1650	0.44231	61.15197	0.87498	-28.83741	0.87498	-28.83741	0.44231	61.15197
1670	0.4472	60.61828	0.87049	-29.16823	0.87049	-29.16823	0.4472	60.61828
1690	0.4502	60.24871	0.86634	-29.46796	0.86634	-29.46796	0.4502	60.24871
1710	0.45447	59.99847	0.86403	-29.74319	0.86403	-29.74319	0.45447	59.99847
1730	0.46081	59.70735	0.86341	-30.07708	0.86341	-30.07708	0.46081	59.70735
1750	0.46762	59.09973	0.86267	-30.62936	0.86267	-30.62936	0.46762	59.09973
1770	0.47095	58.62893	0.85793	-30.9008	0.85793	-30.9008	0.47095	58.62893
1790	0.4746	58.46523	0.85712	-31.03644	0.85712	-31.03644	0.4746	58.46523
1810	0.47882	58.20495	0.8541	-31.33676	0.8541	-31.33676	0.47882	58.20495
1830	0.4833	57.75706	0.84865	-31.74411	0.84865	-31.74411	0.4833	57.75706
1850	0.48717	57.34327	0.84648	-31.8427	0.84648	-31.8427	0.48717	57.34327
1870	0.49151	56.80801	0.84672	-32.36526	0.84672	-32.36526	0.49151	56.80801
1890	0.49657	56.39502	0.84259	-32.77686	0.84259	-32.77686	0.49657	56.39502
1910	0.50197	55.99902	0.83845	-33.00869	0.83845	-33.00869	0.50197	55.99902
1930	0.50742	55.53749	0.83673	-33.1881	0.83673	-33.1881	0.50742	55.53749
1950	0.51275	54.95071	0.83787	-33.63856	0.83787	-33.63856	0.51275	54.95071
1970	0.51723	54.66446	0.8332	-34.0029	0.8332	-34.0029	0.51723	54.66446
1990	0.52093	54.51339	0.8279	-34.13022	0.8279	-34.13022	0.52093	54.51339
2010	0.52512	54.28511	0.8248	-34.26094	0.8248	-34.26094	0.52512	54.28511
2030	0.52975	53.89768	0.82368	-34.55908	0.82368	-34.55908	0.52975	53.89768
2050	0.53344	53.39954	0.82122	-35.1122	0.82122	-35.1122	0.53344	53.39954
2070	0.5362	52.95784	0.81609	-35.50986	0.81609	-35.50986	0.5362	52.95784
2090	0.54098	52.78393	0.81122	-35.63975	0.81122	-35.63975	0.54098	52.78393
2110	0.54666	52.38322	0.81051	-36.04524	0.81051	-36.04524	0.54666	52.38322
2130	0.55162	51.8337	0.81133	-36.64335	0.81133	-36.64335	0.55162	51.8337
2150	0.55372	51.78602	0.80452	-36.72472	0.80452	-36.72472	0.55372	51.78602
2170	0.55814	51.51842	0.80339	-36.8959	0.80339	-36.8959	0.55814	51.51842
2190	0.56374	51.06584	0.80051	-37.32664	0.80051	-37.32664	0.56374	51.06584
2210	0.56865	50.50926	0.79571	-37.72264	0.79571	-37.72264	0.56865	50.50926
2230	0.57258	49.99185	0.79074	-37.97603	0.79074	-37.97603	0.57258	49.99185
2250	0.5768	49.71896	0.78934	-38.16544	0.78934	-38.16544	0.5768	49.71896
2270	0.58045	49.4009	0.78763	-38.61089	0.78763	-38.61089	0.58045	49.4009
2290	0.58406	49.24677	0.78293	-38.9383	0.78293	-38.9383	0.58406	49.24677
2310	0.58988	49.02817	0.7805	-39.21342	0.7805	-39.21342	0.58988	49.02817
2330	0.59586	48.57259	0.77916	-39.52683	0.77916	-39.52683	0.59586	48.57259
2350	0.59574	47.76343	0.77131	-39.99395	0.77131	-39.99395	0.59574	47.76343
2370	0.59748	47.82989	0.76854	-40.1775	0.76854	-40.1775	0.59748	47.82989
2390	0.60355	47.5034	0.76858	-40.44762	0.76858	-40.44762	0.60355	47.5034
2410	0.60853	47.09658	0.76563	-40.73694	0.76563	-40.73694	0.60853	47.09658
2430	0.61111	46.74267	0.75938	-41.03599	0.75938	-41.03599	0.61111	46.74267
2450	0.61405	46.39551	0.75498	-41.39312	0.75498	-41.39312	0.61405	46.39551
2470	0.61993	46.16894	0.75462	-41.57268	0.75462	-41.57268	0.61993	46.16894
2490	0.62466	45.76328	0.75159	-41.92538	0.75159	-41.92538	0.62466	45.76328
2510	0.62713	45.34042	0.74761	-42.24514	0.74761	-42.24514	0.62713	45.34042
2530	0.62849	45.00423	0.74361	-42.49124	0.74361	-42.49124	0.62849	45.00423
2550	0.63219	44.80051	0.73979	-42.78835	0.73979	-42.78835	0.63219	44.80051
2570	0.63836	44.47164	0.73925	-42.93538	0.73925	-42.93538	0.63836	44.47164
2590	0.64093	44.06084	0.73467	-43.27832	0.73467	-43.27832	0.64093	44.06084
2610	0.6433	43.61269	0.73047	-43.6428	0.73047	-43.6428	0.6433	43.61269
2630	0.64724	43.16332	0.72708	-43.98629	0.72708	-43.98629	0.64724	43.16332
2650	0.65295	42.74042	0.72098	-44.39806	0.72098	-44.39806	0.65295	42.74042
2670	0.65697	42.57668	0.71837	-44.58055	0.71837	-44.58055	0.65697	42.57668
2690	0.66163	42.20487	0.71557	-44.84008	0.71557	-44.84008	0.66163	42.20487
2710	0.66674	41.85229	0.7112	-45.21632	0.7112	-45.21632	0.66674	41.85229
2730	0.6707	41.57428	0.70622	-45.6101	0.70622	-45.6101	0.6707	41.57428
2750	0.67052	41.25412	0.70394	-45.78338	0.70394	-45.78338	0.67052	41.25412
2770	0.66993	40.76675	0.70006	-46.15423	0.70006	-46.15423	0.66993	40.76675
2790	0.67607	40.44895	0.69654	-46.40638	0.69654	-46.40638	0.67607	40.44895
2810	0.68301	40.05966	0.69296	-46.86383	0.69296	-46.86383	0.68301	40.05966
2830	0.6872	39.61182	0.68915	-47.4251	0.68915	-47.4251	0.6872	39.61182
2850	0.68746	39.37244	0.68518	-47.56323	0.68518	-47.56323	0.68746	39.37244
2870	0.69073	39.14035	0.68097	-47.62132	0.68097	-47.62132	0.69073	39.14035
2890	0.69588	39.19813	0.67767	-47.81599	0.67767	-47.81599	0.69588	39.19813
2910	0.7016	38.9912	0.67426	-48.23221	0.67426	-48.23221	0.7016	38.9912
2930	0.70584	38.51341	0.66964	-48.67453	0.66964	-48.67453	0.70584	38.51341
2950	0.70579	38.30695	0.66263	-48.66712	0.66263	-48.66712	0.70579	38.30695
2970	0.7111	37.76678	0.66174	-49.03771	0.66174	-49.03771	0.7111	37.76678
2990	0.71515	37.22965	0.65969	-49.43118	0.65969	-49.43118	0.71515	37.22965
3010	0.71829	36.82393	0.65519	-49.75201	0.65519	-49.75201	0.71829	36.82393
3030	0.72133	36.58617	0.64943	-49.9578	0.64943	-49.9578	0.72133	36.58617
3050	0.72551	36.46114	0.64601	-50.05927	0.64601	-50.05927	0.72551	36.46114
3070	0.72639	35.74386	0.64262	-50.7116	0.64262	-50.7116	0.72639	35.74386
3090	0.72946	35.48239	0.63944	-51.10673	0.63944	-51.10673	0.72946	35.48239
3110	0.73124	35.36844	0.63406	-51.21261	0.63406	-51.21261	0.73124	35.36844
3130	0.73322	35.22012	0.62804	-51.19934	0.62804	-51.19934	0.73322	35.22012
3150	0.74181	34.98198	0.6269	-51.43907	0.6269	-51.43907	0.74181	34.98198
3170	0.74078	34.29423	0.62102	-52.15337	0.62102	-52.15337	0.74078	34.29423
3190	0.74272	33.96384	0.61453	-52.39989	0.61453	-52.39989	0.74272	33.96384
3210	0.74813	33.722	0.61155	-52.5834	0.61155	-52.5834	0.74813	33.722
3230	0.75425	33.42989	0.6105	-52.88002	0.6105	-52.88002	0.75425	33.42989
3250	0.75507	33.07862	0.60413	-53.23719	0.60413	-53.23719	0.75507	33.07862
3270	0.76121	32.95332	0.60159	-53.69993	0.60159	-53.69993	0.76121	32.95332
3290	0.76269	32.45485	0.59715	-54.08611	0.59715	-54.08611	0.76269	32.45485
3310	0.76321	32.0785	0.59134	-54.27229	0.59134	-54.27229	0.76321	32.0785
3330	0.7655	31.94311	0.58619	-54.33801	0.58619	-54.33801	0.7655	31.94311
3350	0.77136	31.79105	0.58512	-54.56584	0.58512	-54.56584	0.77136	31.79105
3370	0.7747	31.05621	0.58007	-55.17416	0.58007	-55.17416	0.7747	31.05621
3390	0.77565	30.57841	0.57477	-55.57414	0.57477	-55.57414	0.77565	30.57841
3410	0.77875	30.44279	0.56946	-55.70864	0.56946	-55.70864	0.77875	30.44279
3430	0.78402	30.43902	0.56526	-55.7876	0.56526	-55.7876	0.78402	30.43902
3450	0.78687	30.0613	0.56417	-56.28801	0.56417	-56.28801	0.78687	30.0613
3470	0.78633	29.04234	0.55635	-57.00082	0.55635	-57.00082	0.78633	29.04234
3490	0.78651	28.92397	0.55006	-56.99419	0.55006	-56.99419	0.78651	28.92397
3510	0.79225	28.75243	0.54712	-57.07919	0.54712	-57.07919	0.79225	28.75243
3530	0.80035	28.18582	0.54564	-57.51362	0.54564	-57.51362	0.80035	28.18582
3550	0.7996	27.49414	0.54004	-58.002	0.54004	-58.002	0.7996	27.49414
3570	0.80032	27.60116	0.53311	-57.93861	0.53311	-57.93861	0.80032	27.60116
3590	0.80522	27.28969	0.53109	-58.28448	0.53109	-58.28448	0.80522	27.28969
3610	0.80913	26.90315	0.5275	-58.70152	0.5275	-58.70152	0.80913	26.90315
3630	0.81029	26.64071	0.52118	-58.96071	0.52118	-58.96071	0.81029	26.64071
3650	0.81036	26.55733	0.51623	-58.94214	0.51623	-58.94214	0.81036	26.55733
3670	0.81737	25.8792	0.51333	-59.72716	0.51333	-59.72716	0.81737	25.8792
3690	0.81665	25.53088	0.50589	-59.99398	0.50589	-59.99398	0.81665	25.53088
3710	0.81963	25.30233	0.50051	-60.1224	0.50051	-60.1224	0.81963	25.30233
3730	0.82676	24.95669	0.49819	-60.40915	0.49819	-60.40915	0.82676	24.95669
3750	0.82748	24.23025	0.49435	-61.06787	0.49435	-61.06787	0.82748	24.23025
3770	0.82745	24.20142	0.48796	-61.14812	0.48796	-61.14812	0.82745	24.20142
3790	0.83425	24.24034	0.48477	-61.30048	0.48477	-61.30048	0.83425	24.24034
3810	0.8378	23.95761	0.48006	-61.59584	0.48006	-61.59584	0.8378	23.95761
3830	0.83668	23.36235	0.4738	-61.96732	0.4738	-61.96732	0.83668	23.36235
3850	0.83812	22.86219	0.4706	-62.21022	0.4706	-62.21022	0.83812	22.86219
3870	0.83754	22.38332	0.46456	-62.65569	0.46456	-62.65569	0.83754	22.38332
3890	0.8417	22.22988	0.46016	-62.62817	0.46016	-62.62817	0.8417	22.22988
3910	0.84752	21.80687	0.45705	-62.90529	0.45705	-62.90529	0.84752	21.80687
3930	0.85164	21.10293	0.45354	-63.589	0.45354	-63.589	0.85164	21.10293
3950	0.85044	20.69032	0.4466	-64.10557	0.4466	-64.10557	0.85044	20.69032
3970	0.8528	20.96737	0.44075	-63.89946	0.44075	-63.89946	0.8528	20.96737
3990	0.85973	20.62861	0.43723	-64.13248	0.43723	-64.13248	0.85973	20.62861
4010	0.86245	20.07702	0.43314	-64.54214	0.43314	-64.54214	0.86245	20.07702
4030	0.86028	19.54263	0.4281	-64.89274	0.4281	-64.89274	0.86028	19.54263
4050	0.86065	19.08256	0.42417	-64.97539	0.42417	-64.97539	0.86065	19.08256
4070	0.86304	18.79496	0.41876	-65.404	0.41876	-65.404	0.86304	18.79496
4090	0.87048	18.24309	0.41488	-65.82838	0.41488	-65.82838	0.87048	18.24309
4110	0.87397	17.62125	0.41028	-66.25998	0.41028	-66.25998	0.87397	17.62125
4130	0.87143	17.20456	0.40417	-66.54559	0.40417	-66.54559	0.87143	17.20456
4150	0.86766	17.34898	0.39724	-66.36735	0.39724	-66.36735	0.86766	17.34898
4170	0.88016	17.06279	0.39672	-66.74238	0.39672	-66.74238	0.88016	17.06279
4190	0.88107	16.48268	0.39206	-67.20517	0.39206	-67.20517	0.88107	16.48268
4210	0.87957	16.1491	0.38562	-67.45606	0.38562	-67.45606	0.87957	16.1491
4230	0.88194	16.04801	0.37995	-67.52491	0.37995	-67.52491	0.88194	16.04801
4250	0.89159	15.61082	0.37781	-67.77103	0.37781	-67.77103	0.89159	15.61082
4270	0.88695	15.34399	0.3714	-68.0899	0.3714	-68.0899	0.88695	15.34399
4290	0.88966	14.82754	0.36676	-68.40733	0.36676	-68.40733	0.88966	14.82754
4310	0.89407	14.18699	0.36229	-68.81766	0.36229	-68.81766	0.89407	14.18699
4330	0.89764	13.60902	0.35769	-69.28198	0.35769	-69.28198	0.89764	13.60902
4350	0.9009	13.34143	0.35391	-69.62813	0.35391	-69.62813	0.9009	13.34143
4370	0.90149	13.13491	0.34893	-69.61311	0.34893	-69.61311	0.90149	13.13491
4390	0.90144	12.78772	0.34253	-70.03084	0.34253	-70.03084	0.90144	12.78772
4410	0.90147	12.41062	0.33707	-70.28071	0.33707	-70.28071	0.90147	12.41062
4430	0.90251	11.97881	0.33276	-70.36069	0.33276	-70.36069	0.90251	11.97881
4450	0.90578	11.33189	0.3277	-70.86733	0.3277	-70.86733	0.90578	11.33189
4470	0.90845	11.23225	0.32388	-70.97826	0.32388	-70.97826	0.90845	11.23225
4490	0.91306	10.68511	0.31971	-71.31792	0.31971	-71.31792	0.91306	10.68511
4510	0.91329	10.18479	0.31445	-71.71434	0.31445	-71.71434	0.91329	10.18479
4530	0.91095	10.00872	0.30842	-71.89459	0.30842	-71.89459	0.91095	10.00872
4550	0.91595	10.21743	0.3031	-71.48478	0.3031	-71.48478	0.91595	10.21743
4570	0.92391	9.20949	0.30124	-72.16598	0.30124	-72.16598	0.92391	9.20949
4590	0.91686	8.4135	0.29467	-72.9103	0.29467	-72.9103	0.91686	8.4135
4610	0.91249	8.34523	0.28826	-73.00575	0.28826	-73.00575	0.91249	8.34523
4630	0.91794	8.45485	0.28404	-72.7823	0.28404	-72.7823	0.91794	8.45485
4650	0.92979	7.12688	0.28128	-73.61186	0.28128	-73.61186	0.92979	7.12688
4670	0.92349	6.64096	0.27385	-74.1854	0.27385	-74.1854	0.92349	6.64096
4690	0.92428	6.56207	0.26857	-74.12991	0.26857	-74.12991	0.92428	6.56207
4710	0.92768	6.34607	0.26398	-74.12387	0.26398	-74.12387	0.92768	6.34607
4730	0.93133	5.84436	0.25952	-74.42116	0.25952	-74.42116	0.93133	5.84436
4750	0.93497	5.30381	0.25557	-74.85109	0.25557	-74.85109	0.93497	5.30381
4770	0.93008	4.8299	0.24961	-75.09717	0.24961	-75.09717	0.93008	4.8299
4790	0.92888	4.38052	0.24464	-75.37765	0.24464	-75.37765	0.92888	4.38052
4810	0.93151	4.04486	0.24099	-75.56269	0.24099	-75.56269	0.93151	4.04486
4830	0.93581	3.68606	0.23728	-75.72309	0.23728	-75.72309	0.93581	3.68606
4850	0.93733	2.94121	0.23043	-76.13031	0.23043	-76.13031	0.93733	2.94121
4870	0.94198	2.85691	0.22645	-76.02152	0.22645	-76.02152	0.94198	2.85691
4890	0.94264	2.39047	0.22199	-76.53518	0.22199	-76.53518	0.94264	2.39047
4910	0.94091	2.002	0.21631	-76.82608	0.21631	-76.82608	0.94091	2.002
4930	0.94211	1.76888	0.21086	-76.71542	0.21086	-76.71542	0.94211	1.76888
4950	0.95527	1.38576	0.20926	-76.69082	0.20926	-76.69082	0.95527	1.38576
4970	0.94369	0.38569	0.20196	-77.58425	0.20196	-77.58425	0.94369	0.38569
4990	0.93968	0.30233	0.1959	-77.47197	0.1959	-77.47197	0.93968	0.30233
5010	0.94732	0.22984	0.19161	-77.34952	0.19161	-77.34952	0.94732	0.22984
5030	0.95711	-0.35514	0.18808	-77.77204	0.18808	-77.77204	0.95711	-0.35514
5050	0.94595	-1.59355	0.18274	-78.85427	0.18274	-78.85427	0.94595	-1.59355
5070	0.94507	-1.12413	0.17705	-78.38709	0.17705	-78.38709	0.94507	-1.12413
5090	0.95453	-1.21501	0.17322	-78.46341	0.17322	-78.46341	0.95453	-1.21501
5110	0.95878	-1.94447	0.1694	-78.9679	0.1694	-78.9679	0.95878	-1.94447
5130	0.9527	-2.80002	0.16442	-79.4582	0.16442	-79.4582	0.9527	-2.80002
5150	0.9417	-2.67844	0.1578	-79.1649	0.1578	-79.1649	0.9417	-2.67844
5170	0.9505	-2.73308	0.15416	-78.97434	0.15416	-78.97434	0.9505	-2.73308
5190	0.95873	-3.56792	0.15031	-79.32357	0.15031	-79.32357	0.95873	-3.56792
5210	0.95737	-4.33528	0.14504	-79.75042	0.14504	-79.75042	0.95737	-4.33528
5230	0.95034	-4.50175	0.13903	-79.8231	0.13903	-79.8231	0.95034	-4.50175
5250	0.95445	-3.8482	0.13485	-79.14018	0.13485	-79.14018	0.95445	-3.8482
5270	0.96859	-5.06392	0.13187	-79.87279	0.13187	-79.87279	0.96859	-5.06392
5290	0.95726	-5.77515	0.12586	-80.31573	0.12586	-80.31573	0.95726	-5.77515
5310	0.95278	-5.62776	0.12055	-79.94923	0.12055	-79.94923	0.95278	-5.62776
5330	0.96367	-5.33367	0.11689	-79.31439	0.11689	-79.31439	0.96367	-5.33367
5350	0.97465	-6.67085	0.11311	-80.01318	0.11311	-80.01318	0.97465	-6.67085
5370	0.95791	-7.15643	0.10751	-79.93783	0.10751	-79.93783	0.95791	-7.15643
5390	0.96183	-7.00452	0.10309	-79.50479	0.10309	-79.50479	0.96183	-7.00452
5410	0.96951	-7.29856	0.09888	-79.43979	0.09888	-79.43979	0.96951	-7.29856
5430	0.97143	-8.02494	0.0944	-79.66561	0.0944	-79.66561	0.97143	-8.02494
