! Data Taken on a HP 8720C VNA using a series-through fixture with TRL* de-embedding
#	mhz	s	ma	r	50
50	0.08893	19.81303	0.92253	-3.11181	0.92253	-3.11181	0.08893	19.81303
70	0.09541	27.47865	0.91687	-3.3071	0.91687	-3.3071	0.09541	27.47865
90	0.10457	32.92124	0.91389	-3.74862	0.91389	-3.74862	0.10457	32.92124
110	0.11383	36.37854	0.91162	-4.48632	0.91162	-4.48632	0.11383	36.37854
130	0.12263	38.82398	0.90928	-5.41226	0.90928	-5.41226	0.12263	38.82398
150	0.13243	41.9666	0.90727	-6.26059	0.90727	-6.26059	0.13243	41.9666
170	0.14274	44.9872	0.90794	-6.48995	0.90794	-6.48995	0.14274	44.9872
190	0.15342	46.81309	0.90414	-7.43164	0.90414	-7.43164	0.15342	46.81309
210	0.16385	48.27729	0.90137	-8.41468	0.90137	-8.41468	0.16385	48.27729
230	0.17397	49.64404	0.90059	-9.17435	0.90059	-9.17435	0.17397	49.64404
250	0.18425	50.60877	0.89819	-9.85213	0.89819	-9.85213	0.18425	50.60877
270	0.19476	51.20829	0.893	-10.36121	0.893	-10.36121	0.19476	51.20829
290	0.20619	51.93847	0.89188	-11.06623	0.89188	-11.06623	0.20619	51.93847
310	0.21805	52.4815	0.88913	-11.93681	0.88913	-11.93681	0.21805	52.4815
330	0.22981	52.76871	0.88429	-12.82062	0.88429	-12.82062	0.22981	52.76871
350	0.24091	52.98059	0.88211	-13.44346	0.88211	-13.44346	0.24091	52.98059
370	0.2519	53.98686	0.88228	-13.96152	0.88228	-13.96152	0.2519	53.98686
390	0.26233	54.31918	0.87914	-14.69968	0.87914	-14.69968	0.26233	54.31918
410	0.2731	54.41639	0.87603	-15.49821	0.87603	-15.49821	0.2731	54.41639
430	0.28416	54.51331	0.87403	-16.22189	0.87403	-16.22189	0.28416	54.51331
450	0.2945	54.64074	0.87194	-16.75994	0.87194	-16.75994	0.2945	54.64074
470	0.30399	54.35231	0.86634	-17.61562	0.86634	-17.61562	0.30399	54.35231
490	0.32823	55.65168	0.8561	-19.58662	0.8561	-19.58662	0.32823	55.65168
510	0.35006	56.2744	0.84859	-21.15971	0.84859	-21.15971	0.35006	56.2744
530	0.36243	55.99796	0.84469	-21.89088	0.84469	-21.89088	0.36243	55.99796
550	0.36829	56.64176	0.83877	-22.40531	0.83877	-22.40531	0.36829	56.64176
570	0.37735	56.15861	0.83738	-22.89949	0.83738	-22.89949	0.37735	56.15861
590	0.38885	55.72889	0.83077	-23.46235	0.83077	-23.46235	0.38885	55.72889
610	0.3991	55.42173	0.82737	-24.19084	0.82737	-24.19084	0.3991	55.42173
630	0.40773	55.18255	0.82695	-25.03538	0.82695	-25.03538	0.40773	55.18255
650	0.41774	54.8331	0.8206	-25.79983	0.8206	-25.79983	0.41774	54.8331
670	0.42998	54.62209	0.81485	-26.2182	0.81485	-26.2182	0.42998	54.62209
690	0.44012	54.38505	0.81059	-27.0228	0.81059	-27.0228	0.44012	54.38505
710	0.45071	53.9296	0.80638	-27.81988	0.80638	-27.81988	0.45071	53.9296
730	0.46117	53.49035	0.80148	-28.42479	0.80148	-28.42479	0.46117	53.49035
750	0.46782	53.72888	0.79585	-28.86191	0.79585	-28.86191	0.46782	53.72888
770	0.47753	53.29882	0.79334	-29.81342	0.79334	-29.81342	0.47753	53.29882
790	0.48715	52.85772	0.78654	-30.29155	0.78654	-30.29155	0.48715	52.85772
810	0.49558	52.46806	0.78021	-30.74146	0.78021	-30.74146	0.49558	52.46806
830	0.50278	52.00789	0.77462	-31.44069	0.77462	-31.44069	0.50278	52.00789
850	0.5097	51.17089	0.76565	-32.49922	0.76565	-32.49922	0.5097	51.17089
870	0.51764	51.10874	0.76109	-32.7734	0.76109	-32.7734	0.51764	51.10874
890	0.52806	50.48824	0.75651	-33.37435	0.75651	-33.37435	0.52806	50.48824
910	0.53662	49.71888	0.75173	-34.08654	0.75173	-34.08654	0.53662	49.71888
930	0.54291	49.06584	0.74668	-34.79368	0.74668	-34.79368	0.54291	49.06584
950	0.55048	48.65003	0.74138	-35.47873	0.74138	-35.47873	0.55048	48.65003
970	0.56321	48.06589	0.73554	-36.12975	0.73554	-36.12975	0.56321	48.06589
990	0.57303	47.36291	0.72904	-36.68318	0.72904	-36.68318	0.57303	47.36291
1010	0.58061	46.79661	0.72388	-37.25961	0.72388	-37.25961	0.58061	46.79661
1030	0.58777	46.44748	0.72003	-37.86997	0.72003	-37.86997	0.58777	46.44748
1050	0.59749	46.22099	0.71549	-38.41555	0.71549	-38.41555	0.59749	46.22099
1070	0.60827	45.73475	0.70763	-38.95243	0.70763	-38.95243	0.60827	45.73475
1090	0.61507	45.31972	0.70242	-39.57114	0.70242	-39.57114	0.61507	45.31972
1110	0.62125	44.93391	0.69582	-40.09807	0.69582	-40.09807	0.62125	44.93391
1130	0.62819	44.48344	0.6882	-40.63703	0.6882	-40.63703	0.62819	44.48344
1150	0.63532	43.82252	0.68442	-41.56925	0.68442	-41.56925	0.63532	43.82252
1170	0.64384	43.30962	0.67775	-42.1463	0.67775	-42.1463	0.64384	43.30962
1190	0.65076	42.93138	0.6731	-42.56731	0.6731	-42.56731	0.65076	42.93138
1210	0.6576	42.41411	0.66825	-43.12069	0.66825	-43.12069	0.6576	42.41411
1230	0.66439	41.85407	0.66174	-43.78487	0.66174	-43.78487	0.66439	41.85407
1250	0.66969	41.71745	0.65288	-44.22827	0.65288	-44.22827	0.66969	41.71745
1270	0.6802	41.30071	0.64846	-44.62487	0.64846	-44.62487	0.6802	41.30071
1290	0.68666	40.56036	0.64035	-45.45387	0.64035	-45.45387	0.68666	40.56036
1310	0.69131	40.06948	0.63361	-45.98237	0.63361	-45.98237	0.69131	40.06948
1330	0.69691	39.84066	0.62956	-46.25832	0.62956	-46.25832	0.69691	39.84066
1350	0.70673	39.32596	0.62579	-47.11057	0.62579	-47.11057	0.70673	39.32596
1370	0.71237	38.58492	0.61963	-47.94782	0.61963	-47.94782	0.71237	38.58492
1390	0.71667	38.24337	0.61371	-48.13117	0.61371	-48.13117	0.71667	38.24337
1410	0.72332	37.86167	0.60904	-48.52403	0.60904	-48.52403	0.72332	37.86167
1430	0.73052	37.33049	0.60422	-49.19595	0.60422	-49.19595	0.73052	37.33049
1450	0.73098	36.87085	0.59536	-49.4226	0.59536	-49.4226	0.73098	36.87085
1470	0.73906	36.5258	0.59037	-49.8274	0.59037	-49.8274	0.73906	36.5258
1490	0.74507	35.82046	0.58468	-50.67487	0.58468	-50.67487	0.74507	35.82046
1510	0.74789	35.24344	0.57724	-51.32757	0.57724	-51.32757	0.74789	35.24344
1530	0.75085	34.89122	0.56942	-51.69689	0.56942	-51.69689	0.75085	34.89122
1550	0.76172	34.46809	0.56508	-52.24293	0.56508	-52.24293	0.76172	34.46809
1570	0.76541	33.77277	0.55981	-52.93363	0.55981	-52.93363	0.76541	33.77277
1590	0.76758	33.33781	0.55398	-53.39916	0.55398	-53.39916	0.76758	33.33781
1610	0.77289	32.98359	0.54737	-53.82591	0.54737	-53.82591	0.77289	32.98359
1630	0.78037	32.60217	0.54083	-54.268	0.54083	-54.268	0.78037	32.60217
1650	0.78346	32.15726	0.53619	-54.64732	0.53619	-54.64732	0.78346	32.15726
1670	0.78791	31.29306	0.53008	-55.15895	0.53008	-55.15895	0.78791	31.29306
1690	0.78849	30.9392	0.52201	-55.48755	0.52201	-55.48755	0.78849	30.9392
1710	0.79291	30.65942	0.51637	-55.90168	0.51637	-55.90168	0.79291	30.65942
1730	0.80156	30.19559	0.51243	-56.49687	0.51243	-56.49687	0.80156	30.19559
1750	0.80746	29.46769	0.50431	-57.19561	0.50431	-57.19561	0.80746	29.46769
1770	0.80802	29.09217	0.49913	-57.61054	0.49913	-57.61054	0.80802	29.09217
1790	0.8141	28.6661	0.49507	-58.0385	0.49507	-58.0385	0.8141	28.6661
1810	0.81766	28.19357	0.48883	-58.51108	0.48883	-58.51108	0.81766	28.19357
1830	0.81821	27.72168	0.48101	-58.88533	0.48101	-58.88533	0.81821	27.72168
1850	0.82274	27.34063	0.47604	-58.8438	0.47604	-58.8438	0.82274	27.34063
1870	0.82819	26.55728	0.47149	-59.60139	0.47149	-59.60139	0.82819	26.55728
1890	0.83167	26.12091	0.46476	-60.22307	0.46476	-60.22307	0.83167	26.12091
1910	0.83678	25.77752	0.45853	-60.52717	0.45853	-60.52717	0.83678	25.77752
1930	0.84374	25.35298	0.45365	-60.73411	0.45365	-60.73411	0.84374	25.35298
1950	0.8494	24.753	0.44916	-61.46643	0.44916	-61.46643	0.8494	24.753
1970	0.84844	24.24316	0.44197	-61.96671	0.44197	-61.96671	0.84844	24.24316
1990	0.85128	23.98807	0.43475	-62.1413	0.43475	-62.1413	0.85128	23.98807
2010	0.85591	23.72591	0.42911	-62.33608	0.42911	-62.33608	0.85591	23.72591
2030	0.86057	23.2876	0.42481	-62.74699	0.42481	-62.74699	0.86057	23.2876
2050	0.8638	22.59682	0.41983	-63.42005	0.41983	-63.42005	0.8638	22.59682
2070	0.86053	22.09283	0.4126	-63.85913	0.4126	-63.85913	0.86053	22.09283
2090	0.86421	21.93318	0.40537	-64.10516	0.40537	-64.10516	0.86421	21.93318
2110	0.87081	21.45818	0.40043	-64.57267	0.40043	-64.57267	0.87081	21.45818
2130	0.87552	20.73477	0.39628	-65.18759	0.39628	-65.18759	0.87552	20.73477
2150	0.87277	20.55651	0.38759	-65.38729	0.38759	-65.38729	0.87277	20.55651
2170	0.87858	20.29606	0.38439	-65.4811	0.38439	-65.4811	0.87858	20.29606
2190	0.88376	19.78752	0.37907	-66.03394	0.37907	-66.03394	0.88376	19.78752
2210	0.88659	19.29351	0.37238	-66.43953	0.37238	-66.43953	0.88659	19.29351
2230	0.88803	18.85818	0.3657	-66.65588	0.3657	-66.65588	0.88803	18.85818
2250	0.89169	18.30721	0.36104	-67.20523	0.36104	-67.20523	0.89169	18.30721
2270	0.89014	17.83765	0.35507	-67.67961	0.35507	-67.67961	0.89014	17.83765
2290	0.89399	17.64595	0.34964	-67.88237	0.34964	-67.88237	0.89399	17.64595
2310	0.89918	17.31532	0.34518	-68.12122	0.34518	-68.12122	0.89918	17.31532
2330	0.90195	16.73256	0.34031	-68.5424	0.34031	-68.5424	0.90195	16.73256
2350	0.89885	16.08808	0.33183	-69.13065	0.33183	-69.13065	0.89885	16.08808
2370	0.90059	16.32452	0.32681	-69.16857	0.32681	-69.16857	0.90059	16.32452
2390	0.9072	15.89614	0.32331	-69.53638	0.32331	-69.53638	0.9072	15.89614
2410	0.90961	15.29271	0.31801	-69.93449	0.31801	-69.93449	0.90961	15.29271
2430	0.90728	14.82009	0.31077	-70.24943	0.31077	-70.24943	0.90728	14.82009
2450	0.90824	14.6003	0.30461	-70.55392	0.30461	-70.55392	0.90824	14.6003
2470	0.91345	14.24697	0.30086	-70.95355	0.30086	-70.95355	0.91345	14.24697
2490	0.91495	13.69035	0.29541	-71.39615	0.29541	-71.39615	0.91495	13.69035
2510	0.91399	13.25129	0.28955	-71.70003	0.28955	-71.70003	0.91399	13.25129
2530	0.91383	13.02144	0.28399	-71.82143	0.28399	-71.82143	0.91383	13.02144
2550	0.91981	12.86325	0.27888	-71.85452	0.27888	-71.85452	0.91981	12.86325
2570	0.92294	12.15221	0.27424	-72.2944	0.27424	-72.2944	0.92294	12.15221
2590	0.92382	11.80156	0.26893	-72.68925	0.26893	-72.68925	0.92382	11.80156
2610	0.92342	11.41386	0.26352	-73.17852	0.26352	-73.17852	0.92342	11.41386
2630	0.92392	10.92036	0.25793	-73.69564	0.25793	-73.69564	0.92392	10.92036
2650	0.92869	10.58103	0.25142	-73.96791	0.25142	-73.96791	0.92869	10.58103
2670	0.92953	10.39695	0.24684	-73.92348	0.24684	-73.92348	0.92953	10.39695
2690	0.93373	9.98096	0.24239	-74.10376	0.24239	-74.10376	0.93373	9.98096
2710	0.93704	9.54608	0.23715	-74.53157	0.23715	-74.53157	0.93704	9.54608
2730	0.93747	9.19047	0.23143	-74.97386	0.23143	-74.97386	0.93747	9.19047
2750	0.93527	8.8974	0.22677	-74.94168	0.22677	-74.94168	0.93527	8.8974
2770	0.9296	8.42167	0.22141	-75.24096	0.22141	-75.24096	0.9296	8.42167
2790	0.93441	8.06668	0.21603	-75.52417	0.21603	-75.52417	0.93441	8.06668
2810	0.94021	7.75756	0.21046	-76.00965	0.21046	-76.00965	0.94021	7.75756
2830	0.94203	7.43324	0.20493	-76.57255	0.20493	-76.57255	0.94203	7.43324
2850	0.93935	7.04652	0.20011	-76.74472	0.20011	-76.74472	0.93935	7.04652
2870	0.93928	6.81302	0.19493	-76.62457	0.19493	-76.62457	0.93928	6.81302
2890	0.94259	6.68598	0.19019	-76.80652	0.19019	-76.80652	0.94259	6.68598
2910	0.94608	6.36703	0.18488	-77.06401	0.18488	-77.06401	0.94608	6.36703
2930	0.94774	5.95144	0.179	-77.23557	0.179	-77.23557	0.94774	5.95144
2950	0.94671	5.92819	0.17355	-77.22476	0.17355	-77.22476	0.94671	5.92819
2970	0.95098	5.28159	0.16988	-77.55346	0.16988	-77.55346	0.95098	5.28159
2990	0.95048	4.76466	0.16495	-77.93105	0.16495	-77.93105	0.95048	4.76466
3010	0.94965	4.48396	0.15965	-78.06164	0.15965	-78.06164	0.94965	4.48396
3030	0.95101	4.36307	0.1545	-77.99857	0.1545	-77.99857	0.95101	4.36307
3050	0.95516	4.14261	0.14973	-78.14442	0.14973	-78.14442	0.95516	4.14261
3070	0.95209	3.23226	0.14499	-78.72592	0.14499	-78.72592	0.95209	3.23226
3090	0.94981	3.0028	0.14007	-78.93829	0.14007	-78.93829	0.94981	3.0028
3110	0.94827	3.0003	0.13485	-78.63107	0.13485	-78.63107	0.94827	3.0003
3130	0.95016	2.8931	0.12976	-78.22293	0.12976	-78.22293	0.95016	2.8931
3150	0.96095	2.47177	0.12576	-78.70166	0.12576	-78.70166	0.96095	2.47177
3170	0.95282	1.84513	0.12033	-78.91433	0.12033	-78.91433	0.95282	1.84513
3190	0.95282	1.64967	0.1151	-78.75487	0.1151	-78.75487	0.95282	1.64967
3210	0.9569	1.42556	0.11068	-78.81822	0.11068	-78.81822	0.9569	1.42556
3230	0.95976	1.06369	0.10662	-79.10575	0.10662	-79.10575	0.95976	1.06369
3250	0.95493	0.80569	0.10153	-79.02528	0.10153	-79.02528	0.95493	0.80569
3270	0.96245	0.52233	0.09719	-78.94587	0.09719	-78.94587	0.96245	0.52233
3290	0.96004	0.14991	0.09222	-78.86795	0.09222	-78.86795	0.96004	0.14991
3310	0.95696	-0.11989	0.0872	-78.55258	0.0872	-78.55258	0.95696	-0.11989
3330	0.95835	-0.30013	0.08258	-78.05104	0.08258	-78.05104	0.95835	-0.30013
3350	0.96529	-0.60864	0.07866	-77.70477	0.07866	-77.70477	0.96529	-0.60864
3370	0.96275	-1.35915	0.07353	-77.69089	0.07353	-77.69089	0.96275	-1.35915
3390	0.95843	-1.58129	0.06883	-77.35337	0.06883	-77.35337	0.95843	-1.58129
3410	0.95851	-1.4532	0.06426	-76.67628	0.06426	-76.67628	0.95851	-1.4532
3430	0.96215	-1.42218	0.0598	-75.90222	0.0598	-75.90222	0.96215	-1.42218
3450	0.9615	-2.20463	0.05578	-75.53228	0.05578	-75.53228	0.9615	-2.20463
3470	0.95599	-2.86717	0.05095	-74.71708	0.05095	-74.71708	0.95599	-2.86717
3490	0.95632	-2.76083	0.04657	-73.12958	0.04657	-73.12958	0.95632	-2.76083
3510	0.96159	-2.95277	0.0425	-71.3751	0.0425	-71.3751	0.96159	-2.95277
3530	0.96616	-3.65379	0.03846	-69.59968	0.03846	-69.59968	0.96616	-3.65379
3550	0.95963	-4.21829	0.03405	-67.48999	0.03405	-67.48999	0.95963	-4.21829
3570	0.96109	-3.88079	0.03032	-63.93659	0.03032	-63.93659	0.96109	-3.88079
3590	0.96361	-4.23591	0.02659	-59.83327	0.02659	-59.83327	0.96361	-4.23591
3610	0.9612	-4.58317	0.02294	-54.41835	0.02294	-54.41835	0.9612	-4.58317
3630	0.95717	-4.69509	0.01954	-47.08422	0.01954	-47.08422	0.95717	-4.69509
3650	0.9641	-4.81726	0.01672	-37.37725	0.01672	-37.37725	0.9641	-4.81726
3670	0.96389	-5.56745	0.01473	-23.74292	0.01473	-23.74292	0.96389	-5.56745
3690	0.96005	-5.64136	0.01374	-6.98136	0.01374	-6.98136	0.96005	-5.64136
3710	0.96105	-5.88207	0.01394	10.1354	0.01394	10.1354	0.96105	-5.88207
3730	0.96531	-6.47473	0.01527	25.469	0.01527	25.469	0.96531	-6.47473
3750	0.96113	-6.94653	0.01742	37.51467	0.01742	37.51467	0.96113	-6.94653
3770	0.96047	-6.71803	0.02079	46.10428	0.02079	46.10428	0.96047	-6.71803
3790	0.96429	-6.91205	0.02425	52.46907	0.02425	52.46907	0.96429	-6.91205
3810	0.96469	-7.24136	0.02779	57.15318	0.02779	57.15318	0.96469	-7.24136
3830	0.96136	-7.60457	0.03144	60.60646	0.03144	60.60646	0.96136	-7.60457
3850	0.96156	-8.08613	0.03531	63.18444	0.03531	63.18444	0.96156	-8.08613
3870	0.95855	-8.46004	0.03909	65.04955	0.03909	65.04955	0.95855	-8.46004
3890	0.96233	-8.53616	0.04309	66.94878	0.04309	66.94878	0.96233	-8.53616
3910	0.96535	-8.95745	0.04714	68.21178	0.04714	68.21178	0.96535	-8.95745
3930	0.96399	-9.62752	0.05107	68.85726	0.05107	68.85726	0.96399	-9.62752
3950	0.95856	-9.71063	0.05476	69.59299	0.05476	69.59299	0.95856	-9.71063
3970	0.96246	-9.53108	0.05879	70.69535	0.05879	70.69535	0.96246	-9.53108
3990	0.9657	-9.85223	0.06285	71.25966	0.06285	71.25966	0.9657	-9.85223
4010	0.96418	-10.35088	0.06683	71.65034	0.06683	71.65034	0.96418	-10.35088
4030	0.95911	-10.79636	0.07067	72.05352	0.07067	72.05352	0.95911	-10.79636
4050	0.95705	-11.05052	0.07442	72.47708	0.07442	72.47708	0.95705	-11.05052
4070	0.96221	-11.2347	0.07839	72.56805	0.07839	72.56805	0.96221	-11.2347
4090	0.9655	-11.85775	0.08248	72.65027	0.08248	72.65027	0.9655	-11.85775
4110	0.96406	-12.41135	0.08616	72.70885	0.08616	72.70885	0.96406	-12.41135
4130	0.95852	-12.55303	0.08949	72.87493	0.08949	72.87493	0.95852	-12.55303
4150	0.95311	-12.10616	0.09318	73.42567	0.09318	73.42567	0.95311	-12.10616
4170	0.96344	-12.88704	0.09763	73.23924	0.09763	73.23924	0.96344	-12.88704
4190	0.96184	-13.35962	0.10114	73.1163	0.10114	73.1163	0.96184	-13.35962
4210	0.95836	-13.42598	0.10472	73.29424	0.10472	73.29424	0.95836	-13.42598
4230	0.95895	-13.38917	0.10879	73.61806	0.10879	73.61806	0.95895	-13.38917
4250	0.96541	-13.95322	0.11325	73.54032	0.11325	73.54032	0.96541	-13.95322
4270	0.95853	-14.09481	0.11624	73.44258	0.11624	73.44258	0.95853	-14.09481
4290	0.95997	-14.51287	0.12033	73.35202	0.12033	73.35202	0.95997	-14.51287
4310	0.96186	-15.05171	0.12415	73.14651	0.12415	73.14651	0.96186	-15.05171
4330	0.96188	-15.49491	0.12766	72.92996	0.12766	72.92996	0.96188	-15.49491
4350	0.96328	-15.56541	0.1321	73.0323	0.1321	73.0323	0.96328	-15.56541
4370	0.96135	-15.89839	0.13544	73.05313	0.13544	73.05313	0.96135	-15.89839
4390	0.95735	-16.14852	0.13837	72.88347	0.13837	72.88347	0.95735	-16.14852
4410	0.95557	-16.34065	0.14178	72.83981	0.14178	72.83981	0.95557	-16.34065
4430	0.95632	-16.63676	0.14558	72.84113	0.14558	72.84113	0.95632	-16.63676
4450	0.95596	-17.33591	0.14859	72.40887	0.14859	72.40887	0.95596	-17.33591
4470	0.95755	-17.36129	0.15255	72.64285	0.15255	72.64285	0.95755	-17.36129
4490	0.95928	-17.92924	0.15643	72.283	0.15643	72.283	0.95928	-17.92924
4510	0.95608	-18.25722	0.15963	71.98047	0.15963	71.98047	0.95608	-18.25722
4530	0.95176	-18.15171	0.16255	72.08458	0.16255	72.08458	0.95176	-18.15171
4550	0.959	-18.00828	0.16661	72.64285	0.16661	72.64285	0.959	-18.00828
4570	0.96	-19.1254	0.17093	71.70925	0.17093	71.70925	0.96	-19.1254
4590	0.95034	-19.60861	0.17347	71.38673	0.17347	71.38673	0.95034	-19.60861
4610	0.94726	-19.52976	0.17624	71.52005	0.17624	71.52005	0.94726	-19.52976
4630	0.9534	-19.51783	0.17994	71.62777	0.17994	71.62777	0.9534	-19.51783
4650	0.95677	-20.75882	0.18394	70.90219	0.18394	70.90219	0.95677	-20.75882
4670	0.94993	-20.95349	0.18588	70.54119	0.18588	70.54119	0.94993	-20.95349
4690	0.94787	-20.99468	0.18906	70.80434	0.18906	70.80434	0.94787	-20.99468
4710	0.94952	-21.1409	0.19276	70.84914	0.19276	70.84914	0.94952	-21.1409
4730	0.95208	-21.50232	0.19651	70.46687	0.19651	70.46687	0.95208	-21.50232
4750	0.95107	-22.04073	0.20013	70.08258	0.20013	70.08258	0.95107	-22.04073
4770	0.94515	-22.16059	0.20225	69.98789	0.20225	69.98789	0.94515	-22.16059
4790	0.94447	-22.49392	0.20538	69.81125	0.20538	69.81125	0.94447	-22.49392
4810	0.94551	-22.89994	0.20911	69.67454	0.20911	69.67454	0.94551	-22.89994
4830	0.94606	-23.32582	0.21265	69.50723	0.21265	69.50723	0.94606	-23.32582
4850	0.9452	-23.80659	0.21488	69.04633	0.21488	69.04633	0.9452	-23.80659
4870	0.94827	-23.71191	0.21908	69.27741	0.21908	69.27741	0.94827	-23.71191
4890	0.9453	-24.10373	0.22244	69.00463	0.22244	69.00463	0.9453	-24.10373
4910	0.9415	-24.36233	0.22453	68.79349	0.22453	68.79349	0.9415	-24.36233
4930	0.94273	-24.49616	0.22691	68.77904	0.22691	68.77904	0.94273	-24.49616
4950	0.95555	-25.14181	0.23316	68.66581	0.23316	68.66581	0.95555	-25.14181
4970	0.93776	-25.75557	0.23206	68.22592	0.23206	68.22592	0.93776	-25.75557
4990	0.93559	-25.52152	0.23459	68.34721	0.23459	68.34721	0.93559	-25.52152
5010	0.94357	-25.60741	0.23924	68.26075	0.23924	68.26075	0.94357	-25.60741
5030	0.94935	-26.32172	0.24335	67.7096	0.24335	67.7096	0.94935	-26.32172
5050	0.93363	-27.11366	0.24305	66.94877	0.24305	66.94877	0.93363	-27.11366
5070	0.93589	-26.47771	0.2464	67.46534	0.2464	67.46534	0.93589	-26.47771
5090	0.943	-26.65521	0.25095	67.34884	0.25095	67.34884	0.943	-26.65521
5110	0.94297	-27.34538	0.25464	66.83861	0.25464	66.83861	0.94297	-27.34538
5130	0.93405	-27.93675	0.25661	66.40085	0.25661	66.40085	0.93405	-27.93675
5150	0.92466	-27.50718	0.25714	66.72864	0.25714	66.72864	0.92466	-27.50718
5170	0.9314	-27.66198	0.26274	66.84979	0.26274	66.84979	0.9314	-27.66198
5190	0.9365	-28.50109	0.26599	66.27687	0.26599	66.27687	0.9365	-28.50109
5210	0.93034	-29.01853	0.26666	65.79571	0.26666	65.79571	0.93034	-29.01853
5230	0.92062	-28.85839	0.26719	65.80823	0.26719	65.80823	0.92062	-28.85839
5250	0.93235	-28.31485	0.27269	66.33244	0.27269	66.33244	0.93235	-28.31485
5270	0.93823	-29.56338	0.27734	65.27133	0.27734	65.27133	0.93823	-29.56338
5290	0.92565	-29.85451	0.27686	64.81634	0.27686	64.81634	0.92565	-29.85451
5310	0.92281	-29.57845	0.27891	65.09786	0.27891	65.09786	0.92281	-29.57845
5330	0.93315	-29.49256	0.28453	65.44927	0.28453	65.44927	0.93315	-29.49256
5350	0.93531	-30.72137	0.28803	64.40694	0.28803	64.40694	0.93531	-30.72137
5370	0.91934	-30.78371	0.2877	64.28186	0.2877	64.28186	0.91934	-30.78371
5390	0.92189	-30.64137	0.29126	64.30919	0.29126	64.30919	0.92189	-30.64137
5410	0.92732	-30.87631	0.29507	64.00241	0.29507	64.00241	0.92732	-30.87631
5430	0.92794	-31.36717	0.29754	63.53768	0.29754	63.53768	0.92794	-31.36717
