! Data Taken on a HP 8720C VNA using a shunt-through fixture with TRL* de-embedding
#	mhz	s	ma	r	50
50	0.95717	177.82928	0.02313	65.52809	0.02313	65.52809	0.95717	177.82928
70	0.99312	178.28147	0.02787	70.24728	0.02787	70.24728	0.99312	178.28147
90	0.99353	177.11528	0.03453	73.2423	0.03453	73.2423	0.99353	177.11528
110	0.986	176.44865	0.04208	75.76424	0.04208	75.76424	0.986	176.44865
130	0.98549	176.41692	0.04965	77.54886	0.04965	77.54886	0.98549	176.41692
150	0.9944	175.17284	0.05657	76.81656	0.05657	76.81656	0.9944	175.17284
170	0.98774	174.92654	0.06364	76.95059	0.06364	76.95059	0.98774	174.92654
190	0.98732	174.5302	0.07094	77.19115	0.07094	77.19115	0.98732	174.5302
210	0.98668	173.75015	0.07815	76.65492	0.07815	76.65492	0.98668	173.75015
230	0.98292	172.95436	0.0851	75.83283	0.0851	75.83283	0.98292	172.95436
250	0.97668	173.11236	0.09175	76.59007	0.09175	76.59007	0.97668	173.11236
270	0.98803	172.44162	0.09996	75.70446	0.09996	75.70446	0.98803	172.44162
290	0.98171	171.58576	0.10656	75.19568	0.10656	75.19568	0.98171	171.58576
310	0.97737	170.94945	0.11308	75.30408	0.11308	75.30408	0.97737	170.94945
330	0.9803	170.40859	0.12013	75.49993	0.12013	75.49993	0.9803	170.40859
350	0.98139	169.3103	0.12742	74.48342	0.12742	74.48342	0.98139	169.3103
370	0.9707	169.17176	0.13357	74.38249	0.13357	74.38249	0.9707	169.17176
390	0.97344	168.76023	0.14066	73.93009	0.14066	73.93009	0.97344	168.76023
410	0.97484	168.06137	0.14781	73.23324	0.14781	73.23324	0.97484	168.06137
430	0.97074	167.38298	0.15463	72.62427	0.15463	72.62427	0.97074	167.38298
450	0.96762	167.35496	0.16123	72.66086	0.16123	72.66086	0.96762	167.35496
470	0.97064	166.60243	0.16843	72.13827	0.16843	72.13827	0.97064	166.60243
490	0.96696	164.79114	0.18579	71.16788	0.18579	71.16788	0.96696	164.79114
510	0.96507	163.49742	0.20006	70.61326	0.20006	70.61326	0.96507	163.49742
530	0.96641	162.99838	0.20748	70.5537	0.20748	70.5537	0.96641	162.99838
550	0.96534	162.27189	0.2138	70.28415	0.2138	70.28415	0.96534	162.27189
570	0.96375	161.90432	0.22	69.49745	0.22	69.49745	0.96375	161.90432
590	0.96299	161.34559	0.22629	69.0054	0.22629	69.0054	0.96299	161.34559
610	0.96023	160.74734	0.23257	68.61872	0.23257	68.61872	0.96023	160.74734
630	0.95649	160.21743	0.23904	68.17896	0.23904	68.17896	0.95649	160.21743
650	0.95674	159.82	0.24627	67.55846	0.24627	67.55846	0.95674	159.82
670	0.95239	158.7192	0.25325	66.68342	0.25325	66.68342	0.95239	158.7192
690	0.94915	158.19705	0.25819	66.35343	0.25819	66.35343	0.94915	158.19705
710	0.95106	157.68401	0.26444	66.05202	0.26444	66.05202	0.95106	157.68401
730	0.95558	156.96822	0.27233	65.51611	0.27233	65.51611	0.95558	156.96822
750	0.95352	156.19559	0.27919	64.73604	0.27919	64.73604	0.95352	156.19559
770	0.94615	156.39295	0.28482	64.25579	0.28482	64.25579	0.94615	156.39295
790	0.94884	155.74563	0.29173	63.6152	0.29173	63.6152	0.94884	155.74563
810	0.94602	155.12278	0.29735	63.22135	0.29735	63.22135	0.94602	155.12278
830	0.93758	154.70656	0.30214	62.94815	0.30214	62.94815	0.93758	154.70656
850	0.93892	153.99212	0.30954	62.13635	0.30954	62.13635	0.93892	153.99212
870	0.93871	153.3951	0.31648	61.10246	0.31648	61.10246	0.93871	153.3951
890	0.93135	152.82806	0.32081	60.76219	0.32081	60.76219	0.93135	152.82806
910	0.92778	152.25161	0.32648	60.54922	0.32648	60.54922	0.92778	152.25161
930	0.92823	151.59389	0.33355	60.06049	0.33355	60.06049	0.92823	151.59389
950	0.92231	150.75058	0.33821	59.05619	0.33821	59.05619	0.92231	150.75058
970	0.92203	150.62069	0.34575	58.7435	0.34575	58.7435	0.92203	150.62069
990	0.92024	150.16055	0.34993	58.33267	0.34993	58.33267	0.92024	150.16055
1010	0.91574	149.54595	0.35472	57.83585	0.35472	57.83585	0.91574	149.54595
1030	0.91025	148.90462	0.36115	57.3239	0.36115	57.3239	0.91025	148.90462
1050	0.90833	148.3162	0.36735	56.92645	0.36735	56.92645	0.90833	148.3162
1070	0.90335	147.49695	0.37072	56.28444	0.37072	56.28444	0.90335	147.49695
1090	0.90234	146.93592	0.37689	55.9254	0.37689	55.9254	0.90234	146.93592
1110	0.90036	146.35903	0.38381	55.48093	0.38381	55.48093	0.90036	146.35903
1130	0.89672	145.70999	0.39017	54.93198	0.39017	54.93198	0.89672	145.70999
1150	0.89498	145.15027	0.39546	54.60881	0.39546	54.60881	0.89498	145.15027
1170	0.89603	144.6801	0.40016	53.82388	0.40016	53.82388	0.89603	144.6801
1190	0.89135	144.08822	0.40474	53.43893	0.40474	53.43893	0.89135	144.08822
1210	0.88846	143.60256	0.41044	53.17798	0.41044	53.17798	0.88846	143.60256
1230	0.88773	143.12163	0.41667	52.78147	0.41667	52.78147	0.88773	143.12163
1250	0.88235	142.21453	0.42105	52.00628	0.42105	52.00628	0.88235	142.21453
1270	0.87772	141.96965	0.42351	51.83861	0.42351	51.83861	0.87772	141.96965
1290	0.87745	141.32751	0.43018	51.22357	0.43018	51.22357	0.87745	141.32751
1310	0.8769	140.52005	0.43619	50.49742	0.43619	50.49742	0.8769	140.52005
1330	0.87412	139.84296	0.44054	49.99284	0.44054	49.99284	0.87412	139.84296
1350	0.86988	139.65576	0.44617	50.03888	0.44617	50.03888	0.86988	139.65576
1370	0.87578	138.85566	0.45278	49.32341	0.45278	49.32341	0.87578	138.85566
1390	0.87305	138.52298	0.45714	48.89809	0.45714	48.89809	0.87305	138.52298
1410	0.8698	138.19926	0.46146	48.58898	0.46146	48.58898	0.8698	138.19926
1430	0.8678	137.72099	0.46551	48.24449	0.46551	48.24449	0.8678	137.72099
1450	0.86252	137.21957	0.46664	47.73538	0.46664	47.73538	0.86252	137.21957
1470	0.85789	136.64476	0.47144	47.28655	0.47144	47.28655	0.85789	136.64476
1490	0.85586	136.05233	0.47804	46.78166	0.47804	46.78166	0.85586	136.05233
1510	0.8525	135.49039	0.48379	46.12111	0.48379	46.12111	0.8525	135.49039
1530	0.84778	134.98133	0.4878	45.48286	0.4878	45.48286	0.84778	134.98133
1550	0.84561	134.52188	0.49093	45.32236	0.49093	45.32236	0.84561	134.52188
1570	0.84652	134.15907	0.49697	45.02479	0.49697	45.02479	0.84652	134.15907
1590	0.84341	133.38714	0.50054	44.53526	0.50054	44.53526	0.84341	133.38714
1610	0.83992	132.6664	0.50474	44.03717	0.50474	44.03717	0.83992	132.6664
1630	0.83741	132.25833	0.50932	43.63917	0.50932	43.63917	0.83741	132.25833
1650	0.83499	132.22551	0.51066	43.37518	0.51066	43.37518	0.83499	132.22551
1670	0.83288	131.68411	0.51687	42.80091	0.51687	42.80091	0.83288	131.68411
1690	0.82719	131.02614	0.52057	42.32697	0.52057	42.32697	0.82719	131.02614
1710	0.82243	130.49477	0.52392	41.97721	0.52392	41.97721	0.82243	130.49477
1730	0.82119	130.06681	0.52872	41.67666	0.52872	41.67666	0.82119	130.06681
1750	0.82417	129.45271	0.53638	41.25155	0.53638	41.25155	0.82417	129.45271
1770	0.81845	128.67962	0.53648	40.59051	0.53648	40.59051	0.81845	128.67962
1790	0.81676	128.50073	0.54017	40.45349	0.54017	40.45349	0.81676	128.50073
1810	0.81773	128.33045	0.54484	40.0795	0.54484	40.0795	0.81773	128.33045
1830	0.81672	127.92161	0.54871	39.42589	0.54871	39.42589	0.81672	127.92161
1850	0.80581	127.36551	0.55092	39.16837	0.55092	39.16837	0.80581	127.36551
1870	0.80418	127.14375	0.55459	38.85787	0.55459	38.85787	0.80418	127.14375
1890	0.8038	126.51949	0.56048	38.30286	0.56048	38.30286	0.8038	126.51949
1910	0.80014	125.8575	0.56462	37.82053	0.56462	37.82053	0.80014	125.8575
1930	0.79449	125.32571	0.56761	37.53456	0.56761	37.53456	0.79449	125.32571
1950	0.79393	124.89531	0.57458	37.37507	0.57458	37.37507	0.79393	124.89531
1970	0.79414	124.27991	0.57436	36.95486	0.57436	36.95486	0.79414	124.27991
1990	0.79426	123.6117	0.57521	36.49017	0.57521	36.49017	0.79426	123.6117
2010	0.79133	123.27262	0.57816	36.14661	0.57816	36.14661	0.79133	123.27262
2030	0.78639	123.19342	0.58293	35.88664	0.58293	35.88664	0.78639	123.19342
2050	0.78446	122.85362	0.58793	35.46957	0.58793	35.46957	0.78446	122.85362
2070	0.78032	122.54892	0.58939	34.82093	0.58939	34.82093	0.78032	122.54892
2090	0.77695	121.97203	0.59075	34.388	0.59075	34.388	0.77695	121.97203
2110	0.77473	121.39154	0.5949	33.97531	0.5949	33.97531	0.77473	121.39154
2130	0.77232	120.93087	0.60083	33.50934	0.60083	33.50934	0.77232	120.93087
2150	0.76671	120.56834	0.60369	33.03856	0.60369	33.03856	0.76671	120.56834
2170	0.7652	120.23851	0.60515	33.02284	0.60515	33.02284	0.7652	120.23851
2190	0.76574	119.87149	0.60902	32.78333	0.60902	32.78333	0.76574	119.87149
2210	0.76473	119.36514	0.61373	32.32135	0.61373	32.32135	0.76473	119.36514
2230	0.76136	118.84098	0.6173	31.82518	0.6173	31.82518	0.76136	118.84098
2250	0.75764	118.64417	0.61735	31.67003	0.61735	31.67003	0.75764	118.64417
2270	0.75561	118.15991	0.62336	31.16375	0.62336	31.16375	0.75561	118.15991
2290	0.75236	117.74722	0.62581	30.68868	0.62581	30.68868	0.75236	117.74722
2310	0.74926	117.557	0.62732	30.43148	0.62732	30.43148	0.74926	117.557
2330	0.74787	117.35529	0.63008	30.2236	0.63008	30.2236	0.74787	117.35529
2350	0.74988	116.52334	0.63585	29.54125	0.63585	29.54125	0.74988	116.52334
2370	0.74151	116.17768	0.63527	29.31815	0.63527	29.31815	0.74151	116.17768
2390	0.74021	116.02463	0.63856	29.0889	0.63856	29.0889	0.74021	116.02463
2410	0.74029	115.85255	0.6427	28.78351	0.6427	28.78351	0.74029	115.85255
2430	0.73862	115.48183	0.64603	28.36596	0.64603	28.36596	0.73862	115.48183
2450	0.73471	114.765	0.64824	27.83417	0.64824	27.83417	0.73471	114.765
2470	0.73232	114.55468	0.65162	27.50347	0.65162	27.50347	0.73232	114.55468
2490	0.7305	114.31395	0.65411	27.26182	0.65411	27.26182	0.7305	114.31395
2510	0.72938	113.99766	0.65727	26.96404	0.65727	26.96404	0.72938	113.99766
2530	0.72793	113.68823	0.66063	26.53449	0.66063	26.53449	0.72793	113.68823
2550	0.72398	113.59563	0.66164	25.96702	0.66164	25.96702	0.72398	113.59563
2570	0.72285	113.32045	0.66792	25.93805	0.66792	25.93805	0.72285	113.32045
2590	0.71891	112.88238	0.66841	25.45821	0.66841	25.45821	0.71891	112.88238
2610	0.71352	112.52648	0.67071	25.05541	0.67071	25.05541	0.71352	112.52648
2630	0.70971	112.27442	0.67518	24.82938	0.67518	24.82938	0.70971	112.27442
2650	0.71222	111.9245	0.67505	24.45167	0.67505	24.45167	0.71222	111.9245
2670	0.7086	111.5423	0.67874	24.02835	0.67874	24.02835	0.7086	111.5423
2690	0.70765	111.42581	0.68064	23.74293	0.68064	23.74293	0.70765	111.42581
2710	0.71012	111.22926	0.68229	23.23981	0.68229	23.23981	0.71012	111.22926
2730	0.71068	110.87399	0.6844	22.61979	0.6844	22.61979	0.71068	110.87399
2750	0.69791	110.54842	0.68683	22.44009	0.68683	22.44009	0.69791	110.54842
2770	0.68819	110.31697	0.6893	22.28758	0.6893	22.28758	0.68819	110.31697
2790	0.68928	109.93553	0.69265	21.92761	0.69265	21.92761	0.68928	109.93553
2810	0.68929	109.44678	0.694	21.65266	0.694	21.65266	0.68929	109.44678
2830	0.68568	108.98602	0.69509	21.38682	0.69509	21.38682	0.68568	108.98602
2850	0.68523	108.78113	0.70229	20.68572	0.70229	20.68572	0.68523	108.78113
2870	0.6813	108.48338	0.70259	20.61041	0.70259	20.61041	0.6813	108.48338
2890	0.68225	108.61092	0.70421	20.41129	0.70421	20.41129	0.68225	108.61092
2910	0.68322	108.58504	0.70721	20.1149	0.70721	20.1149	0.68322	108.58504
2930	0.6811	108.30992	0.70997	19.72277	0.70997	19.72277	0.6811	108.30992
2950	0.67458	108.17265	0.7092	19.21151	0.7092	19.21151	0.67458	108.17265
2970	0.67229	107.95641	0.71253	19.00014	0.71253	19.00014	0.67229	107.95641
2990	0.66945	107.49868	0.71741	18.67398	0.71741	18.67398	0.66945	107.49868
3010	0.66712	106.96059	0.72068	18.33662	0.72068	18.33662	0.66712	106.96059
3030	0.6652	106.40716	0.72134	18.0111	0.72134	18.0111	0.6652	106.40716
3050	0.66244	105.80726	0.72056	17.63993	0.72056	17.63993	0.66244	105.80726
3070	0.65929	105.88275	0.72413	17.15627	0.72413	17.15627	0.65929	105.88275
3090	0.65987	105.78025	0.73193	16.81868	0.73193	16.81868	0.65987	105.78025
3110	0.65842	105.62684	0.7339	16.54932	0.7339	16.54932	0.65842	105.62684
3130	0.65422	105.54872	0.73079	16.36678	0.73079	16.36678	0.65422	105.54872
3150	0.65167	105.67118	0.7342	16.38605	0.7342	16.38605	0.65167	105.67118
3170	0.64771	105.02949	0.73695	15.73162	0.73695	15.73162	0.64771	105.02949
3190	0.64298	104.57516	0.73736	15.3628	0.73736	15.3628	0.64298	104.57516
3210	0.64208	104.22756	0.73977	15.0334	0.73977	15.0334	0.64208	104.22756
3230	0.64371	104.03973	0.74374	14.71333	0.74374	14.71333	0.64371	104.03973
3250	0.64063	104.19843	0.74405	14.58854	0.74405	14.58854	0.64063	104.19843
3270	0.64124	103.83859	0.74791	13.90116	0.74791	13.90116	0.64124	103.83859
3290	0.63873	103.63437	0.75038	13.56907	0.75038	13.56907	0.63873	103.63437
3310	0.63457	103.35852	0.7509	13.30266	0.7509	13.30266	0.63457	103.35852
3330	0.63047	103.10636	0.75241	13.08142	0.75241	13.08142	0.63047	103.10636
3350	0.62832	103.29581	0.76143	13.154	0.76143	13.154	0.62832	103.29581
3370	0.62691	102.58196	0.76198	12.50274	0.76198	12.50274	0.62691	102.58196
3390	0.62503	102.02169	0.76213	11.99621	0.76213	11.99621	0.62503	102.02169
3410	0.62268	101.7847	0.76113	11.71333	0.76113	11.71333	0.62268	101.7847
3430	0.62026	101.84752	0.76085	11.58866	0.76085	11.58866	0.62026	101.84752
3450	0.61857	101.99348	0.76575	11.41248	0.76575	11.41248	0.61857	101.99348
3470	0.61577	101.40115	0.76844	10.63667	0.76844	10.63667	0.61577	101.40115
3490	0.61125	101.22263	0.76852	10.21779	0.76852	10.21779	0.61125	101.22263
3510	0.60777	101.06711	0.76998	10.08097	0.76998	10.08097	0.60777	101.06711
3530	0.60656	100.70667	0.77431	9.99295	0.77431	9.99295	0.60656	100.70667
3550	0.60736	100.07619	0.7804	9.56214	0.7804	9.56214	0.60736	100.07619
3570	0.60241	99.79625	0.77721	9.22756	0.77721	9.22756	0.60241	99.79625
3590	0.59884	99.80555	0.7792	9.04701	0.7792	9.04701	0.59884	99.80555
3610	0.59818	99.62709	0.78359	8.67213	0.78359	8.67213	0.59818	99.62709
3630	0.59849	99.26172	0.78639	8.16353	0.78639	8.16353	0.59849	99.26172
3650	0.59439	99.18811	0.78241	7.99072	0.78241	7.99072	0.59439	99.18811
3670	0.59295	99.11255	0.78773	7.6878	0.78773	7.6878	0.59295	99.11255
3690	0.58875	98.71725	0.78765	7.24127	0.78765	7.24127	0.58875	98.71725
3710	0.58533	98.32996	0.78821	6.83551	0.78821	6.83551	0.58533	98.32996
3730	0.58414	98.04024	0.79169	6.50298	0.79169	6.50298	0.58414	98.04024
3750	0.58449	97.69942	0.79666	6.12423	0.79666	6.12423	0.58449	97.69942
3770	0.58129	97.482	0.79431	5.81998	0.79431	5.81998	0.58129	97.482
3790	0.5801	97.56407	0.79827	5.54805	0.79827	5.54805	0.5801	97.56407
3810	0.57827	97.43233	0.80046	5.27382	0.80046	5.27382	0.57827	97.43233
3830	0.57513	97.01263	0.79954	5.00358	0.79954	5.00358	0.57513	97.01263
3850	0.57199	96.67001	0.80092	4.78449	0.80092	4.78449	0.57199	96.67001
3870	0.56889	96.22588	0.79997	4.22701	0.79997	4.22701	0.56889	96.22588
3890	0.56656	96.10562	0.8042	4.11189	0.8042	4.11189	0.56656	96.10562
3910	0.56417	95.82532	0.80837	3.87452	0.80837	3.87452	0.56417	95.82532
3930	0.56235	95.28235	0.81044	3.36699	0.81044	3.36699	0.56235	95.28235
3950	0.56322	94.75539	0.81156	2.8581	0.81156	2.8581	0.56322	94.75539
3970	0.55815	94.97017	0.81113	2.8078	0.81113	2.8078	0.55815	94.97017
3990	0.55696	94.93624	0.81216	2.74737	0.81216	2.74737	0.55696	94.93624
4010	0.55557	94.63316	0.81473	2.46369	0.81473	2.46369	0.55557	94.63316
4030	0.55266	94.17252	0.81793	1.96784	0.81793	1.96784	0.55266	94.17252
4050	0.54964	93.79799	0.81992	1.49509	0.81992	1.49509	0.54964	93.79799
4070	0.54667	93.53883	0.81968	1.2275	0.81968	1.2275	0.54667	93.53883
4090	0.54446	93.05423	0.82069	1.01093	0.82069	1.01093	0.54446	93.05423
4110	0.54373	92.61867	0.82433	0.67327	0.82433	0.67327	0.54373	92.61867
4130	0.5426	92.28491	0.82716	0.24977	0.82716	0.24977	0.5426	92.28491
4150	0.53654	91.88396	0.8208	-0.01704	0.8208	-0.01704	0.53654	91.88396
4170	0.53781	92.01479	0.82789	-0.20236	0.82789	-0.20236	0.53781	92.01479
4190	0.53789	91.87271	0.83193	-0.54761	0.83193	-0.54761	0.53789	91.87271
4210	0.53593	91.49707	0.83099	-0.98924	0.83099	-0.98924	0.53593	91.49707
4230	0.53296	91.1287	0.82934	-1.25927	0.82934	-1.25927	0.53296	91.1287
4250	0.53186	91.20992	0.83744	-0.88532	0.83744	-0.88532	0.53186	91.20992
4270	0.52552	90.56237	0.83755	-1.63361	0.83755	-1.63361	0.52552	90.56237
4290	0.52239	90.20848	0.8362	-1.98206	0.8362	-1.98206	0.52239	90.20848
4310	0.52318	89.8621	0.83805	-2.35039	0.83805	-2.35039	0.52318	89.8621
4330	0.5257	89.46904	0.84309	-2.9091	0.84309	-2.9091	0.5257	89.46904
4350	0.52489	89.20714	0.84662	-3.57943	0.84662	-3.57943	0.52489	89.20714
4370	0.52108	89.20134	0.84391	-3.50452	0.84391	-3.50452	0.52108	89.20134
4390	0.51951	89.2151	0.84463	-3.60188	0.84463	-3.60188	0.51951	89.2151
4410	0.51699	89.09681	0.84605	-3.92055	0.84605	-3.92055	0.51699	89.09681
4430	0.51331	88.72789	0.84714	-4.35426	0.84714	-4.35426	0.51331	88.72789
4450	0.51123	88.02271	0.84855	-4.64146	0.84855	-4.64146	0.51123	88.02271
4470	0.50767	87.58892	0.84736	-4.87333	0.84736	-4.87333	0.50767	87.58892
4490	0.50684	87.59681	0.85062	-5.17993	0.85062	-5.17993	0.50684	87.59681
4510	0.50618	87.4244	0.85436	-5.4897	0.85436	-5.4897	0.50618	87.4244
4530	0.50408	86.99419	0.85519	-5.76112	0.85519	-5.76112	0.50408	86.99419
4550	0.49988	86.77321	0.85027	-5.98274	0.85027	-5.98274	0.49988	86.77321
4570	0.50017	86.4109	0.85209	-6.19767	0.85209	-6.19767	0.50017	86.4109
4590	0.4984	85.90897	0.85812	-6.78433	0.85812	-6.78433	0.4984	85.90897
4610	0.49384	85.70542	0.85913	-7.15914	0.85913	-7.15914	0.49384	85.70542
4630	0.48957	85.69358	0.85665	-7.27717	0.85665	-7.27717	0.48957	85.69358
4650	0.49243	85.2222	0.86305	-7.63213	0.86305	-7.63213	0.49243	85.2222
4670	0.48737	84.52207	0.86116	-8.1036	0.86116	-8.1036	0.48737	84.52207
4690	0.48464	84.2667	0.85894	-8.34463	0.85894	-8.34463	0.48464	84.2667
4710	0.4835	84.09186	0.86024	-8.51875	0.86024	-8.51875	0.4835	84.09186
4730	0.48302	83.81794	0.86406	-8.74765	0.86406	-8.74765	0.48302	83.81794
4750	0.48209	83.44993	0.86455	-9.11121	0.86455	-9.11121	0.48209	83.44993
4770	0.47831	83.39196	0.86848	-9.27493	0.86848	-9.27493	0.47831	83.39196
4790	0.4756	82.97614	0.8679	-9.84127	0.8679	-9.84127	0.4756	82.97614
4810	0.47235	82.72282	0.86842	-10.12408	0.86842	-10.12408	0.47235	82.72282
4830	0.46932	82.52215	0.87115	-10.18228	0.87115	-10.18228	0.46932	82.52215
4850	0.46963	81.63401	0.87266	-10.81991	0.87266	-10.81991	0.46963	81.63401
4870	0.46698	81.47401	0.87009	-11.15387	0.87009	-11.15387	0.46698	81.47401
4890	0.46547	81.14181	0.87497	-11.18654	0.87497	-11.18654	0.46547	81.14181
4910	0.46373	80.66605	0.87526	-11.39117	0.87526	-11.39117	0.46373	80.66605
4930	0.46216	80.24708	0.87146	-11.73695	0.87146	-11.73695	0.46216	80.24708
4950	0.46291	80.257	0.87667	-11.68897	0.87667	-11.68897	0.46291	80.257
4970	0.46065	79.88122	0.8792	-12.18305	0.8792	-12.18305	0.46065	79.88122
4990	0.45694	79.4275	0.87835	-12.81073	0.87835	-12.81073	0.45694	79.4275
5010	0.45444	79.29995	0.87846	-12.98349	0.87846	-12.98349	0.45444	79.29995
5030	0.45347	79.261	0.8813	-12.92989	0.8813	-12.92989	0.45347	79.261
5050	0.45212	78.43143	0.88616	-13.69551	0.88616	-13.69551	0.45212	78.43143
5070	0.44664	78.07213	0.87956	-14.01717	0.87956	-14.01717	0.44664	78.07213
5090	0.44585	77.94264	0.88016	-14.1185	0.88016	-14.1185	0.44585	77.94264
5110	0.44622	77.62377	0.88348	-14.20633	0.88348	-14.20633	0.44622	77.62377
5130	0.4453	77.13904	0.88602	-14.50634	0.88602	-14.50634	0.4453	77.13904
5150	0.4417	76.95465	0.88532	-15.26309	0.88532	-15.26309	0.4417	76.95465
5170	0.43853	77.02925	0.886	-15.16451	0.886	-15.16451	0.43853	77.02925
5190	0.43838	76.75287	0.88688	-15.33573	0.88688	-15.33573	0.43838	76.75287
5210	0.43652	76.22247	0.88789	-15.77675	0.88789	-15.77675	0.43652	76.22247
5230	0.43185	75.72516	0.88797	-16.26366	0.88797	-16.26366	0.43185	75.72516
5250	0.42688	75.73825	0.88512	-16.34863	0.88512	-16.34863	0.42688	75.73825
5270	0.42974	75.57344	0.89507	-16.35893	0.89507	-16.35893	0.42974	75.57344
5290	0.42732	74.83002	0.89418	-16.99442	0.89418	-16.99442	0.42732	74.83002
5310	0.42465	74.49582	0.89158	-17.36928	0.89158	-17.36928	0.42465	74.49582
5330	0.42444	74.59025	0.89276	-17.3623	0.89276	-17.3623	0.42444	74.59025
5350	0.4271	74.16426	0.89964	-17.61687	0.89964	-17.61687	0.4271	74.16426
5370	0.42125	73.69113	0.89923	-18.12571	0.89923	-18.12571	0.42125	73.69113
5390	0.41731	73.56721	0.89717	-18.34584	0.89717	-18.34584	0.41731	73.56721
5410	0.4166	73.35997	0.89838	-18.5405	0.89838	-18.5405	0.4166	73.35997
5430	0.41657	72.95004	0.90199	-18.82795	0.90199	-18.82795	0.41657	72.95004
5450	0.41092	72.53124	0.90142	-19.18148	0.90142	-19.18148	0.41092	72.53124
