! Data Taken on a HP 8720C VNA using a shunt-through fixture with TRL* de-embedding
#	mhz	s	ma	r	50
50	0.83263	157.96071	0.36574	57.63734	0.36574	57.63734	0.83263	157.96071
70	0.80807	150.93422	0.47991	52.23957	0.47991	52.23957	0.80807	150.93422
90	0.7526	144.93684	0.56022	47.17144	0.56022	47.17144	0.7526	144.93684
110	0.6958	140.0221	0.62497	42.91116	0.62497	42.91116	0.6958	140.0221
130	0.64903	135.6623	0.68291	39.25472	0.68291	39.25472	0.64903	135.6623
150	0.60545	130.74852	0.73327	35.31592	0.73327	35.31592	0.60545	130.74852
170	0.56129	128.15025	0.76875	32.86961	0.76875	32.86961	0.56129	128.15025
190	0.52434	125.06856	0.79693	30.00352	0.79693	30.00352	0.52434	125.06856
210	0.49085	122.16568	0.81931	27.42764	0.81931	27.42764	0.49085	122.16568
230	0.45949	119.75996	0.83868	25.31853	0.83868	25.31853	0.45949	119.75996
250	0.4314	117.82584	0.85912	23.31938	0.85912	23.31938	0.4314	117.82584
270	0.40529	115.6146	0.8746	21.52544	0.8746	21.52544	0.40529	115.6146
290	0.38171	113.67661	0.88629	20.11399	0.88629	20.11399	0.38171	113.67661
310	0.36073	111.82656	0.89702	18.88422	0.89702	18.88422	0.36073	111.82656
330	0.3423	109.96938	0.90774	17.63548	0.90774	17.63548	0.3423	109.96938
350	0.32622	108.10019	0.91757	16.16736	0.91757	16.16736	0.32622	108.10019
370	0.31067	107.21221	0.92502	15.16966	0.92502	15.16966	0.31067	107.21221
390	0.29563	106.08805	0.93098	14.02139	0.93098	14.02139	0.29563	106.08805
410	0.28185	104.87345	0.93693	12.89421	0.93693	12.89421	0.28185	104.87345
430	0.26927	103.71324	0.94261	11.94859	0.94261	11.94859	0.26927	103.71324
450	0.25696	102.75133	0.946	11.33386	0.946	11.33386	0.25696	102.75133
470	0.24592	101.38216	0.95071	10.52905	0.95071	10.52905	0.24592	101.38216
490	0.22773	99.07396	0.96046	8.95945	0.96046	8.95945	0.22773	99.07396
510	0.21364	97.22566	0.9686	7.64387	0.9686	7.64387	0.21364	97.22566
530	0.20607	96.24703	0.97169	6.9092	0.97169	6.9092	0.20607	96.24703
550	0.19864	95.55863	0.96953	6.39038	0.96953	6.39038	0.19864	95.55863
570	0.19147	95.27128	0.97178	5.89808	0.97178	5.89808	0.19147	95.27128
590	0.1848	94.78415	0.97239	5.46476	0.97239	5.46476	0.1848	94.78415
610	0.17792	93.86149	0.97348	4.99587	0.97348	4.99587	0.17792	93.86149
630	0.17116	92.64532	0.97552	4.4543	0.97552	4.4543	0.17116	92.64532
650	0.16585	91.65547	0.97731	3.86025	0.97731	3.86025	0.16585	91.65547
670	0.161	90.8695	0.9784	3.45498	0.9784	3.45498	0.161	90.8695
690	0.1576	90.33135	0.97868	2.87058	0.97868	2.87058	0.1576	90.33135
710	0.15403	90.0181	0.97987	2.34296	0.97987	2.34296	0.15403	90.0181
730	0.14949	90.00961	0.98161	1.95695	0.98161	1.95695	0.14949	90.00961
750	0.14406	90.48853	0.98148	1.64635	0.98148	1.64635	0.14406	90.48853
770	0.13809	90.62513	0.9848	0.94807	0.9848	0.94807	0.13809	90.62513
790	0.13221	90.46049	0.98511	0.56082	0.98511	0.56082	0.13221	90.46049
810	0.12618	89.78159	0.98426	0.33321	0.98426	0.33321	0.12618	89.78159
830	0.12037	88.59072	0.98291	0.08689	0.98291	0.08689	0.12037	88.59072
850	0.11581	87.10546	0.98058	-0.38338	0.98058	-0.38338	0.11581	87.10546
870	0.11264	86.23246	0.98331	-0.91546	0.98331	-0.91546	0.11264	86.23246
890	0.11008	85.4554	0.98487	-1.29459	0.98487	-1.29459	0.11008	85.4554
910	0.10722	84.87631	0.9861	-1.56759	0.9861	-1.56759	0.10722	84.87631
930	0.10377	84.55295	0.98726	-1.85316	0.98726	-1.85316	0.10377	84.55295
950	0.10004	84.49877	0.98807	-2.34189	0.98807	-2.34189	0.10004	84.49877
970	0.0961	84.10592	0.98849	-2.64115	0.98849	-2.64115	0.0961	84.10592
990	0.09235	83.13037	0.98818	-2.94999	0.98818	-2.94999	0.09235	83.13037
1010	0.08878	81.61463	0.98755	-3.30585	0.98755	-3.30585	0.08878	81.61463
1030	0.08565	79.86895	0.98768	-3.70554	0.98768	-3.70554	0.08565	79.86895
1050	0.08347	78.4713	0.99027	-4.10524	0.99027	-4.10524	0.08347	78.4713
1070	0.0823	77.1768	0.99024	-4.31076	0.99024	-4.31076	0.0823	77.1768
1090	0.08097	76.60914	0.98959	-4.50756	0.98959	-4.50756	0.08097	76.60914
1110	0.07936	76.48615	0.99023	-4.8083	0.99023	-4.8083	0.07936	76.48615
1130	0.07723	76.47985	0.99124	-5.20442	0.99124	-5.20442	0.07723	76.47985
1150	0.07426	76.21646	0.98889	-5.56615	0.98889	-5.56615	0.07426	76.21646
1170	0.07144	76.18395	0.98858	-5.75985	0.98858	-5.75985	0.07144	76.18395
1190	0.06844	75.06195	0.99038	-5.96853	0.99038	-5.96853	0.06844	75.06195
1210	0.0658	73.60383	0.99173	-6.28611	0.99173	-6.28611	0.0658	73.60383
1230	0.06373	72.24541	0.99165	-6.69881	0.99165	-6.69881	0.06373	72.24541
1250	0.06204	71.10497	0.99066	-7.08517	0.99066	-7.08517	0.06204	71.10497
1270	0.06121	70.32439	0.99095	-7.1841	0.99095	-7.1841	0.06121	70.32439
1290	0.06005	69.8697	0.99026	-7.61319	0.99026	-7.61319	0.06005	69.8697
1310	0.05846	69.8355	0.99193	-7.87963	0.99193	-7.87963	0.05846	69.8355
1330	0.05645	70.09983	0.99484	-8.00611	0.99484	-8.00611	0.05645	70.09983
1350	0.05414	70.32418	0.99344	-8.53085	0.99344	-8.53085	0.05414	70.32418
1370	0.05199	70.16255	0.99416	-8.78364	0.99416	-8.78364	0.05199	70.16255
1390	0.04941	69.89905	0.9938	-8.8998	0.9938	-8.8998	0.04941	69.89905
1410	0.04693	69.38447	0.99329	-9.1548	0.99329	-9.1548	0.04693	69.38447
1430	0.04466	68.63066	0.99305	-9.53915	0.99305	-9.53915	0.04466	68.63066
1450	0.04236	67.81056	0.99297	-9.75847	0.99297	-9.75847	0.04236	67.81056
1470	0.04014	66.73032	0.9936	-10.03089	0.9936	-10.03089	0.04014	66.73032
1490	0.03813	65.73664	0.99375	-10.43506	0.99375	-10.43506	0.03813	65.73664
1510	0.03611	64.67713	0.99366	-10.73596	0.99366	-10.73596	0.03611	64.67713
1530	0.03417	63.45015	0.99379	-10.94876	0.99379	-10.94876	0.03417	63.45015
1550	0.03274	62.00487	0.99479	-11.33889	0.99479	-11.33889	0.03274	62.00487
1570	0.03089	60.65461	0.99457	-11.51654	0.99457	-11.51654	0.03089	60.65461
1590	0.02898	59.99805	0.9943	-11.79301	0.9943	-11.79301	0.02898	59.99805
1610	0.02713	59.58365	0.99429	-12.03026	0.99429	-12.03026	0.02713	59.58365
1630	0.02516	58.90059	0.99433	-12.21516	0.99433	-12.21516	0.02516	58.90059
1650	0.0226	57.3788	0.99368	-12.45953	0.99368	-12.45953	0.0226	57.3788
1670	0.02048	52.9922	0.99212	-12.77871	0.99212	-12.77871	0.02048	52.9922
1690	0.01871	48.25712	0.99301	-12.95528	0.99301	-12.95528	0.01871	48.25712
1710	0.01765	43.45689	0.99468	-13.15554	0.99468	-13.15554	0.01765	43.45689
1730	0.01715	39.10985	0.9962	-13.42875	0.9962	-13.42875	0.01715	39.10985
1750	0.01655	35.96937	0.99746	-13.70717	0.99746	-13.70717	0.01655	35.96937
1770	0.01568	34.27769	0.9935	-14.1639	0.9935	-14.1639	0.01568	34.27769
1790	0.01412	30.68801	0.99456	-14.33609	0.99456	-14.33609	0.01412	30.68801
1810	0.01233	25.68996	0.99445	-14.51683	0.99445	-14.51683	0.01233	25.68996
1830	0.01082	17.47083	0.99299	-14.75955	0.99299	-14.75955	0.01082	17.47083
1850	0.01019	1.91559	0.99601	-14.87804	0.99601	-14.87804	0.01019	1.91559
1870	0.0108	-11.02495	0.99605	-15.25853	0.99605	-15.25853	0.0108	-11.02495
1890	0.01176	-19.57455	0.99601	-15.47459	0.99601	-15.47459	0.01176	-19.57455
1910	0.01281	-24.05928	0.996	-15.64618	0.996	-15.64618	0.01281	-24.05928
1930	0.01368	-25.67576	0.996	-15.84716	0.996	-15.84716	0.01368	-25.67576
1950	0.01405	-26.49115	0.99594	-16.10528	0.99594	-16.10528	0.01405	-26.49115
1970	0.01351	-30.94637	0.99494	-16.45895	0.99494	-16.45895	0.01351	-30.94637
1990	0.01295	-37.28504	0.99388	-16.65276	0.99388	-16.65276	0.01295	-37.28504
2010	0.01305	-44.82927	0.99467	-16.81211	0.99467	-16.81211	0.01305	-44.82927
2030	0.01398	-52.80417	0.99672	-17.04591	0.99672	-17.04591	0.01398	-52.80417
2050	0.01544	-60.33786	0.99691	-17.44652	0.99691	-17.44652	0.01544	-60.33786
2070	0.0171	-63.48753	0.99515	-17.6747	0.99515	-17.6747	0.0171	-63.48753
2090	0.01837	-64.13623	0.99286	-17.86594	0.99286	-17.86594	0.01837	-64.13623
2110	0.01919	-64.84523	0.9941	-18.22525	0.9941	-18.22525	0.01919	-64.84523
2130	0.01954	-66.46479	0.99711	-18.63204	0.99711	-18.63204	0.01954	-66.46479
2150	0.01953	-68.13416	0.99433	-18.64015	0.99433	-18.64015	0.01953	-68.13416
2170	0.01987	-72.039	0.9947	-18.82594	0.9947	-18.82594	0.01987	-72.039
2190	0.02071	-76.93304	0.99503	-18.99363	0.99503	-18.99363	0.02071	-76.93304
2210	0.02204	-81.32178	0.99465	-19.29049	0.99465	-19.29049	0.02204	-81.32178
2230	0.02367	-84.48869	0.99396	-19.66154	0.99396	-19.66154	0.02367	-84.48869
2250	0.02521	-86.49519	0.99448	-19.84956	0.99448	-19.84956	0.02521	-86.49519
2270	0.02675	-87.40376	0.99457	-20.00783	0.99457	-20.00783	0.02675	-87.40376
2290	0.0285	-88.18731	0.9961	-20.4511	0.9961	-20.4511	0.0285	-88.18731
2310	0.02978	-89.31796	0.99553	-20.73435	0.99553	-20.73435	0.02978	-89.31796
2330	0.03069	-90.68645	0.99283	-20.82361	0.99283	-20.82361	0.03069	-90.68645
2350	0.03213	-91.60219	0.9915	-21.09601	0.9915	-21.09601	0.03213	-91.60219
2370	0.03372	-93.05153	0.99489	-21.29955	0.99489	-21.29955	0.03372	-93.05153
2390	0.03532	-94.38214	0.99563	-21.58736	0.99563	-21.58736	0.03532	-94.38214
2410	0.03683	-95.13145	0.99441	-21.83173	0.99441	-21.83173	0.03683	-95.13145
2430	0.03829	-95.5975	0.99276	-22.01144	0.99276	-22.01144	0.03829	-95.5975
2450	0.03993	-96.83886	0.99303	-22.21176	0.99303	-22.21176	0.03993	-96.83886
2470	0.04071	-97.70256	0.99505	-22.65087	0.99505	-22.65087	0.04071	-97.70256
2490	0.04215	-98.81946	0.99337	-22.83662	0.99337	-22.83662	0.04215	-98.81946
2510	0.04375	-100.02003	0.9918	-22.91215	0.9918	-22.91215	0.04375	-100.02003
2530	0.04537	-101.13136	0.99201	-23.01912	0.99201	-23.01912	0.04537	-101.13136
2550	0.04725	-101.97716	0.99352	-23.29773	0.99352	-23.29773	0.04725	-101.97716
2570	0.04938	-102.02572	0.99466	-23.56659	0.99466	-23.56659	0.04938	-102.02572
2590	0.05122	-101.65146	0.99382	-23.88872	0.99382	-23.88872	0.05122	-101.65146
2610	0.0525	-101.6864	0.99268	-24.194	0.99268	-24.194	0.0525	-101.6864
2630	0.05342	-102.07083	0.99185	-24.44605	0.99185	-24.44605	0.05342	-102.07083
2650	0.05467	-101.85325	0.99088	-24.64228	0.99088	-24.64228	0.05467	-101.85325
2670	0.05557	-102.20404	0.99276	-24.78457	0.99276	-24.78457	0.05557	-102.20404
2690	0.05691	-103.00245	0.99207	-25.04867	0.99207	-25.04867	0.05691	-103.00245
2710	0.05847	-103.80932	0.99144	-25.32964	0.99144	-25.32964	0.05847	-103.80932
2730	0.06008	-104.4102	0.9921	-25.58438	0.9921	-25.58438	0.06008	-104.4102
2750	0.06164	-104.81539	0.99384	-25.83172	0.99384	-25.83172	0.06164	-104.81539
2770	0.0627	-105.02519	0.99236	-26.1901	0.99236	-26.1901	0.0627	-105.02519
2790	0.06433	-104.78337	0.99288	-26.29695	0.99288	-26.29695	0.06433	-104.78337
2810	0.06558	-104.72709	0.99162	-26.62113	0.99162	-26.62113	0.06558	-104.72709
2830	0.06627	-105.12053	0.98939	-27.10657	0.98939	-27.10657	0.06627	-105.12053
2850	0.06697	-105.85484	0.99151	-27.17233	0.99151	-27.17233	0.06697	-105.85484
2870	0.06766	-106.56962	0.99102	-27.24713	0.99102	-27.24713	0.06766	-106.56962
2890	0.06923	-107.51027	0.98934	-27.32913	0.98934	-27.32913	0.06923	-107.51027
2910	0.07119	-108.27272	0.98896	-27.57969	0.98896	-27.57969	0.07119	-108.27272
2930	0.07323	-108.57177	0.99006	-27.9437	0.99006	-27.9437	0.07323	-108.57177
2950	0.07521	-108.24103	0.99055	-28.14964	0.99055	-28.14964	0.07521	-108.24103
2970	0.07733	-108.07161	0.99107	-28.43168	0.99107	-28.43168	0.07733	-108.07161
2990	0.07833	-107.82922	0.98987	-28.68187	0.98987	-28.68187	0.07833	-107.82922
3010	0.07885	-107.79555	0.99018	-28.79264	0.99018	-28.79264	0.07885	-107.79555
3030	0.0794	-108.15273	0.9918	-28.91963	0.9918	-28.91963	0.0794	-108.15273
3050	0.08041	-108.98334	0.9911	-29.48163	0.9911	-29.48163	0.08041	-108.98334
3070	0.08133	-110.38226	0.98739	-29.85334	0.98739	-29.85334	0.08133	-110.38226
3090	0.08329	-111.22252	0.99075	-29.93545	0.99075	-29.93545	0.08329	-111.22252
3110	0.08552	-111.49304	0.99177	-30.01243	0.99177	-30.01243	0.08552	-111.49304
3130	0.08778	-111.31017	0.9889	-30.16721	0.9889	-30.16721	0.08778	-111.31017
3150	0.09034	-110.91766	0.98844	-30.28114	0.98844	-30.28114	0.09034	-110.91766
3170	0.09104	-110.6784	0.99014	-30.5216	0.99014	-30.5216	0.09104	-110.6784
3190	0.0917	-110.46948	0.98874	-30.77687	0.98874	-30.77687	0.0917	-110.46948
3210	0.09204	-110.54993	0.98813	-31.0854	0.98813	-31.0854	0.09204	-110.54993
3230	0.09242	-111.09038	0.98838	-31.41229	0.98838	-31.41229	0.09242	-111.09038
3250	0.09381	-112.17306	0.98564	-31.64922	0.98564	-31.64922	0.09381	-112.17306
3270	0.09589	-113.66647	0.99083	-32.02337	0.99083	-32.02337	0.09589	-113.66647
3290	0.09786	-114.43913	0.98989	-32.16487	0.98989	-32.16487	0.09786	-114.43913
3310	0.1001	-114.53211	0.98788	-32.26566	0.98788	-32.26566	0.1001	-114.53211
3330	0.10258	-114.13975	0.98823	-32.41435	0.98823	-32.41435	0.10258	-114.13975
3350	0.10489	-113.60957	0.99266	-32.59616	0.99266	-32.59616	0.10489	-113.60957
3370	0.10581	-113.68263	0.98699	-32.94773	0.98699	-32.94773	0.10581	-113.68263
3390	0.10613	-113.82049	0.98719	-33.20129	0.98719	-33.20129	0.10613	-113.82049
3410	0.1069	-114.1598	0.98697	-33.44514	0.98697	-33.44514	0.1069	-114.1598
3430	0.10844	-114.77666	0.98513	-33.75096	0.98513	-33.75096	0.10844	-114.77666
3450	0.11038	-115.68656	0.98561	-34.17375	0.98561	-34.17375	0.11038	-115.68656
3470	0.11155	-116.00483	0.98573	-34.3079	0.98573	-34.3079	0.11155	-116.00483
3490	0.11339	-116.03551	0.98752	-34.48421	0.98752	-34.48421	0.11339	-116.03551
3510	0.11524	-115.91625	0.9875	-34.62946	0.9875	-34.62946	0.11524	-115.91625
3530	0.11675	-115.78642	0.98639	-34.74715	0.98639	-34.74715	0.11675	-115.78642
3550	0.11787	-115.78718	0.98906	-34.91743	0.98906	-34.91743	0.11787	-115.78718
3570	0.11877	-116.07433	0.98606	-35.19017	0.98606	-35.19017	0.11877	-116.07433
3590	0.11941	-116.41904	0.98497	-35.5093	0.98497	-35.5093	0.11941	-116.41904
3610	0.12056	-116.71686	0.98632	-35.75137	0.98632	-35.75137	0.12056	-116.71686
3630	0.12233	-117.03404	0.98825	-35.92529	0.98825	-35.92529	0.12233	-117.03404
3650	0.12415	-117.60751	0.98655	-36.17228	0.98655	-36.17228	0.12415	-117.60751
3670	0.1256	-117.68489	0.98628	-36.46003	0.98628	-36.46003	0.1256	-117.68489
3690	0.12685	-117.54999	0.98635	-36.66155	0.98635	-36.66155	0.12685	-117.54999
3710	0.1279	-117.66898	0.98542	-36.9571	0.98542	-36.9571	0.1279	-117.66898
3730	0.12876	-118.03259	0.98424	-37.29715	0.98424	-37.29715	0.12876	-118.03259
3750	0.12939	-118.15615	0.98565	-37.40246	0.98565	-37.40246	0.12939	-118.15615
3770	0.13049	-118.87284	0.98308	-37.60889	0.98308	-37.60889	0.13049	-118.87284
3790	0.13245	-119.04956	0.98683	-37.84739	0.98683	-37.84739	0.13245	-119.04956
3810	0.13388	-119.46716	0.98636	-38.08103	0.98636	-38.08103	0.13388	-119.46716
3830	0.13499	-120.149	0.98147	-38.30685	0.98147	-38.30685	0.13499	-120.149
3850	0.13756	-120.36098	0.9823	-38.55584	0.9823	-38.55584	0.13756	-120.36098
3870	0.13881	-120.15992	0.98068	-38.75022	0.98068	-38.75022	0.13881	-120.15992
3890	0.14031	-120.09229	0.98473	-38.873	0.98473	-38.873	0.14031	-120.09229
3910	0.14135	-120.31861	0.98626	-39.1403	0.98626	-39.1403	0.14135	-120.31861
3930	0.14182	-120.72098	0.98397	-39.4952	0.98397	-39.4952	0.14182	-120.72098
3950	0.14227	-120.90316	0.98351	-39.60776	0.98351	-39.60776	0.14227	-120.90316
3970	0.144	-121.18873	0.98301	-39.82432	0.98301	-39.82432	0.144	-121.18873
3990	0.14562	-121.64576	0.98106	-40.03611	0.98106	-40.03611	0.14562	-121.64576
4010	0.14725	-122.07067	0.97996	-40.29312	0.97996	-40.29312	0.14725	-122.07067
4030	0.14883	-122.33614	0.98091	-40.58558	0.98091	-40.58558	0.14883	-122.33614
4050	0.15018	-122.39105	0.98407	-40.84393	0.98407	-40.84393	0.15018	-122.39105
4070	0.15115	-122.48333	0.98268	-41.23769	0.98268	-41.23769	0.15115	-122.48333
4090	0.1517	-122.95608	0.98097	-41.43039	0.98097	-41.43039	0.1517	-122.95608
4110	0.15233	-123.39182	0.98084	-41.59188	0.98084	-41.59188	0.15233	-123.39182
4130	0.15312	-123.67931	0.98175	-41.77812	0.98175	-41.77812	0.15312	-123.67931
4150	0.15368	-124.01352	0.98069	-41.93115	0.98069	-41.93115	0.15368	-124.01352
4170	0.15589	-124.58682	0.97959	-42.28973	0.97959	-42.28973	0.15589	-124.58682
4190	0.15773	-124.87765	0.97983	-42.50273	0.97983	-42.50273	0.15773	-124.87765
4210	0.15917	-125.0311	0.98006	-42.70388	0.98006	-42.70388	0.15917	-125.0311
4230	0.16033	-125.10688	0.97984	-42.92838	0.97984	-42.92838	0.16033	-125.10688
4250	0.16155	-125.07936	0.97964	-43.11284	0.97964	-43.11284	0.16155	-125.07936
4270	0.16221	-125.094	0.97768	-43.27411	0.97768	-43.27411	0.16221	-125.094
4290	0.16281	-125.84808	0.97739	-43.77935	0.97739	-43.77935	0.16281	-125.84808
4310	0.16345	-126.5815	0.97799	-44.09023	0.97799	-44.09023	0.16345	-126.5815
4330	0.16438	-127.08617	0.98049	-44.20796	0.98049	-44.20796	0.16438	-127.08617
4350	0.16606	-127.70598	0.98776	-44.6733	0.98776	-44.6733	0.16606	-127.70598
4370	0.16772	-128.14454	0.98012	-44.75973	0.98012	-44.75973	0.16772	-128.14454
4390	0.16959	-128.41686	0.97785	-44.84196	0.97785	-44.84196	0.16959	-128.41686
4410	0.17106	-128.61456	0.97796	-45.03153	0.97796	-45.03153	0.17106	-128.61456
4430	0.17203	-128.77176	0.97821	-45.29733	0.97821	-45.29733	0.17203	-128.77176
4450	0.1729	-128.86513	0.97705	-45.46569	0.97705	-45.46569	0.1729	-128.86513
4470	0.17613	-129.22625	0.97991	-45.91019	0.97991	-45.91019	0.17613	-129.22625
4490	0.17558	-129.48768	0.97614	-46.39052	0.97614	-46.39052	0.17558	-129.48768
4510	0.17653	-129.74522	0.97545	-46.55446	0.97545	-46.55446	0.17653	-129.74522
4530	0.17973	-130.18435	0.97877	-46.52646	0.97877	-46.52646	0.17973	-130.18435
4550	0.18135	-131.08026	0.97823	-46.90759	0.97823	-46.90759	0.18135	-131.08026
4570	0.18251	-131.45203	0.97521	-46.99274	0.97521	-46.99274	0.18251	-131.45203
4590	0.18375	-131.92154	0.97936	-47.23815	0.97936	-47.23815	0.18375	-131.92154
4610	0.18521	-132.21025	0.98027	-47.54137	0.98027	-47.54137	0.18521	-132.21025
4630	0.18695	-132.46134	0.97579	-47.84019	0.97579	-47.84019	0.18695	-132.46134
4650	0.18897	-133.23972	0.97207	-48.11266	0.97207	-48.11266	0.18897	-133.23972
4670	0.19015	-133.24019	0.97313	-48.51846	0.97313	-48.51846	0.19015	-133.24019
4690	0.19109	-133.65889	0.97071	-48.67214	0.97071	-48.67214	0.19109	-133.65889
4710	0.19285	-134.17876	0.96961	-48.83508	0.96961	-48.83508	0.19285	-134.17876
4730	0.19514	-134.7233	0.97035	-49.1336	0.97035	-49.1336	0.19514	-134.7233
4750	0.1963	-135.45664	0.96921	-49.55897	0.96921	-49.55897	0.1963	-135.45664
4770	0.19809	-135.78135	0.9678	-49.67745	0.9678	-49.67745	0.19809	-135.78135
4790	0.2003	-136.31907	0.96948	-50.07918	0.96948	-50.07918	0.2003	-136.31907
4810	0.20238	-136.70966	0.96952	-50.33503	0.96952	-50.33503	0.20238	-136.70966
4830	0.20441	-137.00999	0.96788	-50.43685	0.96788	-50.43685	0.20441	-137.00999
4850	0.20707	-137.69393	0.96922	-50.79754	0.96922	-50.79754	0.20707	-137.69393
4870	0.20896	-138.28909	0.96574	-51.0494	0.96574	-51.0494	0.20896	-138.28909
4890	0.21078	-138.75498	0.9634	-51.159	0.9634	-51.159	0.21078	-138.75498
4910	0.21297	-139.39594	0.96	-51.38113	0.96	-51.38113	0.21297	-139.39594
4930	0.21552	-140.31153	0.95652	-51.7448	0.95652	-51.7448	0.21552	-140.31153
4950	0.2179	-141.39659	0.95707	-52.05323	0.95707	-52.05323	0.2179	-141.39659
4970	0.21817	-142.59688	0.94941	-52.08528	0.94941	-52.08528	0.21817	-142.59688
4990	0.21994	-144.18787	0.9469	-52.42186	0.9469	-52.42186	0.21994	-144.18787
5010	0.22165	-145.91573	0.94144	-52.71675	0.94144	-52.71675	0.22165	-145.91573
5030	0.22221	-147.72343	0.93265	-52.77781	0.93265	-52.77781	0.22221	-147.72343
5050	0.22099	-149.75068	0.92783	-52.56699	0.92783	-52.56699	0.22099	-149.75068
5070	0.21747	-151.3115	0.92556	-52.33331	0.92556	-52.33331	0.21747	-151.3115
5090	0.21154	-152.76532	0.9223	-52.21585	0.9223	-52.21585	0.21154	-152.76532
5110	0.20442	-153.48615	0.92443	-51.8388	0.92443	-51.8388	0.20442	-153.48615
5130	0.19726	-153.29737	0.93227	-51.35163	0.93227	-51.35163	0.19726	-153.29737
5150	0.19119	-152.47169	0.94007	-51.42908	0.94007	-51.42908	0.19119	-152.47169
5170	0.18876	-151.32503	0.94622	-51.76965	0.94622	-51.76965	0.18876	-151.32503
5190	0.18829	-150.11456	0.94816	-51.90468	0.94816	-51.90468	0.18829	-150.11456
5210	0.18894	-148.92343	0.95099	-52.0418	0.95099	-52.0418	0.18894	-148.92343
5230	0.19012	-147.9207	0.9556	-52.31056	0.9556	-52.31056	0.19012	-147.9207
5250	0.19142	-147.36137	0.95861	-52.76238	0.95861	-52.76238	0.19142	-147.36137
5270	0.19273	-146.69505	0.96085	-53.1619	0.96085	-53.1619	0.19273	-146.69505
