! Data Taken on a HP 8720C VNA using a series-through fixture with TRL* de-embedding
#	mhz	s	ma	r	50
50	0.0651	72.88172	0.96997	-4.47876	0.96997	-4.47876	0.0651	72.88172
70	0.09621	71.98896	0.97111	-5.95614	0.97111	-5.95614	0.09621	71.98896
90	0.12361	72.26791	0.96887	-7.26912	0.96887	-7.26912	0.12361	72.26791
110	0.14823	71.9047	0.96516	-8.73479	0.96516	-8.73479	0.14823	71.9047
130	0.17173	70.7707	0.96084	-10.35354	0.96084	-10.35354	0.17173	70.7707
150	0.19649	70.4225	0.95571	-11.80904	0.95571	-11.80904	0.19649	70.4225
170	0.22007	69.98166	0.95014	-12.88989	0.95014	-12.88989	0.22007	69.98166
190	0.24303	68.68625	0.94138	-14.31375	0.94138	-14.31375	0.24303	68.68625
210	0.26537	67.53938	0.93246	-15.7229	0.93246	-15.7229	0.26537	67.53938
230	0.28745	66.69484	0.92571	-17.04296	0.92571	-17.04296	0.28745	66.69484
250	0.31001	65.45708	0.92278	-18.48289	0.92278	-18.48289	0.31001	65.45708
270	0.32965	64.16286	0.91104	-19.74334	0.91104	-19.74334	0.32965	64.16286
290	0.35076	63.14379	0.90198	-20.92566	0.90198	-20.92566	0.35076	63.14379
310	0.37261	62.02777	0.89352	-22.02671	0.89352	-22.02671	0.37261	62.02777
330	0.39414	60.74647	0.88423	-23.18787	0.88423	-23.18787	0.39414	60.74647
350	0.414	59.53531	0.87326	-24.69501	0.87326	-24.69501	0.414	59.53531
370	0.43336	58.95923	0.86899	-25.77083	0.86899	-25.77083	0.43336	58.95923
390	0.45243	57.90419	0.85897	-27.16962	0.85897	-27.16962	0.45243	57.90419
410	0.47097	56.84643	0.8477	-28.45434	0.8477	-28.45434	0.47097	56.84643
430	0.48874	55.93734	0.83834	-29.52841	0.83834	-29.52841	0.48874	55.93734
450	0.5056	55.00345	0.83268	-30.63568	0.83268	-30.63568	0.5056	55.00345
470	0.52053	53.74918	0.82083	-31.96386	0.82083	-31.96386	0.52053	53.74918
490	0.55628	53.26974	0.79775	-34.944	0.79775	-34.944	0.55628	53.26974
510	0.58906	52.55951	0.77746	-37.29677	0.77746	-37.29677	0.58906	52.55951
530	0.60748	51.53918	0.76514	-38.48056	0.76514	-38.48056	0.60748	51.53918
550	0.61262	51.0558	0.75709	-39.69143	0.75709	-39.69143	0.61262	51.0558
570	0.62498	49.90188	0.74768	-40.6123	0.74768	-40.6123	0.62498	49.90188
590	0.63984	48.85205	0.73499	-41.36033	0.73499	-41.36033	0.63984	48.85205
610	0.65226	48.0853	0.72446	-42.259	0.72446	-42.259	0.65226	48.0853
630	0.66193	47.36183	0.71552	-43.32542	0.71552	-43.32542	0.66193	47.36183
650	0.67314	46.02313	0.70155	-44.27036	0.70155	-44.27036	0.67314	46.02313
670	0.68675	45.36801	0.6905	-45.07556	0.6905	-45.07556	0.68675	45.36801
690	0.69898	44.69228	0.6798	-46.14144	0.6798	-46.14144	0.69898	44.69228
710	0.71059	43.6751	0.66832	-47.19097	0.66832	-47.19097	0.71059	43.6751
730	0.72084	42.58086	0.6565	-48.03187	0.6565	-48.03187	0.72084	42.58086
750	0.72745	42.25914	0.64631	-48.55664	0.64631	-48.55664	0.72745	42.25914
770	0.73896	41.29201	0.63607	-49.81528	0.63607	-49.81528	0.73896	41.29201
790	0.74878	40.37154	0.62464	-50.63682	0.62464	-50.63682	0.74878	40.37154
810	0.75726	39.77698	0.61401	-51.23863	0.61401	-51.23863	0.75726	39.77698
830	0.76393	39.24324	0.60324	-51.83701	0.60324	-51.83701	0.76393	39.24324
850	0.7674	37.96091	0.58848	-52.64726	0.58848	-52.64726	0.7674	37.96091
870	0.77357	37.64684	0.57593	-53.4973	0.57593	-53.4973	0.77357	37.64684
890	0.78305	36.68347	0.56788	-54.38132	0.56788	-54.38132	0.78305	36.68347
910	0.79096	35.53632	0.55838	-55.16609	0.55838	-55.16609	0.79096	35.53632
930	0.79616	34.56325	0.54627	-55.85764	0.54627	-55.85764	0.79616	34.56325
950	0.80129	34.01447	0.53524	-56.60123	0.53524	-56.60123	0.80129	34.01447
970	0.81484	33.23431	0.52594	-57.55085	0.52594	-57.55085	0.81484	33.23431
990	0.82297	32.34194	0.51638	-58.24142	0.51638	-58.24142	0.82297	32.34194
1010	0.82829	31.55818	0.50691	-58.81283	0.50691	-58.81283	0.82829	31.55818
1030	0.83354	30.97399	0.49773	-59.37453	0.49773	-59.37453	0.83354	30.97399
1050	0.84163	30.55045	0.48882	-60.00555	0.48882	-60.00555	0.84163	30.55045
1070	0.84845	29.95661	0.47797	-60.60076	0.47797	-60.60076	0.84845	29.95661
1090	0.85217	29.31615	0.46848	-61.17488	0.46848	-61.17488	0.85217	29.31615
1110	0.85565	28.7015	0.4591	-61.74604	0.4591	-61.74604	0.85565	28.7015
1130	0.86085	28.08396	0.44968	-62.36835	0.44968	-62.36835	0.86085	28.08396
1150	0.86879	27.33373	0.44115	-63.13184	0.44115	-63.13184	0.86879	27.33373
1170	0.87279	26.63144	0.43193	-63.87451	0.43193	-63.87451	0.87279	26.63144
1190	0.87701	26.16275	0.42319	-64.25906	0.42319	-64.25906	0.87701	26.16275
1210	0.88129	25.52591	0.41509	-64.84737	0.41509	-64.84737	0.88129	25.52591
1230	0.8851	24.7973	0.40685	-65.62586	0.40685	-65.62586	0.8851	24.7973
1250	0.88762	24.53134	0.39681	-66.00552	0.39681	-66.00552	0.88762	24.53134
1270	0.8968	24.10785	0.39052	-66.27011	0.39052	-66.27011	0.8968	24.10785
1290	0.89816	23.19825	0.38105	-67.23125	0.38105	-67.23125	0.89816	23.19825
1310	0.89822	22.68836	0.3713	-67.74819	0.3713	-67.74819	0.89822	22.68836
1330	0.90147	22.51655	0.36314	-67.83236	0.36314	-67.83236	0.90147	22.51655
1350	0.91044	21.67373	0.35739	-68.6474	0.35739	-68.6474	0.91044	21.67373
1370	0.91227	20.90156	0.34745	-69.30458	0.34745	-69.30458	0.91227	20.90156
1390	0.9122	20.42878	0.34032	-69.68113	0.34032	-69.68113	0.9122	20.42878
1410	0.91616	19.9197	0.3341	-70.09761	0.3341	-70.09761	0.91616	19.9197
1430	0.92204	19.34893	0.32701	-70.612	0.32701	-70.612	0.92204	19.34893
1450	0.91968	19.00131	0.31738	-71.01974	0.31738	-71.01974	0.91968	19.00131
1470	0.92567	18.58734	0.31065	-71.21045	0.31065	-71.21045	0.92567	18.58734
1490	0.92846	17.83545	0.30307	-71.99407	0.30307	-71.99407	0.92846	17.83545
1510	0.92798	17.31521	0.29514	-72.55361	0.29514	-72.55361	0.92798	17.31521
1530	0.92798	17.02755	0.28759	-72.78264	0.28759	-72.78264	0.92798	17.02755
1550	0.93599	16.40472	0.28129	-73.28528	0.28129	-73.28528	0.93599	16.40472
1570	0.93735	15.61719	0.27399	-74.04546	0.27399	-74.04546	0.93735	15.61719
1590	0.93638	15.21221	0.26629	-74.41313	0.26629	-74.41313	0.93638	15.21221
1610	0.93817	14.91786	0.25942	-74.61543	0.25942	-74.61543	0.93817	14.91786
1630	0.94258	14.54455	0.25318	-74.78858	0.25318	-74.78858	0.94258	14.54455
1650	0.94431	13.98505	0.24593	-74.97779	0.24593	-74.97779	0.94431	13.98505
1670	0.94228	13.32207	0.23901	-75.50384	0.23901	-75.50384	0.94228	13.32207
1690	0.94025	13.01292	0.23136	-75.85086	0.23136	-75.85086	0.94025	13.01292
1710	0.94256	12.63685	0.22475	-76.24272	0.22475	-76.24272	0.94256	12.63685
1730	0.94738	12.02362	0.21888	-76.73104	0.21888	-76.73104	0.94738	12.02362
1750	0.94673	11.25343	0.2114	-77.19509	0.2114	-77.19509	0.94673	11.25343
1770	0.95049	10.93878	0.2053	-77.43887	0.2053	-77.43887	0.95049	10.93878
1790	0.95392	10.56113	0.19976	-77.64705	0.19976	-77.64705	0.95392	10.56113
1810	0.95356	10.145	0.19303	-77.91864	0.19303	-77.91864	0.95356	10.145
1830	0.95171	9.74433	0.1857	-78.16537	0.1857	-78.16537	0.95171	9.74433
1850	0.9565	9.44249	0.18069	-78.11172	0.18069	-78.11172	0.9565	9.44249
1870	0.95938	8.45563	0.1743	-79.04104	0.1743	-79.04104	0.95938	8.45563
1890	0.95701	8.12683	0.16761	-79.27201	0.16761	-79.27201	0.95701	8.12683
1910	0.95829	7.87987	0.16156	-79.26873	0.16156	-79.26873	0.95829	7.87987
1930	0.96407	7.43437	0.15612	-79.40853	0.15612	-79.40853	0.96407	7.43437
1950	0.96726	6.80573	0.1503	-79.98208	0.1503	-79.98208	0.96726	6.80573
1970	0.96104	6.35409	0.1437	-80.10883	0.1437	-80.10883	0.96104	6.35409
1990	0.96162	6.13962	0.13761	-80.19404	0.13761	-80.19404	0.96162	6.13962
2010	0.96403	5.92004	0.13203	-80.26091	0.13203	-80.26091	0.96403	5.92004
2030	0.96567	5.51756	0.12666	-80.40055	0.12666	-80.40055	0.96567	5.51756
2050	0.96631	4.81894	0.12084	-80.77199	0.12084	-80.77199	0.96631	4.81894
2070	0.96152	4.39003	0.11457	-80.86512	0.11457	-80.86512	0.96152	4.39003
2090	0.96287	4.26709	0.10879	-80.83053	0.10879	-80.83053	0.96287	4.26709
2110	0.96721	3.77884	0.10349	-81.13312	0.10349	-81.13312	0.96721	3.77884
2130	0.96961	3.04971	0.09822	-81.55334	0.09822	-81.55334	0.96961	3.04971
2150	0.96336	2.99981	0.09218	-81.18713	0.09218	-81.18713	0.96336	2.99981
2170	0.96679	2.78651	0.08679	-80.87112	0.08679	-80.87112	0.96679	2.78651
2190	0.9691	2.28315	0.0815	-80.94286	0.0815	-80.94286	0.9691	2.28315
2210	0.97083	1.8203	0.07608	-80.7791	0.07608	-80.7791	0.97083	1.8203
2230	0.97203	1.42487	0.07061	-80.35769	0.07061	-80.35769	0.97203	1.42487
2250	0.97221	0.82015	0.06555	-80.25759	0.06555	-80.25759	0.97221	0.82015
2270	0.96828	0.34913	0.06009	-79.74412	0.06009	-79.74412	0.96828	0.34913
2290	0.9704	0.36442	0.05486	-79.13706	0.05486	-79.13706	0.9704	0.36442
2310	0.97343	0.07528	0.04977	-78.36398	0.04977	-78.36398	0.97343	0.07528
2330	0.97311	-0.63607	0.04464	-77.4031	0.04464	-77.4031	0.97311	-0.63607
2350	0.9661	-1.21452	0.03923	-76.28334	0.03923	-76.28334	0.9661	-1.21452
2370	0.9683	-0.9865	0.03446	-73.97806	0.03446	-73.97806	0.9683	-0.9865
2390	0.97306	-1.50081	0.02965	-71.52791	0.02965	-71.52791	0.97306	-1.50081
2410	0.97274	-2.00778	0.02482	-67.91743	0.02482	-67.91743	0.97274	-2.00778
2430	0.96856	-2.23867	0.02016	-62.22596	0.02016	-62.22596	0.96856	-2.23867
2450	0.97058	-2.40574	0.016	-53.62766	0.016	-53.62766	0.97058	-2.40574
2470	0.97407	-2.772	0.01255	-39.15111	0.01255	-39.15111	0.97407	-2.772
2490	0.97162	-3.33518	0.01046	-17.03313	0.01046	-17.03313	0.97162	-3.33518
2510	0.96735	-3.72131	0.01033	8.30613	0.01033	8.30613	0.96735	-3.72131
2530	0.96514	-3.94639	0.01214	31.75615	0.01214	31.75615	0.96514	-3.94639
2550	0.9686	-4.41629	0.01524	47.51598	0.01524	47.51598	0.9686	-4.41629
2570	0.97008	-4.76097	0.01963	55.89263	0.01963	55.89263	0.97008	-4.76097
2590	0.9692	-4.98715	0.02383	61.59882	0.02383	61.59882	0.9692	-4.98715
2610	0.96795	-5.30059	0.0282	65.44198	0.0282	65.44198	0.96795	-5.30059
2630	0.96738	-5.72773	0.03275	68.04486	0.03275	68.04486	0.96738	-5.72773
2650	0.96763	-6.1157	0.03714	69.84547	0.03714	69.84547	0.96763	-6.1157
2670	0.96679	-6.2026	0.04178	71.59462	0.04178	71.59462	0.96679	-6.2026
2690	0.96941	-6.60397	0.04639	72.65368	0.04639	72.65368	0.96941	-6.60397
2710	0.97196	-7.01543	0.05103	73.39514	0.05103	73.39514	0.97196	-7.01543
2730	0.97171	-7.33192	0.05568	74.05691	0.05568	74.05691	0.97171	-7.33192
2750	0.96679	-7.64771	0.06033	74.74234	0.06033	74.74234	0.96679	-7.64771
2770	0.95935	-8.06152	0.0649	75.14149	0.0649	75.14149	0.95935	-8.06152
2790	0.962	-8.33531	0.06925	75.28983	0.06925	75.28983	0.962	-8.33531
2810	0.96638	-8.6764	0.07366	75.26298	0.07366	75.26298	0.96638	-8.6764
2830	0.96704	-9.05685	0.07823	75.24559	0.07823	75.24559	0.96704	-9.05685
2850	0.96138	-9.21355	0.08286	75.53127	0.08286	75.53127	0.96138	-9.21355
2870	0.95975	-9.43031	0.08727	75.89549	0.08727	75.89549	0.95975	-9.43031
2890	0.96197	-9.53347	0.09186	75.89588	0.09186	75.89588	0.96197	-9.53347
2910	0.96428	-9.8327	0.09616	75.75455	0.09616	75.75455	0.96428	-9.8327
2930	0.96444	-10.21733	0.10019	75.70268	0.10019	75.70268	0.96444	-10.21733
2950	0.96173	-10.15638	0.10446	75.9805	0.10446	75.9805	0.96173	-10.15638
2970	0.96349	-10.82991	0.10948	75.89664	0.10948	75.89664	0.96349	-10.82991
2990	0.96228	-11.30687	0.11364	75.71388	0.11364	75.71388	0.96228	-11.30687
3010	0.96114	-11.5367	0.1174	75.60827	0.1174	75.60827	0.96114	-11.5367
3030	0.96146	-11.60484	0.12137	75.56034	0.12137	75.56034	0.96146	-11.60484
3050	0.9629	-11.73266	0.12629	75.3551	0.12629	75.3551	0.9629	-11.73266
3070	0.9575	-12.56952	0.13061	74.98408	0.13061	74.98408	0.9575	-12.56952
3090	0.95249	-12.873	0.13461	74.8043	0.13461	74.8043	0.95249	-12.873
3110	0.95144	-12.82037	0.13841	74.96503	0.13841	74.96503	0.95144	-12.82037
3130	0.95514	-12.77114	0.14242	75.17721	0.14242	75.17721	0.95514	-12.77114
3150	0.96158	-13.26707	0.14738	74.7134	0.14738	74.7134	0.96158	-13.26707
3170	0.9531	-13.67513	0.15054	74.41998	0.15054	74.41998	0.9531	-13.67513
3190	0.95311	-13.82491	0.15415	74.41825	0.15415	74.41825	0.95311	-13.82491
3210	0.95486	-14.05728	0.15841	74.21528	0.15841	74.21528	0.95486	-14.05728
3230	0.9536	-14.38698	0.1628	73.83784	0.1628	73.83784	0.9536	-14.38698
3250	0.94664	-14.5026	0.16612	73.83231	0.16612	73.83231	0.94664	-14.5026
3270	0.95401	-14.85112	0.17102	73.58987	0.17102	73.58987	0.95401	-14.85112
3290	0.95113	-15.2233	0.17471	73.12065	0.17471	73.12065	0.95113	-15.2233
3310	0.94729	-15.41254	0.1779	73.09115	0.1779	73.09115	0.94729	-15.41254
3330	0.94766	-15.45391	0.18159	73.44621	0.18159	73.44621	0.94766	-15.45391
3350	0.95329	-15.62416	0.18714	73.40904	0.18714	73.40904	0.95329	-15.62416
3370	0.95023	-16.47957	0.18972	72.84012	0.18972	72.84012	0.95023	-16.47957
3390	0.94464	-16.6397	0.1925	72.68159	0.1925	72.68159	0.94464	-16.6397
3410	0.94542	-16.51599	0.19618	72.69454	0.19618	72.69454	0.94542	-16.51599
3430	0.9502	-16.55694	0.20075	72.56434	0.20075	72.56434	0.9502	-16.55694
3450	0.94534	-17.2481	0.20553	71.90067	0.20553	71.90067	0.94534	-17.2481
3470	0.93741	-17.80556	0.20733	71.71574	0.20733	71.71574	0.93741	-17.80556
3490	0.93788	-17.66686	0.21108	71.89694	0.21108	71.89694	0.93788	-17.66686
3510	0.94238	-17.83436	0.21596	71.80288	0.21596	71.80288	0.94238	-17.83436
3530	0.94478	-18.47518	0.22016	71.40091	0.22016	71.40091	0.94478	-18.47518
3550	0.93718	-18.92111	0.22088	71.26716	0.22088	71.26716	0.93718	-18.92111
3570	0.93879	-18.56986	0.22458	71.24851	0.22458	71.24851	0.93879	-18.56986
3590	0.93951	-18.94983	0.22956	70.86446	0.22956	70.86446	0.93951	-18.94983
3610	0.93795	-19.23463	0.23313	70.6269	0.23313	70.6269	0.93795	-19.23463
3630	0.93555	-19.25903	0.23559	70.70472	0.23559	70.70472	0.93555	-19.25903
3650	0.93658	-19.51895	0.24016	70.92384	0.24016	70.92384	0.93658	-19.51895
3670	0.93493	-20.13594	0.2427	70.26778	0.2427	70.26778	0.93493	-20.13594
3690	0.93103	-20.1374	0.24515	70.30178	0.24515	70.30178	0.93103	-20.1374
3710	0.9325	-20.34775	0.24874	70.16519	0.24874	70.16519	0.9325	-20.34775
3730	0.93686	-20.89552	0.25295	69.69639	0.25295	69.69639	0.93686	-20.89552
3750	0.93153	-21.21338	0.25548	69.43274	0.25548	69.43274	0.93153	-21.21338
3770	0.92774	-20.99683	0.25859	69.43445	0.25859	69.43445	0.92774	-20.99683
3790	0.93177	-21.13499	0.26362	69.22396	0.26362	69.22396	0.93177	-21.13499
3810	0.93251	-21.41414	0.26742	69.05526	0.26742	69.05526	0.93251	-21.41414
3830	0.92814	-21.77154	0.26978	68.9829	0.26978	68.9829	0.92814	-21.77154
3850	0.92611	-22.29541	0.27338	68.86193	0.27338	68.86193	0.92611	-22.29541
3870	0.92286	-22.59185	0.27531	68.56766	0.27531	68.56766	0.92286	-22.59185
3890	0.92596	-22.66777	0.27909	68.68007	0.27909	68.68007	0.92596	-22.66777
3910	0.92851	-23.0288	0.28343	68.42798	0.28343	68.42798	0.92851	-23.0288
3930	0.9266	-23.58621	0.28691	67.8247	0.28691	67.8247	0.9266	-23.58621
3950	0.91943	-23.65682	0.28789	67.66793	0.28789	67.66793	0.91943	-23.65682
3970	0.92179	-23.31991	0.29191	67.86144	0.29191	67.86144	0.92179	-23.31991
3990	0.92387	-23.69111	0.29626	67.72705	0.29626	67.72705	0.92387	-23.69111
4010	0.92207	-24.1953	0.29927	67.50425	0.29927	67.50425	0.92207	-24.1953
4030	0.91697	-24.584	0.30134	67.29832	0.30134	67.29832	0.91697	-24.584
4050	0.91329	-24.93547	0.30503	67.08029	0.30503	67.08029	0.91329	-24.93547
4070	0.91834	-25.05262	0.30877	66.95623	0.30877	66.95623	0.91834	-25.05262
4090	0.92092	-25.61855	0.31159	66.61425	0.31159	66.61425	0.92092	-25.61855
4110	0.91887	-26.09039	0.31421	66.29656	0.31421	66.29656	0.91887	-26.09039
4130	0.91384	-26.16448	0.31687	66.18029	0.31687	66.18029	0.91384	-26.16448
4150	0.91126	-25.77642	0.3193	66.37752	0.3193	66.37752	0.91126	-25.77642
4170	0.91743	-26.36172	0.32502	65.84534	0.32502	65.84534	0.91743	-26.36172
4190	0.91403	-26.78592	0.32764	65.60255	0.32764	65.60255	0.91403	-26.78592
4210	0.91087	-26.92202	0.33008	65.60654	0.33008	65.60654	0.91087	-26.92202
4230	0.91219	-26.9568	0.33355	65.61816	0.33355	65.61816	0.91219	-26.9568
4250	0.91667	-27.39083	0.33754	65.2017	0.33754	65.2017	0.91667	-27.39083
4270	0.90826	-27.46823	0.33859	65.24791	0.33859	65.24791	0.90826	-27.46823
4290	0.90909	-27.87714	0.34224	64.93092	0.34224	64.93092	0.90909	-27.87714
4310	0.91053	-28.43495	0.34571	64.57599	0.34571	64.57599	0.91053	-28.43495
4330	0.90996	-28.87611	0.34875	64.38638	0.34875	64.38638	0.90996	-28.87611
4350	0.91075	-28.85209	0.35363	64.44333	0.35363	64.44333	0.91075	-28.85209
4370	0.90892	-29.12552	0.35571	64.15907	0.35571	64.15907	0.90892	-29.12552
4390	0.90583	-29.32571	0.3567	64.03786	0.3567	64.03786	0.90583	-29.32571
4410	0.90392	-29.49657	0.35899	63.92311	0.35899	63.92311	0.90392	-29.49657
4430	0.90299	-29.76387	0.36252	63.74097	0.36252	63.74097	0.90299	-29.76387
4450	0.9002	-30.33515	0.36472	63.50034	0.36472	63.50034	0.9002	-30.33515
4470	0.9027	-30.45933	0.36866	63.41164	0.36866	63.41164	0.9027	-30.45933
4490	0.9024	-30.96455	0.37181	63.00948	0.37181	63.00948	0.9024	-30.96455
4510	0.89868	-31.23668	0.37339	62.76059	0.37339	62.76059	0.89868	-31.23668
4530	0.89579	-31.13908	0.37518	62.84831	0.37518	62.84831	0.89579	-31.13908
4550	0.90286	-31.01258	0.38152	63.1726	0.38152	63.1726	0.90286	-31.01258
4570	0.90063	-32.08507	0.38342	62.33621	0.38342	62.33621	0.90063	-32.08507
4590	0.89093	-32.39826	0.38408	62.0557	0.38408	62.0557	0.89093	-32.39826
4610	0.88953	-32.29163	0.3866	62.0521	0.3866	62.0521	0.88953	-32.29163
4630	0.89657	-32.38406	0.39067	61.99109	0.39067	61.99109	0.89657	-32.38406
4650	0.89658	-33.57378	0.39267	61.48301	0.39267	61.48301	0.89658	-33.57378
4670	0.88992	-33.7118	0.39281	61.31957	0.39281	61.31957	0.88992	-33.7118
4690	0.88866	-33.71583	0.39544	61.29988	0.39544	61.29988	0.88866	-33.71583
4710	0.88972	-33.84924	0.39892	61.17045	0.39892	61.17045	0.88972	-33.84924
4730	0.89044	-34.22999	0.40245	60.8743	0.40245	60.8743	0.89044	-34.22999
4750	0.88867	-34.83067	0.40607	60.551	0.40607	60.551	0.88867	-34.83067
4770	0.88254	-35.01347	0.40537	60.53053	0.40537	60.53053	0.88254	-35.01347
4790	0.88255	-35.15925	0.40838	60.43012	0.40838	60.43012	0.88255	-35.15925
4810	0.88392	-35.43908	0.41299	60.2481	0.41299	60.2481	0.88392	-35.43908
4830	0.8844	-35.84834	0.41664	60.01323	0.41664	60.01323	0.8844	-35.84834
4850	0.88422	-36.20664	0.4163	59.78468	0.4163	59.78468	0.88422	-36.20664
4870	0.88645	-36.38683	0.42004	59.78886	0.42004	59.78886	0.88645	-36.38683
4890	0.88119	-36.58156	0.42259	59.52966	0.42259	59.52966	0.88119	-36.58156
4910	0.87737	-36.69269	0.42358	59.46785	0.42358	59.46785	0.87737	-36.69269
4930	0.87943	-36.83182	0.42525	59.53926	0.42525	59.53926	0.87943	-36.83182
4950	0.88733	-37.32037	0.43248	59.15481	0.43248	59.15481	0.88733	-37.32037
4970	0.87329	-37.86421	0.42829	58.75001	0.42829	58.75001	0.87329	-37.86421
4990	0.8723	-37.74839	0.43068	58.93571	0.43068	58.93571	0.8723	-37.74839
5010	0.87684	-37.97618	0.43561	58.77742	0.43561	58.77742	0.87684	-37.97618
5030	0.87809	-38.63635	0.43908	58.15585	0.43908	58.15585	0.87809	-38.63635
5050	0.86595	-38.90326	0.43708	57.7669	0.43708	57.7669	0.86595	-38.90326
5070	0.86937	-38.46298	0.43922	58.13755	0.43922	58.13755	0.86937	-38.46298
5090	0.87479	-38.76681	0.44451	57.90553	0.44451	57.90553	0.87479	-38.76681
5110	0.87388	-39.39905	0.44798	57.40821	0.44798	57.40821	0.87388	-39.39905
5130	0.86625	-39.82353	0.44825	57.09452	0.44825	57.09452	0.86625	-39.82353
5150	0.85948	-39.38359	0.44748	57.52491	0.44748	57.52491	0.85948	-39.38359
5170	0.86453	-39.68725	0.4527	57.44768	0.4527	57.44768	0.86453	-39.68725
5190	0.86732	-40.43247	0.45513	56.87156	0.45513	56.87156	0.86732	-40.43247
5210	0.86137	-40.84306	0.45476	56.52822	0.45476	56.52822	0.86137	-40.84306
5230	0.85374	-40.68081	0.45461	56.65358	0.45461	56.65358	0.85374	-40.68081
5250	0.86513	-40.2455	0.46077	56.98775	0.46077	56.98775	0.86513	-40.2455
5270	0.86604	-41.32884	0.46397	55.97302	0.46397	55.97302	0.86604	-41.32884
5290	0.85349	-41.47605	0.46196	55.6626	0.46196	55.6626	0.85349	-41.47605
5310	0.85261	-41.23227	0.46401	55.97768	0.46401	55.97768	0.85261	-41.23227
5330	0.8639	-41.2712	0.47037	56.22853	0.47037	56.22853	0.8639	-41.2712
5350	0.8632	-42.3951	0.47222	55.11445	0.47222	55.11445	0.8632	-42.3951
5370	0.84807	-42.43282	0.47053	55.2901	0.47053	55.2901	0.84807	-42.43282
5390	0.85181	-42.32258	0.47489	55.2281	0.47489	55.2281	0.85181	-42.32258
5410	0.85687	-42.5647	0.47802	54.9422	0.47802	54.9422	0.85687	-42.5647
5430	0.85587	-43.00029	0.47852	54.64629	0.47852	54.64629	0.85587	-43.00029
