! Data Taken on a HP 8720C VNA using a shunt-through fixture with TRL* de-embedding
#	mhz	s	ma	r	50
50	0.95912	177.08734	0.02941	71.45577	0.02941	71.45577	0.95912	177.08734
70	0.99312	177.12615	0.04419	77.54398	0.04419	77.54398	0.99312	177.12615
90	0.99103	175.75815	0.05588	76.46207	0.05588	76.46207	0.99103	175.75815
110	0.98176	174.95573	0.06674	75.91539	0.06674	75.91539	0.98176	174.95573
130	0.98188	174.75617	0.07808	77.47377	0.07808	77.47377	0.98188	174.75617
150	0.99562	173.26164	0.09028	76.5715	0.09028	76.5715	0.99562	173.26164
170	0.97809	172.97619	0.1008	76.58761	0.1008	76.58761	0.97809	172.97619
190	0.97737	172.21528	0.11183	76.36713	0.11183	76.36713	0.97737	172.21528
210	0.97799	171.15759	0.12278	75.64742	0.12278	75.64742	0.97799	171.15759
230	0.97413	170.26438	0.13337	74.72389	0.13337	74.72389	0.97413	170.26438
250	0.9697	170.27948	0.14366	74.44999	0.14366	74.44999	0.9697	170.27948
270	0.97503	169.24509	0.15591	73.86204	0.15591	73.86204	0.97503	169.24509
290	0.96856	168.10295	0.16611	73.10611	0.16611	73.10611	0.96856	168.10295
310	0.96177	167.25351	0.17643	72.613	0.17643	72.613	0.96177	167.25351
330	0.96099	166.55349	0.18759	72.23223	0.18759	72.23223	0.96099	166.55349
350	0.96745	165.31586	0.19886	71.23208	0.19886	71.23208	0.96745	165.31586
370	0.95557	164.90351	0.2078	70.69919	0.2078	70.69919	0.95557	164.90351
390	0.95575	164.31366	0.21876	70.09862	0.21876	70.09862	0.95575	164.31366
410	0.9554	163.35347	0.22955	69.31825	0.22955	69.31825	0.9554	163.35347
430	0.95096	162.34485	0.23948	68.58215	0.23948	68.58215	0.95096	162.34485
450	0.94779	162.12453	0.2493	68.45061	0.2493	68.45061	0.94779	162.12453
470	0.94734	161.17212	0.26042	67.58381	0.26042	67.58381	0.94734	161.17212
490	0.93898	158.89998	0.28608	66.14072	0.28608	66.14072	0.93898	158.89998
510	0.93275	157.18957	0.30735	65.10378	0.30735	65.10378	0.93275	157.18957
530	0.93186	156.43974	0.31887	64.72126	0.31887	64.72126	0.93186	156.43974
550	0.93265	155.56675	0.3289	64.50728	0.3289	64.50728	0.93265	155.56675
570	0.93048	154.91754	0.33741	63.46149	0.33741	63.46149	0.93048	154.91754
590	0.92719	154.37428	0.34573	62.70059	0.34573	62.70059	0.92719	154.37428
610	0.9221	153.60369	0.35432	61.99688	0.35432	61.99688	0.9221	153.60369
630	0.91671	152.68427	0.36392	61.29112	0.36392	61.29112	0.91671	152.68427
650	0.91461	152.10621	0.37554	60.69259	0.37554	60.69259	0.91461	152.10621
670	0.9071	150.96383	0.38406	59.43615	0.38406	59.43615	0.9071	150.96383
690	0.90303	150.11852	0.39089	58.98792	0.39089	58.98792	0.90303	150.11852
710	0.90337	149.39063	0.40009	58.38838	0.40009	58.38838	0.90337	149.39063
730	0.90331	148.64262	0.41089	57.43067	0.41089	57.43067	0.90331	148.64262
750	0.89237	147.77903	0.41767	56.66058	0.41767	56.66058	0.89237	147.77903
770	0.89616	147.73994	0.42735	56.20222	0.42735	56.20222	0.89616	147.73994
790	0.89382	146.94656	0.43585	55.45235	0.43585	55.45235	0.89382	146.94656
810	0.8846	146.19071	0.44259	54.83189	0.44259	54.83189	0.8846	146.19071
830	0.87259	145.61734	0.44912	54.2924	0.44912	54.2924	0.87259	145.61734
850	0.86669	144.72453	0.45909	53.31597	0.45909	53.31597	0.86669	144.72453
870	0.86321	143.79742	0.46679	52.32682	0.46679	52.32682	0.86321	143.79742
890	0.85841	143.16996	0.47269	51.8817	0.47269	51.8817	0.85841	143.16996
910	0.85512	142.49258	0.48142	51.39602	0.48142	51.39602	0.85512	142.49258
930	0.85223	141.65751	0.49189	50.60015	0.49189	50.60015	0.85223	141.65751
950	0.84472	140.79871	0.49732	49.53942	0.49732	49.53942	0.84472	140.79871
970	0.84311	140.49615	0.50605	49.10414	0.50605	49.10414	0.84311	140.49615
990	0.83945	139.82442	0.51352	48.64244	0.51352	48.64244	0.83945	139.82442
1010	0.83368	139.10034	0.51969	48.1573	0.51969	48.1573	0.83368	139.10034
1030	0.82701	138.43692	0.52547	47.59968	0.52547	47.59968	0.82701	138.43692
1050	0.82192	137.74334	0.53275	46.86856	0.53275	46.86856	0.82192	137.74334
1070	0.81485	136.76531	0.53801	46.09633	0.53801	46.09633	0.81485	136.76531
1090	0.81115	136.08832	0.54481	45.5128	0.54481	45.5128	0.81115	136.08832
1110	0.80757	135.42342	0.55207	44.92172	0.55207	44.92172	0.80757	135.42342
1130	0.80331	134.69056	0.55883	44.28274	0.55883	44.28274	0.80331	134.69056
1150	0.80004	134.01861	0.56422	43.71139	0.56422	43.71139	0.80004	134.01861
1170	0.79885	133.5674	0.57012	43.12572	0.57012	43.12572	0.79885	133.5674
1190	0.79214	132.80696	0.57643	42.61315	0.57643	42.61315	0.79214	132.80696
1210	0.78705	132.12547	0.58322	42.08215	0.58322	42.08215	0.78705	132.12547
1230	0.78372	131.53706	0.58956	41.45141	0.58956	41.45141	0.78372	131.53706
1250	0.77523	130.68178	0.59345	40.64987	0.59345	40.64987	0.77523	130.68178
1270	0.77136	130.54413	0.5966	40.58815	0.5966	40.58815	0.77136	130.54413
1290	0.7699	129.68698	0.60518	39.79354	0.60518	39.79354	0.7699	129.68698
1310	0.76616	128.70144	0.61213	38.95962	0.61213	38.95962	0.76616	128.70144
1330	0.75974	127.97595	0.61638	38.4125	0.61638	38.4125	0.75974	127.97595
1350	0.75451	127.69632	0.62283	38.11087	0.62283	38.11087	0.75451	127.69632
1370	0.75542	126.923	0.63112	37.49763	0.63112	37.49763	0.75542	126.923
1390	0.75013	126.28308	0.63417	37.25005	0.63417	37.25005	0.75013	126.28308
1410	0.74654	125.80258	0.63756	36.72608	0.63756	36.72608	0.74654	125.80258
1430	0.74447	125.33414	0.6429	35.87832	0.6429	35.87832	0.74447	125.33414
1450	0.73563	124.557	0.64783	35.25404	0.64783	35.25404	0.73563	124.557
1470	0.73226	124.2634	0.6512	35.06921	0.6512	35.06921	0.73226	124.2634
1490	0.72882	123.57749	0.65734	34.64989	0.65734	34.64989	0.72882	123.57749
1510	0.72381	122.92444	0.66244	34.0353	0.66244	34.0353	0.72381	122.92444
1530	0.71845	122.41113	0.66597	33.36137	0.66597	33.36137	0.71845	122.41113
1550	0.71667	121.82616	0.6707	32.8607	0.6707	32.8607	0.71667	121.82616
1570	0.71363	121.30517	0.67605	32.46167	0.67605	32.46167	0.71363	121.30517
1590	0.70871	120.57313	0.6797	31.96092	0.6797	31.96092	0.70871	120.57313
1610	0.70463	119.99308	0.68324	31.55373	0.68324	31.55373	0.70463	119.99308
1630	0.70132	119.63451	0.68697	31.20356	0.68697	31.20356	0.70132	119.63451
1650	0.69582	119.27329	0.6899	30.64211	0.6899	30.64211	0.69582	119.27329
1670	0.69129	118.65697	0.69468	30.23026	0.69468	30.23026	0.69129	118.65697
1690	0.68465	118.07745	0.69824	29.62507	0.69824	29.62507	0.68465	118.07745
1710	0.67944	117.65939	0.70256	29.12283	0.70256	29.12283	0.67944	117.65939
1730	0.67715	117.25173	0.70888	28.75997	0.70888	28.75997	0.67715	117.25173
1750	0.67718	116.42764	0.71769	28.31297	0.71769	28.31297	0.67718	116.42764
1770	0.67161	115.48275	0.71707	27.71485	0.71707	27.71485	0.67161	115.48275
1790	0.66761	115.2618	0.72033	27.37486	0.72033	27.37486	0.66761	115.2618
1810	0.66495	115.01884	0.72391	26.95537	0.72391	26.95537	0.66495	115.01884
1830	0.66165	114.50283	0.72586	26.41832	0.72586	26.41832	0.66165	114.50283
1850	0.654	113.9576	0.72585	26.02531	0.72585	26.02531	0.654	113.9576
1870	0.65077	113.65362	0.7326	25.66731	0.7326	25.66731	0.65077	113.65362
1890	0.64806	113.00708	0.73824	25.10165	0.73824	25.10165	0.64806	113.00708
1910	0.64389	112.30513	0.74063	24.64748	0.74063	24.64748	0.64389	112.30513
1930	0.639	111.71457	0.74165	24.35858	0.74165	24.35858	0.639	111.71457
1950	0.63691	111.28192	0.74722	24.02331	0.74722	24.02331	0.63691	111.28192
1970	0.63458	110.66946	0.74969	23.5158	0.74969	23.5158	0.63458	110.66946
1990	0.63097	110.08781	0.75009	23.08901	0.75009	23.08901	0.63097	110.08781
2010	0.62761	109.78597	0.75264	22.75764	0.75264	22.75764	0.62761	109.78597
2030	0.62465	109.65882	0.75766	22.4329	0.75766	22.4329	0.62465	109.65882
2050	0.62092	109.24712	0.76148	21.92251	0.76148	21.92251	0.62092	109.24712
2070	0.61553	108.53905	0.76475	21.28614	0.76475	21.28614	0.61553	108.53905
2090	0.61084	108.11087	0.76495	20.98633	0.76495	20.98633	0.61084	108.11087
2110	0.60814	107.64152	0.76768	20.53293	0.76768	20.53293	0.60814	107.64152
2130	0.60617	107.08319	0.7733	19.92969	0.7733	19.92969	0.60617	107.08319
2150	0.60117	106.66136	0.77683	19.67426	0.77683	19.67426	0.60117	106.66136
2170	0.5982	106.50957	0.7765	19.53175	0.7765	19.53175	0.5982	106.50957
2190	0.59775	106.10335	0.77904	19.16195	0.77904	19.16195	0.59775	106.10335
2210	0.59567	105.56372	0.78213	18.68728	0.78213	18.68728	0.59567	105.56372
2230	0.59112	105.04584	0.7847	18.2408	0.7847	18.2408	0.59112	105.04584
2250	0.58656	104.73901	0.78694	17.96628	0.78694	17.96628	0.58656	104.73901
2270	0.58431	104.32674	0.79232	17.48899	0.79232	17.48899	0.58431	104.32674
2290	0.58036	103.89731	0.79416	16.90708	0.79416	16.90708	0.58036	103.89731
2310	0.5768	103.61872	0.79578	16.61221	0.79578	16.61221	0.5768	103.61872
2330	0.57464	103.3338	0.79822	16.46877	0.79822	16.46877	0.57464	103.3338
2350	0.57382	102.56021	0.80025	15.81394	0.80025	15.81394	0.57382	102.56021
2370	0.56712	102.39985	0.80497	15.45241	0.80497	15.45241	0.56712	102.39985
2390	0.56483	102.05393	0.80709	15.23318	0.80709	15.23318	0.56483	102.05393
2410	0.56274	101.61613	0.80838	14.9353	0.80838	14.9353	0.56274	101.61613
2430	0.55952	101.13979	0.80945	14.47555	0.80945	14.47555	0.55952	101.13979
2450	0.55678	100.63798	0.80975	13.90846	0.80975	13.90846	0.55678	100.63798
2470	0.55345	100.48649	0.81522	13.7182	0.81522	13.7182	0.55345	100.48649
2490	0.55037	100.22199	0.81793	13.42262	0.81793	13.42262	0.55037	100.22199
2510	0.54696	99.92764	0.8197	13.14921	0.8197	13.14921	0.54696	99.92764
2530	0.54369	99.67072	0.82088	12.82115	0.82088	12.82115	0.54369	99.67072
2550	0.54198	99.50263	0.82034	12.15728	0.82034	12.15728	0.54198	99.50263
2570	0.53857	99.16802	0.82553	11.92069	0.82553	11.92069	0.53857	99.16802
2590	0.53543	98.81138	0.82765	11.51468	0.82765	11.51468	0.53543	98.81138
2610	0.53095	98.37613	0.82995	11.14988	0.82995	11.14988	0.53095	98.37613
2630	0.52648	97.95386	0.83282	10.85661	0.83282	10.85661	0.52648	97.95386
2650	0.52633	97.78432	0.83381	10.48491	0.83381	10.48491	0.52633	97.78432
2670	0.52461	97.46276	0.83402	10.28611	0.83402	10.28611	0.52461	97.46276
2690	0.52358	97.29188	0.83586	9.89373	0.83586	9.89373	0.52358	97.29188
2710	0.52055	97.1075	0.83826	9.64104	0.83826	9.64104	0.52055	97.1075
2730	0.51544	96.83186	0.8407	9.41398	0.8407	9.41398	0.51544	96.83186
2750	0.51076	96.47364	0.84318	8.65125	0.84318	8.65125	0.51076	96.47364
2770	0.50365	96.02461	0.8434	8.39241	0.8434	8.39241	0.50365	96.02461
2790	0.50163	95.65036	0.84507	8.01118	0.84507	8.01118	0.50163	95.65036
2810	0.50134	95.25984	0.84634	7.4968	0.84634	7.4968	0.50134	95.25984
2830	0.50038	94.86258	0.84719	6.99642	0.84719	6.99642	0.50038	94.86258
2850	0.49729	94.56873	0.84945	6.81506	0.84945	6.81506	0.49729	94.56873
2870	0.49361	94.3296	0.85104	6.7543	0.85104	6.7543	0.49361	94.3296
2890	0.49139	94.50741	0.85392	6.61946	0.85392	6.61946	0.49139	94.50741
2910	0.49021	94.4755	0.85727	6.224	0.85727	6.224	0.49021	94.4755
2930	0.4884	94.16531	0.85929	5.66633	0.85929	5.66633	0.4884	94.16531
2950	0.48307	94.0664	0.85716	5.3298	0.85716	5.3298	0.48307	94.0664
2970	0.47847	93.52564	0.85884	5.06763	0.85884	5.06763	0.47847	93.52564
2990	0.47662	93.03907	0.86079	4.48395	0.86079	4.48395	0.47662	93.03907
3010	0.47477	92.63826	0.86353	4.17806	0.86353	4.17806	0.47477	92.63826
3030	0.47262	92.2873	0.86594	4.11582	0.86594	4.11582	0.47262	92.2873
3050	0.4723	91.88288	0.86529	3.62965	0.86529	3.62965	0.4723	91.88288
3070	0.46776	91.69877	0.86687	3.17388	0.86687	3.17388	0.46776	91.69877
3090	0.46549	91.63646	0.87062	2.76658	0.87062	2.76658	0.46549	91.63646
3110	0.46189	91.62498	0.87164	2.48526	0.87164	2.48526	0.46189	91.62498
3130	0.45716	91.61616	0.87072	2.37144	0.87072	2.37144	0.45716	91.61616
3150	0.45521	91.58469	0.87432	2.43057	0.87432	2.43057	0.45521	91.58469
3170	0.45136	90.8822	0.87537	1.78985	0.87537	1.78985	0.45136	90.8822
3190	0.44794	90.4225	0.87479	1.46317	0.87479	1.46317	0.44794	90.4225
3210	0.44686	90.08128	0.87672	1.18308	0.87672	1.18308	0.44686	90.08128
3230	0.44708	89.88243	0.88048	0.83054	0.88048	0.83054	0.44708	89.88243
3250	0.44467	89.99803	0.88058	0.43486	0.88058	0.43486	0.44467	89.99803
3270	0.44369	89.77564	0.88747	-0.09866	0.88747	-0.09866	0.44369	89.77564
3290	0.44041	89.69417	0.88708	-0.29064	0.88708	-0.29064	0.44041	89.69417
3310	0.4364	89.57781	0.8854	-0.50447	0.8854	-0.50447	0.4364	89.57781
3330	0.43298	89.38437	0.88628	-0.79807	0.88628	-0.79807	0.43298	89.38437
3350	0.4313	89.20537	0.89141	-0.92392	0.89141	-0.92392	0.4313	89.20537
3370	0.42863	88.48444	0.89511	-1.14338	0.89511	-1.14338	0.42863	88.48444
3390	0.42683	88.05577	0.89419	-1.62855	0.89419	-1.62855	0.42683	88.05577
3410	0.42471	87.96695	0.89281	-2.00824	0.89281	-2.00824	0.42471	87.96695
3430	0.42178	88.071	0.89357	-2.24149	0.89357	-2.24149	0.42178	88.071
3450	0.41825	88.02636	0.89745	-2.61751	0.89745	-2.61751	0.41825	88.02636
3470	0.41457	87.60775	0.89728	-3.27215	0.89728	-3.27215	0.41457	87.60775
3490	0.41065	87.46168	0.89669	-3.45551	0.89669	-3.45551	0.41065	87.46168
3510	0.40823	87.22177	0.89802	-3.61932	0.89802	-3.61932	0.40823	87.22177
3530	0.40707	86.78947	0.90149	-3.92155	0.90149	-3.92155	0.40707	86.78947
3550	0.40497	86.33398	0.9052	-4.22641	0.9052	-4.22641	0.40497	86.33398
3570	0.40237	86.04842	0.90094	-4.44913	0.90094	-4.44913	0.40237	86.04842
3590	0.39924	85.95721	0.90481	-4.65531	0.90481	-4.65531	0.39924	85.95721
3610	0.3977	85.79802	0.90901	-5.0293	0.90901	-5.0293	0.3977	85.79802
3630	0.39704	85.55795	0.90943	-5.47266	0.90943	-5.47266	0.39704	85.55795
3650	0.39365	85.47354	0.90563	-5.60416	0.90563	-5.60416	0.39365	85.47354
3670	0.39453	85.27026	0.91193	-6.19975	0.91193	-6.19975	0.39453	85.27026
3690	0.38931	84.95536	0.91005	-6.57063	0.91005	-6.57063	0.38931	84.95536
3710	0.38491	84.65054	0.9071	-6.85877	0.9071	-6.85877	0.38491	84.65054
3730	0.38317	84.37524	0.90776	-7.12831	0.90776	-7.12831	0.38317	84.37524
3750	0.38088	84.04662	0.91434	-7.36553	0.91434	-7.36553	0.38088	84.04662
3770	0.37825	84.00309	0.91205	-7.67985	0.91205	-7.67985	0.37825	84.00309
3790	0.37685	84.00826	0.91484	-7.95393	0.91484	-7.95393	0.37685	84.00826
3810	0.37532	83.78789	0.91643	-8.23355	0.91643	-8.23355	0.37532	83.78789
3830	0.37277	83.42508	0.91569	-8.51493	0.91569	-8.51493	0.37277	83.42508
3850	0.36871	83.36026	0.91654	-8.74471	0.91654	-8.74471	0.36871	83.36026
3870	0.36515	82.85772	0.91586	-9.15958	0.91586	-9.15958	0.36515	82.85772
3890	0.36327	82.67428	0.9182	-9.36959	0.9182	-9.36959	0.36327	82.67428
3910	0.36165	82.37306	0.92158	-9.61318	0.92158	-9.61318	0.36165	82.37306
3930	0.35936	81.83856	0.92409	-9.95596	0.92409	-9.95596	0.35936	81.83856
3950	0.35595	81.27662	0.92386	-10.29063	0.92386	-10.29063	0.35595	81.27662
3970	0.35458	81.58203	0.92142	-10.68599	0.92142	-10.68599	0.35458	81.58203
3990	0.35311	81.47791	0.92291	-10.95654	0.92291	-10.95654	0.35311	81.47791
4010	0.35092	81.13282	0.925	-11.18732	0.925	-11.18732	0.35092	81.13282
4030	0.34812	80.73325	0.92659	-11.43647	0.92659	-11.43647	0.34812	80.73325
4050	0.34555	80.4836	0.92878	-11.73527	0.92878	-11.73527	0.34555	80.4836
4070	0.34346	80.08159	0.9292	-12.2901	0.9292	-12.2901	0.34346	80.08159
4090	0.34174	79.62953	0.92922	-12.52726	0.92922	-12.52726	0.34174	79.62953
4110	0.34055	79.25312	0.93073	-12.7419	0.93073	-12.7419	0.34055	79.25312
4130	0.33891	79.03996	0.9328	-13.06049	0.9328	-13.06049	0.33891	79.03996
4150	0.33466	79.03948	0.93165	-13.44084	0.93165	-13.44084	0.33466	79.03948
4170	0.335	78.97445	0.9327	-13.59497	0.9327	-13.59497	0.335	78.97445
4190	0.33372	78.57785	0.93447	-13.87678	0.93447	-13.87678	0.33372	78.57785
4210	0.33042	78.28342	0.93276	-14.13213	0.93276	-14.13213	0.33042	78.28342
4230	0.32697	78.19572	0.93073	-14.28852	0.93073	-14.28852	0.32697	78.19572
4250	0.32755	78.09017	0.93892	-14.35512	0.93892	-14.35512	0.32755	78.09017
4270	0.32401	77.61236	0.93659	-14.81192	0.93659	-14.81192	0.32401	77.61236
4290	0.32244	77.39223	0.93668	-15.10987	0.93668	-15.10987	0.32244	77.39223
4310	0.3214	77.05101	0.93806	-15.41921	0.93806	-15.41921	0.3214	77.05101
4330	0.32053	76.58455	0.94119	-15.8597	0.94119	-15.8597	0.32053	76.58455
4350	0.3205	76.36336	0.9481	-16.50069	0.9481	-16.50069	0.3205	76.36336
4370	0.31773	76.45995	0.94333	-16.5031	0.94333	-16.5031	0.31773	76.45995
4390	0.31533	76.51731	0.94227	-16.64875	0.94227	-16.64875	0.31533	76.51731
4410	0.31274	76.50198	0.94227	-16.92657	0.94227	-16.92657	0.31274	76.50198
4430	0.31041	76.19115	0.94289	-17.26813	0.94289	-17.26813	0.31041	76.19115
4450	0.30982	75.17256	0.946	-17.54765	0.946	-17.54765	0.30982	75.17256
4470	0.30662	75.00452	0.94445	-17.93371	0.94445	-17.93371	0.30662	75.00452
4490	0.30359	75.0124	0.94488	-18.01409	0.94488	-18.01409	0.30359	75.0124
4510	0.30174	74.90824	0.94681	-18.26735	0.94681	-18.26735	0.30174	74.90824
4530	0.30068	74.66496	0.94778	-18.68217	0.94778	-18.68217	0.30068	74.66496
4550	0.29859	74.51633	0.94335	-18.75733	0.94335	-18.75733	0.29859	74.51633
4570	0.29712	74.56977	0.94958	-18.94683	0.94958	-18.94683	0.29712	74.56977
4590	0.29496	74.07813	0.9505	-19.53802	0.9505	-19.53802	0.29496	74.07813
4610	0.29202	73.7756	0.94914	-19.89033	0.94914	-19.89033	0.29202	73.7756
4630	0.2892	73.70835	0.94839	-19.9722	0.94839	-19.9722	0.2892	73.70835
4650	0.28835	73.23454	0.95096	-20.36107	0.95096	-20.36107	0.28835	73.23454
4670	0.28517	72.72496	0.95071	-20.78485	0.95071	-20.78485	0.28517	72.72496
4690	0.283	72.48439	0.94982	-20.89678	0.94982	-20.89678	0.283	72.48439
4710	0.28192	72.35682	0.95011	-21.13297	0.95011	-21.13297	0.28192	72.35682
4730	0.28136	72.17184	0.95202	-21.56217	0.95202	-21.56217	0.28136	72.17184
4750	0.28009	71.7447	0.9546	-21.88576	0.9546	-21.88576	0.28009	71.7447
4770	0.27742	71.68729	0.95606	-22.07466	0.95606	-22.07466	0.27742	71.68729
4790	0.27487	71.36268	0.95594	-22.36038	0.95594	-22.36038	0.27487	71.36268
4810	0.27225	71.14149	0.95655	-22.6022	0.95655	-22.6022	0.27225	71.14149
4830	0.27007	70.91519	0.95766	-22.84372	0.95766	-22.84372	0.27007	70.91519
4850	0.26955	70.09615	0.95651	-23.31285	0.95651	-23.31285	0.26955	70.09615
4870	0.26704	70.05742	0.95959	-23.48117	0.95959	-23.48117	0.26704	70.05742
4890	0.26511	69.93408	0.96024	-23.62659	0.96024	-23.62659	0.26511	69.93408
4910	0.26364	69.57729	0.95831	-23.90522	0.95831	-23.90522	0.26364	69.57729
4930	0.26277	69.12293	0.9568	-24.2286	0.9568	-24.2286	0.26277	69.12293
4950	0.26287	68.99162	0.96186	-24.26372	0.96186	-24.26372	0.26287	68.99162
4970	0.26065	68.69475	0.96198	-24.3753	0.96198	-24.3753	0.26065	68.69475
4990	0.25791	68.47296	0.96003	-24.89372	0.96003	-24.89372	0.25791	68.47296
5010	0.25582	68.41655	0.95852	-25.21297	0.95852	-25.21297	0.25582	68.41655
5030	0.25422	68.32308	0.95883	-25.36	0.95883	-25.36	0.25422	68.32308
5050	0.25166	67.69734	0.96116	-25.99473	0.96116	-25.99473	0.25166	67.69734
5070	0.2488	67.39521	0.95884	-26.16309	0.95884	-26.16309	0.2488	67.39521
5090	0.24796	67.27131	0.95971	-26.42843	0.95971	-26.42843	0.24796	67.27131
5110	0.24707	66.95586	0.96309	-26.69986	0.96309	-26.69986	0.24707	66.95586
5130	0.24531	66.54008	0.96581	-26.98451	0.96581	-26.98451	0.24531	66.54008
5150	0.24309	66.57615	0.96215	-27.38756	0.96215	-27.38756	0.24309	66.57615
5170	0.24156	66.51418	0.96248	-27.48217	0.96248	-27.48217	0.24156	66.51418
5190	0.23968	66.41367	0.96277	-27.67278	0.96277	-27.67278	0.23968	66.41367
5210	0.23697	66.06575	0.96283	-27.9909	0.96283	-27.9909	0.23697	66.06575
5230	0.23398	65.65811	0.96176	-28.34595	0.96176	-28.34595	0.23398	65.65811
5250	0.23231	65.775	0.958	-28.52525	0.958	-28.52525	0.23231	65.775
5270	0.23198	65.09411	0.96354	-28.75597	0.96354	-28.75597	0.23198	65.09411
5290	0.22998	64.51366	0.96282	-29.18398	0.96282	-29.18398	0.22998	64.51366
5310	0.22832	64.40227	0.96333	-29.41255	0.96333	-29.41255	0.22832	64.40227
5330	0.22769	64.64257	0.96633	-29.45061	0.96633	-29.45061	0.22769	64.64257
5350	0.22751	64.63116	0.96684	-29.7128	0.96684	-29.7128	0.22751	64.63116
5370	0.22344	64.04263	0.96843	-30.04399	0.96843	-30.04399	0.22344	64.04263
5390	0.22032	63.98781	0.96916	-30.52967	0.96916	-30.52967	0.22032	63.98781
5410	0.21873	63.89451	0.97026	-30.87544	0.97026	-30.87544	0.21873	63.89451
5430	0.21758	63.40925	0.97022	-31.01277	0.97022	-31.01277	0.21758	63.40925
5450	0.21403	62.39727	0.96477	-31.09896	0.96477	-31.09896	0.21403	62.39727
