! Data Taken on a HP 8720C VNA using a shunt-through fixture with TRL* de-embedding
#	mhz	s	ma	r	50
50	0.88571	164.00986	0.26217	64.11055	0.26217	64.11055	0.88571	164.00986
70	0.88587	158.82778	0.35262	60.45005	0.35262	60.45005	0.88587	158.82778
90	0.84733	153.6207	0.42564	56.23164	0.42564	56.23164	0.84733	153.6207
110	0.80549	149.20302	0.49069	52.54106	0.49069	52.54106	0.80549	149.20302
130	0.77283	145.3143	0.55142	49.31864	0.55142	49.31864	0.77283	145.3143
150	0.73895	140.61919	0.60565	45.35929	0.60565	45.35929	0.73895	140.61919
170	0.69836	137.96253	0.64712	42.84902	0.64712	42.84902	0.69836	137.96253
190	0.66465	134.804	0.68536	39.93853	0.68536	39.93853	0.66465	134.804
210	0.63036	131.80175	0.7172	37.21979	0.7172	37.21979	0.63036	131.80175
230	0.59587	129.21531	0.74438	34.94504	0.74438	34.94504	0.59587	129.21531
250	0.56934	126.90552	0.77348	33.02671	0.77348	33.02671	0.56934	126.90552
270	0.54323	124.37003	0.79432	30.59438	0.79432	30.59438	0.54323	124.37003
290	0.51546	122.14396	0.81116	28.64404	0.81116	28.64404	0.51546	122.14396
310	0.49222	120.14033	0.82715	27.12277	0.82715	27.12277	0.49222	120.14033
330	0.47335	118.18679	0.84292	25.75435	0.84292	25.75435	0.47335	118.18679
350	0.45226	116.02559	0.85658	24.03918	0.85658	24.03918	0.45226	116.02559
370	0.43383	115.01624	0.86722	22.79364	0.86722	22.79364	0.43383	115.01624
390	0.41633	113.61642	0.87862	21.43537	0.87862	21.43537	0.41633	113.61642
410	0.39971	112.14582	0.88788	20.0666	0.88788	20.0666	0.39971	112.14582
430	0.38394	110.7971	0.89539	18.86021	0.89539	18.86021	0.38394	110.7971
450	0.36902	109.63598	0.90487	18.05975	0.90487	18.05975	0.36902	109.63598
470	0.35497	108.25667	0.91177	16.95639	0.91177	16.95639	0.35497	108.25667
490	0.33042	105.47872	0.9272	14.92385	0.9272	14.92385	0.33042	105.47872
510	0.31084	103.17692	0.93567	13.27224	0.93567	13.27224	0.31084	103.17692
530	0.29986	101.95146	0.93651	12.39884	0.93651	12.39884	0.29986	101.95146
550	0.28928	101.12797	0.94379	11.78809	0.94379	11.78809	0.28928	101.12797
570	0.28096	100.49886	0.94821	11.14028	0.94821	11.14028	0.28096	100.49886
590	0.27237	99.8581	0.94997	10.65165	0.94997	10.65165	0.27237	99.8581
610	0.2634	98.96696	0.95314	10.01954	0.95314	10.01954	0.2634	98.96696
630	0.25464	97.87626	0.95757	9.25598	0.95757	9.25598	0.25464	97.87626
650	0.24743	96.92648	0.95888	8.68766	0.95888	8.68766	0.24743	96.92648
670	0.24027	96.16257	0.96073	8.05021	0.96073	8.05021	0.24027	96.16257
690	0.23543	95.48088	0.96155	7.5247	0.96155	7.5247	0.23543	95.48088
710	0.23067	94.96796	0.96357	6.87646	0.96357	6.87646	0.23067	94.96796
730	0.22473	94.68115	0.9661	6.19097	0.9661	6.19097	0.22473	94.68115
750	0.21728	94.64853	0.96558	5.87384	0.96558	5.87384	0.21728	94.64853
770	0.21031	94.54499	0.97063	5.28366	0.97063	5.28366	0.21031	94.54499
790	0.20349	94.19766	0.96947	4.82369	0.96947	4.82369	0.20349	94.19766
810	0.19619	93.5988	0.96855	4.43269	0.96855	4.43269	0.19619	93.5988
830	0.18878	92.70664	0.9694	4.04944	0.9694	4.04944	0.18878	92.70664
850	0.18269	91.44537	0.9686	3.61282	0.9686	3.61282	0.18269	91.44537
870	0.17853	90.6989	0.97162	3.04252	0.97162	3.04252	0.17853	90.6989
890	0.17475	90.01381	0.97272	2.59235	0.97272	2.59235	0.17475	90.01381
910	0.17072	89.33883	0.97416	2.1735	0.97416	2.1735	0.17072	89.33883
930	0.16622	88.77397	0.97611	1.71644	0.97611	1.71644	0.16622	88.77397
950	0.16147	88.57047	0.97664	1.17097	0.97664	1.17097	0.16147	88.57047
970	0.15645	88.30328	0.97777	0.8206	0.97777	0.8206	0.15645	88.30328
990	0.15171	87.46607	0.97793	0.46272	0.97793	0.46272	0.15171	87.46607
1010	0.14745	86.36115	0.97864	0.02461	0.97864	0.02461	0.14745	86.36115
1030	0.1437	85.20449	0.98041	-0.38446	0.98041	-0.38446	0.1437	85.20449
1050	0.14029	84.12571	0.98279	-0.47326	0.98279	-0.47326	0.14029	84.12571
1070	0.13816	83.13679	0.98104	-1.0733	0.98104	-1.0733	0.13816	83.13679
1090	0.13611	82.55811	0.98189	-1.38188	0.98189	-1.38188	0.13611	82.55811
1110	0.13381	82.21323	0.98312	-1.66344	0.98312	-1.66344	0.13381	82.21323
1130	0.13106	81.94475	0.98369	-2.01044	0.98369	-2.01044	0.13106	81.94475
1150	0.1277	81.61429	0.98373	-2.34332	0.98373	-2.34332	0.1277	81.61429
1170	0.12417	81.30048	0.98291	-2.73712	0.98291	-2.73712	0.12417	81.30048
1190	0.12058	80.65096	0.98419	-3.10539	0.98419	-3.10539	0.12058	80.65096
1210	0.11732	79.78172	0.98514	-3.43119	0.98514	-3.43119	0.11732	79.78172
1230	0.11456	78.80807	0.98528	-3.77238	0.98528	-3.77238	0.11456	78.80807
1250	0.11225	77.84459	0.98603	-4.26161	0.98603	-4.26161	0.11225	77.84459
1270	0.11087	77.28161	0.98569	-4.33428	0.98569	-4.33428	0.11087	77.28161
1290	0.10903	76.79554	0.98611	-4.71619	0.98611	-4.71619	0.10903	76.79554
1310	0.10685	76.58058	0.98799	-5.02683	0.98799	-5.02683	0.10685	76.58058
1330	0.10438	76.56859	0.9901	-5.26463	0.9901	-5.26463	0.10438	76.56859
1350	0.10161	76.42913	0.98933	-5.80697	0.98933	-5.80697	0.10161	76.42913
1370	0.09956	76.18271	0.98786	-6.17035	0.98786	-6.17035	0.09956	76.18271
1390	0.09656	75.93654	0.98982	-6.31666	0.98982	-6.31666	0.09656	75.93654
1410	0.09378	75.52391	0.99201	-6.54529	0.99201	-6.54529	0.09378	75.52391
1430	0.09133	74.99664	0.99193	-6.89087	0.99193	-6.89087	0.09133	74.99664
1450	0.0882	74.62512	0.98785	-7.12326	0.98785	-7.12326	0.0882	74.62512
1470	0.0856	74.20066	0.99026	-7.45456	0.99026	-7.45456	0.0856	74.20066
1490	0.08308	73.56976	0.99195	-7.87254	0.99195	-7.87254	0.08308	73.56976
1510	0.08059	72.86002	0.99138	-8.17101	0.99138	-8.17101	0.08059	72.86002
1530	0.07826	72.11614	0.98959	-8.36424	0.98959	-8.36424	0.07826	72.11614
1550	0.07641	71.30002	0.99027	-8.68696	0.99027	-8.68696	0.07641	71.30002
1570	0.07456	70.78821	0.98951	-8.91976	0.98951	-8.91976	0.07456	70.78821
1590	0.07235	70.40315	0.99075	-9.24144	0.99075	-9.24144	0.07235	70.40315
1610	0.07019	70.19277	0.99112	-9.53366	0.99112	-9.53366	0.07019	70.19277
1630	0.06792	70.0736	0.99042	-9.76842	0.99042	-9.76842	0.06792	70.0736
1650	0.06481	69.83077	0.99109	-10.00818	0.99109	-10.00818	0.06481	69.83077
1670	0.06224	68.50658	0.98988	-10.24033	0.98988	-10.24033	0.06224	68.50658
1690	0.0598	67.09745	0.98966	-10.49576	0.98966	-10.49576	0.0598	67.09745
1710	0.05786	65.67522	0.99084	-10.7702	0.99084	-10.7702	0.05786	65.67522
1730	0.05654	64.35941	0.99279	-11.07109	0.99279	-11.07109	0.05654	64.35941
1750	0.05567	63.31731	0.99388	-11.41758	0.99388	-11.41758	0.05567	63.31731
1770	0.05465	62.84352	0.99266	-11.80751	0.99266	-11.80751	0.05465	62.84352
1790	0.05281	62.57876	0.99279	-11.96772	0.99279	-11.96772	0.05281	62.57876
1810	0.0505	62.38975	0.99252	-12.15283	0.99252	-12.15283	0.0505	62.38975
1830	0.04793	61.79628	0.99203	-12.42423	0.99203	-12.42423	0.04793	61.79628
1850	0.04521	59.97117	0.99344	-12.65003	0.99344	-12.65003	0.04521	59.97117
1870	0.04325	57.14992	0.99306	-12.90205	0.99306	-12.90205	0.04325	57.14992
1890	0.04176	54.62125	0.99451	-13.25198	0.99451	-13.25198	0.04176	54.62125
1910	0.04104	52.48283	0.9928	-13.43459	0.9928	-13.43459	0.04104	52.48283
1930	0.04094	50.85862	0.98982	-13.5231	0.98982	-13.5231	0.04094	50.85862
1950	0.04081	49.89888	0.9943	-13.92919	0.9943	-13.92919	0.04081	49.89888
1970	0.03982	49.86748	0.99386	-14.19953	0.99386	-14.19953	0.03982	49.86748
1990	0.03805	50.01947	0.99266	-14.36177	0.99266	-14.36177	0.03805	50.01947
2010	0.03609	49.58655	0.99326	-14.51998	0.99326	-14.51998	0.03609	49.58655
2030	0.03409	48.1927	0.99526	-14.78791	0.99526	-14.78791	0.03409	48.1927
2050	0.03175	45.85423	0.99531	-15.28902	0.99531	-15.28902	0.03175	45.85423
2070	0.03049	42.4849	0.99391	-15.49947	0.99391	-15.49947	0.03049	42.4849
2090	0.0298	39.79194	0.99124	-15.66984	0.99124	-15.66984	0.0298	39.79194
2110	0.0294	37.96531	0.99169	-16.02545	0.99169	-16.02545	0.0294	37.96531
2130	0.02897	37.08345	0.99435	-16.42296	0.99435	-16.42296	0.02897	37.08345
2150	0.0282	37.11327	0.99301	-16.35029	0.99301	-16.35029	0.0282	37.11327
2170	0.0271	36.81235	0.99319	-16.62338	0.99319	-16.62338	0.0271	36.81235
2190	0.02517	35.80706	0.99456	-16.89235	0.99456	-16.89235	0.02517	35.80706
2210	0.02303	33.81058	0.99384	-17.2171	0.99384	-17.2171	0.02303	33.81058
2230	0.02114	30.63197	0.99192	-17.5455	0.99192	-17.5455	0.02114	30.63197
2250	0.01974	26.17626	0.9939	-17.71337	0.9939	-17.71337	0.01974	26.17626
2270	0.01885	21.35127	0.99479	-17.87407	0.99479	-17.87407	0.01885	21.35127
2290	0.01821	16.49705	0.99596	-18.31356	0.99596	-18.31356	0.01821	16.49705
2310	0.01746	11.93899	0.99555	-18.55521	0.99555	-18.55521	0.01746	11.93899
2330	0.01669	7.74129	0.99365	-18.62307	0.99365	-18.62307	0.01669	7.74129
2350	0.01642	3.70692	0.99225	-19.04181	0.99225	-19.04181	0.01642	3.70692
2370	0.01575	-2.11557	0.99254	-19.39729	0.99254	-19.39729	0.01575	-2.11557
2390	0.01508	-8.50146	0.99497	-19.59023	0.99497	-19.59023	0.01508	-8.50146
2410	0.01488	-14.92852	0.99447	-19.71348	0.99447	-19.71348	0.01488	-14.92852
2430	0.01504	-21.2626	0.99185	-19.86612	0.99185	-19.86612	0.01504	-21.2626
2450	0.01493	-27.75769	0.99373	-20.15343	0.99373	-20.15343	0.01493	-27.75769
2470	0.01514	-32.33124	0.99615	-20.31488	0.99615	-20.31488	0.01514	-32.33124
2490	0.01518	-39.12635	0.99429	-20.59646	0.99429	-20.59646	0.01518	-39.12635
2510	0.01536	-46.01774	0.99324	-20.86881	0.99324	-20.86881	0.01536	-46.01774
2530	0.01588	-52.22255	0.99368	-21.11304	0.99368	-21.11304	0.01588	-52.22255
2550	0.01686	-58.30035	0.99195	-21.42072	0.99195	-21.42072	0.01686	-58.30035
2570	0.01857	-62.59325	0.99591	-21.51239	0.99591	-21.51239	0.01857	-62.59325
2590	0.02004	-65.25266	0.99628	-21.89333	0.99628	-21.89333	0.02004	-65.25266
2610	0.02128	-67.05816	0.99447	-22.18614	0.99447	-22.18614	0.02128	-67.05816
2630	0.02234	-68.51873	0.9921	-22.344	0.9921	-22.344	0.02234	-68.51873
2650	0.0234	-69.87283	0.99102	-22.65067	0.99102	-22.65067	0.0234	-69.87283
2670	0.02406	-72.1499	0.99394	-22.73594	0.99394	-22.73594	0.02406	-72.1499
2690	0.0249	-75.37196	0.99369	-23.05646	0.99369	-23.05646	0.0249	-75.37196
2710	0.02594	-78.16396	0.99269	-23.36591	0.99269	-23.36591	0.02594	-78.16396
2730	0.02725	-80.29253	0.99268	-23.62185	0.99268	-23.62185	0.02725	-80.29253
2750	0.02893	-82.66599	0.99471	-23.98569	0.99471	-23.98569	0.02893	-82.66599
2770	0.03028	-83.8792	0.99365	-24.05606	0.99365	-24.05606	0.03028	-83.8792
2790	0.03185	-83.97861	0.99239	-24.19664	0.99239	-24.19664	0.03185	-83.97861
2810	0.03304	-84.15433	0.99123	-24.56596	0.99123	-24.56596	0.03304	-84.15433
2830	0.03373	-84.88664	0.99097	-25.03349	0.99097	-25.03349	0.03373	-84.88664
2850	0.03426	-85.94597	0.99294	-25.17966	0.99294	-25.17966	0.03426	-85.94597
2870	0.03465	-87.77487	0.99359	-25.18687	0.99359	-25.18687	0.03465	-87.77487
2890	0.03583	-90.22745	0.9937	-25.31044	0.9937	-25.31044	0.03583	-90.22745
2910	0.03745	-92.53514	0.994	-25.53609	0.994	-25.53609	0.03745	-92.53514
2930	0.03933	-94.02631	0.99405	-25.83674	0.99405	-25.83674	0.03933	-94.02631
2950	0.04151	-94.12632	0.99224	-26.17258	0.99224	-26.17258	0.04151	-94.12632
2970	0.04365	-93.97815	0.99221	-26.30372	0.99221	-26.30372	0.04365	-93.97815
2990	0.04509	-93.63373	0.99269	-26.44906	0.99269	-26.44906	0.04509	-93.63373
3010	0.0457	-93.45542	0.9935	-26.64776	0.9935	-26.64776	0.0457	-93.45542
3030	0.04589	-94.06189	0.99356	-26.96129	0.99356	-26.96129	0.04589	-94.06189
3050	0.04664	-96.32803	0.99086	-27.47343	0.99086	-27.47343	0.04664	-96.32803
3070	0.04736	-97.93691	0.9905	-27.63738	0.9905	-27.63738	0.04736	-97.93691
3090	0.04894	-99.46906	0.99391	-27.74889	0.99391	-27.74889	0.04894	-99.46906
3110	0.05104	-100.41938	0.99482	-27.90293	0.99482	-27.90293	0.05104	-100.41938
3130	0.05335	-100.7089	0.9925	-28.1062	0.9925	-28.1062	0.05335	-100.7089
3150	0.05568	-100.68477	0.99173	-28.27711	0.99173	-28.27711	0.05568	-100.68477
3170	0.05641	-100.3123	0.99214	-28.49845	0.99214	-28.49845	0.05641	-100.3123
3190	0.05738	-99.55767	0.99057	-28.71895	0.99057	-28.71895	0.05738	-99.55767
3210	0.05843	-99.7282	0.9905	-29.04158	0.9905	-29.04158	0.05843	-99.7282
3230	0.05926	-101.0394	0.99092	-29.38065	0.99092	-29.38065	0.05926	-101.0394
3250	0.05942	-102.61498	0.98624	-29.46186	0.98624	-29.46186	0.05942	-102.61498
3270	0.06076	-104.68291	0.99434	-30.00677	0.99434	-30.00677	0.06076	-104.68291
3290	0.06278	-106.02462	0.99406	-30.16176	0.99406	-30.16176	0.06278	-106.02462
3310	0.06523	-106.6124	0.99182	-30.33849	0.99182	-30.33849	0.06523	-106.6124
3330	0.0677	-106.47571	0.99175	-30.56417	0.99175	-30.56417	0.0677	-106.47571
3350	0.06958	-105.70117	0.99567	-30.48157	0.99567	-30.48157	0.06958	-105.70117
3370	0.07056	-105.73983	0.99141	-30.89179	0.99141	-30.89179	0.07056	-105.73983
3390	0.07105	-106.1276	0.99121	-31.10389	0.99121	-31.10389	0.07105	-106.1276
3410	0.07199	-106.48644	0.99236	-31.37208	0.99236	-31.37208	0.07199	-106.48644
3430	0.07342	-106.99888	0.99254	-31.67882	0.99254	-31.67882	0.07342	-106.99888
3450	0.07441	-108.40801	0.98981	-31.7348	0.98981	-31.7348	0.07441	-108.40801
3470	0.07585	-108.89685	0.98979	-32.1222	0.98979	-32.1222	0.07585	-108.89685
3490	0.07754	-109.15767	0.99127	-32.30749	0.99127	-32.30749	0.07754	-109.15767
3510	0.07928	-109.09977	0.99196	-32.47543	0.99196	-32.47543	0.07928	-109.09977
3530	0.0808	-108.8383	0.99133	-32.67251	0.99133	-32.67251	0.0808	-108.8383
3550	0.08186	-108.69416	0.99065	-32.80692	0.99065	-32.80692	0.08186	-108.69416
3570	0.08282	-109.16779	0.99013	-33.13135	0.99013	-33.13135	0.08282	-109.16779
3590	0.08323	-109.8888	0.98922	-33.32568	0.98922	-33.32568	0.08323	-109.8888
3610	0.08428	-110.3024	0.99057	-33.48978	0.99057	-33.48978	0.08428	-110.3024
3630	0.08613	-110.50818	0.99274	-33.6969	0.99274	-33.6969	0.08613	-110.50818
3650	0.08787	-111.26004	0.99025	-33.9937	0.99025	-33.9937	0.08787	-111.26004
3670	0.08947	-111.44602	0.99206	-34.26873	0.99206	-34.26873	0.08947	-111.44602
3690	0.09057	-111.31807	0.99053	-34.57738	0.99053	-34.57738	0.09057	-111.31807
3710	0.09148	-111.42172	0.98897	-34.89042	0.98897	-34.89042	0.09148	-111.42172
3730	0.09221	-111.82257	0.98873	-35.13724	0.98873	-35.13724	0.09221	-111.82257
3750	0.09252	-112.1063	0.98908	-35.20578	0.98908	-35.20578	0.09252	-112.1063
3770	0.09342	-113.03898	0.98678	-35.36478	0.98678	-35.36478	0.09342	-113.03898
3790	0.09513	-113.33336	0.99142	-35.61938	0.99142	-35.61938	0.09513	-113.33336
3810	0.09639	-113.91929	0.99162	-35.85549	0.99162	-35.85549	0.09639	-113.91929
3830	0.09745	-114.79349	0.98677	-36.0687	0.98677	-36.0687	0.09745	-114.79349
3850	0.10007	-115.01953	0.98704	-36.36431	0.98704	-36.36431	0.10007	-115.01953
3870	0.10147	-114.78276	0.98655	-36.51608	0.98655	-36.51608	0.10147	-114.78276
3890	0.10271	-114.59173	0.98756	-36.61468	0.98756	-36.61468	0.10271	-114.59173
3910	0.10356	-114.80245	0.98913	-36.89852	0.98913	-36.89852	0.10356	-114.80245
3930	0.10408	-115.32494	0.99008	-37.3261	0.99008	-37.3261	0.10408	-115.32494
3950	0.10462	-115.62323	0.98902	-37.57603	0.98902	-37.57603	0.10462	-115.62323
3970	0.10607	-116.10191	0.98874	-37.67981	0.98874	-37.67981	0.10607	-116.10191
3990	0.10754	-116.63023	0.98708	-37.86076	0.98708	-37.86076	0.10754	-116.63023
4010	0.10893	-117.05864	0.98614	-38.01347	0.98614	-38.01347	0.10893	-117.05864
4030	0.11023	-117.29183	0.98696	-38.15187	0.98696	-38.15187	0.11023	-117.29183
4050	0.11158	-117.28868	0.98949	-38.40922	0.98949	-38.40922	0.11158	-117.28868
4070	0.11238	-117.44048	0.99066	-39.03451	0.99066	-39.03451	0.11238	-117.44048
4090	0.11283	-117.90627	0.98831	-39.25836	0.98831	-39.25836	0.11283	-117.90627
4110	0.11336	-118.3657	0.98668	-39.41741	0.98668	-39.41741	0.11336	-118.3657
4130	0.11399	-118.73902	0.98676	-39.58481	0.98676	-39.58481	0.11399	-118.73902
4150	0.11441	-119.18709	0.9863	-39.57019	0.9863	-39.57019	0.11441	-119.18709
4170	0.11642	-119.71531	0.98522	-40.04616	0.98522	-40.04616	0.11642	-119.71531
4190	0.11814	-120.12392	0.98686	-40.27852	0.98686	-40.27852	0.11814	-120.12392
4210	0.1193	-120.44984	0.98647	-40.41828	0.98647	-40.41828	0.1193	-120.44984
4230	0.12013	-120.61306	0.98461	-40.55773	0.98461	-40.55773	0.12013	-120.61306
4250	0.1214	-120.41662	0.98723	-40.73039	0.98723	-40.73039	0.1214	-120.41662
4270	0.12179	-120.42623	0.9848	-40.9083	0.9848	-40.9083	0.12179	-120.42623
4290	0.12219	-121.2032	0.98488	-41.20535	0.98488	-41.20535	0.12219	-121.2032
4310	0.1224	-122.06284	0.98597	-41.54121	0.98597	-41.54121	0.1224	-122.06284
4330	0.12299	-122.68682	0.98858	-41.88987	0.98858	-41.88987	0.12299	-122.68682
4350	0.12532	-123.12316	0.99525	-42.2796	0.99525	-42.2796	0.12532	-123.12316
4370	0.12564	-123.84363	0.98872	-42.3599	0.98872	-42.3599	0.12564	-123.84363
4390	0.12725	-124.11788	0.98572	-42.46605	0.98572	-42.46605	0.12725	-124.11788
4410	0.12856	-124.26488	0.98544	-42.60984	0.98544	-42.60984	0.12856	-124.26488
4430	0.12914	-124.41102	0.98642	-42.8125	0.98642	-42.8125	0.12914	-124.41102
4450	0.12972	-124.49013	0.98654	-43.10471	0.98654	-43.10471	0.12972	-124.49013
4470	0.13214	-125.0507	0.98805	-43.38993	0.98805	-43.38993	0.13214	-125.0507
4490	0.13172	-125.42361	0.98614	-43.70862	0.98614	-43.70862	0.13172	-125.42361
4510	0.13267	-125.66223	0.98602	-43.81358	0.98602	-43.81358	0.13267	-125.66223
4530	0.13523	-125.89419	0.98792	-43.82608	0.98792	-43.82608	0.13523	-125.89419
4550	0.13565	-126.3214	0.98703	-44.23587	0.98703	-44.23587	0.13565	-126.3214
4570	0.13686	-127.24003	0.98691	-44.35405	0.98691	-44.35405	0.13686	-127.24003
4590	0.13794	-127.79826	0.98909	-44.56696	0.98909	-44.56696	0.13794	-127.79826
4610	0.13896	-128.08024	0.98883	-44.88423	0.98883	-44.88423	0.13896	-128.08024
4630	0.14016	-128.40079	0.98583	-45.23613	0.98583	-45.23613	0.14016	-128.40079
4650	0.1419	-129.30545	0.9842	-45.47361	0.9842	-45.47361	0.1419	-129.30545
4670	0.14181	-129.24385	0.98273	-45.80963	0.98273	-45.80963	0.14181	-129.24385
4690	0.14282	-129.78791	0.98234	-45.86269	0.98234	-45.86269	0.14282	-129.78791
4710	0.14403	-130.1905	0.98258	-46.00488	0.98258	-46.00488	0.14403	-130.1905
4730	0.14528	-130.42038	0.98326	-46.31784	0.98326	-46.31784	0.14528	-130.42038
4750	0.1471	-131.16216	0.98443	-46.59274	0.98443	-46.59274	0.1471	-131.16216
4770	0.14768	-131.39703	0.98309	-46.6362	0.98309	-46.6362	0.14768	-131.39703
4790	0.14879	-131.79811	0.98386	-46.992	0.98386	-46.992	0.14879	-131.79811
4810	0.15028	-132.07313	0.9846	-47.27977	0.9846	-47.27977	0.15028	-132.07313
4830	0.15169	-132.19317	0.98438	-47.41684	0.98438	-47.41684	0.15169	-132.19317
4850	0.15227	-132.39264	0.98353	-47.6182	0.98353	-47.6182	0.15227	-132.39264
4870	0.15368	-132.78284	0.98312	-47.70995	0.98312	-47.70995	0.15368	-132.78284
4890	0.15431	-132.98035	0.98358	-47.84908	0.98358	-47.84908	0.15431	-132.98035
4910	0.15457	-133.17507	0.98336	-48.02914	0.98336	-48.02914	0.15457	-133.17507
4930	0.15509	-133.46733	0.98283	-48.28505	0.98283	-48.28505	0.15509	-133.46733
4950	0.15673	-133.86788	0.98429	-48.69308	0.98429	-48.69308	0.15673	-133.86788
4970	0.15607	-134.51979	0.97938	-48.60826	0.97938	-48.60826	0.15607	-134.51979
4990	0.157	-134.97658	0.98241	-49.00325	0.98241	-49.00325	0.157	-134.97658
5010	0.15823	-135.52346	0.98325	-49.3512	0.98325	-49.3512	0.15823	-135.52346
5030	0.15937	-136.14271	0.97985	-49.49194	0.97985	-49.49194	0.15937	-136.14271
5050	0.16093	-136.5137	0.97829	-49.63192	0.97829	-49.63192	0.16093	-136.5137
5070	0.16187	-136.40576	0.97977	-49.94799	0.97977	-49.94799	0.16187	-136.40576
5090	0.16299	-137.09055	0.97706	-50.30119	0.97706	-50.30119	0.16299	-137.09055
5110	0.1641	-137.68299	0.97795	-50.53124	0.97795	-50.53124	0.1641	-137.68299
5130	0.16494	-137.95249	0.98218	-50.6409	0.98218	-50.6409	0.16494	-137.95249
5150	0.16511	-138.32293	0.98145	-50.79596	0.98145	-50.79596	0.16511	-138.32293
5170	0.16632	-138.6734	0.982	-51.10055	0.982	-51.10055	0.16632	-138.6734
5190	0.16838	-139.05974	0.97735	-51.316	0.97735	-51.316	0.16838	-139.05974
5210	0.16979	-139.3439	0.97516	-51.44604	0.97516	-51.44604	0.16979	-139.3439
5230	0.17055	-139.53981	0.97696	-51.59562	0.97696	-51.59562	0.17055	-139.53981
5250	0.17211	-139.81331	0.9781	-51.97089	0.9781	-51.97089	0.17211	-139.81331
5270	0.17271	-139.84414	0.97679	-52.2917	0.97679	-52.2917	0.17271	-139.84414
5290	0.17288	-140.10304	0.97453	-52.37277	0.97453	-52.37277	0.17288	-140.10304
5310	0.17417	-140.46743	0.97607	-52.52294	0.97607	-52.52294	0.17417	-140.46743
