! Data Taken on a HP 8720C VNA using a series-through fixture with TRL* de-embedding
#	mhz	s	ma	r	50
50	0.00991	5.68728	0.98865	-0.90733	0.98865	-0.90733	0.00991	5.68728
70	0.0105	40.00849	0.9901	-0.8608	0.9901	-0.8608	0.0105	40.00849
90	0.01077	42.32714	0.99174	-0.75611	0.99174	-0.75611	0.01077	42.32714
110	0.01104	37.9048	0.99143	-0.76557	0.99143	-0.76557	0.01104	37.9048
130	0.01156	38.96306	0.98968	-0.93289	0.98968	-0.93289	0.01156	38.96306
150	0.01258	44.68355	0.98971	-1.17318	0.98971	-1.17318	0.01258	44.68355
170	0.01501	46.46126	0.99028	-0.97615	0.99028	-0.97615	0.01501	46.46126
190	0.01572	47.5227	0.98732	-1.20354	0.98732	-1.20354	0.01572	47.5227
210	0.01622	49.33193	0.98693	-1.32691	0.98693	-1.32691	0.01622	49.33193
230	0.01708	51.94531	0.99015	-1.31621	0.99015	-1.31621	0.01708	51.94531
250	0.01797	54.01153	0.99293	-1.6397	0.99293	-1.6397	0.01797	54.01153
270	0.01961	51.82671	0.98934	-1.48568	0.98934	-1.48568	0.01961	51.82671
290	0.02084	51.66151	0.98813	-1.67497	0.98813	-1.67497	0.02084	51.66151
310	0.02229	53.16917	0.98722	-1.77848	0.98722	-1.77848	0.02229	53.16917
330	0.02433	55.26142	0.98637	-1.75413	0.98637	-1.75413	0.02433	55.26142
350	0.02709	56.10854	0.98723	-1.94686	0.98723	-1.94686	0.02709	56.10854
370	0.02779	59.25942	0.98912	-1.87384	0.98912	-1.87384	0.02779	59.25942
390	0.02797	62.24332	0.98862	-2.06779	0.98862	-2.06779	0.02797	62.24332
410	0.0286	64.69073	0.98843	-2.2953	0.98843	-2.2953	0.0286	64.69073
430	0.02971	65.91225	0.98891	-2.42236	0.98891	-2.42236	0.02971	65.91225
450	0.03046	64.89857	0.98812	-2.41438	0.98812	-2.41438	0.03046	64.89857
470	0.03134	64.24176	0.99008	-2.38417	0.99008	-2.38417	0.03134	64.24176
490	0.03471	68.57907	0.98938	-2.80021	0.98938	-2.80021	0.03471	68.57907
510	0.03788	71.9736	0.98791	-3.1358	0.98791	-3.1358	0.03788	71.9736
530	0.03961	72.58603	0.98655	-3.19933	0.98655	-3.19933	0.03961	72.58603
550	0.04015	72.67455	0.98515	-3.13425	0.98515	-3.13425	0.04015	72.67455
570	0.03988	73.35747	0.98707	-3.15508	0.98707	-3.15508	0.03988	73.35747
590	0.04081	73.66186	0.9864	-3.1171	0.9864	-3.1171	0.04081	73.66186
610	0.04212	73.13907	0.98643	-3.24893	0.98643	-3.24893	0.04212	73.13907
630	0.04364	71.84784	0.98732	-3.48922	0.98732	-3.48922	0.04364	71.84784
650	0.04585	70.35435	0.98605	-3.48663	0.98605	-3.48663	0.04585	70.35435
670	0.04803	70.99395	0.98682	-3.59464	0.98682	-3.59464	0.04803	70.99395
690	0.05068	73.24532	0.98623	-3.81866	0.98623	-3.81866	0.05068	73.24532
710	0.05311	75.31055	0.98574	-3.94207	0.98574	-3.94207	0.05311	75.31055
730	0.05463	76.79705	0.98613	-3.92629	0.98613	-3.92629	0.05463	76.79705
750	0.05459	78.71755	0.98753	-3.91077	0.98753	-3.91077	0.05459	78.71755
770	0.05394	80.73941	0.98798	-4.27376	0.98798	-4.27376	0.05394	80.73941
790	0.05385	81.7806	0.98715	-4.24074	0.98715	-4.24074	0.05385	81.7806
810	0.05381	81.16078	0.98539	-4.17224	0.98539	-4.17224	0.05381	81.16078
830	0.05377	79.2852	0.9834	-4.29353	0.9834	-4.29353	0.05377	79.2852
850	0.05413	77.64464	0.98215	-4.6946	0.98215	-4.6946	0.05413	77.64464
870	0.05535	77.93936	0.98489	-4.47791	0.98489	-4.47791	0.05535	77.93936
890	0.05747	77.81787	0.98461	-4.60563	0.98461	-4.60563	0.05747	77.81787
910	0.05923	77.50088	0.98428	-4.74177	0.98428	-4.74177	0.05923	77.50088
930	0.06015	77.35013	0.98464	-4.82171	0.98464	-4.82171	0.06015	77.35013
950	0.06046	77.86838	0.98417	-5.05224	0.98417	-5.05224	0.06046	77.86838
970	0.06159	78.30015	0.98416	-5.0808	0.98416	-5.0808	0.06159	78.30015
990	0.0629	77.53431	0.98369	-5.10113	0.98369	-5.10113	0.0629	77.53431
1010	0.06412	76.20094	0.98365	-5.16914	0.98365	-5.16914	0.06412	76.20094
1030	0.06543	75.07824	0.9845	-5.28944	0.9845	-5.28944	0.06543	75.07824
1050	0.06742	75.0926	0.98627	-5.41529	0.98627	-5.41529	0.06742	75.0926
1070	0.07059	75.42476	0.98283	-5.5302	0.98283	-5.5302	0.07059	75.42476
1090	0.07332	75.87219	0.98313	-5.60059	0.98313	-5.60059	0.07332	75.87219
1110	0.07496	76.37982	0.98409	-5.56871	0.98409	-5.56871	0.07496	76.37982
1130	0.0756	77.0369	0.98398	-5.57308	0.98398	-5.57308	0.0756	77.0369
1150	0.076	78.07698	0.98237	-5.94845	0.98237	-5.94845	0.076	78.07698
1170	0.07727	78.56038	0.98162	-5.98026	0.98162	-5.98026	0.07727	78.56038
1190	0.07796	77.99431	0.9838	-6.05725	0.9838	-6.05725	0.07796	77.99431
1210	0.07867	77.1863	0.98412	-6.15841	0.98412	-6.15841	0.07867	77.1863
1230	0.07977	76.64991	0.9823	-6.27005	0.9823	-6.27005	0.07977	76.64991
1250	0.08147	76.60464	0.98257	-6.38578	0.98257	-6.38578	0.08147	76.60464
1270	0.08473	76.65759	0.98224	-6.31487	0.98224	-6.31487	0.08473	76.65759
1290	0.08687	76.65616	0.98158	-6.48485	0.98158	-6.48485	0.08687	76.65616
1310	0.08817	77.21939	0.98173	-6.66228	0.98173	-6.66228	0.08817	77.21939
1330	0.0891	78.24715	0.98258	-6.75936	0.98258	-6.75936	0.0891	78.24715
1350	0.09034	78.9202	0.98278	-6.83394	0.98278	-6.83394	0.09034	78.9202
1370	0.09202	78.95459	0.98263	-7.0186	0.98263	-7.0186	0.09202	78.95459
1390	0.09255	78.78988	0.98104	-6.83336	0.98104	-6.83336	0.09255	78.78988
1410	0.09307	78.87923	0.98094	-6.8972	0.98094	-6.8972	0.09307	78.87923
1430	0.09412	79.21961	0.98183	-7.22212	0.98183	-7.22212	0.09412	79.21961
1450	0.09556	79.35168	0.97974	-7.21312	0.97974	-7.21312	0.09556	79.35168
1470	0.09669	79.35036	0.98254	-7.22398	0.98254	-7.22398	0.09669	79.35036
1490	0.09734	79.25767	0.98347	-7.53811	0.98347	-7.53811	0.09734	79.25767
1510	0.09779	79.39724	0.98247	-7.71813	0.98247	-7.71813	0.09779	79.39724
1530	0.09852	79.59131	0.98059	-7.73629	0.98059	-7.73629	0.09852	79.59131
1550	0.10017	79.16079	0.98	-7.97442	0.98	-7.97442	0.10017	79.16079
1570	0.10112	78.43202	0.97958	-7.96627	0.97958	-7.96627	0.10112	78.43202
1590	0.10202	78.04782	0.97991	-8.04938	0.97991	-8.04938	0.10202	78.04782
1610	0.10353	78.13487	0.9797	-8.13906	0.9797	-8.13906	0.10353	78.13487
1630	0.10559	78.46665	0.97876	-8.21552	0.97876	-8.21552	0.10559	78.46665
1650	0.10743	78.46343	0.97792	-8.32379	0.97792	-8.32379	0.10743	78.46343
1670	0.10801	78.22622	0.97729	-8.40733	0.97729	-8.40733	0.10801	78.22622
1690	0.10861	78.38163	0.97746	-8.40262	0.97746	-8.40262	0.10861	78.38163
1710	0.1097	78.56367	0.97842	-8.46867	0.97842	-8.46867	0.1097	78.56367
1730	0.11135	78.48665	0.97934	-8.58419	0.97934	-8.58419	0.11135	78.48665
1750	0.11325	77.94514	0.97858	-8.54755	0.97858	-8.54755	0.11325	77.94514
1770	0.11414	77.43995	0.97771	-8.81002	0.97771	-8.81002	0.11414	77.43995
1790	0.11538	77.5859	0.97857	-8.84739	0.97857	-8.84739	0.11538	77.5859
1810	0.11675	77.87385	0.97808	-8.93673	0.97808	-8.93673	0.11675	77.87385
1830	0.11804	77.90586	0.9765	-9.10306	0.9765	-9.10306	0.11804	77.90586
1850	0.11904	77.39512	0.97738	-9.11939	0.97738	-9.11939	0.11904	77.39512
1870	0.11931	77.24626	0.97837	-9.18976	0.97837	-9.18976	0.11931	77.24626
1890	0.12012	77.23354	0.97928	-9.28569	0.97928	-9.28569	0.12012	77.23354
1910	0.12162	76.93622	0.97856	-9.33094	0.97856	-9.33094	0.12162	76.93622
1930	0.12367	76.30772	0.97719	-9.35678	0.97719	-9.35678	0.12367	76.30772
1950	0.12585	75.67563	0.97867	-9.50197	0.97867	-9.50197	0.12585	75.67563
1970	0.12699	75.59691	0.97683	-9.63041	0.97683	-9.63041	0.12699	75.59691
1990	0.1288	76.00222	0.97464	-9.64605	0.97464	-9.64605	0.1288	76.00222
2010	0.13095	76.25018	0.97449	-9.67954	0.97449	-9.67954	0.13095	76.25018
2030	0.13289	76.16472	0.97616	-9.78934	0.97616	-9.78934	0.13289	76.16472
2050	0.13385	76.03504	0.97679	-9.96173	0.97679	-9.96173	0.13385	76.03504
2070	0.13441	75.99251	0.97569	-10.13912	0.97569	-10.13912	0.13441	75.99251
2090	0.13582	76.09109	0.97313	-10.21979	0.97313	-10.21979	0.13582	76.09109
2110	0.1374	75.9099	0.97409	-10.43513	0.97409	-10.43513	0.1374	75.9099
2130	0.13868	75.53227	0.9771	-10.66674	0.9771	-10.66674	0.13868	75.53227
2150	0.13947	75.54566	0.97419	-10.44644	0.97419	-10.44644	0.13947	75.54566
2170	0.14139	75.82454	0.97464	-10.55098	0.97464	-10.55098	0.14139	75.82454
2190	0.14334	75.84339	0.97521	-10.66289	0.97521	-10.66289	0.14334	75.84339
2210	0.14508	75.665	0.97455	-10.73598	0.97455	-10.73598	0.14508	75.665
2230	0.14641	75.39019	0.97299	-10.79221	0.97299	-10.79221	0.14641	75.39019
2250	0.14707	75.1578	0.97254	-10.92172	0.97254	-10.92172	0.14707	75.1578
2270	0.14886	75.36856	0.97271	-11.01937	0.97271	-11.01937	0.14886	75.36856
2290	0.15007	75.46919	0.97397	-11.32948	0.97397	-11.32948	0.15007	75.46919
2310	0.15112	75.49697	0.97412	-11.37026	0.97412	-11.37026	0.15112	75.49697
2330	0.15233	75.39175	0.97248	-11.20402	0.97248	-11.20402	0.15233	75.39175
2350	0.1538	74.9959	0.96988	-11.43722	0.96988	-11.43722	0.1538	74.9959
2370	0.15521	75.12355	0.96968	-11.51024	0.96968	-11.51024	0.15521	75.12355
2390	0.15686	74.93172	0.97192	-11.57702	0.97192	-11.57702	0.15686	74.93172
2410	0.15808	74.70774	0.97201	-11.62522	0.97201	-11.62522	0.15808	74.70774
2430	0.15888	74.59911	0.96994	-11.647	0.96994	-11.647	0.15888	74.59911
2450	0.15987	74.61347	0.97024	-11.63898	0.97024	-11.63898	0.15987	74.61347
2470	0.16244	74.88542	0.96987	-11.93671	0.96987	-11.93671	0.16244	74.88542
2490	0.16408	74.81936	0.96938	-12.03606	0.96938	-12.03606	0.16408	74.81936
2510	0.16486	74.65835	0.96979	-12.06331	0.96979	-12.06331	0.16486	74.65835
2530	0.16526	74.61678	0.97021	-12.09053	0.97021	-12.09053	0.16526	74.61678
2550	0.16617	74.88032	0.96783	-12.13551	0.96783	-12.13551	0.16617	74.88032
2570	0.16844	74.5756	0.97119	-12.15326	0.97119	-12.15326	0.16844	74.5756
2590	0.16915	74.24573	0.97006	-12.38013	0.97006	-12.38013	0.16915	74.24573
2610	0.16958	73.97149	0.96986	-12.52264	0.96986	-12.52264	0.16958	73.97149
2630	0.17061	73.81304	0.97077	-12.54249	0.97077	-12.54249	0.17061	73.81304
2650	0.17277	73.80993	0.96773	-12.65659	0.96773	-12.65659	0.17277	73.80993
2670	0.17537	73.64408	0.96926	-12.78125	0.96926	-12.78125	0.17537	73.64408
2690	0.17704	73.56668	0.96806	-12.8849	0.96806	-12.8849	0.17704	73.56668
2710	0.17855	73.61657	0.96534	-12.947	0.96534	-12.947	0.17855	73.61657
2730	0.17978	73.71325	0.96388	-13.01665	0.96388	-13.01665	0.17978	73.71325
2750	0.17965	73.65687	0.96801	-13.21259	0.96801	-13.21259	0.17965	73.65687
2770	0.17962	73.46504	0.96509	-13.25479	0.96509	-13.25479	0.17962	73.46504
2790	0.18141	72.96675	0.96278	-13.22596	0.96278	-13.22596	0.18141	72.96675
2810	0.18368	72.77118	0.96147	-13.41501	0.96147	-13.41501	0.18368	72.77118
2830	0.18571	72.91082	0.96174	-13.74792	0.96174	-13.74792	0.18571	72.91082
2850	0.18736	72.84152	0.96434	-13.78778	0.96434	-13.78778	0.18736	72.84152
2870	0.18936	72.82288	0.9645	-13.5736	0.9645	-13.5736	0.18936	72.82288
2890	0.19109	73.23772	0.96422	-13.60409	0.96422	-13.60409	0.19109	73.23772
2910	0.19251	73.5635	0.96437	-13.7406	0.96437	-13.7406	0.19251	73.5635
2930	0.19345	73.65374	0.96402	-13.87467	0.96402	-13.87467	0.19345	73.65374
2950	0.19368	73.73808	0.9604	-13.92806	0.9604	-13.92806	0.19368	73.73808
2970	0.19481	73.12896	0.96095	-14.12686	0.96095	-14.12686	0.19481	73.12896
2990	0.19527	72.73758	0.96133	-14.09766	0.96133	-14.09766	0.19527	72.73758
3010	0.19655	72.56784	0.96157	-14.09022	0.96157	-14.09022	0.19655	72.56784
3030	0.19899	72.48798	0.96105	-14.21679	0.96105	-14.21679	0.19899	72.48798
3050	0.20189	72.23058	0.95843	-14.45217	0.95843	-14.45217	0.20189	72.23058
3070	0.20213	72.05257	0.95832	-14.63031	0.95832	-14.63031	0.20213	72.05257
3090	0.20337	72.3387	0.96211	-14.75144	0.96211	-14.75144	0.20337	72.3387
3110	0.20433	72.77719	0.96171	-14.76767	0.96171	-14.76767	0.20433	72.77719
3130	0.20496	73.04751	0.95721	-14.68539	0.95721	-14.68539	0.20496	73.04751
3150	0.20638	72.82034	0.95696	-14.56537	0.95696	-14.56537	0.20638	72.82034
3170	0.20587	72.26977	0.95867	-14.759	0.95867	-14.759	0.20587	72.26977
3190	0.20644	71.90412	0.95649	-14.86015	0.95649	-14.86015	0.20644	71.90412
3210	0.20889	71.72688	0.95557	-14.97224	0.95557	-14.97224	0.20889	71.72688
3230	0.21226	71.72679	0.95649	-15.10645	0.95649	-15.10645	0.21226	71.72679
3250	0.21389	71.87786	0.95521	-15.18175	0.95521	-15.18175	0.21389	71.87786
3270	0.21524	71.89642	0.96058	-15.57154	0.96058	-15.57154	0.21524	71.89642
3290	0.21588	72.22839	0.95814	-15.50473	0.95814	-15.50473	0.21588	72.22839
3310	0.21649	72.50868	0.954	-15.45405	0.954	-15.45405	0.21649	72.50868
3330	0.2173	72.52723	0.95371	-15.52618	0.95371	-15.52618	0.2173	72.52723
3350	0.21817	72.22907	0.96225	-15.46166	0.96225	-15.46166	0.21817	72.22907
3370	0.2184	71.68571	0.95635	-15.63113	0.95635	-15.63113	0.2184	71.68571
3390	0.21926	71.44879	0.95451	-15.81791	0.95451	-15.81791	0.21926	71.44879
3410	0.22114	71.35378	0.95406	-15.86512	0.95406	-15.86512	0.22114	71.35378
3430	0.22321	71.32525	0.95389	-15.8216	0.95389	-15.8216	0.22321	71.32525
3450	0.22343	71.37697	0.95443	-15.94187	0.95443	-15.94187	0.22343	71.37697
3470	0.22393	71.26881	0.95238	-16.3904	0.95238	-16.3904	0.22393	71.26881
3490	0.22505	71.4034	0.95091	-16.4115	0.95091	-16.4115	0.22505	71.4034
3510	0.22653	71.18749	0.95184	-16.35286	0.95184	-16.35286	0.22653	71.18749
3530	0.22821	70.59328	0.95408	-16.37991	0.95408	-16.37991	0.22821	70.59328
3550	0.22999	70.15849	0.95358	-16.47584	0.95358	-16.47584	0.22999	70.15849
3570	0.23065	70.29478	0.94953	-16.5636	0.94953	-16.5636	0.23065	70.29478
3590	0.2325	70.29726	0.95035	-16.60339	0.95035	-16.60339	0.2325	70.29726
3610	0.23523	70.28261	0.95185	-16.61328	0.95185	-16.61328	0.23523	70.28261
3630	0.23747	70.32915	0.95137	-16.65053	0.95137	-16.65053	0.23747	70.32915
3650	0.23679	70.47681	0.94773	-16.81164	0.94773	-16.81164	0.23679	70.47681
3670	0.23775	70.44031	0.94962	-17.0142	0.94962	-17.0142	0.23775	70.44031
3690	0.23845	70.51674	0.94843	-17.15141	0.94843	-17.15141	0.23845	70.51674
3710	0.23927	70.25245	0.94714	-17.26356	0.94714	-17.26356	0.23927	70.25245
3730	0.24035	69.75617	0.94687	-17.34988	0.94687	-17.34988	0.24035	69.75617
3750	0.24154	69.69899	0.94686	-17.36857	0.94686	-17.36857	0.24154	69.69899
3770	0.24226	69.92176	0.94335	-17.50072	0.94335	-17.50072	0.24226	69.92176
3790	0.24503	69.96189	0.94497	-17.55577	0.94497	-17.55577	0.24503	69.96189
3810	0.2472	69.92848	0.94462	-17.62168	0.94462	-17.62168	0.2472	69.92848
3830	0.24793	69.85606	0.94184	-17.71961	0.94184	-17.71961	0.24793	69.85606
3850	0.2482	69.70451	0.9428	-17.80388	0.9428	-17.80388	0.2482	69.70451
3870	0.24779	69.5853	0.94	-17.87736	0.94	-17.87736	0.24779	69.5853
3890	0.24954	69.40484	0.9405	-17.86046	0.9405	-17.86046	0.24954	69.40484
3910	0.25082	69.02153	0.94245	-17.93138	0.94245	-17.93138	0.25082	69.02153
3930	0.25139	68.61845	0.94433	-18.12505	0.94433	-18.12505	0.25139	68.61845
3950	0.25342	68.70341	0.945	-18.33314	0.945	-18.33314	0.25342	68.70341
3970	0.25545	68.68114	0.94131	-18.32615	0.94131	-18.32615	0.25545	68.68114
3990	0.25744	68.66906	0.94007	-18.29543	0.94007	-18.29543	0.25744	68.66906
4010	0.25837	68.61253	0.93963	-18.2982	0.93963	-18.2982	0.25837	68.61253
4030	0.25839	68.4749	0.93943	-18.39865	0.93943	-18.39865	0.25839	68.4749
4050	0.25887	68.23747	0.94008	-18.66787	0.94008	-18.66787	0.25887	68.23747
4070	0.25975	68.07148	0.93923	-18.88384	0.93923	-18.88384	0.25975	68.07148
4090	0.26066	67.55925	0.93845	-18.88225	0.93845	-18.88225	0.26066	67.55925
4110	0.26219	67.04346	0.93881	-18.93218	0.93881	-18.93218	0.26219	67.04346
4130	0.26398	66.77401	0.93877	-19.08556	0.93877	-19.08556	0.26398	66.77401
4150	0.26471	66.90809	0.93423	-19.17716	0.93423	-19.17716	0.26471	66.90809
4170	0.26908	67.05593	0.93474	-19.16635	0.93474	-19.16635	0.26908	67.05593
4190	0.27113	66.91749	0.93644	-19.29124	0.93644	-19.29124	0.27113	66.91749
4210	0.27168	66.96087	0.93622	-19.47372	0.93622	-19.47372	0.27168	66.96087
4230	0.27198	67.15826	0.93504	-19.57151	0.93504	-19.57151	0.27198	67.15826
4250	0.27367	66.98597	0.93796	-19.3782	0.93796	-19.3782	0.27367	66.98597
4270	0.2759	66.68086	0.93592	-19.446	0.93592	-19.446	0.2759	66.68086
4290	0.27608	66.43175	0.93467	-19.60407	0.93467	-19.60407	0.27608	66.43175
4310	0.27724	66.07833	0.93504	-19.86854	0.93504	-19.86854	0.27724	66.07833
4330	0.28016	65.71265	0.93718	-20.15387	0.93718	-20.15387	0.28016	65.71265
4350	0.28336	65.67912	0.94066	-20.27278	0.94066	-20.27278	0.28336	65.67912
4370	0.28365	65.81365	0.93506	-20.13781	0.93506	-20.13781	0.28365	65.81365
4390	0.28436	65.92177	0.93261	-20.15653	0.93261	-20.15653	0.28436	65.92177
4410	0.28493	66.09164	0.93173	-20.19468	0.93173	-20.19468	0.28493	66.09164
4430	0.28547	66.06279	0.93163	-20.26098	0.93163	-20.26098	0.28547	66.06279
4450	0.28687	65.22614	0.93228	-20.50709	0.93228	-20.50709	0.28687	65.22614
4470	0.28725	64.97113	0.93122	-20.5765	0.93122	-20.5765	0.28725	64.97113
4490	0.2877	64.85255	0.93	-20.49533	0.93	-20.49533	0.2877	64.85255
4510	0.28983	64.74619	0.93032	-20.62596	0.93032	-20.62596	0.28983	64.74619
4530	0.29312	64.63238	0.9308	-20.89948	0.9308	-20.89948	0.29312	64.63238
4550	0.295	64.59603	0.92696	-20.81568	0.92696	-20.81568	0.295	64.59603
4570	0.29669	64.63051	0.92961	-20.98688	0.92961	-20.98688	0.29669	64.63051
4590	0.2967	64.49593	0.93304	-21.25828	0.93304	-21.25828	0.2967	64.49593
4610	0.29628	64.50929	0.931	-21.32313	0.931	-21.32313	0.29628	64.50929
4630	0.29679	64.53351	0.92601	-21.2509	0.92601	-21.2509	0.29679	64.53351
4650	0.29977	63.97754	0.92937	-21.48732	0.92937	-21.48732	0.29977	63.97754
4670	0.29923	63.34686	0.92958	-21.75256	0.92958	-21.75256	0.29923	63.34686
4690	0.30037	63.17154	0.92629	-21.74768	0.92629	-21.74768	0.30037	63.17154
4710	0.30282	63.13303	0.92451	-21.79277	0.92451	-21.79277	0.30282	63.13303
4730	0.30575	63.00182	0.92501	-21.93592	0.92501	-21.93592	0.30575	63.00182
4750	0.30788	62.63743	0.92439	-21.95315	0.92439	-21.95315	0.30788	62.63743
4770	0.30723	62.78955	0.92161	-22.15247	0.92161	-22.15247	0.30723	62.78955
4790	0.30729	62.66091	0.92238	-22.39978	0.92238	-22.39978	0.30729	62.66091
4810	0.30769	62.52564	0.92439	-22.44113	0.92439	-22.44113	0.30769	62.52564
4830	0.30863	62.27164	0.92606	-22.38979	0.92606	-22.38979	0.30863	62.27164
4850	0.31083	61.40054	0.92652	-22.72627	0.92652	-22.72627	0.31083	61.40054
4870	0.31189	61.32325	0.92469	-22.59178	0.92469	-22.59178	0.31189	61.32325
4890	0.31387	61.25217	0.92474	-22.61123	0.92474	-22.61123	0.31387	61.25217
4910	0.31582	61.03568	0.92294	-22.79731	0.92294	-22.79731	0.31582	61.03568
4930	0.3176	60.74012	0.92069	-22.99299	0.92069	-22.99299	0.3176	60.74012
4950	0.3199	60.64969	0.92456	-22.87154	0.92456	-22.87154	0.3199	60.64969
4970	0.31952	60.33648	0.92163	-23.06397	0.92163	-23.06397	0.31952	60.33648
4990	0.31915	60.12579	0.91887	-23.31443	0.91887	-23.31443	0.31915	60.12579
5010	0.32044	60.01568	0.91861	-23.35911	0.91861	-23.35911	0.32044	60.01568
5030	0.32285	59.7879	0.92011	-23.33581	0.92011	-23.33581	0.32285	59.7879
5050	0.32366	59.00798	0.91949	-23.78389	0.91949	-23.78389	0.32366	59.00798
5070	0.32447	58.99106	0.91528	-23.84505	0.91528	-23.84505	0.32447	58.99106
5090	0.32728	58.98066	0.91474	-23.8249	0.91474	-23.8249	0.32728	58.98066
5110	0.33021	58.71753	0.91803	-23.95436	0.91803	-23.95436	0.33021	58.71753
5130	0.33181	58.33257	0.92117	-24.20614	0.92117	-24.20614	0.33181	58.33257
5150	0.33101	58.34682	0.91605	-24.29467	0.91605	-24.29467	0.33101	58.34682
5170	0.33043	58.51377	0.91428	-24.23408	0.91428	-24.23408	0.33043	58.51377
5190	0.33312	58.31573	0.91569	-24.22829	0.91569	-24.22829	0.33312	58.31573
5210	0.33459	57.81542	0.9147	-24.44279	0.9147	-24.44279	0.33459	57.81542
5230	0.33396	57.37645	0.91045	-24.72335	0.91045	-24.72335	0.33396	57.37645
5250	0.33399	57.66332	0.90684	-24.59603	0.90684	-24.59603	0.33399	57.66332
5270	0.33866	57.32729	0.91356	-24.75138	0.91356	-24.75138	0.33866	57.32729
5290	0.34008	56.8449	0.91156	-25.16145	0.91156	-25.16145	0.34008	56.8449
5310	0.34078	56.81289	0.90866	-25.20782	0.90866	-25.20782	0.34078	56.81289
5330	0.34245	57.03591	0.90887	-24.97444	0.90887	-24.97444	0.34245	57.03591
5350	0.34601	56.52648	0.91238	-25.24764	0.91238	-25.24764	0.34601	56.52648
5370	0.34496	56.05891	0.91157	-25.69201	0.91157	-25.69201	0.34496	56.05891
5390	0.34601	55.97068	0.91135	-25.56728	0.91135	-25.56728	0.34601	55.97068
5410	0.34856	55.8587	0.91131	-25.64448	0.91131	-25.64448	0.34856	55.8587
5430	0.35117	55.64101	0.91058	-26.01326	0.91058	-26.01326	0.35117	55.64101
5450	0.35158	55.55679	0.90785	-26.08183	0.90785	-26.08183	0.35158	55.55679
