! Data Taken on a HP 8720C VNA using a shunt-through fixture with TRL* de-embedding
#	mhz	s	ma	r	50
50	0.90748	167.11904	0.21431	64.71941	0.21431	64.71941	0.90748	167.11904
70	0.91526	162.96522	0.29652	63.24397	0.29652	63.24397	0.91526	162.96522
90	0.88457	158.25951	0.36064	60.00018	0.36064	60.00018	0.88457	158.25951
110	0.84971	154.31596	0.41912	56.89587	0.41912	56.89587	0.84971	154.31596
130	0.8242	151.00861	0.47696	54.18492	0.47696	54.18492	0.8242	151.00861
150	0.80073	146.77144	0.5318	50.46722	0.5318	50.46722	0.80073	146.77144
170	0.76056	144.30122	0.57251	48.12092	0.57251	48.12092	0.76056	144.30122
190	0.73139	141.29479	0.61256	45.34748	0.61256	45.34748	0.73139	141.29479
210	0.70133	138.37278	0.64692	42.56779	0.64692	42.56779	0.70133	138.37278
230	0.66882	135.90532	0.67603	40.13166	0.67603	40.13166	0.66882	135.90532
250	0.64263	134.01199	0.70582	38.31779	0.70582	38.31779	0.64263	134.01199
270	0.61856	131.26337	0.73419	35.8331	0.73419	35.8331	0.61856	131.26337
290	0.59274	128.9808	0.75718	33.93346	0.75718	33.93346	0.59274	128.9808
310	0.56852	127.07276	0.77629	32.36371	0.77629	32.36371	0.56852	127.07276
330	0.54684	125.27905	0.79293	30.83381	0.79293	30.83381	0.54684	125.27905
350	0.52623	123.17076	0.8084	29.01889	0.8084	29.01889	0.52623	123.17076
370	0.50777	121.92653	0.82225	27.67102	0.82225	27.67102	0.50777	121.92653
390	0.48908	120.60366	0.83744	26.15101	0.83744	26.15101	0.48908	120.60366
410	0.47153	119.27313	0.84951	24.67709	0.84951	24.67709	0.47153	119.27313
430	0.45528	117.99258	0.85862	23.42352	0.85862	23.42352	0.45528	117.99258
450	0.43925	116.80627	0.8696	22.52057	0.8696	22.52057	0.43925	116.80627
470	0.42299	115.39464	0.87938	21.27126	0.87938	21.27126	0.42299	115.39464
490	0.39397	112.35504	0.89849	19.028	0.89849	19.028	0.39397	112.35504
510	0.37135	110.07855	0.91347	17.17663	0.91347	17.17663	0.37135	110.07855
530	0.35995	109.05547	0.9209	16.1704	0.9209	16.1704	0.35995	109.05547
550	0.35027	107.87532	0.92735	15.52996	0.92735	15.52996	0.35027	107.87532
570	0.33949	107.61178	0.92822	14.68213	0.92822	14.68213	0.33949	107.61178
590	0.32906	107.05186	0.93013	14.09943	0.93013	14.09943	0.32906	107.05186
610	0.3186	106.25038	0.93412	13.35603	0.93412	13.35603	0.3186	106.25038
630	0.30854	105.26856	0.93935	12.47219	0.93935	12.47219	0.30854	105.26856
650	0.30011	104.17402	0.94311	11.91425	0.94311	11.91425	0.30011	104.17402
670	0.2922	103.61958	0.94663	10.99302	0.94663	10.99302	0.2922	103.61958
690	0.28613	102.90004	0.94506	10.30717	0.94506	10.30717	0.28613	102.90004
710	0.28063	102.32311	0.94658	9.77154	0.94658	9.77154	0.28063	102.32311
730	0.27422	101.98961	0.95148	9.25023	0.95148	9.25023	0.27422	101.98961
750	0.26526	101.79343	0.95213	8.55655	0.95213	8.55655	0.26526	101.79343
770	0.25742	101.91593	0.95944	7.9882	0.95944	7.9882	0.25742	101.91593
790	0.25017	101.76499	0.9606	7.47688	0.9606	7.47688	0.25017	101.76499
810	0.24208	101.24428	0.95972	7.04444	0.95972	7.04444	0.24208	101.24428
830	0.23343	100.3668	0.95924	6.57544	0.95924	6.57544	0.23343	100.3668
850	0.22628	99.25494	0.9599	5.81717	0.9599	5.81717	0.22628	99.25494
870	0.22005	98.85011	0.963	5.52712	0.963	5.52712	0.22005	98.85011
890	0.21579	98.37797	0.96387	5.02792	0.96387	5.02792	0.21579	98.37797
910	0.21157	97.89343	0.96597	4.48731	0.96597	4.48731	0.21157	97.89343
930	0.20646	97.45374	0.96896	3.96523	0.96896	3.96523	0.20646	97.45374
950	0.20058	97.11853	0.96864	3.41374	0.96864	3.41374	0.20058	97.11853
970	0.19504	97.14141	0.96881	3.01982	0.96881	3.01982	0.19504	97.14141
990	0.18994	96.54833	0.96968	2.73047	0.96968	2.73047	0.18994	96.54833
1010	0.18463	95.54389	0.97055	2.28523	0.97055	2.28523	0.18463	95.54389
1030	0.17927	94.49956	0.97222	1.73008	0.97222	1.73008	0.17927	94.49956
1050	0.17483	93.95362	0.97711	1.41743	0.97711	1.41743	0.17483	93.95362
1070	0.17236	92.99879	0.97509	0.94661	0.97509	0.94661	0.17236	92.99879
1090	0.16994	92.43963	0.97576	0.63453	0.97576	0.63453	0.16994	92.43963
1110	0.16708	92.11543	0.97762	0.36724	0.97762	0.36724	0.16708	92.11543
1130	0.16363	91.95769	0.97845	0.00557	0.97845	0.00557	0.16363	91.95769
1150	0.15972	91.99012	0.97525	-0.61498	0.97525	-0.61498	0.15972	91.99012
1170	0.15642	91.90865	0.97757	-0.85379	0.97757	-0.85379	0.15642	91.90865
1190	0.15244	91.3834	0.97935	-1.20893	0.97935	-1.20893	0.15244	91.3834
1210	0.14819	90.73906	0.98067	-1.58266	0.98067	-1.58266	0.14819	90.73906
1230	0.1442	90.15073	0.98102	-1.95045	0.98102	-1.95045	0.1442	90.15073
1250	0.14118	89.64392	0.97938	-2.3609	0.97938	-2.3609	0.14118	89.64392
1270	0.13973	89.1333	0.98124	-2.6003	0.98124	-2.6003	0.13973	89.1333
1290	0.13742	88.48065	0.9811	-3.02602	0.9811	-3.02602	0.13742	88.48065
1310	0.13462	88.23368	0.98168	-3.37851	0.98168	-3.37851	0.13462	88.23368
1330	0.13176	88.44485	0.98369	-3.66148	0.98369	-3.66148	0.13176	88.44485
1350	0.12931	88.67132	0.98576	-4.14185	0.98576	-4.14185	0.12931	88.67132
1370	0.12739	88.48591	0.98616	-4.65801	0.98616	-4.65801	0.12739	88.48591
1390	0.12382	88.23823	0.98458	-4.7032	0.98458	-4.7032	0.12382	88.23823
1410	0.12024	88.13602	0.98502	-4.92791	0.98502	-4.92791	0.12024	88.13602
1430	0.11724	88.18423	0.98708	-5.40272	0.98708	-5.40272	0.11724	88.18423
1450	0.1143	88.18494	0.98597	-5.6183	0.98597	-5.6183	0.1143	88.18494
1470	0.11134	87.60332	0.98453	-5.94656	0.98453	-5.94656	0.11134	87.60332
1490	0.10821	87.15209	0.98769	-6.31304	0.98769	-6.31304	0.10821	87.15209
1510	0.10504	86.96359	0.98942	-6.66919	0.98942	-6.66919	0.10504	86.96359
1530	0.10235	86.87014	0.98807	-7.0124	0.98807	-7.0124	0.10235	86.87014
1550	0.10103	86.4041	0.98636	-7.38601	0.98636	-7.38601	0.10103	86.4041
1570	0.09855	85.9374	0.98537	-7.60837	0.98537	-7.60837	0.09855	85.9374
1590	0.09569	85.90638	0.9868	-7.92743	0.9868	-7.92743	0.09569	85.90638
1610	0.09313	86.25573	0.98821	-8.16291	0.98821	-8.16291	0.09313	86.25573
1630	0.09082	86.67433	0.98847	-8.34956	0.98847	-8.34956	0.09082	86.67433
1650	0.08787	86.59527	0.98784	-8.73715	0.98784	-8.73715	0.08787	86.59527
1670	0.08451	85.79015	0.9884	-9.01579	0.9884	-9.01579	0.08451	85.79015
1690	0.08113	85.33637	0.98828	-9.23739	0.98828	-9.23739	0.08113	85.33637
1710	0.0786	84.89216	0.98898	-9.51226	0.98898	-9.51226	0.0786	84.89216
1730	0.07714	84.20308	0.99048	-9.85389	0.99048	-9.85389	0.07714	84.20308
1750	0.07632	83.10195	0.99122	-10.17894	0.99122	-10.17894	0.07632	83.10195
1770	0.0745	82.66172	0.99149	-10.529	0.99149	-10.529	0.0745	82.66172
1790	0.07247	83.338	0.99203	-10.7792	0.99203	-10.7792	0.07247	83.338
1810	0.07041	84.19131	0.99135	-10.9974	0.99135	-10.9974	0.07041	84.19131
1830	0.06806	84.47312	0.99085	-11.21489	0.99085	-11.21489	0.06806	84.47312
1850	0.0647	83.62586	0.99482	-11.42644	0.99482	-11.42644	0.0647	83.62586
1870	0.0613	82.56632	0.99264	-11.85503	0.99264	-11.85503	0.0613	82.56632
1890	0.05896	81.85312	0.99304	-12.08664	0.99304	-12.08664	0.05896	81.85312
1910	0.05769	80.79845	0.99325	-12.27293	0.99325	-12.27293	0.05769	80.79845
1930	0.05709	79.36462	0.99275	-12.51107	0.99275	-12.51107	0.05709	79.36462
1950	0.05639	78.16404	0.99327	-12.84367	0.99327	-12.84367	0.05639	78.16404
1970	0.0549	78.54336	0.99153	-13.11137	0.99153	-13.11137	0.0549	78.54336
1990	0.05368	79.83146	0.98958	-13.25883	0.98958	-13.25883	0.05368	79.83146
2010	0.05225	80.86487	0.98977	-13.4927	0.98977	-13.4927	0.05225	80.86487
2030	0.05011	81.09875	0.99216	-13.83518	0.99216	-13.83518	0.05011	81.09875
2050	0.04672	80.60689	0.99448	-14.12409	0.99448	-14.12409	0.04672	80.60689
2070	0.04409	80.25831	0.99202	-14.4234	0.99202	-14.4234	0.04409	80.25831
2090	0.04277	79.66898	0.98909	-14.7307	0.98909	-14.7307	0.04277	79.66898
2110	0.04199	78.57665	0.99047	-15.13594	0.99047	-15.13594	0.04199	78.57665
2130	0.04115	77.3958	0.99435	-15.50993	0.99435	-15.50993	0.04115	77.3958
2150	0.03979	77.21765	0.99232	-15.5044	0.99232	-15.5044	0.03979	77.21765
2170	0.03887	78.90806	0.9903	-15.6953	0.9903	-15.6953	0.03887	78.90806
2190	0.03784	80.7468	0.99077	-15.99018	0.99077	-15.99018	0.03784	80.7468
2210	0.03612	81.65596	0.99231	-16.28017	0.99231	-16.28017	0.03612	81.65596
2230	0.03371	81.98785	0.99342	-16.55349	0.99342	-16.55349	0.03371	81.98785
2250	0.03116	83.52501	0.99252	-16.89549	0.99252	-16.89549	0.03116	83.52501
2270	0.02924	84.31254	0.99322	-16.99502	0.99322	-16.99502	0.02924	84.31254
2290	0.02773	83.76823	0.99469	-17.4487	0.99469	-17.4487	0.02773	83.76823
2310	0.02607	82.96554	0.99488	-17.7559	0.99488	-17.7559	0.02607	82.96554
2330	0.02419	82.66076	0.99342	-17.84951	0.99342	-17.84951	0.02419	82.66076
2350	0.02241	83.29301	0.99165	-18.09593	0.99165	-18.09593	0.02241	83.29301
2370	0.02098	85.25132	0.99571	-18.27217	0.99571	-18.27217	0.02098	85.25132
2390	0.01968	85.9634	0.9957	-18.56384	0.9957	-18.56384	0.01968	85.9634
2410	0.01781	86.19719	0.99373	-18.79129	0.99373	-18.79129	0.01781	86.19719
2430	0.01557	87.55407	0.99188	-18.94813	0.99188	-18.94813	0.01557	87.55407
2450	0.01405	92.46885	0.99221	-19.20122	0.99221	-19.20122	0.01405	92.46885
2470	0.01343	95.17035	0.99483	-19.57918	0.99483	-19.57918	0.01343	95.17035
2490	0.01199	98.60345	0.99352	-19.86611	0.99352	-19.86611	0.01199	98.60345
2510	0.01028	104.4054	0.99289	-20.03696	0.99289	-20.03696	0.01028	104.4054
2530	0.00879	113.46657	0.99321	-20.17862	0.99321	-20.17862	0.00879	113.46657
2550	0.0079	125.93039	0.99039	-20.48992	0.99039	-20.48992	0.0079	125.93039
2570	0.00679	135.55019	0.99538	-20.68705	0.99538	-20.68705	0.00679	135.55019
2590	0.00559	148.86158	0.99556	-21.00918	0.99556	-21.00918	0.00559	148.86158
2610	0.00516	23.30776	0.99483	-21.32293	0.99483	-21.32293	0.00516	23.30776
2630	0.00556	-174.23958	0.99413	-21.59251	0.99413	-21.59251	0.00556	-174.23958
2650	0.00605	-167.48026	0.99146	-21.87968	0.99146	-21.87968	0.00605	-167.48026
2670	0.00641	-159.84846	0.99339	-22.07947	0.99339	-22.07947	0.00641	-159.84846
2690	0.00761	-151.45548	0.99245	-22.38592	0.99245	-22.38592	0.00761	-151.45548
2710	0.00936	-145.25422	0.99168	-22.60694	0.99168	-22.60694	0.00936	-145.25422
2730	0.01132	-141.74522	0.99268	-22.77994	0.99268	-22.77994	0.01132	-141.74522
2750	0.01303	-138.9766	0.99567	-23.17184	0.99567	-23.17184	0.01303	-138.9766
2770	0.01386	-133.89114	0.99264	-23.44953	0.99264	-23.44953	0.01386	-133.89114
2790	0.01515	-129.20453	0.99383	-23.6335	0.99383	-23.6335	0.01515	-129.20453
2810	0.01636	-127.00571	0.99342	-23.89706	0.99342	-23.89706	0.01636	-127.00571
2830	0.01727	-127.2933	0.99137	-24.24165	0.99137	-24.24165	0.01727	-127.2933
2850	0.01805	-127.97562	0.99345	-24.49683	0.99345	-24.49683	0.01805	-127.97562
2870	0.01857	-127.55262	0.99343	-24.45395	0.99343	-24.45395	0.01857	-127.55262
2890	0.02082	-128.08208	0.99256	-24.65338	0.99256	-24.65338	0.02082	-128.08208
2910	0.02338	-128.80511	0.99279	-24.92621	0.99279	-24.92621	0.02338	-128.80511
2930	0.02544	-128.57169	0.9938	-25.19178	0.9938	-25.19178	0.02544	-128.57169
2950	0.02688	-125.84058	0.99296	-25.45774	0.99296	-25.45774	0.02688	-125.84058
2970	0.0286	-123.01088	0.99311	-25.70675	0.99311	-25.70675	0.0286	-123.01088
2990	0.03002	-121.45161	0.99468	-25.87956	0.99468	-25.87956	0.03002	-121.45161
3010	0.03064	-121.32344	0.99482	-26.04087	0.99482	-26.04087	0.03064	-121.32344
3030	0.03089	-122.30426	0.99317	-26.3013	0.99317	-26.3013	0.03089	-122.30426
3050	0.03215	-123.58919	0.99187	-26.81733	0.99187	-26.81733	0.03215	-123.58919
3070	0.03408	-124.16092	0.9887	-27.21899	0.9887	-27.21899	0.03408	-124.16092
3090	0.03649	-125.21608	0.99424	-27.32449	0.99424	-27.32449	0.03649	-125.21608
3110	0.03879	-125.56027	0.99592	-27.40992	0.99592	-27.40992	0.03879	-125.56027
3130	0.04076	-124.5563	0.99197	-27.57809	0.99197	-27.57809	0.04076	-124.5563
3150	0.04249	-122.12424	0.99138	-27.75854	0.99138	-27.75854	0.04249	-122.12424
3170	0.04373	-120.71415	0.99204	-28.00497	0.99204	-28.00497	0.04373	-120.71415
3190	0.04409	-120.34441	0.99093	-28.19223	0.99093	-28.19223	0.04409	-120.34441
3210	0.0446	-120.98954	0.99094	-28.47988	0.99094	-28.47988	0.0446	-120.98954
3230	0.04567	-122.20785	0.99154	-28.83976	0.99154	-28.83976	0.04567	-122.20785
3250	0.04707	-123.14144	0.98886	-29.05598	0.98886	-29.05598	0.04707	-123.14144
3270	0.04953	-125.15206	0.99316	-29.38408	0.99316	-29.38408	0.04953	-125.15206
3290	0.05205	-126.13689	0.99302	-29.63494	0.99302	-29.63494	0.05205	-126.13689
3310	0.05431	-125.89043	0.99165	-29.77552	0.99165	-29.77552	0.05431	-125.89043
3330	0.05627	-124.54617	0.99162	-29.87243	0.99162	-29.87243	0.05627	-124.54617
3350	0.0582	-122.57661	0.99479	-30.09196	0.99479	-30.09196	0.0582	-122.57661
3370	0.05981	-122.43548	0.99074	-30.43139	0.99074	-30.43139	0.05981	-122.43548
3390	0.06031	-122.77167	0.99126	-30.695	0.99126	-30.695	0.06031	-122.77167
3410	0.06068	-123.1072	0.99146	-30.88297	0.99146	-30.88297	0.06068	-123.1072
3430	0.06185	-123.47549	0.99018	-31.0794	0.99018	-31.0794	0.06185	-123.47549
3450	0.06466	-124.42131	0.99	-31.45234	0.99	-31.45234	0.06466	-124.42131
3470	0.06622	-124.83895	0.99074	-31.73452	0.99074	-31.73452	0.06622	-124.83895
3490	0.06781	-124.91822	0.99147	-31.93378	0.99147	-31.93378	0.06781	-124.91822
3510	0.06935	-124.31161	0.99261	-32.10037	0.99261	-32.10037	0.06935	-124.31161
3530	0.07089	-123.31058	0.99342	-32.26287	0.99342	-32.26287	0.07089	-123.31058
3550	0.07258	-122.8456	0.992	-32.4282	0.992	-32.4282	0.07258	-122.8456
3570	0.07346	-123.4547	0.99142	-32.67408	0.99142	-32.67408	0.07346	-123.4547
3590	0.07381	-123.78726	0.99134	-32.97366	0.99134	-32.97366	0.07381	-123.78726
3610	0.07469	-123.86364	0.99262	-33.20722	0.99262	-33.20722	0.07469	-123.86364
3630	0.07641	-123.97756	0.99387	-33.3699	0.99387	-33.3699	0.07641	-123.97756
3650	0.07858	-124.69603	0.9915	-33.5717	0.9915	-33.5717	0.07858	-124.69603
3670	0.0802	-125.01456	0.99239	-33.85948	0.99239	-33.85948	0.0802	-125.01456
3690	0.08099	-124.58659	0.99049	-34.16935	0.99049	-34.16935	0.08099	-124.58659
3710	0.08191	-124.26825	0.98922	-34.46121	0.98922	-34.46121	0.08191	-124.26825
3730	0.08319	-124.41334	0.98956	-34.69485	0.98956	-34.69485	0.08319	-124.41334
3750	0.08429	-124.87327	0.99005	-34.82997	0.99005	-34.82997	0.08429	-124.87327
3770	0.08494	-125.74564	0.98829	-35.02724	0.98829	-35.02724	0.08494	-125.74564
3790	0.0863	-125.84252	0.99085	-35.23039	0.99085	-35.23039	0.0863	-125.84252
3810	0.08779	-126.15046	0.9907	-35.39352	0.9907	-35.39352	0.08779	-126.15046
3830	0.08958	-126.79958	0.98787	-35.58114	0.98787	-35.58114	0.08958	-126.79958
3850	0.09256	-127.06353	0.98946	-35.96826	0.98946	-35.96826	0.09256	-127.06353
3870	0.09359	-126.66939	0.9886	-36.11128	0.9886	-36.11128	0.09359	-126.66939
3890	0.09468	-126.13664	0.99055	-36.36014	0.99055	-36.36014	0.09468	-126.13664
3910	0.09566	-126.08158	0.9908	-36.64603	0.9908	-36.64603	0.09566	-126.08158
3930	0.09648	-126.54195	0.98913	-36.92078	0.98913	-36.92078	0.09648	-126.54195
3950	0.09721	-126.97692	0.9896	-37.15684	0.9896	-37.15684	0.09721	-126.97692
3970	0.09825	-127.27471	0.9909	-37.49941	0.9909	-37.49941	0.09825	-127.27471
3990	0.09972	-127.58342	0.98839	-37.57349	0.98839	-37.57349	0.09972	-127.58342
4010	0.10155	-127.87111	0.98678	-37.66691	0.98678	-37.66691	0.10155	-127.87111
4030	0.10336	-128.12329	0.98759	-37.89397	0.98759	-37.89397	0.10336	-128.12329
4050	0.10447	-128.34288	0.98914	-38.19545	0.98914	-38.19545	0.10447	-128.34288
4070	0.1051	-128.19324	0.99038	-38.53364	0.99038	-38.53364	0.1051	-128.19324
4090	0.10587	-128.37304	0.98854	-38.80002	0.98854	-38.80002	0.10587	-128.37304
4110	0.10682	-128.72051	0.98683	-38.99417	0.98683	-38.99417	0.10682	-128.72051
4130	0.10771	-129.17865	0.98687	-39.14669	0.98687	-39.14669	0.10771	-129.17865
4150	0.108	-129.79521	0.98863	-39.31915	0.98863	-39.31915	0.108	-129.79521
4170	0.10981	-129.99355	0.98676	-39.71737	0.98676	-39.71737	0.10981	-129.99355
4190	0.11171	-130.10207	0.98727	-39.87782	0.98727	-39.87782	0.11171	-130.10207
4210	0.11331	-130.29861	0.98766	-40.03474	0.98766	-40.03474	0.11331	-130.29861
4230	0.11441	-130.48039	0.98755	-40.25149	0.98755	-40.25149	0.11441	-130.48039
4250	0.115	-130.26404	0.98868	-40.42059	0.98868	-40.42059	0.115	-130.26404
4270	0.1157	-129.94982	0.98675	-40.68222	0.98675	-40.68222	0.1157	-129.94982
4290	0.11632	-130.58665	0.98691	-41.0336	0.98691	-41.0336	0.11632	-130.58665
4310	0.11665	-131.43815	0.98661	-41.31046	0.98661	-41.31046	0.11665	-131.43815
4330	0.11714	-132.21642	0.98754	-41.55024	0.98754	-41.55024	0.11714	-132.21642
4350	0.11896	-133.08202	0.99559	-41.99204	0.99559	-41.99204	0.11896	-133.08202
4370	0.11998	-133.26908	0.98941	-42.09553	0.98941	-42.09553	0.11998	-133.26908
4390	0.12194	-133.71906	0.98444	-42.19	0.98444	-42.19	0.12194	-133.71906
4410	0.12348	-134.06091	0.98491	-42.39961	0.98491	-42.39961	0.12348	-134.06091
4430	0.12422	-134.12474	0.98854	-42.68235	0.98854	-42.68235	0.12422	-134.12474
4450	0.12473	-133.9418	0.98651	-42.83001	0.98651	-42.83001	0.12473	-133.9418
4470	0.12745	-134.1302	0.98946	-43.16231	0.98946	-43.16231	0.12745	-134.1302
4490	0.12799	-134.47662	0.98657	-43.2887	0.98657	-43.2887	0.12799	-134.47662
4510	0.12842	-134.69085	0.9856	-43.42771	0.9856	-43.42771	0.12842	-134.69085
4530	0.12965	-134.81213	0.98782	-43.67812	0.98782	-43.67812	0.12965	-134.81213
4550	0.13153	-135.20915	0.98804	-44.01888	0.98804	-44.01888	0.13153	-135.20915
4570	0.13273	-136.04564	0.98591	-44.18241	0.98591	-44.18241	0.13273	-136.04564
4590	0.13389	-136.70768	0.98941	-44.44854	0.98941	-44.44854	0.13389	-136.70768
4610	0.13479	-136.99651	0.99005	-44.69859	0.99005	-44.69859	0.13479	-136.99651
4630	0.13582	-137.10272	0.98619	-44.91773	0.98619	-44.91773	0.13582	-137.10272
4650	0.13797	-137.60633	0.98305	-45.19495	0.98305	-45.19495	0.13797	-137.60633
4670	0.13938	-137.59423	0.98331	-45.30855	0.98331	-45.30855	0.13938	-137.59423
4690	0.13959	-138.10648	0.98338	-45.57158	0.98338	-45.57158	0.13959	-138.10648
4710	0.13986	-138.71548	0.98339	-45.85171	0.98339	-45.85171	0.13986	-138.71548
4730	0.14071	-139.12446	0.98357	-46.07808	0.98357	-46.07808	0.14071	-139.12446
4750	0.14193	-139.16754	0.9842	-46.24127	0.9842	-46.24127	0.14193	-139.16754
4770	0.1438	-139.3764	0.98137	-46.38912	0.98137	-46.38912	0.1438	-139.3764
4790	0.14505	-139.88556	0.98314	-46.79781	0.98314	-46.79781	0.14505	-139.88556
4810	0.14582	-140.12605	0.98535	-47.02288	0.98535	-47.02288	0.14582	-140.12605
4830	0.14673	-140.09117	0.98663	-47.08679	0.98663	-47.08679	0.14673	-140.09117
4850	0.14884	-140.33657	0.98837	-47.4789	0.98837	-47.4789	0.14884	-140.33657
4870	0.14976	-140.95158	0.98673	-47.63762	0.98673	-47.63762	0.14976	-140.95158
4890	0.15046	-141.20984	0.98603	-47.76999	0.98603	-47.76999	0.15046	-141.20984
4910	0.1513	-141.21365	0.98561	-47.96412	0.98561	-47.96412	0.1513	-141.21365
4930	0.15235	-141.22881	0.98549	-48.2471	0.98549	-48.2471	0.15235	-141.22881
4950	0.1534	-141.68465	0.98633	-48.58494	0.98633	-48.58494	0.1534	-141.68465
4970	0.1539	-142.31154	0.98081	-48.45036	0.98081	-48.45036	0.1539	-142.31154
4990	0.15452	-142.84911	0.98318	-48.74985	0.98318	-48.74985	0.15452	-142.84911
5010	0.15535	-143.27379	0.98366	-49.12377	0.98366	-49.12377	0.15535	-143.27379
5030	0.15666	-143.52925	0.98006	-49.39967	0.98006	-49.39967	0.15666	-143.52925
5050	0.15886	-143.52634	0.97783	-49.59227	0.97783	-49.59227	0.15886	-143.52634
5070	0.16065	-143.91274	0.98075	-49.84553	0.98075	-49.84553	0.16065	-143.91274
5090	0.16115	-144.34752	0.97957	-50.11109	0.97957	-50.11109	0.16115	-144.34752
5110	0.16172	-144.64853	0.97981	-50.33994	0.97981	-50.33994	0.16172	-144.64853
5130	0.16263	-144.86489	0.98211	-50.52309	0.98211	-50.52309	0.16263	-144.86489
5150	0.16305	-145.27704	0.98221	-50.69155	0.98221	-50.69155	0.16305	-145.27704
5170	0.16505	-146.08929	0.9821	-51.02227	0.9821	-51.02227	0.16505	-146.08929
5190	0.1665	-146.23762	0.978	-51.08616	0.978	-51.08616	0.1665	-146.23762
5210	0.16779	-146.21821	0.97602	-51.20295	0.97602	-51.20295	0.16779	-146.21821
5230	0.16901	-146.37292	0.97732	-51.49642	0.97732	-51.49642	0.16901	-146.37292
5250	0.16995	-146.88922	0.97811	-51.89438	0.97811	-51.89438	0.16995	-146.88922
5270	0.16992	-146.94011	0.97694	-52.03844	0.97694	-52.03844	0.16992	-146.94011
5290	0.17084	-146.89845	0.97602	-52.29361	0.97602	-52.29361	0.17084	-146.89845
