! Data Taken on a HP 8720C VNA using a shunt-through fixture with TRL* de-embedding
#	mhz	s	ma	r	50
50	0.96683	177.6718	0.01542	75.65514	0.01542	75.65514	0.96683	177.6718
70	0.99973	178.26854	0.02474	74.96687	0.02474	74.96687	0.99973	178.26854
90	0.99899	177.16277	0.03263	75.81613	0.03263	75.81613	0.99899	177.16277
110	0.98958	176.52044	0.03953	77.25663	0.03953	77.25663	0.98958	176.52044
130	0.98767	176.51638	0.04621	78.16356	0.04621	78.16356	0.98767	176.51638
150	1.0006	175.33431	0.05377	77.23357	0.05377	77.23357	1.0006	175.33431
170	0.98624	175.266	0.0602	77.50039	0.0602	77.50039	0.98624	175.266
190	0.98583	174.79726	0.06701	77.54204	0.06701	77.54204	0.98583	174.79726
210	0.98767	173.94373	0.07387	77.25254	0.07387	77.25254	0.98767	173.94373
230	0.98583	173.19417	0.08048	76.88388	0.08048	76.88388	0.98583	173.19417
250	0.98016	173.51048	0.0866	77.04605	0.0866	77.04605	0.98016	173.51048
270	0.98559	172.63238	0.09401	76.75841	0.09401	76.75841	0.98559	172.63238
290	0.98026	171.84259	0.10043	76.21658	0.10043	76.21658	0.98026	171.84259
310	0.97638	171.46811	0.10666	76.07741	0.10666	76.07741	0.97638	171.46811
330	0.978	171.14606	0.11324	76.17805	0.11324	76.17805	0.978	171.14606
350	0.9811	169.82363	0.12044	75.53594	0.12044	75.53594	0.9811	169.82363
370	0.97624	169.61627	0.12629	74.76673	0.12629	74.76673	0.97624	169.61627
390	0.97815	169.31604	0.13308	74.58713	0.13308	74.58713	0.97815	169.31604
410	0.97905	168.63842	0.13976	74.18085	0.13976	74.18085	0.97905	168.63842
430	0.97631	167.84352	0.14584	73.58562	0.14584	73.58562	0.97631	167.84352
450	0.97235	167.73607	0.15138	73.69325	0.15138	73.69325	0.97235	167.73607
470	0.97434	167.10549	0.15911	73.33682	0.15911	73.33682	0.97434	167.10549
490	0.9708	165.32905	0.17575	72.33243	0.17575	72.33243	0.9708	165.32905
510	0.96942	163.98759	0.18917	71.59713	0.18917	71.59713	0.96942	163.98759
530	0.97113	163.47099	0.19616	71.36276	0.19616	71.36276	0.97113	163.47099
550	0.97014	162.9781	0.20247	71.17589	0.20247	71.17589	0.97014	162.9781
570	0.97017	162.56033	0.20917	70.7298	0.20917	70.7298	0.97017	162.56033
590	0.97066	162.13698	0.21471	70.17618	0.21471	70.17618	0.97066	162.13698
610	0.96577	161.63842	0.22052	69.7849	0.22052	69.7849	0.96577	161.63842
630	0.95893	161.09832	0.22703	69.45728	0.22703	69.45728	0.95893	161.09832
650	0.96285	160.65365	0.23362	68.72605	0.23362	68.72605	0.96285	160.65365
670	0.95769	159.65765	0.23996	67.86047	0.23996	67.86047	0.95769	159.65765
690	0.9568	158.88698	0.2451	67.40957	0.2451	67.40957	0.9568	158.88698
710	0.95901	158.34517	0.25158	67.09139	0.25158	67.09139	0.95901	158.34517
730	0.96046	157.91921	0.25882	66.67392	0.25882	66.67392	0.96046	157.91921
750	0.95466	157.37957	0.26314	65.9751	0.26314	65.9751	0.95466	157.37957
770	0.956	157.24489	0.27019	65.50981	0.27019	65.50981	0.956	157.24489
790	0.95656	156.53249	0.27606	64.90333	0.27606	64.90333	0.95656	156.53249
810	0.95109	155.96327	0.28099	64.38785	0.28099	64.38785	0.95109	155.96327
830	0.94167	155.71537	0.28614	63.93222	0.28614	63.93222	0.94167	155.71537
850	0.9377	155.42425	0.29367	63.2419	0.29367	63.2419	0.9377	155.42425
870	0.93863	154.26392	0.30014	62.59505	0.30014	62.59505	0.93863	154.26392
890	0.93583	153.71481	0.30442	62.07039	0.30442	62.07039	0.93583	153.71481
910	0.93545	153.19945	0.31086	61.65998	0.31086	61.65998	0.93545	153.19945
930	0.93609	152.46227	0.31886	61.18971	0.31886	61.18971	0.93609	152.46227
950	0.92875	151.56969	0.32292	60.31926	0.32292	60.31926	0.92875	151.56969
970	0.92855	151.65017	0.3296	60.26585	0.3296	60.26585	0.92855	151.65017
990	0.92856	151.18147	0.33504	59.88494	0.33504	59.88494	0.92856	151.18147
1010	0.92515	150.51941	0.33995	59.32826	0.33995	59.32826	0.92515	150.51941
1030	0.91952	149.91457	0.3449	58.75789	0.3449	58.75789	0.91952	149.91457
1050	0.91772	149.51233	0.35028	58.34622	0.35028	58.34622	0.91772	149.51233
1070	0.91257	148.67419	0.35584	57.80386	0.35584	57.80386	0.91257	148.67419
1090	0.90967	147.98692	0.36175	57.30477	0.36175	57.30477	0.90967	147.98692
1110	0.90893	147.36372	0.36767	56.77578	0.36767	56.77578	0.90893	147.36372
1130	0.90851	146.805	0.37307	56.2471	0.37307	56.2471	0.90851	146.805
1150	0.90486	146.39836	0.37731	55.85236	0.37731	55.85236	0.90486	146.39836
1170	0.90769	145.86208	0.38315	55.47093	0.38315	55.47093	0.90769	145.86208
1190	0.903	145.32848	0.38731	55.05518	0.38731	55.05518	0.903	145.32848
1210	0.89934	144.90367	0.39255	54.68599	0.39255	54.68599	0.89934	144.90367
1230	0.89792	144.43481	0.39872	54.239	0.39872	54.239	0.89792	144.43481
1250	0.89257	143.51015	0.40268	53.38456	0.40268	53.38456	0.89257	143.51015
1270	0.88785	143.22536	0.40567	53.30765	0.40567	53.30765	0.88785	143.22536
1290	0.89032	142.71643	0.41193	52.64816	0.41193	52.64816	0.89032	142.71643
1310	0.8902	141.94426	0.41774	51.87588	0.41774	51.87588	0.8902	141.94426
1330	0.88541	141.16618	0.42213	51.39386	0.42213	51.39386	0.88541	141.16618
1350	0.8816	140.93597	0.42696	51.53846	0.42696	51.53846	0.8816	140.93597
1370	0.88762	140.18824	0.43357	50.82167	0.43357	50.82167	0.88762	140.18824
1390	0.88282	139.83388	0.43749	50.45198	0.43749	50.45198	0.88282	139.83388
1410	0.8793	139.50451	0.44098	50.19046	0.44098	50.19046	0.8793	139.50451
1430	0.87942	139.01802	0.44513	49.81782	0.44513	49.81782	0.87942	139.01802
1450	0.87587	138.37856	0.44987	49.13437	0.44987	49.13437	0.87587	138.37856
1470	0.86962	137.9282	0.45232	48.71137	0.45232	48.71137	0.86962	137.9282
1490	0.8684	137.47084	0.45922	48.119	0.45922	48.119	0.8684	137.47084
1510	0.86545	136.89397	0.46547	47.4569	0.46547	47.4569	0.86545	136.89397
1530	0.86026	136.26639	0.46918	46.91688	0.46918	46.91688	0.86026	136.26639
1550	0.85851	135.8382	0.47165	46.78287	0.47165	46.78287	0.85851	135.8382
1570	0.86032	135.49399	0.47605	46.40972	0.47605	46.40972	0.86032	135.49399
1590	0.85745	134.77283	0.48125	45.94964	0.48125	45.94964	0.85745	134.77283
1610	0.85518	134.22213	0.48522	45.56927	0.48522	45.56927	0.85518	134.22213
1630	0.85379	133.95101	0.48798	45.2416	0.48798	45.2416	0.85379	133.95101
1650	0.84861	133.63032	0.49151	44.74594	0.49151	44.74594	0.84861	133.63032
1670	0.84763	133.10323	0.49709	44.29833	0.49709	44.29833	0.84763	133.10323
1690	0.84183	132.47516	0.50062	43.83518	0.50062	43.83518	0.84183	132.47516
1710	0.83659	132.09455	0.50377	43.51005	0.50377	43.51005	0.83659	132.09455
1730	0.83474	131.79878	0.50832	43.26665	0.50832	43.26665	0.83474	131.79878
1750	0.83651	130.91417	0.51615	42.83883	0.51615	42.83883	0.83651	130.91417
1770	0.83286	130.1472	0.51816	42.08737	0.51816	42.08737	0.83286	130.1472
1790	0.83258	130.02904	0.52094	41.96138	0.52094	41.96138	0.83258	130.02904
1810	0.83271	129.78627	0.52474	41.6554	0.52474	41.6554	0.83271	129.78627
1830	0.8301	129.24077	0.52856	41.04621	0.52856	41.04621	0.8301	129.24077
1850	0.8215	128.80973	0.53012	40.69288	0.53012	40.69288	0.8215	128.80973
1870	0.81937	128.58814	0.53668	40.25518	0.53668	40.25518	0.81937	128.58814
1890	0.81653	128.06696	0.54154	39.76079	0.54154	39.76079	0.81653	128.06696
1910	0.81344	127.43924	0.54435	39.37232	0.54435	39.37232	0.81344	127.43924
1930	0.81086	126.86546	0.54667	39.14949	0.54667	39.14949	0.81086	126.86546
1950	0.8098	126.47346	0.55199	39.04915	0.55199	39.04915	0.8098	126.47346
1970	0.80844	125.75884	0.5553	38.4297	0.5553	38.4297	0.80844	125.75884
1990	0.80545	125.29883	0.55693	37.98029	0.55693	37.98029	0.80545	125.29883
2010	0.80328	125.03437	0.55926	37.65355	0.55926	37.65355	0.80328	125.03437
2030	0.80216	124.82212	0.56318	37.37078	0.56318	37.37078	0.80216	124.82212
2050	0.80004	124.43446	0.56811	37.02194	0.56811	37.02194	0.80004	124.43446
2070	0.79783	123.80829	0.57132	36.37854	0.57132	36.37854	0.79783	123.80829
2090	0.79171	123.44654	0.5721	36.08341	0.5721	36.08341	0.79171	123.44654
2110	0.78884	123.06903	0.57561	35.72029	0.57561	35.72029	0.78884	123.06903
2130	0.78935	122.59734	0.58166	35.2223	0.58166	35.2223	0.78935	122.59734
2150	0.78632	122.15482	0.58474	34.87198	0.58474	34.87198	0.78632	122.15482
2170	0.78259	121.83913	0.58541	34.61419	0.58541	34.61419	0.78259	121.83913
2190	0.78307	121.57724	0.59063	34.30042	0.59063	34.30042	0.78307	121.57724
2210	0.78214	121.09782	0.5935	33.79489	0.5935	33.79489	0.78214	121.09782
2230	0.77814	120.50264	0.594	33.28383	0.594	33.28383	0.77814	120.50264
2250	0.77332	120.26653	0.59893	33.2755	0.59893	33.2755	0.77332	120.26653
2270	0.77478	119.90539	0.60434	32.81414	0.60434	32.81414	0.77478	119.90539
2290	0.7709	119.42023	0.60673	32.10388	0.60673	32.10388	0.7709	119.42023
2310	0.76724	119.1602	0.60849	31.87585	0.60849	31.87585	0.76724	119.1602
2330	0.76613	119.00431	0.61109	31.95911	0.61109	31.95911	0.76613	119.00431
2350	0.76668	118.36146	0.61508	31.28065	0.61508	31.28065	0.76668	118.36146
2370	0.7597	117.88841	0.61632	30.83767	0.61632	30.83767	0.7597	117.88841
2390	0.75845	117.64753	0.61983	30.63963	0.61983	30.63963	0.75845	117.64753
2410	0.75848	117.39368	0.62389	30.38661	0.62389	30.38661	0.75848	117.39368
2430	0.75712	117.00213	0.62726	29.96258	0.62726	29.96258	0.75712	117.00213
2450	0.75351	116.46854	0.6293	29.4354	0.6293	29.4354	0.75351	116.46854
2470	0.75046	116.22866	0.63233	29.26039	0.63233	29.26039	0.75046	116.22866
2490	0.74939	115.96499	0.6353	29.03412	0.6353	29.03412	0.74939	115.96499
2510	0.74804	115.63732	0.63876	28.66327	0.63876	28.66327	0.74804	115.63732
2530	0.74528	115.29867	0.64117	28.20804	0.64117	28.20804	0.74528	115.29867
2550	0.7412	115.09528	0.63886	27.88219	0.63886	27.88219	0.7412	115.09528
2570	0.74132	114.99085	0.64689	27.65375	0.64689	27.65375	0.74132	114.99085
2590	0.73915	114.6106	0.64908	27.14319	0.64908	27.14319	0.73915	114.6106
2610	0.73388	114.11023	0.65037	26.70225	0.65037	26.70225	0.73388	114.11023
2630	0.72888	113.68104	0.65262	26.39759	0.65262	26.39759	0.72888	113.68104
2650	0.73172	113.55002	0.65456	26.01072	0.65456	26.01072	0.73172	113.55002
2670	0.72825	113.40902	0.65797	25.58341	0.65797	25.58341	0.72825	113.40902
2690	0.72874	113.23543	0.65987	25.37175	0.65987	25.37175	0.72874	113.23543
2710	0.72984	112.97668	0.66312	24.97779	0.66312	24.97779	0.72984	112.97668
2730	0.72755	112.63288	0.66698	24.40453	0.66698	24.40453	0.72755	112.63288
2750	0.71726	112.25682	0.66713	24.0559	0.66713	24.0559	0.71726	112.25682
2770	0.70796	112.04968	0.66988	23.86913	0.66988	23.86913	0.70796	112.04968
2790	0.70821	111.75651	0.67421	23.5206	0.67421	23.5206	0.70821	111.75651
2810	0.7096	111.35848	0.6772	23.04934	0.6772	23.04934	0.7096	111.35848
2830	0.70848	110.92088	0.67906	22.62864	0.67906	22.62864	0.70848	110.92088
2850	0.706	110.59315	0.6832	22.56612	0.6832	22.56612	0.706	110.59315
2870	0.70162	110.26735	0.68396	22.19469	0.68396	22.19469	0.70162	110.26735
2890	0.7012	110.41604	0.68637	22.09094	0.68637	22.09094	0.7012	110.41604
2910	0.70228	110.36993	0.68966	21.76124	0.68966	21.76124	0.70228	110.36993
2930	0.70156	110.02457	0.69243	21.20524	0.69243	21.20524	0.70156	110.02457
2950	0.69487	109.84036	0.69268	20.9159	0.69268	20.9159	0.69487	109.84036
2970	0.69182	109.57893	0.69526	20.62613	0.69526	20.62613	0.69182	109.57893
2990	0.68933	109.1947	0.69905	20.33777	0.69905	20.33777	0.68933	109.1947
3010	0.68729	108.75906	0.70171	19.96001	0.70171	19.96001	0.68729	108.75906
3030	0.68563	108.31442	0.70266	19.52007	0.70266	19.52007	0.68563	108.31442
3050	0.68437	107.87423	0.70312	19.16318	0.70312	19.16318	0.68437	107.87423
3070	0.67984	107.58434	0.70521	18.82755	0.70521	18.82755	0.67984	107.58434
3090	0.68047	107.45196	0.7111	18.43077	0.7111	18.43077	0.68047	107.45196
3110	0.67877	107.36927	0.71351	18.0907	0.71351	18.0907	0.67877	107.36927
3130	0.67413	107.36215	0.71266	17.88998	0.71266	17.88998	0.67413	107.36215
3150	0.67285	107.59013	0.71622	17.876	0.71622	17.876	0.67285	107.59013
3170	0.66954	106.8634	0.7217	17.18456	0.7217	17.18456	0.66954	106.8634
3190	0.66384	106.38586	0.72101	16.93845	0.72101	16.93845	0.66384	106.38586
3210	0.66267	106.03304	0.72213	16.71933	0.72213	16.71933	0.66267	106.03304
3230	0.66506	105.82118	0.72633	16.35967	0.72633	16.35967	0.66506	105.82118
3250	0.66217	105.90731	0.72817	15.94276	0.72817	15.94276	0.66217	105.90731
3270	0.66257	105.58606	0.73174	15.6152	0.73174	15.6152	0.66257	105.58606
3290	0.65886	105.34752	0.73374	15.20429	0.73374	15.20429	0.65886	105.34752
3310	0.65502	105.20678	0.73452	14.84516	0.73452	14.84516	0.65502	105.20678
3330	0.65227	105.12454	0.73599	14.63985	0.73599	14.63985	0.65227	105.12454
3350	0.64915	105.00707	0.7416	14.65728	0.7416	14.65728	0.64915	105.00707
3370	0.64833	104.42199	0.7418	14.16868	0.7418	14.16868	0.64833	104.42199
3390	0.64609	103.95602	0.74341	13.70608	0.74341	13.70608	0.64609	103.95602
3410	0.64427	103.71051	0.74401	13.33341	0.74401	13.33341	0.64427	103.71051
3430	0.64265	103.69792	0.74437	13.07134	0.74437	13.07134	0.64265	103.69792
3450	0.63895	103.84177	0.74843	12.89726	0.74843	12.89726	0.63895	103.84177
3470	0.63617	103.2312	0.75206	12.081	0.75206	12.081	0.63617	103.2312
3490	0.63201	102.92255	0.75221	11.74941	0.75221	11.74941	0.63201	102.92255
3510	0.62902	102.77453	0.75379	11.67991	0.75379	11.67991	0.62902	102.77453
3530	0.62816	102.55541	0.7582	11.60045	0.7582	11.60045	0.62816	102.55541
3550	0.62882	101.94308	0.76335	11.18954	0.76335	11.18954	0.62882	101.94308
3570	0.62306	101.71504	0.76003	10.63686	0.76003	10.63686	0.62306	101.71504
3590	0.62161	101.56171	0.76207	10.42525	0.76207	10.42525	0.62161	101.56171
3610	0.62133	101.37851	0.7667	10.16615	0.7667	10.16615	0.62133	101.37851
3630	0.61995	101.16535	0.77	9.78596	0.77	9.78596	0.61995	101.16535
3650	0.61605	101.0266	0.76692	9.52604	0.76692	9.52604	0.61605	101.0266
3670	0.61551	100.52971	0.77358	9.07787	0.77358	9.07787	0.61551	100.52971
3690	0.61051	100.39486	0.77334	8.71594	0.77334	8.71594	0.61051	100.39486
3710	0.6067	100.24401	0.77231	8.43504	0.77231	8.43504	0.6067	100.24401
3730	0.60591	99.92712	0.77422	8.16012	0.77422	8.16012	0.60591	99.92712
3750	0.60619	99.52207	0.78044	7.7464	0.78044	7.7464	0.60619	99.52207
3770	0.60358	99.42965	0.7798	7.39261	0.7798	7.39261	0.60358	99.42965
3790	0.60171	99.43111	0.78354	7.16688	0.78354	7.16688	0.60171	99.43111
3810	0.59904	99.22876	0.78575	6.83756	0.78575	6.83756	0.59904	99.22876
3830	0.5954	98.81565	0.78536	6.43897	0.78536	6.43897	0.5954	98.81565
3850	0.59198	98.47556	0.78614	6.27142	0.78614	6.27142	0.59198	98.47556
3870	0.58924	98.2486	0.78863	5.82205	0.78863	5.82205	0.58924	98.2486
3890	0.588	97.98337	0.79057	5.65221	0.79057	5.65221	0.588	97.98337
3910	0.5866	97.67717	0.79291	5.42953	0.79291	5.42953	0.5866	97.67717
3930	0.5848	97.31394	0.796	5.02684	0.796	5.02684	0.5848	97.31394
3950	0.58371	96.86419	0.79967	4.52213	0.79967	4.52213	0.58371	96.86419
3970	0.57962	96.89353	0.79823	4.50918	0.79823	4.50918	0.57962	96.89353
3990	0.57744	96.80474	0.79863	4.20417	0.79863	4.20417	0.57744	96.80474
4010	0.57585	96.51528	0.80038	3.83945	0.80038	3.83945	0.57585	96.51528
4030	0.57373	96.03684	0.80253	3.49839	0.80253	3.49839	0.57373	96.03684
4050	0.57026	95.47536	0.80356	3.11538	0.80356	3.11538	0.57026	95.47536
4070	0.56766	95.23543	0.80538	2.64081	0.80538	2.64081	0.56766	95.23543
4090	0.56601	94.77487	0.80716	2.41406	0.80716	2.41406	0.56601	94.77487
4110	0.56452	94.34761	0.81038	2.13232	0.81038	2.13232	0.56452	94.34761
4130	0.56223	94.03839	0.81259	1.70896	0.81259	1.70896	0.56223	94.03839
4150	0.55803	93.7628	0.80739	1.27351	0.80739	1.27351	0.55803	93.7628
4170	0.55953	93.96303	0.81044	1.34806	0.81044	1.34806	0.55953	93.96303
4190	0.5601	93.62885	0.81609	1.01789	0.81609	1.01789	0.5601	93.62885
4210	0.55727	93.26411	0.81852	0.61498	0.81852	0.61498	0.55727	93.26411
4230	0.5527	93.08281	0.81819	0.34116	0.81819	0.34116	0.5527	93.08281
4250	0.55228	93.00913	0.82185	0.26807	0.82185	0.26807	0.55228	93.00913
4270	0.54853	92.63075	0.82067	-0.14418	0.82067	-0.14418	0.54853	92.63075
4290	0.54779	92.18266	0.82188	-0.55533	0.82188	-0.55533	0.54779	92.18266
4310	0.54744	91.68253	0.82463	-0.90794	0.82463	-0.90794	0.54744	91.68253
4330	0.54667	91.20079	0.82834	-1.26172	0.82834	-1.26172	0.54667	91.20079
4350	0.54651	90.86068	0.83271	-1.79352	0.83271	-1.79352	0.54651	90.86068
4370	0.54255	90.86439	0.83078	-1.79095	0.83078	-1.79095	0.54255	90.86439
4390	0.54091	90.87413	0.83105	-2.04369	0.83105	-2.04369	0.54091	90.87413
4410	0.53838	90.80503	0.83179	-2.33142	0.83179	-2.33142	0.53838	90.80503
4430	0.5352	90.49914	0.83299	-2.60846	0.83299	-2.60846	0.5352	90.49914
4450	0.53498	89.72545	0.83629	-3.00378	0.83629	-3.00378	0.53498	89.72545
4470	0.52932	89.59532	0.83542	-3.3726	0.83542	-3.3726	0.52932	89.59532
4490	0.52726	89.46267	0.83696	-3.53657	0.83696	-3.53657	0.52726	89.46267
4510	0.52713	89.16557	0.84009	-3.9212	0.84009	-3.9212	0.52713	89.16557
4530	0.52648	88.74452	0.84175	-4.43903	0.84175	-4.43903	0.52648	88.74452
4550	0.52207	88.44243	0.83664	-4.48959	0.83664	-4.48959	0.52207	88.44243
4570	0.52193	88.53584	0.84367	-4.5684	0.84367	-4.5684	0.52193	88.53584
4590	0.52017	87.93144	0.84971	-5.29147	0.84971	-5.29147	0.52017	87.93144
4610	0.51631	87.58726	0.84861	-5.69496	0.84861	-5.69496	0.51631	87.58726
4630	0.51237	87.58461	0.84389	-5.696	0.84389	-5.696	0.51237	87.58461
4650	0.51285	87.12806	0.84879	-6.09268	0.84879	-6.09268	0.51285	87.12806
4670	0.50791	86.32844	0.84896	-6.55069	0.84896	-6.55069	0.50791	86.32844
4690	0.50549	86.09439	0.84865	-6.75765	0.84865	-6.75765	0.50549	86.09439
4710	0.50469	85.97436	0.84994	-6.97069	0.84994	-6.97069	0.50469	85.97436
4730	0.50442	85.69033	0.8522	-7.29534	0.8522	-7.29534	0.50442	85.69033
4750	0.50334	85.13769	0.85208	-7.6855	0.85208	-7.6855	0.50334	85.13769
4770	0.4999	85.11257	0.85594	-7.86481	0.85594	-7.86481	0.4999	85.11257
4790	0.49728	84.77882	0.85504	-8.41884	0.85504	-8.41884	0.49728	84.77882
4810	0.49463	84.56273	0.85647	-8.70704	0.85647	-8.70704	0.49463	84.56273
4830	0.49232	84.36338	0.86088	-8.79198	0.86088	-8.79198	0.49232	84.36338
4850	0.49191	83.55265	0.86248	-9.43933	0.86248	-9.43933	0.49191	83.55265
4870	0.48807	83.28193	0.86161	-9.43743	0.86161	-9.43743	0.48807	83.28193
4890	0.48651	83.03184	0.86477	-9.65508	0.86477	-9.65508	0.48651	83.03184
4910	0.48532	82.5562	0.86473	-10.05453	0.86473	-10.05453	0.48532	82.5562
4930	0.48405	82.06303	0.863	-10.41695	0.863	-10.41695	0.48405	82.06303
4950	0.48368	82.21448	0.86981	-10.34242	0.86981	-10.34242	0.48368	82.21448
4970	0.48164	81.57041	0.87083	-10.87929	0.87083	-10.87929	0.48164	81.57041
4990	0.47761	81.14185	0.86827	-11.37944	0.86827	-11.37944	0.47761	81.14185
5010	0.47522	81.0446	0.8674	-11.54253	0.8674	-11.54253	0.47522	81.0446
5030	0.47482	80.97899	0.87034	-11.60728	0.87034	-11.60728	0.47482	80.97899
5050	0.47351	80.22989	0.87611	-12.35152	0.87611	-12.35152	0.47351	80.22989
5070	0.46884	79.8944	0.86932	-12.55386	0.86932	-12.55386	0.46884	79.8944
5090	0.46786	79.75995	0.86937	-12.66638	0.86937	-12.66638	0.46786	79.75995
5110	0.46815	79.42158	0.87428	-12.89901	0.87428	-12.89901	0.46815	79.42158
5130	0.4673	78.9094	0.87836	-13.36141	0.87836	-13.36141	0.4673	78.9094
5150	0.46288	78.68859	0.87224	-14.06298	0.87224	-14.06298	0.46288	78.68859
5170	0.45933	78.68379	0.87446	-13.86518	0.87446	-13.86518	0.45933	78.68379
5190	0.45921	78.50403	0.87768	-13.88728	0.87768	-13.88728	0.45921	78.50403
5210	0.45775	78.00813	0.87923	-14.40901	0.87923	-14.40901	0.45775	78.00813
5230	0.45338	77.46926	0.87796	-15.08743	0.87796	-15.08743	0.45338	77.46926
5250	0.44777	77.57496	0.87429	-14.95693	0.87429	-14.95693	0.44777	77.57496
5270	0.45102	77.19611	0.88329	-15.21349	0.88329	-15.21349	0.45102	77.19611
5290	0.44898	76.50361	0.88344	-15.85752	0.88344	-15.85752	0.44898	76.50361
5310	0.44618	76.25791	0.88131	-16.17036	0.88131	-16.17036	0.44618	76.25791
5330	0.44504	76.42223	0.88187	-16.11974	0.88187	-16.11974	0.44504	76.42223
5350	0.44583	76.16256	0.88855	-16.35978	0.88855	-16.35978	0.44583	76.16256
5370	0.44184	75.55023	0.89138	-16.84312	0.89138	-16.84312	0.44184	75.55023
5390	0.43757	75.27482	0.88899	-17.15375	0.88899	-17.15375	0.43757	75.27482
5410	0.43585	75.07012	0.88943	-17.43063	0.88943	-17.43063	0.43585	75.07012
5430	0.43571	74.74868	0.89291	-17.72585	0.89291	-17.72585	0.43571	74.74868
5450	0.43235	74.20182	0.89185	-18.00467	0.89185	-18.00467	0.43235	74.20182
