! P/N: L-05C5N6_SHUNT								
! Measured by Marlon								
! Sep. 23, 2003								
! Measure with a Shunt-through-fixture								
#	mhz	s	ma	r	50			
50	0.95189	175.22217	0.07596	73.83959	0.07596	73.83959	0.95189	175.22217
70	0.96962	174.26076	0.10571	73.87151	0.10571	73.87151	0.96962	174.26076
90	0.96099	171.85253	0.13113	72.66817	0.13113	72.66817	0.96099	171.85253
110	0.95036	170.01124	0.15731	72.14737	0.15731	72.14737	0.95036	170.01124
130	0.94694	168.83342	0.18519	71.8825	0.18519	71.8825	0.94694	168.83342
150	0.94478	166.49836	0.21158	69.10252	0.21158	69.10252	0.94478	166.49836
170	0.93716	165.15395	0.23156	68.44855	0.23156	68.44855	0.93716	165.15395
190	0.93302	163.76304	0.25726	67.87236	0.25726	67.87236	0.93302	163.76304
210	0.92437	162.05012	0.28263	66.67222	0.28263	66.67222	0.92437	162.05012
230	0.91149	160.24329	0.30503	64.94697	0.30503	64.94697	0.91149	160.24329
250	0.90291	159.07427	0.32522	63.59605	0.32522	63.59605	0.90291	159.07427
270	0.8981	157.17141	0.34712	62.09728	0.34712	62.09728	0.8981	157.17141
290	0.88351	155.53864	0.36778	60.97881	0.36778	60.97881	0.88351	155.53864
310	0.87311	154.27241	0.39008	59.86873	0.39008	59.86873	0.87311	154.27241
330	0.86878	153.05231	0.41226	58.48335	0.41226	58.48335	0.86878	153.05231
350	0.86029	151.14103	0.42796	56.62723	0.42796	56.62723	0.86029	151.14103
370	0.84685	149.84173	0.44638	55.87358	0.44638	55.87358	0.84685	149.84173
390	0.83983	148.46011	0.46925	55.02695	0.46925	55.02695	0.83983	148.46011
410	0.83088	147.07573	0.48799	53.64442	0.48799	53.64442	0.83088	147.07573
430	0.81936	145.81756	0.50077	52.01529	0.50077	52.01529	0.81936	145.81756
450	0.81236	144.86392	0.51251	51.16116	0.51251	51.16116	0.81236	144.86392
470	0.80526	143.38146	0.53228	50.22342	0.53228	50.22342	0.80526	143.38146
490	0.78043	140.34379	0.57039	47.70305	0.57039	47.70305	0.78043	140.34379
510	0.76369	138.19501	0.59941	45.76261	0.59941	45.76261	0.76369	138.19501
530	0.75971	137.27881	0.61261	44.87288	0.61261	44.87288	0.75971	137.27881
550	0.75207	135.83846	0.62392	43.81291	0.62392	43.81291	0.75207	135.83846
570	0.73631	134.82735	0.63814	43.18848	0.63814	43.18848	0.73631	134.82735
590	0.72261	133.92741	0.65189	41.93289	0.65189	41.93289	0.72261	133.92741
610	0.711	133.05167	0.66241	40.48573	0.66241	40.48573	0.711	133.05167
630	0.70038	132.01395	0.67085	39.30011	0.67085	39.30011	0.70038	132.01395
650	0.68842	130.52884	0.68223	38.84273	0.68223	38.84273	0.68842	130.52884
670	0.66768	129.33897	0.69541	37.6861	0.69541	37.6861	0.66768	129.33897
690	0.65791	128.3621	0.70697	36.51024	0.70697	36.51024	0.65791	128.3621
710	0.65342	127.1788	0.71637	35.47124	0.71637	35.47124	0.65342	127.1788
730	0.64873	125.69073	0.72419	34.67414	0.72419	34.67414	0.64873	125.69073
750	0.63855	124.12069	0.73212	34.17296	0.73212	34.17296	0.63855	124.12069
770	0.62894	123.7539	0.74488	33.35826	0.74488	33.35826	0.62894	123.7539
790	0.62265	123.15004	0.7506	32.22707	0.7506	32.22707	0.62265	123.15004
810	0.6173	122.30619	0.75437	31.47963	0.75437	31.47963	0.6173	122.30619
830	0.60912	121.22359	0.76011	31.08348	0.76011	31.08348	0.60912	121.22359
850	0.5929	119.90766	0.77062	30.27342	0.77062	30.27342	0.5929	119.90766
870	0.58094	119.50755	0.77658	28.90058	0.77658	28.90058	0.58094	119.50755
890	0.57618	118.83318	0.781	28.1099	0.781	28.1099	0.57618	118.83318
910	0.57395	117.6716	0.78662	27.49304	0.78662	27.49304	0.57395	117.6716
930	0.56924	116.27619	0.79381	26.81226	0.79381	26.81226	0.56924	116.27619
950	0.55663	115.36665	0.80057	26.00047	0.80057	26.00047	0.55663	115.36665
970	0.55284	115.37655	0.80665	25.39932	0.80665	25.39932	0.55284	115.37655
990	0.54977	114.7864	0.81002	24.52753	0.81002	24.52753	0.54977	114.7864
1010	0.54488	113.91448	0.8145	23.79433	0.8145	23.79433	0.54488	113.91448
1030	0.53612	113.03618	0.82083	23.23278	0.82083	23.23278	0.53612	113.03618
1050	0.52198	112.38396	0.82666	22.49979	0.82666	22.49979	0.52198	112.38396
1070	0.51564	112.46038	0.82947	21.78339	0.82947	21.78339	0.51564	112.46038
1090	0.51309	111.61092	0.83318	21.23969	0.83318	21.23969	0.51309	111.61092
1110	0.50715	110.44927	0.83855	20.82369	0.83855	20.82369	0.50715	110.44927
1130	0.49728	109.5998	0.8449	20.37052	0.8449	20.37052	0.49728	109.5998
1150	0.48965	109.69754	0.85008	19.59543	0.85008	19.59543	0.48965	109.69754
1170	0.48663	109.6462	0.84833	18.9352	0.84833	18.9352	0.48663	109.6462
1190	0.48093	108.7688	0.85111	18.54881	0.85111	18.54881	0.48093	108.7688
1210	0.47187	107.77442	0.85536	18.15246	0.85536	18.15246	0.47187	107.77442
1230	0.46038	107.15153	0.85996	17.53456	0.85996	17.53456	0.46038	107.15153
1250	0.44912	107.16799	0.86579	16.55571	0.86579	16.55571	0.44912	107.16799
1270	0.44876	106.2807	0.86615	16.08432	0.86615	16.08432	0.44876	106.2807
1290	0.4439	104.88081	0.87138	15.55649	0.87138	15.55649	0.4439	104.88081
1310	0.43398	103.67433	0.87586	15.05313	0.87586	15.05313	0.43398	103.67433
1330	0.42374	103.03698	0.87859	14.57178	0.87859	14.57178	0.42374	103.03698
1350	0.42322	103.01413	0.88314	14.02664	0.88314	14.02664	0.42322	103.01413
1370	0.42406	101.87967	0.88266	13.56456	0.88266	13.56456	0.42406	101.87967
1390	0.41818	100.75709	0.88385	13.16803	0.88385	13.16803	0.41818	100.75709
1410	0.40995	100.19071	0.88802	12.78431	0.88802	12.78431	0.40995	100.19071
1430	0.40306	100.14773	0.89284	12.26391	0.89284	12.26391	0.40306	100.14773
1450	0.4005	100.01822	0.89236	11.36066	0.89236	11.36066	0.4005	100.01822
1470	0.40002	98.73503	0.89338	11.01248	0.89338	11.01248	0.40002	98.73503
1490	0.39314	97.40666	0.89701	10.71774	0.89701	10.71774	0.39314	97.40666
1510	0.3855	96.69915	0.90042	10.27244	0.90042	10.27244	0.3855	96.69915
1530	0.38156	96.57913	0.90226	9.70284	0.90226	9.70284	0.38156	96.57913
1550	0.38461	96.31383	0.90258	9.2655	0.90258	9.2655	0.38461	96.31383
1570	0.38489	95.04064	0.90124	8.96808	0.90124	8.96808	0.38489	95.04064
1590	0.37685	94.41205	0.90828	8.31045	0.90828	8.31045	0.37685	94.41205
1610	0.36987	94.56875	0.91336	7.79496	0.91336	7.79496	0.36987	94.56875
1630	0.36759	94.93817	0.91276	7.50052	0.91276	7.50052	0.36759	94.93817
1650	0.36784	94.23446	0.90934	7.08256	0.90934	7.08256	0.36784	94.23446
1670	0.36256	92.92121	0.91293	6.85109	0.91293	6.85109	0.36256	92.92121
1690	0.35424	92.59079	0.91488	6.39563	0.91488	6.39563	0.35424	92.59079
1710	0.34997	92.68131	0.91756	5.83783	0.91756	5.83783	0.34997	92.68131
1730	0.35084	92.62558	0.92132	5.32342	0.92132	5.32342	0.35084	92.62558
1750	0.35191	91.85113	0.92451	5.02217	0.92451	5.02217	0.35191	91.85113
1770	0.34313	90.83182	0.92385	4.7917	0.92385	4.7917	0.34313	90.83182
1790	0.33529	91.06787	0.92537	4.42673	0.92537	4.42673	0.33529	91.06787
1810	0.33189	91.3705	0.92632	3.85099	0.92632	3.85099	0.33189	91.3705
1830	0.33138	91.00915	0.92572	3.30012	0.92572	3.30012	0.33138	91.00915
1850	0.32726	89.71148	0.92434	3.32169	0.92434	3.32169	0.32726	89.71148
1870	0.31808	89.04522	0.92892	2.86857	0.92892	2.86857	0.31808	89.04522
1890	0.31115	89.00316	0.93113	2.37348	0.93113	2.37348	0.31115	89.00316
1910	0.30955	88.90313	0.93105	1.91908	0.93105	1.91908	0.30955	88.90313
1930	0.31096	88.21387	0.93045	1.55111	0.93045	1.55111	0.31096	88.21387
1950	0.30776	86.55497	0.93288	1.2784	0.93288	1.2784	0.30776	86.55497
1970	0.29887	86.03326	0.93661	0.84056	0.93661	0.84056	0.29887	86.03326
1990	0.29526	86.42289	0.9367	0.40451	0.9367	0.40451	0.29526	86.42289
2010	0.29491	86.40982	0.93669	0.06283	0.93669	0.06283	0.29491	86.40982
2030	0.29457	85.47101	0.9379	-0.20234	0.9379	-0.20234	0.29457	85.47101
2050	0.28971	83.87442	0.93937	-0.51933	0.93937	-0.51933	0.28971	83.87442
2070	0.28216	83.98244	0.94158	-0.89676	0.94158	-0.89676	0.28216	83.98244
2090	0.28122	84.21094	0.9408	-1.23367	0.9408	-1.23367	0.28122	84.21094
2110	0.28265	83.69053	0.94095	-1.52301	0.94095	-1.52301	0.28265	83.69053
2130	0.2821	82.44471	0.94287	-1.81865	0.94287	-1.81865	0.2821	82.44471
2150	0.27509	81.38987	0.94435	-2.2354	0.94435	-2.2354	0.27509	81.38987
2170	0.2708	81.76326	0.94482	-2.45653	0.94482	-2.45653	0.2708	81.76326
2190	0.27222	82.16877	0.94869	-2.98782	0.94869	-2.98782	0.27222	82.16877
2210	0.27296	81.60098	0.94937	-3.35445	0.94937	-3.35445	0.27296	81.60098
2230	0.26986	80.33763	0.94705	-3.49192	0.94705	-3.49192	0.26986	80.33763
2250	0.26292	79.93963	0.94868	-3.74603	0.94868	-3.74603	0.26292	79.93963
2270	0.25953	80.63454	0.94723	-4.21832	0.94723	-4.21832	0.25953	80.63454
2290	0.26152	80.55916	0.94811	-4.55803	0.94811	-4.55803	0.26152	80.55916
2310	0.26213	79.80255	0.95018	-4.84119	0.95018	-4.84119	0.26213	79.80255
2330	0.25831	78.93554	0.95235	-5.14028	0.95235	-5.14028	0.25831	78.93554
2350	0.25078	79.01072	0.95356	-5.5243	0.95356	-5.5243	0.25078	79.01072
2370	0.25062	80.34746	0.9519	-6.02457	0.9519	-6.02457	0.25062	80.34746
2390	0.25206	80.3625	0.95016	-6.17719	0.95016	-6.17719	0.25206	80.3625
2410	0.24885	79.37217	0.9516	-6.4251	0.9516	-6.4251	0.24885	79.37217
2430	0.24036	78.41388	0.95416	-6.81342	0.95416	-6.81342	0.24036	78.41388
2450	0.23159	79.24608	0.95048	-6.98948	0.95048	-6.98948	0.23159	79.24608
2470	0.2321	79.57032	0.95851	-7.50922	0.95851	-7.50922	0.2321	79.57032
2490	0.23292	78.30133	0.95816	-7.76327	0.95816	-7.76327	0.23292	78.30133
2510	0.23007	76.64053	0.95784	-7.99685	0.95784	-7.99685	0.23007	76.64053
2530	0.22463	75.83012	0.95876	-8.30478	0.95876	-8.30478	0.22463	75.83012
2550	0.22269	77.1531	0.95491	-8.63145	0.95491	-8.63145	0.22269	77.1531
2570	0.22675	77.80693	0.95819	-9.04604	0.95819	-9.04604	0.22675	77.80693
2590	0.2264	77.24318	0.95836	-9.318	0.95836	-9.318	0.2264	77.24318
2610	0.22041	76.74188	0.96019	-9.45785	0.96019	-9.45785	0.22041	76.74188
2630	0.21214	77.03194	0.96336	-9.62734	0.96336	-9.62734	0.21214	77.03194
2650	0.20955	78.29119	0.96245	-10.13943	0.96245	-10.13943	0.20955	78.29119
2670	0.21204	77.50142	0.96133	-10.48722	0.96133	-10.48722	0.21204	77.50142
2690	0.20887	75.91902	0.96196	-10.72492	0.96196	-10.72492	0.20887	75.91902
2710	0.20325	74.96271	0.96239	-11.02593	0.96239	-11.02593	0.20325	74.96271
2730	0.19885	75.25993	0.9627	-11.35311	0.9627	-11.35311	0.19885	75.25993
2750	0.19976	76.64683	0.96501	-11.45882	0.96501	-11.45882	0.19976	76.64683
2770	0.20272	75.35124	0.96509	-11.88264	0.96509	-11.88264	0.20272	75.35124
2790	0.19946	74.22309	0.96318	-12.27534	0.96318	-12.27534	0.19946	74.22309
2810	0.19346	74.39156	0.96249	-12.42363	0.96249	-12.42363	0.19346	74.39156
2830	0.18913	75.57611	0.96419	-12.47128	0.96419	-12.47128	0.18913	75.57611
2850	0.19171	76.08653	0.96736	-12.91915	0.96736	-12.91915	0.19171	76.08653
2870	0.19203	73.70081	0.966	-13.41687	0.966	-13.41687	0.19203	73.70081
2890	0.18747	72.70035	0.96612	-13.55259	0.96612	-13.55259	0.18747	72.70035
2910	0.18449	73.30066	0.96779	-13.79832	0.96779	-13.79832	0.18449	73.30066
2930	0.18565	74.77489	0.96959	-14.23595	0.96959	-14.23595	0.18565	74.77489
2950	0.18964	75.45389	0.96853	-14.5573	0.96853	-14.5573	0.18964	75.45389
2970	0.18513	74.68716	0.96794	-14.72485	0.96794	-14.72485	0.18513	74.68716
2990	0.17736	74.73597	0.96869	-15.12707	0.96869	-15.12707	0.17736	74.73597
3010	0.1716	75.59435	0.96824	-15.47073	0.96824	-15.47073	0.1716	75.59435
3030	0.17009	76.29071	0.96709	-15.68001	0.96709	-15.68001	0.17009	76.29071
3050	0.17207	74.88792	0.96878	-15.89656	0.96878	-15.89656	0.17207	74.88792
3070	0.16663	72.93557	0.96995	-16.15149	0.96995	-16.15149	0.16663	72.93557
3090	0.16189	73.23549	0.96951	-16.55749	0.96951	-16.55749	0.16189	73.23549
3110	0.16046	74.25544	0.97047	-16.9403	0.97047	-16.9403	0.16046	74.25544
3130	0.16201	74.73229	0.97313	-17.23379	0.97313	-17.23379	0.16201	74.73229
3150	0.16321	73.67198	0.97505	-17.47994	0.97505	-17.47994	0.16321	73.67198
3170	0.15473	72.98364	0.97142	-17.52331	0.97142	-17.52331	0.15473	72.98364
3190	0.14971	73.91598	0.97437	-17.74658	0.97437	-17.74658	0.14971	73.91598
3210	0.14897	74.7647	0.97565	-18.06397	0.97565	-18.06397	0.14897	74.7647
3230	0.15067	74.39776	0.97303	-18.39411	0.97303	-18.39411	0.15067	74.39776
3250	0.15037	72.25544	0.97032	-18.66004	0.97032	-18.66004	0.15037	72.25544
3270	0.14322	72.67437	0.97331	-18.83873	0.97331	-18.83873	0.14322	72.67437
3290	0.14097	74.4276	0.97573	-19.21923	0.97573	-19.21923	0.14097	74.4276
3310	0.14118	75.33157	0.97668	-19.5577	0.97668	-19.5577	0.14118	75.33157
3330	0.14067	74.51941	0.97621	-19.76673	0.97621	-19.76673	0.14067	74.51941
3350	0.13557	72.44093	0.97538	-19.91526	0.97538	-19.91526	0.13557	72.44093
3370	0.12879	72.89582	0.98068	-20.18397	0.98068	-20.18397	0.12879	72.89582
3390	0.12847	73.70564	0.97979	-20.61395	0.97979	-20.61395	0.12847	73.70564
3410	0.13109	73.3587	0.97617	-21.01339	0.97617	-21.01339	0.13109	73.3587
3430	0.13283	71.84447	0.97477	-21.24139	0.97477	-21.24139	0.13283	71.84447
3450	0.12952	70.65357	0.98204	-21.20791	0.98204	-21.20791	0.12952	70.65357
3470	0.1245	72.47753	0.98203	-21.8102	0.98203	-21.8102	0.1245	72.47753
3490	0.12504	75.32415	0.97952	-22.09527	0.97952	-22.09527	0.12504	75.32415
3510	0.12527	76.10505	0.98011	-22.18418	0.98011	-22.18418	0.12527	76.10505
3530	0.12155	74.7379	0.9826	-22.31515	0.9826	-22.31515	0.12155	74.7379
3550	0.11244	74.14646	0.97901	-22.84353	0.97901	-22.84353	0.11244	74.14646
3570	0.1093	75.98407	0.9803	-23.06258	0.9803	-23.06258	0.1093	75.98407
3590	0.11083	76.11772	0.97987	-23.31814	0.97987	-23.31814	0.11083	76.11772
3610	0.11131	74.54985	0.97915	-23.4926	0.97915	-23.4926	0.11131	74.54985
3630	0.10811	72.5736	0.97979	-23.63348	0.97979	-23.63348	0.10811	72.5736
3650	0.10165	72.7727	0.98364	-23.95346	0.98364	-23.95346	0.10165	72.7727
3670	0.10144	75.62085	0.98221	-24.29657	0.98221	-24.29657	0.10144	75.62085
3690	0.10298	75.87295	0.98005	-24.59175	0.98005	-24.59175	0.10298	75.87295
3710	0.10171	74.28414	0.97956	-24.82618	0.97956	-24.82618	0.10171	74.28414
3730	0.09671	72.69776	0.98099	-25.07092	0.98099	-25.07092	0.09671	72.69776
3750	0.09065	74.04533	0.98247	-25.48094	0.98247	-25.48094	0.09065	74.04533
3770	0.09342	76.07217	0.98132	-25.65825	0.98132	-25.65825	0.09342	76.07217
3790	0.09542	74.30363	0.98375	-26.00298	0.98375	-26.00298	0.09542	74.30363
3810	0.093	72.77595	0.98398	-26.24218	0.98398	-26.24218	0.093	72.77595
3830	0.08733	73.43115	0.98211	-26.36746	0.98211	-26.36746	0.08733	73.43115
3850	0.08439	76.11703	0.98407	-26.63498	0.98407	-26.63498	0.08439	76.11703
3870	0.08805	77.35514	0.98103	-26.91599	0.98103	-26.91599	0.08805	77.35514
3890	0.08737	75.89307	0.98375	-27.27787	0.98375	-27.27787	0.08737	75.89307
3910	0.08331	75.00388	0.98538	-27.52378	0.98538	-27.52378	0.08331	75.00388
3930	0.07842	76.53246	0.9847	-27.6606	0.9847	-27.6606	0.07842	76.53246
3950	0.0769	80.89558	0.98614	-27.89893	0.98614	-27.89893	0.0769	80.89558
3970	0.07891	80.02859	0.98636	-28.06864	0.98636	-28.06864	0.07891	80.02859
3990	0.07584	77.30903	0.98506	-28.41274	0.98506	-28.41274	0.07584	77.30903
4010	0.07044	76.60846	0.98479	-28.65191	0.98479	-28.65191	0.07044	76.60846
4030	0.06652	78.58796	0.98566	-28.84644	0.98566	-28.84644	0.06652	78.58796
4050	0.06901	80.69805	0.98532	-29.39623	0.98532	-29.39623	0.06901	80.69805
4070	0.07156	78.23477	0.98096	-29.45488	0.98096	-29.45488	0.07156	78.23477
4090	0.06895	76.54203	0.98443	-29.76731	0.98443	-29.76731	0.06895	76.54203
4110	0.06516	78.68282	0.98804	-30.05132	0.98804	-30.05132	0.06516	78.68282
4130	0.06326	83.81922	0.98872	-30.23163	0.98872	-30.23163	0.06326	83.81922
4150	0.06542	87.21234	0.98799	-30.43988	0.98799	-30.43988	0.06542	87.21234
4170	0.06317	84.00574	0.99091	-30.79657	0.99091	-30.79657	0.06317	84.00574
4190	0.05657	83.03108	0.98989	-31.13236	0.98989	-31.13236	0.05657	83.03108
4210	0.05171	85.52938	0.98748	-31.33078	0.98748	-31.33078	0.05171	85.52938
4230	0.05138	88.92871	0.986	-31.48512	0.986	-31.48512	0.05138	88.92871
4250	0.05509	86.84416	0.98758	-31.89841	0.98758	-31.89841	0.05509	86.84416
4270	0.05241	82.64013	0.98789	-31.97048	0.98789	-31.97048	0.05241	82.64013
4290	0.04777	84.65554	0.98737	-32.14849	0.98737	-32.14849	0.04777	84.65554
4310	0.04636	90.28896	0.98979	-32.41226	0.98979	-32.41226	0.04636	90.28896
4330	0.04816	94.91907	0.9935	-32.72897	0.9935	-32.72897	0.04816	94.91907
4350	0.04798	91.9046	0.99137	-33.05315	0.99137	-33.05315	0.04798	91.9046
4370	0.04103	89.07674	0.98745	-33.26929	0.98745	-33.26929	0.04103	89.07674
4390	0.03621	92.76968	0.98882	-33.53632	0.98882	-33.53632	0.03621	92.76968
4410	0.03625	96.29574	0.99247	-33.82486	0.99247	-33.82486	0.03625	96.29574
4430	0.03955	95.24252	0.99481	-34.10345	0.99481	-34.10345	0.03955	95.24252
4450	0.04023	87.47293	0.99168	-34.33853	0.99168	-34.33853	0.04023	87.47293
4470	0.03551	87.51755	0.98826	-34.41936	0.98826	-34.41936	0.03551	87.51755
4490	0.03468	94.98036	0.98398	-34.83705	0.98398	-34.83705	0.03468	94.98036
4510	0.03685	101.47405	0.98392	-35.09396	0.98392	-35.09396	0.03685	101.47405
4530	0.03899	102.75465	0.98725	-35.16526	0.98725	-35.16526	0.03899	102.75465
4550	0.0359	98.72163	0.98728	-35.49897	0.98728	-35.49897	0.0359	98.72163
4570	0.03018	105.51817	0.98917	-35.71988	0.98917	-35.71988	0.03018	105.51817
4590	0.0309	112.81144	0.99128	-36.00233	0.99128	-36.00233	0.0309	112.81144
4610	0.03335	113.9169	0.99138	-36.26022	0.99138	-36.26022	0.03335	113.9169
4630	0.03387	109.499	0.98981	-36.49471	0.98981	-36.49471	0.03387	109.499
4650	0.02985	107.57114	0.98939	-36.79426	0.98939	-36.79426	0.02985	107.57114
4670	0.02783	121.01378	0.99093	-37.07716	0.99093	-37.07716	0.02783	121.01378
4690	0.03134	124.95853	0.99096	-37.42077	0.99096	-37.42077	0.03134	124.95853
4710	0.03322	124.16788	0.98979	-37.69653	0.98979	-37.69653	0.03322	124.16788
4730	0.03095	123.66248	0.98946	-37.88022	0.98946	-37.88022	0.03095	123.66248
4750	0.02658	128.72113	0.99379	-38.05198	0.99379	-38.05198	0.02658	128.72113
4770	0.02841	140.3619	0.99118	-38.33027	0.99118	-38.33027	0.02841	140.3619
4790	0.03125	140.31155	0.99031	-38.47077	0.99031	-38.47077	0.03125	140.31155
4810	0.03123	136.45694	0.99119	-38.6586	0.99119	-38.6586	0.03123	136.45694
4830	0.02832	136.24446	0.99175	-38.92248	0.99175	-38.92248	0.02832	136.24446
4850	0.02629	146.68004	0.98784	-39.13473	0.98784	-39.13473	0.02629	146.68004
4870	0.03229	151.85367	0.99078	-39.22432	0.99078	-39.22432	0.03229	151.85367
4890	0.03516	149.38001	0.98855	-39.66223	0.98855	-39.66223	0.03516	149.38001
4910	0.03482	149.70801	0.98472	-40.11559	0.98472	-40.11559	0.03482	149.70801
4930	0.03345	156.82929	0.98339	-40.43442	0.98339	-40.43442	0.03345	156.82929
4950	0.03553	168.27813	0.98928	-40.65152	0.98928	-40.65152	0.03553	168.27813
4970	0.04041	169.54791	0.98823	-40.43704	0.98823	-40.43704	0.04041	169.54791
4990	0.03923	168.92305	0.9896	-40.98188	0.9896	-40.98188	0.03923	168.92305
5010	0.03582	172.3747	0.98839	-41.30395	0.98839	-41.30395	0.03582	172.3747
5030	0.03387	107.90321	0.98565	-41.22896	0.98565	-41.22896	0.03387	107.90321
5050	0.03696	-174.46183	0.98852	-41.39043	0.98852	-41.39043	0.03696	-174.46183
5070	0.03799	107.39054	0.98957	-42.03382	0.98957	-42.03382	0.03799	107.39054
5090	0.03505	178.29678	0.99299	-42.24088	0.99299	-42.24088	0.03505	178.29678
5110	0.03372	37.21632	0.99454	-42.48687	0.99454	-42.48687	0.03372	37.21632
5130	0.03632	-174.99111	0.99332	-42.81028	0.99332	-42.81028	0.03632	-174.99111
5150	0.04191	-175.5655	0.99177	-42.81283	0.99177	-42.81283	0.04191	-175.5655
5170	0.04235	106.99006	0.98841	-43.10405	0.98841	-43.10405	0.04235	106.99006
5190	0.04007	-35.19251	0.98656	-43.40231	0.98656	-43.40231	0.04007	-35.19251
5210	0.03953	-173.73784	0.9874	-43.63281	0.9874	-43.63281	0.03953	-173.73784
5230	0.04227	-169.35311	0.98954	-43.80796	0.98954	-43.80796	0.04227	-169.35311
5250	0.04691	-171.82806	0.98899	-44.02733	0.98899	-44.02733	0.04691	-171.82806
5270	0.04468	-176.01641	0.98791	-44.35879	0.98791	-44.35879	0.04468	-176.01641
5290	0.04352	-172.82246	0.99006	-44.58067	0.99006	-44.58067	0.04352	-172.82246
5310	0.0454	-168.54495	0.99335	-44.79109	0.99335	-44.79109	0.0454	-168.54495
5330	0.0497	-167.43734	0.99431	-45.05402	0.99431	-45.05402	0.0497	-167.43734
5350	0.05313	-171.70786	0.98803	-45.39919	0.98803	-45.39919	0.05313	-171.70786
5370	0.04862	-172.18922	0.98799	-45.36517	0.98799	-45.36517	0.04862	-172.18922
5390	0.04864	-167.35239	0.98946	-45.60106	0.98946	-45.60106	0.04864	-167.35239
