! Data Taken on a HP 8720C VNA using a shunt-through fixture with TRL* de-embedding
#	mhz	s	ma	r	50
50	0.96624	177.23564	0.02904	78.3152	0.02904	78.3152	0.96624	177.23564
70	0.99541	177.67218	0.03981	77.93321	0.03981	77.93321	0.99541	177.67218
90	0.99468	176.30242	0.0496	76.44522	0.0496	76.44522	0.99468	176.30242
110	0.98579	175.46986	0.05907	76.13585	0.05907	76.13585	0.98579	175.46986
130	0.98294	175.33246	0.06906	76.90777	0.06906	76.90777	0.98294	175.33246
150	0.99278	173.86267	0.08054	76.28166	0.08054	76.28166	0.99278	173.86267
170	0.97905	173.57688	0.08928	76.61805	0.08928	76.61805	0.97905	173.57688
190	0.98086	173.04956	0.09952	76.30702	0.09952	76.30702	0.98086	173.04956
210	0.9822	172.1083	0.10968	75.67451	0.10968	75.67451	0.9822	172.1083
230	0.97748	171.15906	0.11925	75.09454	0.11925	75.09454	0.97748	171.15906
250	0.97156	171.18624	0.12882	74.98923	0.12882	74.98923	0.97156	171.18624
270	0.97532	170.18779	0.13955	74.47827	0.13955	74.47827	0.97532	170.18779
290	0.97008	169.24426	0.14869	73.74842	0.14869	73.74842	0.97008	169.24426
310	0.96603	168.67758	0.15777	73.37593	0.15777	73.37593	0.96603	168.67758
330	0.96718	168.16439	0.16753	73.16843	0.16753	73.16843	0.96718	168.16439
350	0.97138	166.73608	0.17791	72.1649	0.17791	72.1649	0.97138	166.73608
370	0.96002	166.44644	0.1863	71.85643	0.1863	71.85643	0.96002	166.44644
390	0.96089	165.95064	0.19634	71.27151	0.19634	71.27151	0.96089	165.95064
410	0.96302	165.09274	0.20622	70.51313	0.20622	70.51313	0.96302	165.09274
430	0.96052	164.16359	0.21515	69.88899	0.21515	69.88899	0.96052	164.16359
450	0.95261	163.90081	0.22342	69.91158	0.22342	69.91158	0.95261	163.90081
470	0.95438	163.1122	0.23437	68.83972	0.23437	68.83972	0.95438	163.1122
490	0.94931	160.97341	0.25754	67.58626	0.25754	67.58626	0.94931	160.97341
510	0.94754	159.40702	0.27672	66.70833	0.27672	66.70833	0.94754	159.40702
530	0.94916	158.78925	0.28727	66.30654	0.28727	66.30654	0.94916	158.78925
550	0.94418	157.94996	0.29613	66.02492	0.29613	66.02492	0.94418	157.94996
570	0.94242	157.48096	0.30394	65.27324	0.30394	65.27324	0.94242	157.48096
590	0.94204	156.75377	0.31194	64.61259	0.31194	64.61259	0.94204	156.75377
610	0.93731	155.9821	0.32003	64.02869	0.32003	64.02869	0.93731	155.9821
630	0.92991	155.31191	0.32884	63.47561	0.32884	63.47561	0.92991	155.31191
650	0.929	154.82142	0.3398	62.87574	0.3398	62.87574	0.929	154.82142
670	0.92322	153.72921	0.34741	61.89644	0.34741	61.89644	0.92322	153.72921
690	0.9185	152.99386	0.354	61.28067	0.354	61.28067	0.9185	152.99386
710	0.91912	152.30946	0.36231	60.58928	0.36231	60.58928	0.91912	152.30946
730	0.92105	151.56431	0.37188	59.76158	0.37188	59.76158	0.92105	151.56431
750	0.91189	150.84091	0.37907	59.11535	0.37907	59.11535	0.91189	150.84091
770	0.91064	150.67913	0.38805	58.50255	0.38805	58.50255	0.91064	150.67913
790	0.91025	149.98164	0.39596	57.87333	0.39596	57.87333	0.91025	149.98164
810	0.90408	149.35715	0.4024	57.27426	0.4024	57.27426	0.90408	149.35715
830	0.89337	148.93125	0.40868	56.65418	0.40868	56.65418	0.89337	148.93125
850	0.88724	148.34641	0.41777	55.86418	0.41777	55.86418	0.88724	148.34641
870	0.88573	147.30443	0.42577	54.99625	0.42577	54.99625	0.88573	147.30443
890	0.88079	146.62674	0.43242	54.39588	0.43242	54.39588	0.88079	146.62674
910	0.87854	145.94548	0.44065	53.8607	0.44065	53.8607	0.87854	145.94548
930	0.8779	145.13568	0.44938	53.20355	0.44938	53.20355	0.8779	145.13568
950	0.87055	144.31522	0.45349	52.25251	0.45349	52.25251	0.87055	144.31522
970	0.86761	144.15172	0.46229	51.99204	0.46229	51.99204	0.86761	144.15172
990	0.86517	143.52628	0.46963	51.55618	0.46963	51.55618	0.86517	143.52628
1010	0.86023	142.81673	0.47606	50.93325	0.47606	50.93325	0.86023	142.81673
1030	0.85326	142.17644	0.48217	50.25328	0.48217	50.25328	0.85326	142.17644
1050	0.8482	141.53433	0.48862	49.78802	0.48862	49.78802	0.8482	141.53433
1070	0.84247	140.61999	0.49419	49.09357	0.49419	49.09357	0.84247	140.61999
1090	0.83934	139.99454	0.50095	48.46422	0.50095	48.46422	0.83934	139.99454
1110	0.83689	139.35966	0.50793	47.85764	0.50793	47.85764	0.83689	139.35966
1130	0.8341	138.63349	0.51412	47.24331	0.51412	47.24331	0.8341	138.63349
1150	0.83091	137.95053	0.51853	46.60253	0.51853	46.60253	0.83091	137.95053
1170	0.82874	137.33181	0.52805	46.12425	0.52805	46.12425	0.82874	137.33181
1190	0.82315	136.84287	0.53308	45.62518	0.53308	45.62518	0.82315	136.84287
1210	0.8187	136.34851	0.53897	45.14257	0.53897	45.14257	0.8187	136.34851
1230	0.81542	135.71934	0.5461	44.61275	0.5461	44.61275	0.81542	135.71934
1250	0.80871	134.83183	0.54986	43.87114	0.54986	43.87114	0.80871	134.83183
1270	0.80328	134.51492	0.55289	43.59497	0.55289	43.59497	0.80328	134.51492
1290	0.80184	133.83968	0.56021	42.99746	0.56021	42.99746	0.80184	133.83968
1310	0.79921	133.05959	0.56778	42.26485	0.56778	42.26485	0.79921	133.05959
1330	0.79455	132.37537	0.57386	41.64646	0.57386	41.64646	0.79455	132.37537
1350	0.79143	131.93499	0.57893	41.45471	0.57893	41.45471	0.79143	131.93499
1370	0.79244	131.19132	0.58609	40.72036	0.58609	40.72036	0.79244	131.19132
1390	0.78769	130.76743	0.59009	40.3535	0.59009	40.3535	0.78769	130.76743
1410	0.78432	130.34414	0.59391	40.05308	0.59391	40.05308	0.78432	130.34414
1430	0.7823	129.77637	0.59838	39.58039	0.59838	39.58039	0.7823	129.77637
1450	0.77438	129.0932	0.60226	38.75911	0.60226	38.75911	0.77438	129.0932
1470	0.77023	128.80386	0.60593	38.51155	0.60593	38.51155	0.77023	128.80386
1490	0.76781	128.17272	0.61313	37.85802	0.61313	37.85802	0.76781	128.17272
1510	0.76323	127.52167	0.61875	37.14568	0.61875	37.14568	0.76323	127.52167
1530	0.75682	126.95232	0.62194	36.59108	0.62194	36.59108	0.75682	126.95232
1550	0.75308	126.34608	0.62615	36.28011	0.62615	36.28011	0.75308	126.34608
1570	0.75255	125.91548	0.63173	35.76604	0.63173	35.76604	0.75255	125.91548
1590	0.74874	125.22655	0.63576	35.29525	0.63576	35.29525	0.74874	125.22655
1610	0.74512	124.67824	0.63913	34.89031	0.63913	34.89031	0.74512	124.67824
1630	0.74228	124.37138	0.64254	34.49441	0.64254	34.49441	0.74228	124.37138
1650	0.7379	124.10871	0.64648	33.97138	0.64648	33.97138	0.7379	124.10871
1670	0.73319	123.46587	0.65153	33.46759	0.65153	33.46759	0.73319	123.46587
1690	0.72619	122.84922	0.65459	32.86735	0.65459	32.86735	0.72619	122.84922
1710	0.72118	122.32664	0.65844	32.4573	0.65844	32.4573	0.72118	122.32664
1730	0.7198	121.80651	0.66436	32.1741	0.66436	32.1741	0.7198	121.80651
1750	0.72103	121.03779	0.67214	31.60443	0.67214	31.60443	0.72103	121.03779
1770	0.71458	120.36582	0.67258	31.00951	0.67258	31.00951	0.71458	120.36582
1790	0.71186	120.19689	0.67553	30.87821	0.67553	30.87821	0.71186	120.19689
1810	0.70998	119.89776	0.67936	30.57744	0.67936	30.57744	0.70998	119.89776
1830	0.70647	119.36704	0.68264	30.01393	0.68264	30.01393	0.70647	119.36704
1850	0.6992	119.03517	0.68415	29.63425	0.68415	29.63425	0.6992	119.03517
1870	0.69526	118.67048	0.69118	29.1774	0.69118	29.1774	0.69526	118.67048
1890	0.69181	117.93909	0.69667	28.5791	0.69667	28.5791	0.69181	117.93909
1910	0.68746	117.27573	0.69934	28.14054	0.69934	28.14054	0.68746	117.27573
1930	0.68317	116.8197	0.70099	27.84583	0.70099	27.84583	0.68317	116.8197
1950	0.68222	116.4149	0.70648	27.362	0.70648	27.362	0.68222	116.4149
1970	0.67916	115.74656	0.70879	26.99783	0.70879	26.99783	0.67916	115.74656
1990	0.67676	115.30065	0.70962	26.6482	0.70962	26.6482	0.67676	115.30065
2010	0.6738	115.01	0.71169	26.35304	0.71169	26.35304	0.6738	115.01
2030	0.67026	114.74167	0.71586	26.03883	0.71586	26.03883	0.67026	114.74167
2050	0.66729	114.29692	0.72114	25.5186	0.72114	25.5186	0.66729	114.29692
2070	0.66172	113.78654	0.72366	24.86907	0.72366	24.86907	0.66172	113.78654
2090	0.65741	113.39723	0.72379	24.50164	0.72379	24.50164	0.65741	113.39723
2110	0.65517	112.93115	0.72708	24.08132	0.72708	24.08132	0.65517	112.93115
2130	0.65386	112.3988	0.73315	23.59371	0.73315	23.59371	0.65386	112.3988
2150	0.65037	112.01908	0.7357	23.34495	0.7357	23.34495	0.65037	112.01908
2170	0.64607	111.65486	0.73666	22.99705	0.73666	22.99705	0.64607	111.65486
2190	0.64561	111.3469	0.74058	22.68458	0.74058	22.68458	0.64561	111.3469
2210	0.64351	110.90797	0.74391	22.20765	0.74391	22.20765	0.64351	110.90797
2230	0.63859	110.39445	0.74593	21.69555	0.74593	21.69555	0.63859	110.39445
2250	0.63394	110.10635	0.74878	21.60671	0.74878	21.60671	0.63394	110.10635
2270	0.63219	109.58079	0.75261	21.0534	0.75261	21.0534	0.63219	109.58079
2290	0.62871	109.22296	0.75414	20.36718	0.75414	20.36718	0.62871	109.22296
2310	0.62504	108.99836	0.75636	20.08791	0.75636	20.08791	0.62504	108.99836
2330	0.62251	108.71805	0.7599	20.06269	0.7599	20.06269	0.62251	108.71805
2350	0.62226	108.03864	0.76304	19.44588	0.76304	19.44588	0.62226	108.03864
2370	0.61575	107.7888	0.76372	19.01296	0.76372	19.01296	0.61575	107.7888
2390	0.61366	107.52295	0.7668	18.81189	0.7668	18.81189	0.61366	107.52295
2410	0.61155	107.14952	0.7706	18.50587	0.7706	18.50587	0.61155	107.14952
2430	0.6078	106.66691	0.77344	18.05764	0.77344	18.05764	0.6078	106.66691
2450	0.6036	106.16345	0.77365	17.72952	0.77365	17.72952	0.6036	106.16345
2470	0.60246	106.04517	0.77523	17.38587	0.77523	17.38587	0.60246	106.04517
2490	0.60122	105.82543	0.77857	16.99811	0.77857	16.99811	0.60122	105.82543
2510	0.59903	105.49626	0.78253	16.65881	0.78253	16.65881	0.59903	105.49626
2530	0.59555	105.17609	0.78535	16.36588	0.78535	16.36588	0.59555	105.17609
2550	0.59099	105.1098	0.78457	16.02254	0.78457	16.02254	0.59099	105.1098
2570	0.59004	104.85725	0.78914	15.76924	0.78914	15.76924	0.59004	104.85725
2590	0.58632	104.55375	0.79085	15.2653	0.79085	15.2653	0.58632	104.55375
2610	0.58154	104.07447	0.79302	14.7746	0.79302	14.7746	0.58154	104.07447
2630	0.57776	103.54854	0.79567	14.37927	0.79567	14.37927	0.57776	103.54854
2650	0.57745	103.35911	0.7956	13.97974	0.7956	13.97974	0.57745	103.35911
2670	0.57391	103.21993	0.79771	13.67685	0.79771	13.67685	0.57391	103.21993
2690	0.57144	103.04491	0.80038	13.41061	0.80038	13.41061	0.57144	103.04491
2710	0.57081	102.87384	0.80345	13.12703	0.80345	13.12703	0.57081	102.87384
2730	0.56966	102.63244	0.8062	12.78299	0.8062	12.78299	0.56966	102.63244
2750	0.56252	102.13232	0.8074	12.34629	0.8074	12.34629	0.56252	102.13232
2770	0.55378	101.84792	0.80815	12.03544	0.80815	12.03544	0.55378	101.84792
2790	0.55207	101.61513	0.81154	11.71773	0.81154	11.71773	0.55207	101.61513
2810	0.55218	101.26905	0.81421	11.19505	0.81421	11.19505	0.55218	101.26905
2830	0.55125	100.81796	0.81534	10.61132	0.81534	10.61132	0.55125	100.81796
2850	0.54886	100.44333	0.81668	10.45249	0.81668	10.45249	0.54886	100.44333
2870	0.54405	100.20163	0.81855	10.31207	0.81855	10.31207	0.54405	100.20163
2890	0.54315	100.37289	0.8215	10.12909	0.8215	10.12909	0.54315	100.37289
2910	0.54285	100.33148	0.825	9.68238	0.825	9.68238	0.54285	100.33148
2930	0.54049	100.0479	0.82697	9.10882	0.82697	9.10882	0.54049	100.0479
2950	0.53414	100.08876	0.82383	8.90333	0.82383	8.90333	0.53414	100.08876
2970	0.53105	99.43626	0.82639	8.71124	0.82639	8.71124	0.53105	99.43626
2990	0.52813	99.04085	0.83041	8.41641	0.83041	8.41641	0.52813	99.04085
3010	0.52581	98.68548	0.8329	8.09264	0.8329	8.09264	0.52581	98.68548
3030	0.5243	98.29232	0.83334	7.73365	0.83334	7.73365	0.5243	98.29232
3050	0.52361	97.92278	0.8337	7.25301	0.8337	7.25301	0.52361	97.92278
3070	0.51891	97.76615	0.83611	6.8968	0.83611	6.8968	0.51891	97.76615
3090	0.51751	97.6055	0.84154	6.46742	0.84154	6.46742	0.51751	97.6055
3110	0.51508	97.56937	0.84243	6.16568	0.84243	6.16568	0.51508	97.56937
3130	0.51118	97.62707	0.83979	6.04848	0.83979	6.04848	0.51118	97.62707
3150	0.50931	97.58874	0.84323	6.02876	0.84323	6.02876	0.50931	97.58874
3170	0.50367	97.0371	0.84947	5.50862	0.84947	5.50862	0.50367	97.0371
3190	0.49965	96.53889	0.8481	5.03505	0.8481	5.03505	0.49965	96.53889
3210	0.49925	96.16244	0.84803	4.69555	0.84803	4.69555	0.49925	96.16244
3230	0.50036	95.95915	0.85037	4.47544	0.85037	4.47544	0.50036	95.95915
3250	0.49671	95.96349	0.84838	4.25786	0.84838	4.25786	0.49671	95.96349
3270	0.49672	95.78779	0.85427	3.58467	0.85427	3.58467	0.49672	95.78779
3290	0.49354	95.61609	0.85674	3.23712	0.85674	3.23712	0.49354	95.61609
3310	0.48937	95.50934	0.85725	3.01031	0.85725	3.01031	0.48937	95.50934
3330	0.48579	95.43467	0.85863	2.82502	0.85863	2.82502	0.48579	95.43467
3350	0.48368	95.26545	0.86509	2.72766	0.86509	2.72766	0.48368	95.26545
3370	0.48076	94.69364	0.86296	2.23436	0.86296	2.23436	0.48076	94.69364
3390	0.47814	94.2323	0.86357	1.82286	0.86357	1.82286	0.47814	94.2323
3410	0.47648	94.04109	0.86349	1.55688	0.86349	1.55688	0.47648	94.04109
3430	0.47514	94.10285	0.8636	1.35363	0.8636	1.35363	0.47514	94.10285
3450	0.47217	94.22361	0.86915	0.98381	0.86915	0.98381	0.47217	94.22361
3470	0.4695	93.67201	0.87032	0.39117	0.87032	0.39117	0.4695	93.67201
3490	0.46566	93.55944	0.86977	0.02841	0.86977	0.02841	0.46566	93.55944
3510	0.46254	93.38664	0.87094	-0.14566	0.87094	-0.14566	0.46254	93.38664
3530	0.46056	92.94758	0.87494	-0.31061	0.87494	-0.31061	0.46056	92.94758
3550	0.45874	92.32953	0.88055	-0.78439	0.88055	-0.78439	0.45874	92.32953
3570	0.4541	92.23439	0.8746	-1.0461	0.8746	-1.0461	0.4541	92.23439
3590	0.45204	92.09179	0.8764	-1.10738	0.8764	-1.10738	0.45204	92.09179
3610	0.45127	91.91479	0.87988	-1.43861	0.87988	-1.43861	0.45127	91.91479
3630	0.45024	91.75554	0.88136	-1.97008	0.88136	-1.97008	0.45024	91.75554
3650	0.44713	91.70526	0.87949	-2.09196	0.87949	-2.09196	0.44713	91.70526
3670	0.44572	91.50643	0.88454	-2.5036	0.88454	-2.5036	0.44572	91.50643
3690	0.44174	91.20241	0.88375	-2.89708	0.88375	-2.89708	0.44174	91.20241
3710	0.43836	90.89586	0.88298	-3.21393	0.88298	-3.21393	0.43836	90.89586
3730	0.43655	90.63548	0.88491	-3.48573	0.88491	-3.48573	0.43655	90.63548
3750	0.43505	90.41598	0.88904	-3.83409	0.88904	-3.83409	0.43505	90.41598
3770	0.43237	90.22901	0.88754	-4.09665	0.88754	-4.09665	0.43237	90.22901
3790	0.43132	90.24084	0.89083	-4.40196	0.89083	-4.40196	0.43132	90.24084
3810	0.42912	90.13183	0.89221	-4.69168	0.89221	-4.69168	0.42912	90.13183
3830	0.42538	89.80103	0.89085	-4.95304	0.89085	-4.95304	0.42538	89.80103
3850	0.42208	89.36617	0.89176	-5.21893	0.89176	-5.21893	0.42208	89.36617
3870	0.41932	89.16148	0.89205	-5.5795	0.89205	-5.5795	0.41932	89.16148
3890	0.41791	89.00823	0.89588	-5.76788	0.89588	-5.76788	0.41791	89.00823
3910	0.41597	88.72	0.89894	-6.04554	0.89894	-6.04554	0.41597	88.72
3930	0.41359	88.29838	0.90037	-6.46405	0.90037	-6.46405	0.41359	88.29838
3950	0.4129	87.93298	0.90277	-6.86508	0.90277	-6.86508	0.4129	87.93298
3970	0.4098	88.01313	0.89944	-7.02553	0.89944	-7.02553	0.4098	88.01313
3990	0.40825	87.92385	0.90055	-7.17226	0.90055	-7.17226	0.40825	87.92385
4010	0.40613	87.64478	0.90261	-7.45423	0.90261	-7.45423	0.40613	87.64478
4030	0.40298	87.22811	0.90397	-7.8498	0.90397	-7.8498	0.40298	87.22811
4050	0.40001	86.79859	0.90487	-8.16672	0.90487	-8.16672	0.40001	86.79859
4070	0.3986	86.54444	0.90542	-8.65212	0.90542	-8.65212	0.3986	86.54444
4090	0.39678	86.01087	0.90667	-8.8819	0.90667	-8.8819	0.39678	86.01087
4110	0.39526	85.62762	0.9091	-9.13651	0.9091	-9.13651	0.39526	85.62762
4130	0.39332	85.479	0.91101	-9.46398	0.91101	-9.46398	0.39332	85.479
4150	0.38879	85.30396	0.90857	-9.68	0.90857	-9.68	0.38879	85.30396
4170	0.38966	85.32169	0.91003	-9.96054	0.91003	-9.96054	0.38966	85.32169
4190	0.38886	85.11313	0.91343	-10.31859	0.91343	-10.31859	0.38886	85.11313
4210	0.38598	84.83194	0.91298	-10.62544	0.91298	-10.62544	0.38598	84.83194
4230	0.38263	84.6107	0.91077	-10.81508	0.91077	-10.81508	0.38263	84.6107
4250	0.38249	84.56097	0.9167	-10.88423	0.9167	-10.88423	0.38249	84.56097
4270	0.37829	84.15739	0.91416	-11.24882	0.91416	-11.24882	0.37829	84.15739
4290	0.37743	83.72551	0.91474	-11.66399	0.91474	-11.66399	0.37743	83.72551
4310	0.37731	83.24922	0.91657	-12.1035	0.91657	-12.1035	0.37731	83.24922
4330	0.37673	82.84489	0.91939	-12.52888	0.91939	-12.52888	0.37673	82.84489
4350	0.37589	82.76132	0.92454	-12.88944	0.92454	-12.88944	0.37589	82.76132
4370	0.37375	82.84435	0.92162	-12.98087	0.92162	-12.98087	0.37375	82.84435
4390	0.37124	82.86681	0.91985	-13.12659	0.91985	-13.12659	0.37124	82.86681
4410	0.36845	82.79473	0.92085	-13.35662	0.92085	-13.35662	0.36845	82.79473
4430	0.36598	82.52907	0.92366	-13.68314	0.92366	-13.68314	0.36598	82.52907
4450	0.36499	81.9058	0.92471	-14.10045	0.92471	-14.10045	0.36499	81.9058
4470	0.361	81.66606	0.92315	-14.36564	0.92315	-14.36564	0.361	81.66606
4490	0.35923	81.52594	0.92399	-14.50736	0.92399	-14.50736	0.35923	81.52594
4510	0.35801	81.31084	0.92623	-14.8739	0.92623	-14.8739	0.35801	81.31084
4530	0.35642	81.04273	0.92728	-15.34414	0.92728	-15.34414	0.35642	81.04273
4550	0.35427	80.94013	0.9229	-15.32757	0.9229	-15.32757	0.35427	80.94013
4570	0.35324	80.75694	0.92633	-15.42601	0.92633	-15.42601	0.35324	80.75694
4590	0.351	80.32616	0.93104	-16.00681	0.93104	-16.00681	0.351	80.32616
4610	0.34793	80.16987	0.93111	-16.39855	0.93111	-16.39855	0.34793	80.16987
4630	0.34536	80.21862	0.9285	-16.52088	0.9285	-16.52088	0.34536	80.21862
4650	0.34557	79.81146	0.93304	-16.88449	0.93304	-16.88449	0.34557	79.81146
4670	0.34201	79.03417	0.93232	-17.32994	0.93232	-17.32994	0.34201	79.03417
4690	0.33886	78.72772	0.92852	-17.46179	0.92852	-17.46179	0.33886	78.72772
4710	0.33774	78.63436	0.92891	-17.62577	0.92891	-17.62577	0.33774	78.63436
4730	0.33783	78.50249	0.93302	-17.94736	0.93302	-17.94736	0.33783	78.50249
4750	0.33588	78.08668	0.93265	-18.33179	0.93265	-18.33179	0.33588	78.08668
4770	0.33385	78.03239	0.93528	-18.67237	0.93528	-18.67237	0.33385	78.03239
4790	0.33088	77.68972	0.93619	-19.06038	0.93619	-19.06038	0.33088	77.68972
4810	0.32841	77.41085	0.9373	-19.2723	0.9373	-19.2723	0.32841	77.41085
4830	0.32698	77.19137	0.93897	-19.40121	0.93897	-19.40121	0.32698	77.19137
4850	0.32622	76.67032	0.94005	-19.85677	0.94005	-19.85677	0.32622	76.67032
4870	0.32294	76.50741	0.93951	-19.93341	0.93951	-19.93341	0.32294	76.50741
4890	0.32152	76.18553	0.94149	-20.16425	0.94149	-20.16425	0.32152	76.18553
4910	0.32008	75.77425	0.94052	-20.50524	0.94052	-20.50524	0.32008	75.77425
4930	0.31855	75.41846	0.93788	-20.81975	0.93788	-20.81975	0.31855	75.41846
4950	0.31873	75.33839	0.94159	-20.87859	0.94159	-20.87859	0.31873	75.33839
4970	0.31679	74.99934	0.9422	-21.18242	0.9422	-21.18242	0.31679	74.99934
4990	0.31436	74.71621	0.94228	-21.62183	0.94228	-21.62183	0.31436	74.71621
5010	0.31207	74.66147	0.94222	-21.8611	0.94222	-21.8611	0.31207	74.66147
5030	0.31017	74.61123	0.94308	-22.02012	0.94308	-22.02012	0.31017	74.61123
5050	0.30859	73.94525	0.94657	-22.67443	0.94657	-22.67443	0.30859	73.94525
5070	0.30555	73.57472	0.94301	-22.79878	0.94301	-22.79878	0.30555	73.57472
5090	0.30484	73.46162	0.94319	-22.99696	0.94319	-22.99696	0.30484	73.46162
5110	0.30413	73.22804	0.94549	-23.22225	0.94549	-23.22225	0.30413	73.22804
5130	0.30249	72.86144	0.94742	-23.5161	0.94742	-23.5161	0.30249	72.86144
5150	0.30037	72.71473	0.94561	-24.00811	0.94561	-24.00811	0.30037	72.71473
5170	0.29798	72.7954	0.94547	-23.99715	0.94547	-23.99715	0.29798	72.7954
5190	0.29692	72.70674	0.94798	-24.10761	0.94798	-24.10761	0.29692	72.70674
5210	0.2947	72.31757	0.9479	-24.49913	0.9479	-24.49913	0.2947	72.31757
5230	0.29097	71.84307	0.94473	-24.99391	0.94473	-24.99391	0.29097	71.84307
5250	0.28755	71.84483	0.94268	-25.07673	0.94268	-25.07673	0.28755	71.84483
5270	0.28907	71.44679	0.95071	-25.29026	0.95071	-25.29026	0.28907	71.44679
5290	0.28735	70.86298	0.95094	-25.85073	0.95094	-25.85073	0.28735	70.86298
5310	0.28572	70.76409	0.94901	-26.08784	0.94901	-26.08784	0.28572	70.76409
5330	0.28537	70.95721	0.94884	-26.01618	0.94884	-26.01618	0.28537	70.95721
5350	0.28537	70.38595	0.95263	-26.33521	0.95263	-26.33521	0.28537	70.38595
5370	0.28094	70.11825	0.954	-26.80423	0.954	-26.80423	0.28094	70.11825
5390	0.2776	70.07271	0.95289	-27.19016	0.95289	-27.19016	0.2776	70.07271
5410	0.27626	69.98135	0.95346	-27.46193	0.95346	-27.46193	0.27626	69.98135
5430	0.27572	69.69196	0.9557	-27.63059	0.9557	-27.63059	0.27572	69.69196
5450	0.27263	69.16809	0.9555	-27.74934	0.9555	-27.74934	0.27263	69.16809
