! Data Taken on a HP 8720C VNA using a shunt-through fixture with TRL* de-embedding
#	mhz	s	ma	r	50
50	0.8611	161.31205	0.31926	60.77038	0.31926	60.77038	0.8611	161.31205
70	0.85047	155.0694	0.42332	56.23493	0.42332	56.23493	0.85047	155.0694
90	0.80156	149.41673	0.50039	51.60385	0.50039	51.60385	0.80156	149.41673
110	0.75011	144.67507	0.56769	47.58344	0.56769	47.58344	0.75011	144.67507
130	0.709	140.5109	0.63059	43.99355	0.63059	43.99355	0.709	140.5109
150	0.66835	135.9361	0.68265	39.76753	0.68265	39.76753	0.66835	135.9361
170	0.62374	133.24986	0.72023	37.26537	0.72023	37.26537	0.62374	133.24986
190	0.58709	130.19114	0.75406	34.40688	0.75406	34.40688	0.58709	130.19114
210	0.55204	127.26872	0.78207	31.64651	0.78207	31.64651	0.55204	127.26872
230	0.51815	124.81118	0.80576	29.26503	0.80576	29.26503	0.51815	124.81118
250	0.49089	122.9669	0.83017	27.36949	0.83017	27.36949	0.49089	122.9669
270	0.46346	120.75123	0.84605	25.45699	0.84605	25.45699	0.46346	120.75123
290	0.43718	118.86299	0.86115	23.71975	0.86115	23.71975	0.43718	118.86299
310	0.41474	117.05357	0.87504	22.12697	0.87504	22.12697	0.41474	117.05357
330	0.39585	115.22705	0.88751	20.6492	0.88751	20.6492	0.39585	115.22705
350	0.37718	113.44025	0.89861	19.25827	0.89861	19.25827	0.37718	113.44025
370	0.3594	112.70073	0.90503	18.03364	0.90503	18.03364	0.3594	112.70073
390	0.34382	111.49528	0.91426	16.82219	0.91426	16.82219	0.34382	111.49528
410	0.32878	110.28458	0.92203	15.75164	0.92203	15.75164	0.32878	110.28458
430	0.31394	109.27568	0.92712	14.85195	0.92712	14.85195	0.31394	109.27568
450	0.30024	108.42206	0.93139	14.05537	0.93139	14.05537	0.30024	108.42206
470	0.28767	107.26701	0.93805	12.95327	0.93805	12.95327	0.28767	107.26701
490	0.26648	104.85478	0.9488	11.14119	0.9488	11.14119	0.26648	104.85478
510	0.24999	103.03634	0.95593	9.62831	0.95593	9.62831	0.24999	103.03634
530	0.24117	102.26758	0.95847	8.82902	0.95847	8.82902	0.24117	102.26758
550	0.23256	101.60927	0.96208	8.56294	0.96208	8.56294	0.23256	101.60927
570	0.22515	101.41464	0.96548	7.75482	0.96548	7.75482	0.22515	101.41464
590	0.21692	101.03341	0.96659	7.33408	0.96659	7.33408	0.21692	101.03341
610	0.20853	100.31912	0.9682	6.80893	0.9682	6.80893	0.20853	100.31912
630	0.20078	99.37329	0.9708	6.09819	0.9708	6.09819	0.20078	99.37329
650	0.1947	98.54542	0.97261	5.53135	0.97261	5.53135	0.1947	98.54542
670	0.18883	97.83993	0.97361	4.97468	0.97361	4.97468	0.18883	97.83993
690	0.18447	97.42936	0.97506	4.4974	0.97506	4.4974	0.18447	97.42936
710	0.18035	97.19055	0.97609	4.01107	0.97609	4.01107	0.18035	97.19055
730	0.17556	97.18227	0.97654	3.50885	0.97654	3.50885	0.17556	97.18227
750	0.16958	97.64524	0.97695	3.06556	0.97695	3.06556	0.16958	97.64524
770	0.16312	97.95504	0.97856	2.48546	0.97856	2.48546	0.16312	97.95504
790	0.15695	98.03587	0.98004	2.19228	0.98004	2.19228	0.15695	98.03587
810	0.15027	97.60219	0.98063	1.86539	0.98063	1.86539	0.15027	97.60219
830	0.14336	96.72932	0.98024	1.41567	0.98024	1.41567	0.14336	96.72932
850	0.13757	95.8535	0.97939	0.98554	0.97939	0.98554	0.13757	95.8535
870	0.13422	95.1926	0.9817	0.368	0.9817	0.368	0.13422	95.1926
890	0.13104	94.63044	0.9825	-0.07684	0.9825	-0.07684	0.13104	94.63044
910	0.12773	94.2276	0.98358	-0.42927	0.98358	-0.42927	0.12773	94.2276
930	0.12401	94.02487	0.9848	-0.76464	0.9848	-0.76464	0.12401	94.02487
950	0.11967	94.04333	0.98403	-1.1533	0.98403	-1.1533	0.11967	94.04333
970	0.11551	94.17685	0.98515	-1.45158	0.98515	-1.45158	0.11551	94.17685
990	0.11116	93.63385	0.9853	-1.80335	0.9853	-1.80335	0.11116	93.63385
1010	0.10692	92.56172	0.98514	-2.23701	0.98514	-2.23701	0.10692	92.56172
1030	0.10311	91.32308	0.98602	-2.66391	0.98602	-2.66391	0.10311	91.32308
1050	0.10008	90.49574	0.98999	-2.87837	0.98999	-2.87837	0.10008	90.49574
1070	0.0984	89.55305	0.98797	-3.28007	0.98797	-3.28007	0.0984	89.55305
1090	0.09677	89.1666	0.98779	-3.61027	0.98779	-3.61027	0.09677	89.1666
1110	0.09487	89.07862	0.98855	-3.91231	0.98855	-3.91231	0.09487	89.07862
1130	0.09244	89.1805	0.98897	-4.2463	0.98897	-4.2463	0.09244	89.1805
1150	0.08927	89.51279	0.98741	-4.68908	0.98741	-4.68908	0.08927	89.51279
1170	0.08627	89.6429	0.98824	-4.92513	0.98824	-4.92513	0.08627	89.6429
1190	0.08292	89.22726	0.98947	-5.23541	0.98947	-5.23541	0.08292	89.22726
1210	0.07981	88.51002	0.99069	-5.57575	0.99069	-5.57575	0.07981	88.51002
1230	0.0772	87.67294	0.99133	-5.91086	0.99133	-5.91086	0.0772	87.67294
1250	0.07504	86.83536	0.99068	-6.21428	0.99068	-6.21428	0.07504	86.83536
1270	0.07376	86.4962	0.98938	-6.41747	0.98938	-6.41747	0.07376	86.4962
1290	0.07221	86.25755	0.98926	-6.93255	0.98926	-6.93255	0.07221	86.25755
1310	0.07048	86.48441	0.99023	-7.33481	0.99023	-7.33481	0.07048	86.48441
1330	0.06854	87.15922	0.99172	-7.52827	0.99172	-7.52827	0.06854	87.15922
1350	0.06626	87.88183	0.99267	-7.74573	0.99267	-7.74573	0.06626	87.88183
1370	0.06424	88.2291	0.99191	-8.16194	0.99191	-8.16194	0.06424	88.2291
1390	0.06152	88.56527	0.99171	-8.30026	0.99171	-8.30026	0.06152	88.56527
1410	0.05891	88.87127	0.99206	-8.53679	0.99206	-8.53679	0.05891	88.87127
1430	0.05647	89.15416	0.99226	-8.90598	0.99226	-8.90598	0.05647	89.15416
1450	0.05357	89.44715	0.99096	-9.10059	0.99096	-9.10059	0.05357	89.44715
1470	0.05112	89.66438	0.9927	-9.28855	0.9927	-9.28855	0.05112	89.66438
1490	0.04889	89.64341	0.99343	-9.78482	0.99343	-9.78482	0.04889	89.64341
1510	0.04663	89.59409	0.99342	-10.1801	0.99342	-10.1801	0.04663	89.59409
1530	0.04441	89.61286	0.99366	-10.42249	0.99366	-10.42249	0.04441	89.61286
1550	0.04272	89.68277	0.99578	-10.81748	0.99578	-10.81748	0.04272	89.68277
1570	0.04075	89.78453	0.99195	-10.92742	0.99195	-10.92742	0.04075	89.78453
1590	0.03885	90.69211	0.99298	-11.27469	0.99298	-11.27469	0.03885	90.69211
1610	0.03695	91.8823	0.99368	-11.53774	0.99368	-11.53774	0.03695	91.8823
1630	0.03491	93.18152	0.99313	-11.69584	0.99313	-11.69584	0.03491	93.18152
1650	0.03246	94.76588	0.99471	-12.02907	0.99471	-12.02907	0.03246	94.76588
1670	0.02978	94.74102	0.99224	-12.24281	0.99224	-12.24281	0.02978	94.74102
1690	0.0272	94.9721	0.99254	-12.43933	0.99254	-12.43933	0.0272	94.9721
1710	0.02512	94.60617	0.99306	-12.67967	0.99306	-12.67967	0.02512	94.60617
1730	0.02371	93.70068	0.99321	-12.9625	0.99321	-12.9625	0.02371	93.70068
1750	0.02281	93.22341	0.99439	-13.22421	0.99439	-13.22421	0.02281	93.22341
1770	0.02194	94.03231	0.99362	-13.60677	0.99362	-13.60677	0.02194	94.03231
1790	0.02033	97.19068	0.99526	-13.797	0.99526	-13.797	0.02033	97.19068
1810	0.01846	102.12707	0.99569	-14.01923	0.99569	-14.01923	0.01846	102.12707
1830	0.01639	107.09799	0.99447	-14.33869	0.99447	-14.33869	0.01639	107.09799
1850	0.01376	109.1879	0.99435	-14.66149	0.99435	-14.66149	0.01376	109.1879
1870	0.01109	111.73644	0.9955	-14.83011	0.9955	-14.83011	0.01109	111.73644
1890	0.00898	113.41279	0.99527	-15.06914	0.99527	-15.06914	0.00898	113.41279
1910	0.00732	112.20144	0.9962	-15.30108	0.9962	-15.30108	0.00732	112.20144
1930	0.00632	108.75369	0.99748	-15.48191	0.99748	-15.48191	0.00632	108.75369
1950	0.00644	106.38763	0.99494	-15.60116	0.99494	-15.60116	0.00644	106.38763
1970	0.00607	117.75178	0.99487	-16.01445	0.99487	-16.01445	0.00607	117.75178
1990	0.00623	133.60067	0.99337	-16.25381	0.99337	-16.25381	0.00623	133.60067
2010	0.00637	150.84155	0.99221	-16.50389	0.99221	-16.50389	0.00637	150.84155
2030	0.0065	97.03542	0.99293	-16.80641	0.99293	-16.80641	0.0065	97.03542
2050	0.00717	-169.60284	0.99674	-17.06017	0.99674	-17.06017	0.00717	-169.60284
2070	0.00782	-153.94457	0.99506	-17.37412	0.99506	-17.37412	0.00782	-153.94457
2090	0.00835	-143.63923	0.99258	-17.60889	0.99258	-17.60889	0.00835	-143.63923
2110	0.00874	-138.64676	0.99295	-17.98606	0.99295	-17.98606	0.00874	-138.64676
2130	0.00914	-137.42859	0.99538	-18.37405	0.99538	-18.37405	0.00914	-137.42859
2150	0.0099	-136.94763	0.9946	-18.28818	0.9946	-18.28818	0.0099	-136.94763
2170	0.01129	-138.77737	0.99428	-18.62673	0.99428	-18.62673	0.01129	-138.77737
2190	0.01298	-138.92097	0.99258	-18.90287	0.99258	-18.90287	0.01298	-138.92097
2210	0.01502	-137.56006	0.99285	-19.14002	0.99285	-19.14002	0.01502	-137.56006
2230	0.01719	-135.38887	0.99468	-19.37907	0.99468	-19.37907	0.01719	-135.38887
2250	0.01893	-133.61426	0.9939	-19.67844	0.9939	-19.67844	0.01893	-133.61426
2270	0.02045	-130.97835	0.99432	-19.80872	0.99432	-19.80872	0.02045	-130.97835
2290	0.02194	-128.86846	0.99594	-20.25167	0.99594	-20.25167	0.02194	-128.86846
2310	0.02326	-127.82903	0.99561	-20.54943	0.99561	-20.54943	0.02326	-127.82903
2330	0.02448	-127.51016	0.99359	-20.63568	0.99359	-20.63568	0.02448	-127.51016
2350	0.02593	-126.66759	0.99346	-20.83558	0.99346	-20.83558	0.02593	-126.66759
2370	0.02778	-126.15018	0.99337	-21.11531	0.99337	-21.11531	0.02778	-126.15018
2390	0.02952	-125.99016	0.99402	-21.39313	0.99402	-21.39313	0.02952	-125.99016
2410	0.03115	-125.28368	0.99395	-21.59069	0.99395	-21.59069	0.03115	-125.28368
2430	0.03277	-124.22364	0.99322	-21.7415	0.99322	-21.7415	0.03277	-124.22364
2450	0.03456	-124.09969	0.99345	-21.99097	0.99345	-21.99097	0.03456	-124.09969
2470	0.03556	-124.31838	0.99515	-22.32332	0.99515	-22.32332	0.03556	-124.31838
2490	0.03714	-124.40319	0.99309	-22.54018	0.99309	-22.54018	0.03714	-124.40319
2510	0.03902	-124.55708	0.99293	-22.68384	0.99293	-22.68384	0.03902	-124.55708
2530	0.04098	-124.7404	0.99459	-22.86781	0.99459	-22.86781	0.04098	-124.7404
2550	0.04283	-124.67095	0.9922	-23.2768	0.9922	-23.2768	0.04283	-124.67095
2570	0.04481	-123.77279	0.99508	-23.43483	0.99508	-23.43483	0.04481	-123.77279
2590	0.04653	-122.72354	0.99543	-23.77151	0.99543	-23.77151	0.04653	-122.72354
2610	0.0479	-122.11818	0.99483	-24.02348	0.99483	-24.02348	0.0479	-122.11818
2630	0.04904	-121.92188	0.99402	-24.1676	0.99402	-24.1676	0.04904	-121.92188
2650	0.0502	-121.47002	0.99295	-24.42093	0.99295	-24.42093	0.0502	-121.47002
2670	0.05119	-121.43991	0.99367	-24.70086	0.99367	-24.70086	0.05119	-121.43991
2690	0.05267	-121.80165	0.99185	-24.91649	0.99185	-24.91649	0.05267	-121.80165
2710	0.05438	-122.22163	0.99265	-25.15892	0.99265	-25.15892	0.05438	-122.22163
2730	0.05615	-122.40727	0.99543	-25.46567	0.99543	-25.46567	0.05615	-122.40727
2750	0.05787	-122.10707	0.99381	-25.82069	0.99381	-25.82069	0.05787	-122.10707
2770	0.05894	-121.57529	0.99202	-26.02944	0.99202	-26.02944	0.05894	-121.57529
2790	0.06033	-121.06976	0.99207	-26.24167	0.99207	-26.24167	0.06033	-121.06976
2810	0.06143	-120.93639	0.99185	-26.59191	0.99185	-26.59191	0.06143	-120.93639
2830	0.0623	-121.21412	0.99122	-26.99922	0.99122	-26.99922	0.0623	-121.21412
2850	0.06361	-121.63497	0.99208	-27.16725	0.99208	-27.16725	0.06361	-121.63497
2870	0.06408	-122.08981	0.99191	-27.23422	0.99191	-27.23422	0.06408	-122.08981
2890	0.06596	-122.73569	0.9918	-27.32291	0.9918	-27.32291	0.06596	-122.73569
2910	0.06826	-123.26134	0.99234	-27.5509	0.99234	-27.5509	0.06826	-123.26134
2930	0.07042	-123.27077	0.99297	-27.86395	0.99297	-27.86395	0.07042	-123.27077
2950	0.07227	-122.28332	0.99209	-28.03599	0.99209	-28.03599	0.07227	-122.28332
2970	0.07393	-121.59998	0.98898	-28.18501	0.98898	-28.18501	0.07393	-121.59998
2990	0.07507	-121.06061	0.99004	-28.49387	0.99004	-28.49387	0.07507	-121.06061
3010	0.07563	-121.28499	0.99113	-28.72102	0.99113	-28.72102	0.07563	-121.28499
3030	0.07604	-122.1188	0.99067	-28.89528	0.99067	-28.89528	0.07604	-122.1188
3050	0.07718	-122.63365	0.98966	-29.31579	0.98966	-29.31579	0.07718	-122.63365
3070	0.07861	-123.41	0.98873	-29.72839	0.98873	-29.72839	0.07861	-123.41
3090	0.08076	-123.96719	0.99237	-29.99692	0.99237	-29.99692	0.08076	-123.96719
3110	0.08325	-124.05538	0.99273	-30.13411	0.99273	-30.13411	0.08325	-124.05538
3130	0.08573	-123.61879	0.9894	-30.21003	0.9894	-30.21003	0.08573	-123.61879
3150	0.08792	-122.79572	0.98937	-30.3521	0.98937	-30.3521	0.08792	-122.79572
3170	0.08913	-122.25194	0.99076	-30.4113	0.99076	-30.4113	0.08913	-122.25194
3190	0.08948	-122.01065	0.98915	-30.70043	0.98915	-30.70043	0.08948	-122.01065
3210	0.0898	-122.23447	0.98828	-31.06383	0.98828	-31.06383	0.0898	-122.23447
3230	0.0906	-122.8516	0.98872	-31.38223	0.98872	-31.38223	0.0906	-122.8516
3250	0.09209	-123.55578	0.98784	-31.57271	0.98784	-31.57271	0.09209	-123.55578
3270	0.09427	-124.71897	0.99286	-32.02385	0.99286	-32.02385	0.09427	-124.71897
3290	0.09653	-125.27345	0.9911	-32.22991	0.9911	-32.22991	0.09653	-125.27345
3310	0.09907	-125.24794	0.9888	-32.38511	0.9888	-32.38511	0.09907	-125.24794
3330	0.10161	-124.7544	0.98926	-32.52806	0.98926	-32.52806	0.10161	-124.7544
3350	0.10337	-123.98798	0.99289	-32.5417	0.99289	-32.5417	0.10337	-123.98798
3370	0.10452	-124.11243	0.98837	-32.96759	0.98837	-32.96759	0.10452	-124.11243
3390	0.10523	-124.47545	0.98716	-33.31102	0.98716	-33.31102	0.10523	-124.47545
3410	0.10611	-124.51204	0.9872	-33.5248	0.9872	-33.5248	0.10611	-124.51204
3430	0.10748	-124.42009	0.98758	-33.68989	0.98758	-33.68989	0.10748	-124.42009
3450	0.10935	-125.16035	0.98855	-34.01532	0.98855	-34.01532	0.10935	-125.16035
3470	0.1107	-125.40547	0.98716	-34.29964	0.98716	-34.29964	0.1107	-125.40547
3490	0.1123	-125.37753	0.988	-34.42258	0.988	-34.42258	0.1123	-125.37753
3510	0.11395	-125.20505	0.98742	-34.58975	0.98742	-34.58975	0.11395	-125.20505
3530	0.11549	-125.01464	0.98596	-34.81653	0.98596	-34.81653	0.11549	-125.01464
3550	0.11676	-124.93099	0.98837	-34.92811	0.98837	-34.92811	0.11676	-124.93099
3570	0.11758	-125.07224	0.98803	-35.19603	0.98803	-35.19603	0.11758	-125.07224
3590	0.11845	-125.4082	0.98725	-35.51222	0.98725	-35.51222	0.11845	-125.4082
3610	0.1198	-125.64097	0.98781	-35.74068	0.98781	-35.74068	0.1198	-125.64097
3630	0.12168	-125.81178	0.98889	-35.91348	0.98889	-35.91348	0.12168	-125.81178
3650	0.1237	-126.30095	0.98713	-36.23079	0.98713	-36.23079	0.1237	-126.30095
3670	0.12498	-126.28277	0.98433	-36.53104	0.98433	-36.53104	0.12498	-126.28277
3690	0.126	-126.06367	0.9843	-36.82958	0.9843	-36.82958	0.126	-126.06367
3710	0.12692	-126.10496	0.98384	-37.11635	0.98384	-37.11635	0.12692	-126.10496
3730	0.12785	-126.43026	0.98311	-37.36104	0.98311	-37.36104	0.12785	-126.43026
3750	0.12879	-126.62552	0.98572	-37.51311	0.98572	-37.51311	0.12879	-126.62552
3770	0.12988	-127.15473	0.9852	-37.66399	0.9852	-37.66399	0.12988	-127.15473
3790	0.1318	-127.34226	0.9873	-37.88915	0.9873	-37.88915	0.1318	-127.34226
3810	0.13342	-127.73205	0.98647	-38.11259	0.98647	-38.11259	0.13342	-127.73205
3830	0.13479	-128.27058	0.98283	-38.34056	0.98283	-38.34056	0.13479	-128.27058
3850	0.13715	-128.30688	0.98218	-38.66148	0.98218	-38.66148	0.13715	-128.30688
3870	0.13855	-128.09143	0.98287	-38.72059	0.98287	-38.72059	0.13855	-128.09143
3890	0.13992	-127.97797	0.98472	-38.91407	0.98472	-38.91407	0.13992	-127.97797
3910	0.14069	-128.20031	0.98523	-39.21133	0.98523	-39.21133	0.14069	-128.20031
3930	0.14113	-128.60303	0.9844	-39.55383	0.9844	-39.55383	0.14113	-128.60303
3950	0.14229	-128.64158	0.9847	-39.85513	0.9847	-39.85513	0.14229	-128.64158
3970	0.14403	-128.88563	0.98441	-39.8526	0.98441	-39.8526	0.14403	-128.88563
3990	0.14571	-129.2805	0.98298	-40.09659	0.98298	-40.09659	0.14571	-129.2805
4010	0.14716	-129.5639	0.9813	-40.32271	0.9813	-40.32271	0.14716	-129.5639
4030	0.14843	-129.67358	0.9808	-40.52578	0.9808	-40.52578	0.14843	-129.67358
4050	0.1498	-129.74728	0.98346	-40.9598	0.98346	-40.9598	0.1498	-129.74728
4070	0.15053	-129.92136	0.98438	-41.31297	0.98438	-41.31297	0.15053	-129.92136
4090	0.15104	-130.31777	0.98219	-41.53334	0.98219	-41.53334	0.15104	-130.31777
4110	0.1518	-130.68741	0.98153	-41.75265	0.98153	-41.75265	0.1518	-130.68741
4130	0.15272	-130.98092	0.98262	-41.95635	0.98262	-41.95635	0.15272	-130.98092
4150	0.15316	-131.34863	0.98134	-41.98364	0.98134	-41.98364	0.15316	-131.34863
4170	0.15583	-131.80369	0.98014	-42.40745	0.98014	-42.40745	0.15583	-131.80369
4190	0.15751	-132.00516	0.97955	-42.51874	0.97955	-42.51874	0.15751	-132.00516
4210	0.15887	-132.04533	0.98043	-42.72406	0.98043	-42.72406	0.15887	-132.04533
4230	0.16016	-131.99112	0.98188	-43.0181	0.98188	-43.0181	0.16016	-131.99112
4250	0.16118	-131.884	0.9813	-42.98364	0.9813	-42.98364	0.16118	-131.884
4270	0.16169	-131.93364	0.97913	-43.25323	0.97913	-43.25323	0.16169	-131.93364
4290	0.16212	-132.69402	0.98009	-43.73239	0.98009	-43.73239	0.16212	-132.69402
4310	0.16262	-133.43934	0.9806	-44.07454	0.9806	-44.07454	0.16262	-133.43934
4330	0.16367	-133.91989	0.98129	-44.29095	0.98129	-44.29095	0.16367	-133.91989
4350	0.16619	-134.36202	0.98702	-44.75072	0.98702	-44.75072	0.16619	-134.36202
4370	0.16695	-134.78364	0.98168	-44.77055	0.98168	-44.77055	0.16695	-134.78364
4390	0.1689	-134.96325	0.979	-44.88138	0.979	-44.88138	0.1689	-134.96325
4410	0.17041	-135.07346	0.97897	-45.06249	0.97897	-45.06249	0.17041	-135.07346
4430	0.17104	-135.19725	0.98024	-45.30652	0.98024	-45.30652	0.17104	-135.19725
4450	0.17151	-135.328	0.98008	-45.61942	0.98008	-45.61942	0.17151	-135.328
4470	0.1741	-135.67977	0.98144	-45.91177	0.98144	-45.91177	0.1741	-135.67977
4490	0.17431	-136.07446	0.97831	-46.07198	0.97831	-46.07198	0.17431	-136.07446
4510	0.17501	-136.22977	0.97795	-46.22665	0.97795	-46.22665	0.17501	-136.22977
4530	0.17679	-136.32701	0.98056	-46.44576	0.98056	-46.44576	0.17679	-136.32701
4550	0.17802	-137.01108	0.97928	-46.74259	0.97928	-46.74259	0.17802	-137.01108
4570	0.17952	-137.55005	0.97797	-46.89374	0.97797	-46.89374	0.17952	-137.55005
4590	0.18114	-137.92766	0.98171	-47.14523	0.98171	-47.14523	0.18114	-137.92766
4610	0.18272	-138.16589	0.98261	-47.42886	0.98261	-47.42886	0.18272	-138.16589
4630	0.18407	-138.43913	0.97888	-47.71059	0.97888	-47.71059	0.18407	-138.43913
4650	0.18497	-139.07419	0.97492	-47.99052	0.97492	-47.99052	0.18497	-139.07419
4670	0.18577	-139.15268	0.97793	-48.19691	0.97793	-48.19691	0.18577	-139.15268
4690	0.18683	-139.38526	0.97555	-48.39866	0.97555	-48.39866	0.18683	-139.38526
4710	0.18796	-139.80573	0.97405	-48.60492	0.97405	-48.60492	0.18796	-139.80573
4730	0.18948	-140.31457	0.97445	-48.89273	0.97445	-48.89273	0.18948	-140.31457
4750	0.19223	-140.67891	0.97249	-49.40709	0.97249	-49.40709	0.19223	-140.67891
4770	0.19292	-140.93923	0.97187	-49.2864	0.97187	-49.2864	0.19292	-140.93923
4790	0.1941	-141.19911	0.97419	-49.60689	0.97419	-49.60689	0.1941	-141.19911
4810	0.19551	-141.41902	0.97558	-49.86334	0.97558	-49.86334	0.19551	-141.41902
4830	0.19704	-141.66301	0.97586	-49.96172	0.97586	-49.96172	0.19704	-141.66301
4850	0.19871	-142.09878	0.97855	-50.21914	0.97855	-50.21914	0.19871	-142.09878
4870	0.19924	-142.44252	0.9761	-50.48487	0.9761	-50.48487	0.19924	-142.44252
4890	0.20004	-142.49224	0.975	-50.57781	0.975	-50.57781	0.20004	-142.49224
4910	0.2012	-142.7412	0.97375	-50.79406	0.97375	-50.79406	0.2012	-142.7412
4930	0.20253	-143.18003	0.97269	-51.15325	0.97269	-51.15325	0.20253	-143.18003
4950	0.20353	-143.29677	0.97398	-51.39851	0.97398	-51.39851	0.20353	-143.29677
4970	0.2029	-143.66296	0.97114	-51.41939	0.97114	-51.41939	0.2029	-143.66296
4990	0.20418	-144.16136	0.97351	-51.73035	0.97351	-51.73035	0.20418	-144.16136
5010	0.20576	-144.82312	0.97318	-52.02171	0.97318	-52.02171	0.20576	-144.82312
5030	0.20716	-145.49423	0.9695	-52.2079	0.9695	-52.2079	0.20716	-145.49423
5050	0.20903	-145.83548	0.96903	-52.42745	0.96903	-52.42745	0.20903	-145.83548
5070	0.21049	-145.96481	0.97052	-52.78498	0.97052	-52.78498	0.21049	-145.96481
5090	0.21178	-146.12865	0.96888	-53.13559	0.96888	-53.13559	0.21178	-146.12865
5110	0.21295	-146.56228	0.96972	-53.35318	0.96972	-53.35318	0.21295	-146.56228
5130	0.21396	-147.16218	0.97232	-53.47878	0.97232	-53.47878	0.21396	-147.16218
5150	0.21464	-147.48601	0.96969	-53.72047	0.96969	-53.72047	0.21464	-147.48601
5170	0.21636	-147.7667	0.97091	-54.13112	0.97091	-54.13112	0.21636	-147.7667
5190	0.21867	-148.16666	0.96576	-54.34213	0.96576	-54.34213	0.21867	-148.16666
5210	0.22018	-148.54824	0.96367	-54.49255	0.96367	-54.49255	0.22018	-148.54824
5230	0.22107	-148.90968	0.96559	-54.6858	0.96559	-54.6858	0.22107	-148.90968
5250	0.2231	-149.38504	0.96395	-54.9897	0.96395	-54.9897	0.2231	-149.38504
