! Data Taken on a HP 8720C VNA using a shunt-through fixture with TRL* de-embedding
#	mhz	s	ma	r	50
50	0.9412	173.85573	0.10183	68.69282	0.10183	68.69282	0.9412	173.85573
70	0.96998	171.85084	0.14447	71.35131	0.14447	71.35131	0.96998	171.85084
90	0.96049	168.96646	0.1797	69.96548	0.1797	69.96548	0.96049	168.96646
110	0.94351	166.72774	0.21333	68.63672	0.21333	68.63672	0.94351	166.72774
130	0.93519	165.05615	0.24812	68.05732	0.24812	68.05732	0.93519	165.05615
150	0.93706	162.26962	0.28377	65.5104	0.28377	65.5104	0.93706	162.26962
170	0.91399	160.86576	0.31373	64.2113	0.31373	64.2113	0.91399	160.86576
190	0.90313	158.77841	0.34499	62.51862	0.34499	62.51862	0.90313	158.77841
210	0.89089	156.51855	0.37411	60.605	0.37411	60.605	0.89089	156.51855
230	0.87408	154.56929	0.40106	58.77129	0.40106	58.77129	0.87408	154.56929
250	0.85991	153.38584	0.42922	57.44664	0.42922	57.44664	0.85991	153.38584
270	0.85041	151.06131	0.45727	55.62554	0.45727	55.62554	0.85041	151.06131
290	0.83112	149.23151	0.48068	53.9419	0.48068	53.9419	0.83112	149.23151
310	0.81447	147.60671	0.5038	52.55402	0.5038	52.55402	0.81447	147.60671
330	0.8039	145.87906	0.5276	51.24675	0.5276	51.24675	0.8039	145.87906
350	0.79387	143.7226	0.54962	49.43149	0.54962	49.43149	0.79387	143.7226
370	0.77549	142.6476	0.56833	48.36457	0.56833	48.36457	0.77549	142.6476
390	0.76312	141.24915	0.5892	46.86232	0.5892	46.86232	0.76312	141.24915
410	0.75046	139.69872	0.60785	45.26958	0.60785	45.26958	0.75046	139.69872
430	0.73587	138.24117	0.62415	43.89382	0.62415	43.89382	0.73587	138.24117
450	0.7224	137.1947	0.6422	43.00503	0.6422	43.00503	0.7224	137.1947
470	0.71	135.67121	0.65781	41.5569	0.65781	41.5569	0.71	135.67121
490	0.6793	131.99135	0.69503	38.71427	0.69503	38.71427	0.6793	131.99135
510	0.6543	129.2254	0.72544	36.5508	0.72544	36.5508	0.6543	129.2254
530	0.64236	128.03542	0.74058	35.5184	0.74058	35.5184	0.64236	128.03542
550	0.63418	126.67524	0.75198	34.44721	0.75198	34.44721	0.63418	126.67524
570	0.62421	125.91114	0.76123	33.40147	0.76123	33.40147	0.62421	125.91114
590	0.61158	125.0301	0.76958	32.44458	0.76958	32.44458	0.61158	125.0301
610	0.59863	123.99787	0.77882	31.49325	0.77882	31.49325	0.59863	123.99787
630	0.58649	122.88329	0.78885	30.51278	0.78885	30.51278	0.58649	122.88329
650	0.57512	121.85827	0.79769	29.51704	0.79769	29.51704	0.57512	121.85827
670	0.56469	120.70668	0.80492	28.40097	0.80492	28.40097	0.56469	120.70668
690	0.55554	119.76583	0.81065	27.62512	0.81065	27.62512	0.55554	119.76583
710	0.54726	118.86831	0.81853	26.77679	0.81853	26.77679	0.54726	118.86831
730	0.53845	118.02257	0.82735	25.81124	0.82735	25.81124	0.53845	118.02257
750	0.52663	117.41292	0.83098	25.05172	0.83098	25.05172	0.52663	117.41292
770	0.51715	116.97281	0.84049	24.2073	0.84049	24.2073	0.51715	116.97281
790	0.50819	116.32233	0.84343	23.43666	0.84343	23.43666	0.50819	116.32233
810	0.49728	115.68317	0.84679	22.77906	0.84679	22.77906	0.49728	115.68317
830	0.48496	114.99771	0.85231	22.10785	0.85231	22.10785	0.48496	114.99771
850	0.4748	113.92902	0.85654	21.13043	0.85654	21.13043	0.4748	113.92902
870	0.46572	113.24064	0.86315	20.43617	0.86315	20.43617	0.46572	113.24064
890	0.4583	112.55903	0.86707	19.80162	0.86707	19.80162	0.4583	112.55903
910	0.45109	111.77282	0.87226	19.12952	0.87226	19.12952	0.45109	111.77282
930	0.44306	110.96603	0.87813	18.41354	0.87813	18.41354	0.44306	110.96603
950	0.43366	110.41801	0.87946	17.73831	0.87946	17.73831	0.43366	110.41801
970	0.42684	110.02722	0.88461	17.205	0.88461	17.205	0.42684	110.02722
990	0.42018	109.31649	0.88901	16.53855	0.88901	16.53855	0.42018	109.31649
1010	0.413	108.45224	0.89247	15.88763	0.89247	15.88763	0.413	108.45224
1030	0.40538	107.62861	0.89547	15.29048	0.89547	15.29048	0.40538	107.62861
1050	0.39813	107.06753	0.89914	14.67487	0.89914	14.67487	0.39813	107.06753
1070	0.392	106.22764	0.89902	14.17906	0.89902	14.17906	0.392	106.22764
1090	0.38673	105.45729	0.90271	13.61202	0.90271	13.61202	0.38673	105.45729
1110	0.38116	104.80956	0.9068	13.14584	0.9068	13.14584	0.38116	104.80956
1130	0.37527	104.26728	0.90961	12.71719	0.90961	12.71719	0.37527	104.26728
1150	0.37022	103.743	0.91124	12.02721	0.91124	12.02721	0.37022	103.743
1170	0.36483	103.33121	0.91427	11.57151	0.91427	11.57151	0.36483	103.33121
1190	0.35971	102.8414	0.91681	11.05297	0.91681	11.05297	0.35971	102.8414
1210	0.35389	102.27299	0.91885	10.57141	0.91885	10.57141	0.35389	102.27299
1230	0.34753	101.63056	0.92091	10.12378	0.92091	10.12378	0.34753	101.63056
1250	0.34197	100.92386	0.92408	9.60417	0.92408	9.60417	0.34197	100.92386
1270	0.33851	100.53314	0.92471	9.30321	0.92471	9.30321	0.33851	100.53314
1290	0.33426	99.82924	0.92681	8.74414	0.92681	8.74414	0.33426	99.82924
1310	0.32973	99.32829	0.92915	8.14941	0.92915	8.14941	0.32973	99.32829
1330	0.32547	99.0796	0.93155	7.66403	0.93155	7.66403	0.32547	99.0796
1350	0.32205	98.66567	0.93488	7.35561	0.93488	7.35561	0.32205	98.66567
1370	0.3181	98.10122	0.93764	6.74511	0.93764	6.74511	0.3181	98.10122
1390	0.31327	97.77631	0.93748	6.5106	0.93748	6.5106	0.31327	97.77631
1410	0.30907	97.47848	0.93838	6.18567	0.93838	6.18567	0.30907	97.47848
1430	0.30531	97.1282	0.94066	5.67956	0.94066	5.67956	0.30531	97.1282
1450	0.30004	96.77878	0.941	5.2772	0.941	5.2772	0.30004	96.77878
1470	0.296	96.38287	0.94299	4.89098	0.94299	4.89098	0.296	96.38287
1490	0.2913	95.79102	0.94504	4.3083	0.94504	4.3083	0.2913	95.79102
1510	0.28612	95.35601	0.94582	3.8207	0.94582	3.8207	0.28612	95.35601
1530	0.28113	95.03425	0.94586	3.4888	0.94586	3.4888	0.28113	95.03425
1550	0.27756	94.38566	0.94753	3.14237	0.94753	3.14237	0.27756	94.38566
1570	0.27485	94.04039	0.94898	2.77168	0.94898	2.77168	0.27485	94.04039
1590	0.27122	93.54259	0.95115	2.3266	0.95115	2.3266	0.27122	93.54259
1610	0.26788	93.17582	0.95245	1.9864	0.95245	1.9864	0.26788	93.17582
1630	0.26475	93.05028	0.95286	1.70882	0.95286	1.70882	0.26475	93.05028
1650	0.26048	93.10275	0.95386	1.23011	0.95386	1.23011	0.26048	93.10275
1670	0.256	92.32505	0.95552	0.98063	0.95552	0.98063	0.256	92.32505
1690	0.25084	91.83637	0.95528	0.65518	0.95528	0.65518	0.25084	91.83637
1710	0.24693	91.39579	0.95609	0.31416	0.95609	0.31416	0.24693	91.39579
1730	0.24457	90.85543	0.95864	0.002	0.95864	0.002	0.24457	90.85543
1750	0.24252	90.16042	0.96128	-0.25284	0.96128	-0.25284	0.24252	90.16042
1770	0.23958	89.64408	0.95909	-0.92183	0.95909	-0.92183	0.23958	89.64408
1790	0.23732	89.45192	0.96118	-1.07412	0.96118	-1.07412	0.23732	89.45192
1810	0.23441	89.36729	0.96235	-1.30346	0.96235	-1.30346	0.23441	89.36729
1830	0.2305	89.20005	0.96217	-1.71816	0.96217	-1.71816	0.2305	89.20005
1850	0.22627	88.78667	0.96497	-1.94103	0.96497	-1.94103	0.22627	88.78667
1870	0.22257	88.32137	0.96434	-2.45629	0.96434	-2.45629	0.22257	88.32137
1890	0.21909	87.63079	0.96556	-2.84223	0.96556	-2.84223	0.21909	87.63079
1910	0.21648	86.8897	0.9657	-3.08145	0.9657	-3.08145	0.21648	86.8897
1930	0.21483	86.23597	0.96558	-3.287	0.96558	-3.287	0.21483	86.23597
1950	0.21362	85.77063	0.96977	-3.70241	0.96977	-3.70241	0.21362	85.77063
1970	0.21166	85.33923	0.96855	-3.9431	0.96855	-3.9431	0.21166	85.33923
1990	0.20985	85.33453	0.96765	-4.14819	0.96765	-4.14819	0.20985	85.33453
2010	0.20709	85.29921	0.96794	-4.43873	0.96794	-4.43873	0.20709	85.29921
2030	0.2036	85.07895	0.96972	-4.8512	0.96972	-4.8512	0.2036	85.07895
2050	0.20088	84.82251	0.97272	-5.33748	0.97272	-5.33748	0.20088	84.82251
2070	0.19737	84.31492	0.97044	-5.69352	0.97044	-5.69352	0.19737	84.31492
2090	0.19475	83.84117	0.96778	-5.98393	0.96778	-5.98393	0.19475	83.84117
2110	0.19276	83.32105	0.96925	-6.38058	0.96925	-6.38058	0.19276	83.32105
2130	0.19112	82.80079	0.97339	-6.75363	0.97339	-6.75363	0.19112	82.80079
2150	0.18955	82.45306	0.97271	-6.67151	0.97271	-6.67151	0.18955	82.45306
2170	0.18773	82.59999	0.97322	-7.0951	0.97322	-7.0951	0.18773	82.59999
2190	0.18572	82.51667	0.97332	-7.43056	0.97332	-7.43056	0.18572	82.51667
2210	0.18346	82.30701	0.97319	-7.72738	0.97319	-7.72738	0.18346	82.30701
2230	0.18067	82.07005	0.97336	-8.00878	0.97336	-8.00878	0.18067	82.07005
2250	0.17679	81.89997	0.97471	-8.27166	0.97471	-8.27166	0.17679	81.89997
2270	0.17486	81.62916	0.97713	-8.63288	0.97713	-8.63288	0.17486	81.62916
2290	0.17241	81.39553	0.9767	-9.04385	0.9767	-9.04385	0.17241	81.39553
2310	0.16994	81.01422	0.97669	-9.29811	0.97669	-9.29811	0.16994	81.01422
2330	0.16773	80.53052	0.97751	-9.42745	0.97751	-9.42745	0.16773	80.53052
2350	0.16578	80.21992	0.97661	-9.70192	0.97661	-9.70192	0.16578	80.21992
2370	0.1638	79.90698	0.97507	-10.03356	0.97507	-10.03356	0.1638	79.90698
2390	0.16215	79.77984	0.9777	-10.22538	0.9777	-10.22538	0.16215	79.77984
2410	0.15982	79.51536	0.97881	-10.48076	0.97881	-10.48076	0.15982	79.51536
2430	0.15702	79.10539	0.97742	-10.81006	0.97742	-10.81006	0.15702	79.10539
2450	0.15522	78.85686	0.97725	-11.03062	0.97725	-11.03062	0.15522	78.85686
2470	0.15375	78.72298	0.98052	-11.31166	0.98052	-11.31166	0.15375	78.72298
2490	0.15111	78.44916	0.9804	-11.70455	0.9804	-11.70455	0.15111	78.44916
2510	0.14842	78.3278	0.98088	-11.97437	0.98088	-11.97437	0.14842	78.3278
2530	0.14619	78.37525	0.98178	-12.11839	0.98178	-12.11839	0.14619	78.37525
2550	0.14429	78.33181	0.9787	-12.36603	0.9787	-12.36603	0.14429	78.33181
2570	0.14202	78.05064	0.98397	-12.59542	0.98397	-12.59542	0.14202	78.05064
2590	0.14009	77.58125	0.98345	-12.97276	0.98345	-12.97276	0.14009	77.58125
2610	0.13779	77.14307	0.98338	-13.31624	0.98338	-13.31624	0.13779	77.14307
2630	0.13543	76.81242	0.98431	-13.56317	0.98431	-13.56317	0.13543	76.81242
2650	0.13435	76.52249	0.98108	-13.76997	0.98108	-13.76997	0.13435	76.52249
2670	0.1332	76.4201	0.98319	-14.1237	0.98319	-14.1237	0.1332	76.4201
2690	0.13098	76.44998	0.98294	-14.40886	0.98294	-14.40886	0.13098	76.44998
2710	0.12915	76.65573	0.98329	-14.65397	0.98329	-14.65397	0.12915	76.65573
2730	0.12752	76.76832	0.98483	-14.88831	0.98483	-14.88831	0.12752	76.76832
2750	0.12425	76.20609	0.98582	-15.14187	0.98582	-15.14187	0.12425	76.20609
2770	0.12088	75.77199	0.98434	-15.47635	0.98434	-15.47635	0.12088	75.77199
2790	0.11925	75.27623	0.98466	-15.70024	0.98466	-15.70024	0.11925	75.27623
2810	0.11836	74.76743	0.98334	-16.07062	0.98334	-16.07062	0.11836	74.76743
2830	0.11739	74.34445	0.98175	-16.53512	0.98175	-16.53512	0.11739	74.34445
2850	0.11569	74.15633	0.98615	-16.73185	0.98615	-16.73185	0.11569	74.15633
2870	0.11446	74.22224	0.98624	-16.75535	0.98624	-16.75535	0.11446	74.22224
2890	0.11293	74.76481	0.98531	-16.97733	0.98531	-16.97733	0.11293	74.76481
2910	0.11112	75.15769	0.98599	-17.28324	0.98599	-17.28324	0.11112	75.15769
2930	0.10889	75.15486	0.98758	-17.57591	0.98758	-17.57591	0.10889	75.15486
2950	0.10601	74.89062	0.98604	-17.77548	0.98604	-17.77548	0.10601	74.89062
2970	0.1034	73.90952	0.98692	-17.95263	0.98692	-17.95263	0.1034	73.90952
2990	0.10158	73.10248	0.98677	-18.20425	0.98677	-18.20425	0.10158	73.10248
3010	0.10054	72.66153	0.98741	-18.45596	0.98741	-18.45596	0.10054	72.66153
3030	0.1	72.52285	0.98808	-18.72094	0.98808	-18.72094	0.1	72.52285
3050	0.09948	72.36681	0.98543	-19.09988	0.98543	-19.09988	0.09948	72.36681
3070	0.09689	72.53205	0.98615	-19.57261	0.98615	-19.57261	0.09689	72.53205
3090	0.09502	73.10033	0.99109	-19.81227	0.99109	-19.81227	0.09502	73.10033
3110	0.09293	73.50942	0.99178	-19.89043	0.99178	-19.89043	0.09293	73.50942
3130	0.09036	73.44102	0.98819	-19.90814	0.98819	-19.90814	0.09036	73.44102
3150	0.08775	72.82072	0.98874	-19.99595	0.98874	-19.99595	0.08775	72.82072
3170	0.08579	71.92249	0.99123	-20.45789	0.99123	-20.45789	0.08579	71.92249
3190	0.08456	71.0084	0.98794	-20.65868	0.98794	-20.65868	0.08456	71.0084
3210	0.08387	70.70685	0.98678	-20.93294	0.98678	-20.93294	0.08387	70.70685
3230	0.0833	71.08222	0.98876	-21.28928	0.98876	-21.28928	0.0833	71.08222
3250	0.08214	71.63489	0.98798	-21.41032	0.98798	-21.41032	0.08214	71.63489
3270	0.08052	72.71716	0.99219	-21.95176	0.99219	-21.95176	0.08052	72.71716
3290	0.07797	73.36282	0.9919	-22.16654	0.9919	-22.16654	0.07797	73.36282
3310	0.07507	73.53066	0.98994	-22.26935	0.98994	-22.26935	0.07507	73.53066
3330	0.07238	73.18455	0.98944	-22.37536	0.98944	-22.37536	0.07238	73.18455
3350	0.07041	72.29341	0.99387	-22.50023	0.99387	-22.50023	0.07041	72.29341
3370	0.06879	71.24661	0.99019	-22.93378	0.99019	-22.93378	0.06879	71.24661
3390	0.06761	70.7551	0.98983	-23.31896	0.98983	-23.31896	0.06761	70.7551
3410	0.06678	70.7395	0.98947	-23.62228	0.98947	-23.62228	0.06678	70.7395
3430	0.06564	71.2648	0.98882	-23.88213	0.98882	-23.88213	0.06564	71.2648
3450	0.06294	72.54032	0.99055	-24.20875	0.99055	-24.20875	0.06294	72.54032
3470	0.06139	72.39094	0.99014	-24.44299	0.99014	-24.44299	0.06139	72.39094
3490	0.0596	72.31099	0.99109	-24.50516	0.99109	-24.50516	0.0596	72.31099
3510	0.05776	71.55922	0.99198	-24.65462	0.99198	-24.65462	0.05776	71.55922
3530	0.05602	70.38602	0.99209	-24.91846	0.99209	-24.91846	0.05602	70.38602
3550	0.05452	70.03333	0.99138	-25.09148	0.99138	-25.09148	0.05452	70.03333
3570	0.05354	69.88592	0.99061	-25.33104	0.99061	-25.33104	0.05354	69.88592
3590	0.05238	69.67863	0.9924	-25.62089	0.9924	-25.62089	0.05238	69.67863
3610	0.05108	69.77039	0.99417	-25.92138	0.99417	-25.92138	0.05108	69.77039
3630	0.04958	70.28374	0.99452	-26.16628	0.99452	-26.16628	0.04958	70.28374
3650	0.04775	71.1048	0.99328	-26.26274	0.99328	-26.26274	0.04775	71.1048
3670	0.04586	70.85038	0.99279	-26.67348	0.99279	-26.67348	0.04586	70.85038
3690	0.04435	70.57455	0.99264	-26.92176	0.99264	-26.92176	0.04435	70.57455
3710	0.04311	70.00245	0.99126	-27.11841	0.99126	-27.11841	0.04311	70.00245
3730	0.04208	69.38309	0.98983	-27.35298	0.98983	-27.35298	0.04208	69.38309
3750	0.04123	69.48925	0.9922	-27.6937	0.9922	-27.6937	0.04123	69.48925
3770	0.04006	70.62018	0.99137	-27.86888	0.99137	-27.86888	0.04006	70.62018
3790	0.03861	71.01959	0.9951	-28.06448	0.9951	-28.06448	0.03861	71.01959
3810	0.03713	72.04696	0.99438	-28.29191	0.99438	-28.29191	0.03713	72.04696
3830	0.03543	73.53254	0.98986	-28.52196	0.98986	-28.52196	0.03543	73.53254
3850	0.03281	73.77736	0.99184	-28.68475	0.99184	-28.68475	0.03281	73.77736
3870	0.03109	72.68551	0.99308	-28.95437	0.99308	-28.95437	0.03109	72.68551
3890	0.03007	71.41352	0.99455	-29.12931	0.99455	-29.12931	0.03007	71.41352
3910	0.02907	70.51282	0.99497	-29.38209	0.99497	-29.38209	0.02907	70.51282
3930	0.02799	70.30663	0.99435	-29.72868	0.99435	-29.72868	0.02799	70.30663
3950	0.02734	70.88994	0.99402	-30.02852	0.99402	-30.02852	0.02734	70.88994
3970	0.02604	72.98923	0.9925	-30.35984	0.9925	-30.35984	0.02604	72.98923
3990	0.02475	74.68904	0.99162	-30.37633	0.99162	-30.37633	0.02475	74.68904
4010	0.02323	76.20109	0.99219	-30.51233	0.99219	-30.51233	0.02323	76.20109
4030	0.02143	77.08637	0.99436	-30.83271	0.99436	-30.83271	0.02143	77.08637
4050	0.01956	76.25517	0.99758	-31.03289	0.99758	-31.03289	0.01956	76.25517
4070	0.01851	75.52692	0.99449	-31.51932	0.99449	-31.51932	0.01851	75.52692
4090	0.01751	74.43897	0.99254	-31.75532	0.99254	-31.75532	0.01751	74.43897
4110	0.01669	74.65115	0.99334	-31.91212	0.99334	-31.91212	0.01669	74.65115
4130	0.01597	76.47305	0.99494	-32.08386	0.99494	-32.08386	0.01597	76.47305
4150	0.01515	78.86408	0.99179	-32.28757	0.99179	-32.28757	0.01515	78.86408
4170	0.01415	81.51337	0.99231	-32.623	0.99231	-32.623	0.01415	81.51337
4190	0.01287	85.50581	0.99396	-32.7961	0.99396	-32.7961	0.01287	85.50581
4210	0.01166	88.5893	0.9955	-33.00013	0.9955	-33.00013	0.01166	88.5893
4230	0.01058	89.77751	0.99631	-33.22278	0.99631	-33.22278	0.01058	89.77751
4250	0.00941	89.3498	0.9964	-33.24619	0.9964	-33.24619	0.00941	89.3498
4270	0.00814	87.72294	0.99345	-33.50984	0.99345	-33.50984	0.00814	87.72294
4290	0.00794	92.57386	0.99287	-33.86998	0.99287	-33.86998	0.00794	92.57386
4310	0.0081	97.25223	0.99263	-34.21349	0.99263	-34.21349	0.0081	97.25223
4330	0.00832	101.22283	0.99403	-34.53374	0.99403	-34.53374	0.00832	101.22283
4350	0.00869	110.06556	1.00168	-34.93053	1.00168	-34.93053	0.00869	110.06556
4370	0.00855	123.17321	0.99707	-34.97017	0.99707	-34.97017	0.00855	123.17321
4390	0.00876	136.08248	0.99508	-35.0435	0.99508	-35.0435	0.00876	136.08248
4410	0.00892	146.97185	0.99449	-35.22321	0.99449	-35.22321	0.00892	146.97185
4430	0.00867	155.08587	0.99463	-35.49814	0.99463	-35.49814	0.00867	155.08587
4450	0.00773	160.73514	0.99538	-35.77333	0.99538	-35.77333	0.00773	160.73514
4470	0.00948	-111.65028	0.99696	-35.95687	0.99696	-35.95687	0.00948	-111.65028
4490	0.00957	32.83323	0.9957	-36.31587	0.9957	-36.31587	0.00957	32.83323
4510	0.0097	34.42058	0.9952	-36.52426	0.9952	-36.52426	0.0097	34.42058
4530	0.01051	-175.37203	0.99599	-36.5896	0.99599	-36.5896	0.01051	-175.37203
4550	0.01155	-173.74706	0.99557	-36.85304	0.99557	-36.85304	0.01155	-173.74706
4570	0.01336	-171.14834	0.99615	-36.86484	0.99615	-36.86484	0.01336	-171.14834
4590	0.01485	-169.33698	0.99973	-37.27174	0.99973	-37.27174	0.01485	-169.33698
4610	0.01588	-167.04167	0.9997	-37.63416	0.9997	-37.63416	0.01588	-167.04167
4630	0.01681	-164.11294	0.99602	-37.83975	0.99602	-37.83975	0.01681	-164.11294
4650	0.01856	-161.52315	0.99523	-38.10335	0.99523	-38.10335	0.01856	-161.52315
4670	0.0193	-159.57354	0.99616	-38.32378	0.99616	-38.32378	0.0193	-159.57354
4690	0.01981	-157.72153	0.99379	-38.49542	0.99379	-38.49542	0.01981	-157.72153
4710	0.02052	-157.46298	0.99301	-38.71037	0.99301	-38.71037	0.02052	-157.46298
4730	0.02156	-158.23512	0.99439	-39.00299	0.99439	-39.00299	0.02156	-158.23512
4750	0.02284	-157.41658	0.99419	-39.34979	0.99419	-39.34979	0.02284	-157.41658
4770	0.02413	-157.13574	0.99265	-39.45414	0.99265	-39.45414	0.02413	-157.13574
4790	0.02528	-156.23102	0.99492	-39.81937	0.99492	-39.81937	0.02528	-156.23102
4810	0.02652	-154.75891	0.99712	-40.03764	0.99712	-40.03764	0.02652	-154.75891
4830	0.02785	-153.23011	0.99762	-40.08172	0.99762	-40.08172	0.02785	-153.23011
4850	0.02913	-152.60957	0.99707	-40.30494	0.99707	-40.30494	0.02913	-152.60957
4870	0.03005	-151.91279	0.99558	-40.42357	0.99558	-40.42357	0.03005	-151.91279
4890	0.03022	-151.92184	0.99537	-40.67444	0.99537	-40.67444	0.03022	-151.92184
4910	0.03052	-151.80674	0.99438	-40.88368	0.99438	-40.88368	0.03052	-151.80674
4930	0.03132	-151.34433	0.99319	-41.03629	0.99319	-41.03629	0.03132	-151.34433
4950	0.03252	-150.9183	0.99511	-41.27618	0.99511	-41.27618	0.03252	-150.9183
4970	0.03343	-152.25547	0.9932	-41.45371	0.9932	-41.45371	0.03343	-152.25547
4990	0.03435	-152.48883	0.99574	-41.78273	0.99574	-41.78273	0.03435	-152.48883
5010	0.03569	-152.57954	0.99586	-42.10785	0.99586	-42.10785	0.03569	-152.57954
5030	0.03736	-152.84611	0.99348	-42.32852	0.99348	-42.32852	0.03736	-152.84611
5050	0.03884	-152.96438	0.99529	-42.39907	0.99529	-42.39907	0.03884	-152.96438
5070	0.0397	-151.27942	0.99381	-42.69317	0.99381	-42.69317	0.0397	-151.27942
5090	0.04024	-151.22021	0.99126	-42.96201	0.99126	-42.96201	0.04024	-151.22021
5110	0.04104	-151.46104	0.99331	-43.21041	0.99331	-43.21041	0.04104	-151.46104
5130	0.04208	-151.72386	0.99763	-43.40932	0.99763	-43.40932	0.04208	-151.72386
5150	0.04265	-152.77829	0.99391	-43.49587	0.99391	-43.49587	0.04265	-152.77829
5170	0.04388	-152.40282	0.99662	-43.90669	0.99662	-43.90669	0.04388	-152.40282
5190	0.04566	-152.65135	0.99264	-44.04597	0.99264	-44.04597	0.04566	-152.65135
5210	0.04716	-152.68653	0.99013	-44.26006	0.99013	-44.26006	0.04716	-152.68653
5230	0.04817	-152.39765	0.99102	-44.57032	0.99102	-44.57032	0.04817	-152.39765
5250	0.04914	-152.40055	0.99106	-44.67314	0.99106	-44.67314	0.04914	-152.40055
5270	0.05009	-152.30515	0.99016	-45.11648	0.99016	-45.11648	0.05009	-152.30515
5290	0.05086	-151.7628	0.98936	-45.34821	0.98936	-45.34821	0.05086	-151.7628
5310	0.05223	-151.60378	0.99039	-45.45561	0.99039	-45.45561	0.05223	-151.60378
5330	0.05391	-151.97709	0.99214	-45.56688	0.99214	-45.56688	0.05391	-151.97709
5350	0.05453	-152.35047	0.99068	-45.85119	0.99068	-45.85119	0.05453	-152.35047
5370	0.05603	-151.97709	0.99369	-45.92919	0.99369	-45.92919	0.05603	-151.97709
5390	0.0585	-151.64716	0.9951	-46.31775	0.9951	-46.31775	0.0585	-151.64716
