! Data Taken on a HP 8720C VNA using a series-through fixture with TRL* de-embedding
#	mhz	s	ma	r	50
50	0.08967	72.79691	0.96665	-5.52737	0.96665	-5.52737	0.08967	72.79691
70	0.12374	71.75206	0.96526	-7.42873	0.96526	-7.42873	0.12374	71.75206
90	0.15331	71.52892	0.96318	-8.94032	0.96318	-8.94032	0.15331	71.52892
110	0.18172	70.64332	0.95766	-10.566	0.95766	-10.566	0.18172	70.64332
130	0.21092	69.02905	0.94876	-12.43371	0.94876	-12.43371	0.21092	69.02905
150	0.24149	68.03792	0.9393	-14.2954	0.9393	-14.2954	0.24149	68.03792
170	0.26962	67.39462	0.93531	-15.61272	0.93531	-15.61272	0.26962	67.39462
190	0.2955	65.92628	0.92281	-17.57954	0.92281	-17.57954	0.2955	65.92628
210	0.32159	64.51607	0.91082	-19.23712	0.91082	-19.23712	0.32159	64.51607
230	0.34858	63.33991	0.90261	-20.50653	0.90261	-20.50653	0.34858	63.33991
250	0.37544	61.86642	0.89567	-22.18858	0.89567	-22.18858	0.37544	61.86642
270	0.39742	60.22211	0.87929	-23.89089	0.87929	-23.89089	0.39742	60.22211
290	0.42154	58.94772	0.86813	-25.19449	0.86813	-25.19449	0.42154	58.94772
310	0.44686	57.72162	0.85774	-26.69694	0.85774	-26.69694	0.44686	57.72162
330	0.47124	56.3552	0.84523	-28.44226	0.84523	-28.44226	0.47124	56.3552
350	0.49138	54.79284	0.82932	-29.92088	0.82932	-29.92088	0.49138	54.79284
370	0.51416	54.24033	0.82076	-31.02244	0.82076	-31.02244	0.51416	54.24033
390	0.53397	52.93469	0.80944	-32.53975	0.80944	-32.53975	0.53397	52.93469
410	0.55271	51.54557	0.79623	-33.93472	0.79623	-33.93472	0.55271	51.54557
430	0.5714	50.33037	0.78297	-35.11761	0.78297	-35.11761	0.5714	50.33037
450	0.59026	49.13427	0.77249	-36.44707	0.77249	-36.44707	0.59026	49.13427
470	0.60594	47.84189	0.75635	-37.73405	0.75635	-37.73405	0.60594	47.84189
490	0.64141	47.13652	0.72684	-40.91152	0.72684	-40.91152	0.64141	47.13652
510	0.67276	45.99103	0.70301	-43.63994	0.70301	-43.63994	0.67276	45.99103
530	0.68934	44.59788	0.6895	-45.15147	0.6895	-45.15147	0.68934	44.59788
550	0.69381	44.36915	0.67663	-46.24997	0.67663	-46.24997	0.69381	44.36915
570	0.70649	43.27063	0.66409	-47.03427	0.66409	-47.03427	0.70649	43.27063
590	0.72116	42.06974	0.65076	-48.05062	0.65076	-48.05062	0.72116	42.06974
610	0.73406	41.08834	0.63853	-49.1361	0.63853	-49.1361	0.73406	41.08834
630	0.7442	40.27673	0.62651	-50.2092	0.62651	-50.2092	0.7442	40.27673
650	0.75341	39.21364	0.61115	-51.26982	0.61115	-51.26982	0.75341	39.21364
670	0.7653	38.53172	0.59706	-52.06632	0.59706	-52.06632	0.7653	38.53172
690	0.77658	37.74383	0.58482	-53.05549	0.58482	-53.05549	0.77658	37.74383
710	0.78637	36.60908	0.57155	-54.06084	0.57155	-54.06084	0.78637	36.60908
730	0.79439	35.44549	0.55711	-54.94715	0.55711	-54.94715	0.79439	35.44549
750	0.80092	35.13009	0.5441	-55.62049	0.5441	-55.62049	0.80092	35.13009
770	0.8106	34.11073	0.53568	-56.81628	0.53568	-56.81628	0.8106	34.11073
790	0.818	33.36385	0.52234	-57.52029	0.52234	-57.52029	0.818	33.36385
810	0.82518	32.72179	0.50984	-58.11712	0.50984	-58.11712	0.82518	32.72179
830	0.83207	31.95606	0.49877	-58.82888	0.49877	-58.82888	0.83207	31.95606
850	0.8365	30.77735	0.48457	-59.71512	0.48457	-59.71512	0.8365	30.77735
870	0.84036	30.50902	0.47156	-60.45926	0.47156	-60.45926	0.84036	30.50902
890	0.84576	29.50484	0.46118	-61.25603	0.46118	-61.25603	0.84576	29.50484
910	0.85165	28.3553	0.45014	-62.00459	0.45014	-62.00459	0.85165	28.3553
930	0.85735	27.43638	0.43788	-62.71465	0.43788	-62.71465	0.85735	27.43638
950	0.86256	26.90955	0.42657	-63.50644	0.42657	-63.50644	0.86256	26.90955
970	0.8727	26.03926	0.41585	-64.35776	0.41585	-64.35776	0.8727	26.03926
990	0.88043	25.21017	0.40625	-65.06285	0.40625	-65.06285	0.88043	25.21017
1010	0.88552	24.49481	0.39629	-65.69014	0.39629	-65.69014	0.88552	24.49481
1030	0.88987	23.9532	0.38574	-66.2701	0.38574	-66.2701	0.88987	23.9532
1050	0.89754	23.63295	0.37568	-66.7953	0.37568	-66.7953	0.89754	23.63295
1070	0.90361	22.87717	0.36582	-67.42323	0.36582	-67.42323	0.90361	22.87717
1090	0.90529	22.26286	0.35615	-67.97009	0.35615	-67.97009	0.90529	22.26286
1110	0.90641	21.68354	0.34678	-68.38288	0.34678	-68.38288	0.90641	21.68354
1130	0.90934	21.07641	0.33741	-68.82518	0.33741	-68.82518	0.90934	21.07641
1150	0.91499	20.42229	0.32735	-69.67714	0.32735	-69.67714	0.91499	20.42229
1170	0.91803	19.63936	0.31724	-70.42914	0.31724	-70.42914	0.91803	19.63936
1190	0.92273	19.1152	0.30923	-70.76842	0.30923	-70.76842	0.92273	19.1152
1210	0.92655	18.47586	0.30111	-71.30197	0.30111	-71.30197	0.92655	18.47586
1230	0.92825	17.82162	0.29189	-72.01823	0.29189	-72.01823	0.92825	17.82162
1250	0.92791	17.72701	0.28181	-72.28712	0.28181	-72.28712	0.92791	17.72701
1270	0.93807	17.17117	0.27538	-72.75496	0.27538	-72.75496	0.93807	17.17117
1290	0.93815	16.25148	0.26588	-73.55913	0.26588	-73.55913	0.93815	16.25148
1310	0.93672	15.77226	0.2564	-73.92195	0.2564	-73.92195	0.93672	15.77226
1330	0.93929	15.60624	0.2482	-74.02275	0.2482	-74.02275	0.93929	15.60624
1350	0.94825	14.69457	0.24074	-74.99794	0.24074	-74.99794	0.94825	14.69457
1370	0.94685	13.93922	0.23192	-75.62364	0.23192	-75.62364	0.94685	13.93922
1390	0.9475	13.48983	0.22443	-75.71492	0.22443	-75.71492	0.9475	13.48983
1410	0.9514	13.0031	0.21728	-75.98919	0.21728	-75.98919	0.9514	13.0031
1430	0.95531	12.45073	0.2095	-76.54738	0.2095	-76.54738	0.95531	12.45073
1450	0.9515	12.1194	0.20013	-76.87392	0.20013	-76.87392	0.9515	12.1194
1470	0.95853	11.71694	0.19393	-76.83535	0.19393	-76.83535	0.95853	11.71694
1490	0.95856	10.98978	0.18601	-77.52604	0.18601	-77.52604	0.95856	10.98978
1510	0.95605	10.47699	0.17769	-78.08873	0.17769	-78.08873	0.95605	10.47699
1530	0.95558	10.17632	0.17002	-78.32627	0.17002	-78.32627	0.95558	10.17632
1550	0.96186	9.54421	0.16371	-78.70159	0.16371	-78.70159	0.96186	9.54421
1570	0.96155	9.01085	0.15616	-79.15603	0.15616	-79.15603	0.96155	9.01085
1590	0.96021	8.45134	0.1491	-79.46262	0.1491	-79.46262	0.96021	8.45134
1610	0.96152	8.05087	0.14206	-79.56073	0.14206	-79.56073	0.96152	8.05087
1630	0.96457	7.76055	0.13497	-79.60675	0.13497	-79.60675	0.96457	7.76055
1650	0.96392	7.29736	0.12814	-79.97404	0.12814	-79.97404	0.96392	7.29736
1670	0.96219	6.42594	0.12099	-80.00244	0.12099	-80.00244	0.96219	6.42594
1690	0.95964	6.21746	0.11405	-79.9331	0.11405	-79.9331	0.95964	6.21746
1710	0.96187	5.91674	0.1076	-79.98834	0.1076	-79.98834	0.96187	5.91674
1730	0.96673	5.26823	0.10134	-80.23927	0.10134	-80.23927	0.96673	5.26823
1750	0.9643	4.51608	0.09437	-80.60583	0.09437	-80.60583	0.9643	4.51608
1770	0.96463	4.27605	0.08774	-80.17397	0.08774	-80.17397	0.96463	4.27605
1790	0.96902	3.84676	0.08179	-80.13951	0.08179	-80.13951	0.96902	3.84676
1810	0.96857	3.40651	0.07542	-79.99775	0.07542	-79.99775	0.96857	3.40651
1830	0.96513	3.02392	0.0687	-79.51124	0.0687	-79.51124	0.96513	3.02392
1850	0.97132	2.65798	0.06286	-78.70984	0.06286	-78.70984	0.97132	2.65798
1870	0.97075	1.71927	0.05667	-78.33665	0.05667	-78.33665	0.97075	1.71927
1890	0.96823	1.42961	0.05044	-77.41445	0.05044	-77.41445	0.96823	1.42961
1910	0.97009	1.2374	0.04438	-76.00087	0.04438	-76.00087	0.97009	1.2374
1930	0.97539	0.83121	0.03857	-74.15338	0.03857	-74.15338	0.97539	0.83121
1950	0.97596	0.13975	0.03292	-71.92931	0.03292	-71.92931	0.97596	0.13975
1970	0.97075	-0.29238	0.02726	-68.37284	0.02726	-68.37284	0.97075	-0.29238
1990	0.97028	-0.47355	0.02184	-62.28616	0.02184	-62.28616	0.97028	-0.47355
2010	0.97188	-0.76678	0.01696	-52.2259	0.01696	-52.2259	0.97188	-0.76678
2030	0.97311	-1.28076	0.01299	-36.1761	0.01299	-36.1761	0.97311	-1.28076
2050	0.97174	-1.86989	0.01032	-11.54828	0.01032	-11.54828	0.97174	-1.86989
2070	0.96671	-2.2305	0.01133	18.3683	0.01133	18.3683	0.96671	-2.2305
2090	0.96998	-2.47065	0.0144	39.32439	0.0144	39.32439	0.96998	-2.47065
2110	0.97379	-3.03338	0.01869	52.56933	0.01869	52.56933	0.97379	-3.03338
2130	0.97311	-3.70682	0.02355	60.23615	0.02355	60.23615	0.97311	-3.70682
2150	0.96555	-3.62423	0.02851	65.34159	0.02851	65.34159	0.96555	-3.62423
2170	0.97093	-4.02091	0.03403	68.26632	0.03403	68.26632	0.97093	-4.02091
2190	0.97209	-4.48569	0.03936	70.19488	0.03936	70.19488	0.97209	-4.48569
2210	0.9722	-4.88275	0.04464	71.77621	0.04464	71.77621	0.9722	-4.88275
2230	0.97265	-5.26641	0.04997	73.14947	0.04997	73.14947	0.97265	-5.26641
2250	0.97302	-5.88118	0.05539	73.94403	0.05539	73.94403	0.97302	-5.88118
2270	0.96465	-6.27744	0.06046	74.45974	0.06046	74.45974	0.96465	-6.27744
2290	0.96629	-6.46079	0.06582	75.01796	0.06582	75.01796	0.96629	-6.46079
2310	0.97051	-6.7906	0.07139	75.19578	0.07139	75.19578	0.97051	-6.7906
2330	0.97091	-7.3396	0.07676	75.11421	0.07676	75.11421	0.97091	-7.3396
2350	0.96215	-7.89391	0.08119	75.43813	0.08119	75.43813	0.96215	-7.89391
2370	0.96566	-7.75846	0.08674	75.94622	0.08674	75.94622	0.96566	-7.75846
2390	0.96883	-8.1922	0.09224	75.91579	0.09224	75.91579	0.96883	-8.1922
2410	0.96694	-8.66314	0.09708	75.77977	0.09708	75.77977	0.96694	-8.66314
2430	0.96181	-8.94132	0.10156	75.74278	0.10156	75.74278	0.96181	-8.94132
2450	0.96181	-9.09889	0.10682	75.78113	0.10682	75.78113	0.96181	-9.09889
2470	0.96277	-9.62127	0.11235	75.71022	0.11235	75.71022	0.96277	-9.62127
2490	0.96088	-10.17803	0.11694	75.67256	0.11694	75.67256	0.96088	-10.17803
2510	0.95711	-10.4786	0.1216	75.56053	0.1216	75.56053	0.95711	-10.4786
2530	0.95471	-10.57711	0.1267	75.43385	0.1267	75.43385	0.95471	-10.57711
2550	0.95927	-10.87238	0.13199	75.51957	0.13199	75.51957	0.95927	-10.87238
2570	0.95954	-11.34621	0.13731	75.29802	0.13731	75.29802	0.95954	-11.34621
2590	0.95801	-11.68338	0.14176	75.01723	0.14176	75.01723	0.95801	-11.68338
2610	0.95651	-12.0876	0.14651	74.77757	0.14651	74.77757	0.95651	-12.0876
2630	0.95499	-12.52338	0.15146	74.61024	0.15146	74.61024	0.95499	-12.52338
2650	0.9515	-12.71597	0.15528	74.47725	0.15528	74.47725	0.9515	-12.71597
2670	0.9545	-12.93966	0.16057	74.53525	0.16057	74.53525	0.9545	-12.93966
2690	0.9569	-13.40165	0.16575	74.20514	0.16575	74.20514	0.9569	-13.40165
2710	0.95738	-13.81454	0.17045	73.87375	0.17045	73.87375	0.95738	-13.81454
2730	0.95559	-14.09187	0.17492	73.69099	0.17492	73.69099	0.95559	-14.09187
2750	0.95206	-14.34805	0.18	73.56989	0.18	73.56989	0.95206	-14.34805
2770	0.94388	-14.83168	0.18381	73.34643	0.18381	73.34643	0.94388	-14.83168
2790	0.94502	-15.12012	0.18868	73.10862	0.18868	73.10862	0.94502	-15.12012
2810	0.9499	-15.44393	0.19338	72.69981	0.19338	72.69981	0.9499	-15.44393
2830	0.95155	-15.80071	0.19774	72.30353	0.19774	72.30353	0.95155	-15.80071
2850	0.94167	-15.95509	0.20269	72.44348	0.20269	72.44348	0.94167	-15.95509
2870	0.94034	-16.18894	0.20667	72.31374	0.20667	72.31374	0.94034	-16.18894
2890	0.94426	-16.37782	0.21163	72.19372	0.21163	72.19372	0.94426	-16.37782
2910	0.94559	-16.67928	0.21583	71.89911	0.21583	71.89911	0.94559	-16.67928
2930	0.94297	-16.99253	0.21924	71.63787	0.21924	71.63787	0.94297	-16.99253
2950	0.94155	-16.95841	0.22356	72.01025	0.22356	72.01025	0.94155	-16.95841
2970	0.94379	-17.58877	0.22885	71.32738	0.22885	71.32738	0.94379	-17.58877
2990	0.942	-18.00571	0.2336	70.91928	0.2336	70.91928	0.942	-18.00571
3010	0.93871	-18.20931	0.23723	70.85428	0.23723	70.85428	0.93871	-18.20931
3030	0.93666	-18.32428	0.2405	70.89892	0.2405	70.89892	0.93666	-18.32428
3050	0.93881	-18.59986	0.24555	70.5179	0.24555	70.5179	0.93881	-18.59986
3070	0.9311	-19.58298	0.25017	69.78708	0.25017	69.78708	0.9311	-19.58298
3090	0.92685	-19.76018	0.25432	69.54381	0.25432	69.54381	0.92685	-19.76018
3110	0.92685	-19.62828	0.25779	69.62401	0.25779	69.62401	0.92685	-19.62828
3130	0.93015	-19.65293	0.2615	69.72488	0.2615	69.72488	0.93015	-19.65293
3150	0.93406	-20.26859	0.26756	69.40495	0.26756	69.40495	0.93406	-20.26859
3170	0.92369	-20.64342	0.26954	68.93959	0.26954	68.93959	0.92369	-20.64342
3190	0.92328	-20.69434	0.27249	68.84538	0.27249	68.84538	0.92328	-20.69434
3210	0.92547	-20.87741	0.2766	68.59482	0.2766	68.59482	0.92547	-20.87741
3230	0.92571	-21.23269	0.28118	68.16127	0.28118	68.16127	0.92571	-21.23269
3250	0.92226	-21.38421	0.28467	68.01895	0.28467	68.01895	0.92226	-21.38421
3270	0.92566	-21.65545	0.29065	67.73054	0.29065	67.73054	0.92566	-21.65545
3290	0.9202	-22.07004	0.29348	67.53148	0.29348	67.53148	0.9202	-22.07004
3310	0.91514	-22.29004	0.29546	67.4188	0.29546	67.4188	0.91514	-22.29004
3330	0.91502	-22.32166	0.29903	67.364	0.29903	67.364	0.91502	-22.32166
3350	0.91968	-22.5153	0.30672	67.31304	0.30672	67.31304	0.91968	-22.5153
3370	0.91606	-23.34031	0.30745	66.73029	0.30745	66.73029	0.91606	-23.34031
3390	0.91132	-23.50225	0.30971	66.33784	0.30971	66.33784	0.91132	-23.50225
3410	0.91238	-23.43271	0.31406	66.33662	0.31406	66.33662	0.91238	-23.43271
3430	0.91667	-23.54722	0.31966	66.37118	0.31966	66.37118	0.91667	-23.54722
3450	0.91208	-24.24531	0.32428	65.52972	0.32428	65.52972	0.91208	-24.24531
3470	0.90306	-24.68696	0.32458	65.37641	0.32458	65.37641	0.90306	-24.68696
3490	0.90315	-24.55029	0.32841	65.71235	0.32841	65.71235	0.90315	-24.55029
3510	0.90754	-24.84363	0.33378	65.59373	0.33378	65.59373	0.90754	-24.84363
3530	0.90971	-25.55678	0.33822	65.04475	0.33822	65.04475	0.90971	-25.55678
3550	0.9014	-25.66108	0.33882	65.05762	0.33882	65.05762	0.9014	-25.66108
3570	0.90352	-25.45626	0.34214	65.06835	0.34214	65.06835	0.90352	-25.45626
3590	0.90258	-25.83565	0.34707	64.59774	0.34707	64.59774	0.90258	-25.83565
3610	0.89952	-26.11332	0.35063	64.31357	0.35063	64.31357	0.89952	-26.11332
3630	0.89725	-26.17675	0.35291	64.31124	0.35291	64.31124	0.89725	-26.17675
3650	0.90069	-26.48691	0.35712	64.11375	0.35712	64.11375	0.90069	-26.48691
3670	0.89673	-27.04948	0.36059	63.62003	0.36059	63.62003	0.89673	-27.04948
3690	0.89081	-27.11429	0.3627	63.60675	0.3627	63.60675	0.89081	-27.11429
3710	0.89153	-27.32326	0.36601	63.50764	0.36601	63.50764	0.89153	-27.32326
3730	0.89608	-27.79315	0.37034	63.16816	0.37034	63.16816	0.89608	-27.79315
3750	0.89024	-28.11558	0.37275	62.84545	0.37275	62.84545	0.89024	-28.11558
3770	0.88908	-28.0824	0.37525	63.07822	0.37525	63.07822	0.88908	-28.0824
3790	0.89308	-28.10406	0.38064	62.71714	0.38064	62.71714	0.89308	-28.10406
3810	0.8916	-28.33323	0.38434	62.47025	0.38434	62.47025	0.8916	-28.33323
3830	0.88491	-28.77399	0.38603	62.39606	0.38603	62.39606	0.88491	-28.77399
3850	0.88426	-29.28181	0.38964	61.90349	0.38964	61.90349	0.88426	-29.28181
3870	0.87977	-29.50101	0.39112	61.87731	0.39112	61.87731	0.87977	-29.50101
3890	0.88445	-29.59601	0.39563	61.89645	0.39563	61.89645	0.88445	-29.59601
3910	0.88624	-29.98914	0.40026	61.68152	0.40026	61.68152	0.88624	-29.98914
3930	0.8816	-30.53782	0.40328	61.25433	0.40328	61.25433	0.8816	-30.53782
3950	0.87554	-30.5346	0.40409	60.93783	0.40409	60.93783	0.87554	-30.5346
3970	0.87616	-30.25347	0.40844	61.1937	0.40844	61.1937	0.87616	-30.25347
3990	0.87768	-30.67221	0.41201	60.90182	0.41201	60.90182	0.87768	-30.67221
4010	0.87586	-31.1918	0.41509	60.55839	0.41509	60.55839	0.87586	-31.1918
4030	0.87155	-31.54213	0.41786	60.3699	0.41786	60.3699	0.87155	-31.54213
4050	0.8707	-31.78208	0.42046	60.25306	0.42046	60.25306	0.8707	-31.78208
4070	0.87323	-32.00348	0.42419	59.94494	0.42419	59.94494	0.87323	-32.00348
4090	0.87393	-32.57278	0.42729	59.58	0.42729	59.58	0.87393	-32.57278
4110	0.87027	-32.96819	0.42941	59.26684	0.42941	59.26684	0.87027	-32.96819
4130	0.8643	-32.99632	0.43115	59.17335	0.43115	59.17335	0.8643	-32.99632
4150	0.86263	-32.79222	0.43411	59.52669	0.43411	59.52669	0.86263	-32.79222
4170	0.86815	-33.41011	0.43945	58.83826	0.43945	58.83826	0.86815	-33.41011
4190	0.86367	-33.74073	0.44101	58.5864	0.44101	58.5864	0.86367	-33.74073
4210	0.8603	-33.86233	0.44359	58.6175	0.44359	58.6175	0.8603	-33.86233
4230	0.86157	-33.9932	0.44814	58.65288	0.44814	58.65288	0.86157	-33.9932
4250	0.86338	-34.49163	0.45175	58.28879	0.45175	58.28879	0.86338	-34.49163
4270	0.85698	-34.47086	0.4525	58.21689	0.4525	58.21689	0.85698	-34.47086
4290	0.8586	-34.84619	0.4559	57.93528	0.4559	57.93528	0.8586	-34.84619
4310	0.85884	-35.33017	0.45914	57.57038	0.45914	57.57038	0.85884	-35.33017
4330	0.85677	-35.70024	0.46223	57.23514	0.46223	57.23514	0.85677	-35.70024
4350	0.8599	-35.79864	0.46801	57.02907	0.46801	57.02907	0.8599	-35.79864
4370	0.85566	-36.19896	0.47111	56.8484	0.47111	56.8484	0.85566	-36.19896
4390	0.85139	-36.36928	0.47099	56.78066	0.47099	56.78066	0.85139	-36.36928
4410	0.84923	-36.56962	0.472	56.73177	0.472	56.73177	0.84923	-36.56962
4430	0.84862	-36.88968	0.47526	56.62179	0.47526	56.62179	0.84862	-36.88968
4450	0.84623	-37.24885	0.4787	56.3849	0.4787	56.3849	0.84623	-37.24885
4470	0.84819	-37.42204	0.48204	56.33858	0.48204	56.33858	0.84819	-37.42204
4490	0.84725	-37.99577	0.48468	55.83347	0.48468	55.83347	0.84725	-37.99577
4510	0.84267	-38.16996	0.48601	55.63633	0.48601	55.63633	0.84267	-38.16996
4530	0.83911	-37.92332	0.48764	55.86463	0.48764	55.86463	0.83911	-37.92332
4550	0.84658	-38.01338	0.49345	55.9866	0.49345	55.9866	0.84658	-38.01338
4570	0.84059	-39.09836	0.49603	55.17971	0.49603	55.17971	0.84059	-39.09836
4590	0.83302	-39.40822	0.4961	54.99876	0.4961	54.99876	0.83302	-39.40822
4610	0.83246	-39.34571	0.49805	55.13082	0.49805	55.13082	0.83246	-39.34571
4630	0.83778	-39.48758	0.50209	55.07893	0.50209	55.07893	0.83778	-39.48758
4650	0.83808	-40.58455	0.50429	54.16203	0.50429	54.16203	0.83808	-40.58455
4670	0.83182	-40.55482	0.50397	54.18379	0.50397	54.18379	0.83182	-40.55482
4690	0.83008	-40.64143	0.50662	54.21324	0.50662	54.21324	0.83008	-40.64143
4710	0.83071	-40.82843	0.51025	54.0443	0.51025	54.0443	0.83071	-40.82843
4730	0.83161	-41.11966	0.51344	53.69353	0.51344	53.69353	0.83161	-41.11966
4750	0.83067	-41.53879	0.51538	53.40016	0.51538	53.40016	0.83067	-41.53879
4770	0.82495	-41.7036	0.5166	53.46718	0.5166	53.46718	0.82495	-41.7036
4790	0.82379	-42.05871	0.51893	53.18856	0.51893	53.18856	0.82379	-42.05871
4810	0.82388	-42.4552	0.5224	53.0095	0.5224	53.0095	0.82388	-42.4552
4830	0.82347	-42.81166	0.5255	52.94264	0.5255	52.94264	0.82347	-42.81166
4850	0.82231	-43.11419	0.52513	52.56804	0.52513	52.56804	0.82231	-43.11419
4870	0.82336	-43.1875	0.52999	52.55475	0.52999	52.55475	0.82336	-43.1875
4890	0.81879	-43.45906	0.53097	52.2772	0.53097	52.2772	0.81879	-43.45906
4910	0.81516	-43.63085	0.53154	52.18668	0.53154	52.18668	0.81516	-43.63085
4930	0.81627	-43.81662	0.53453	52.21608	0.53453	52.21608	0.81627	-43.81662
4950	0.82308	-44.54184	0.54215	51.77992	0.54215	51.77992	0.82308	-44.54184
4970	0.81011	-44.76249	0.53699	51.47748	0.53699	51.47748	0.81011	-44.76249
4990	0.81017	-44.63941	0.53913	51.72801	0.53913	51.72801	0.81017	-44.63941
5010	0.81421	-44.86853	0.5441	51.52817	0.5441	51.52817	0.81421	-44.86853
5030	0.81392	-45.47554	0.54718	50.81558	0.54718	50.81558	0.81392	-45.47554
5050	0.80173	-45.81583	0.54342	50.46881	0.54342	50.46881	0.80173	-45.81583
5070	0.80576	-45.40347	0.5466	51.12361	0.5466	51.12361	0.80576	-45.40347
5090	0.81018	-45.73012	0.55261	50.71854	0.55261	50.71854	0.81018	-45.73012
5110	0.80901	-46.39333	0.55562	50.11936	0.55562	50.11936	0.80901	-46.39333
5130	0.8021	-46.85286	0.55469	49.86156	0.55469	49.86156	0.8021	-46.85286
5150	0.79514	-46.4307	0.55384	50.15037	0.55384	50.15037	0.79514	-46.4307
5170	0.79873	-46.66062	0.56129	50.04505	0.56129	50.04505	0.79873	-46.66062
5190	0.79862	-47.31294	0.56274	49.48789	0.56274	49.48789	0.79862	-47.31294
5210	0.79344	-47.67843	0.56086	49.18759	0.56086	49.18759	0.79344	-47.67843
5230	0.7888	-47.52554	0.56066	49.31069	0.56066	49.31069	0.7888	-47.52554
5250	0.7972	-47.10043	0.56945	49.48164	0.56945	49.48164	0.7972	-47.10043
5270	0.79598	-48.31721	0.57213	48.38243	0.57213	48.38243	0.79598	-48.31721
5290	0.78547	-48.41317	0.56785	48.26123	0.56785	48.26123	0.78547	-48.41317
5310	0.78498	-48.07621	0.56965	48.67477	0.56965	48.67477	0.78498	-48.07621
5330	0.79419	-48.06393	0.57731	48.86324	0.57731	48.86324	0.79419	-48.06393
5350	0.7931	-49.20357	0.57743	47.75035	0.57743	47.75035	0.7931	-49.20357
5370	0.78023	-49.14059	0.57629	47.94153	0.57629	47.94153	0.78023	-49.14059
5390	0.78249	-49.09317	0.58049	47.81736	0.58049	47.81736	0.78249	-49.09317
5410	0.78542	-49.29654	0.58357	47.4369	0.58357	47.4369	0.78542	-49.29654
5430	0.78362	-49.61496	0.58403	47.08435	0.58403	47.08435	0.78362	-49.61496
