! Data Taken on a HP 8720C VNA using a shunt-through fixture with TRL* de-embedding
#	mhz	s	ma	r	50
50	0.93644	171.98978	0.13147	69.31748	0.13147	69.31748	0.93644	171.98978
70	0.95928	169.61497	0.18105	69.50879	0.18105	69.50879	0.95928	169.61497
90	0.94483	166.28403	0.22428	67.98705	0.22428	67.98705	0.94483	166.28403
110	0.92509	163.55711	0.26656	66.33476	0.26656	66.33476	0.92509	163.55711
130	0.91447	161.39011	0.30959	64.76133	0.30959	64.76133	0.91447	161.39011
150	0.90981	158.13471	0.3514	62.10299	0.3514	62.10299	0.90981	158.13471
170	0.88202	156.14824	0.38589	60.47297	0.38589	60.47297	0.88202	156.14824
190	0.86636	153.93179	0.42158	58.37014	0.42158	58.37014	0.86636	153.93179
210	0.84988	151.49551	0.45503	56.05356	0.45503	56.05356	0.84988	151.49551
230	0.82835	149.15158	0.48563	53.87806	0.48563	53.87806	0.82835	149.15158
250	0.80628	147.51417	0.51549	52.29429	0.51549	52.29429	0.80628	147.51417
270	0.79462	144.95932	0.54611	50.24989	0.54611	50.24989	0.79462	144.95932
290	0.77338	143.0533	0.57052	48.38681	0.57052	48.38681	0.77338	143.0533
310	0.75338	141.32459	0.59419	46.87538	0.59419	46.87538	0.75338	141.32459
330	0.73802	139.457	0.61879	45.43044	0.61879	45.43044	0.73802	139.457
350	0.72324	137.28965	0.64219	43.3113	0.64219	43.3113	0.72324	137.28965
370	0.70337	135.98125	0.65915	42.03966	0.65915	42.03966	0.70337	135.98125
390	0.68875	134.39721	0.67935	40.41319	0.67935	40.41319	0.68875	134.39721
410	0.67368	132.79385	0.69703	38.71878	0.69703	38.71878	0.67368	132.79385
430	0.65645	131.36921	0.71175	37.29535	0.71175	37.29535	0.65645	131.36921
450	0.6393	130.2631	0.72847	36.53386	0.72847	36.53386	0.6393	130.2631
470	0.62397	128.78548	0.74116	34.92288	0.74116	34.92288	0.62397	128.78548
490	0.5918	125.10076	0.77564	32.12518	0.77564	32.12518	0.5918	125.10076
510	0.5668	122.30342	0.80358	29.84618	0.80358	29.84618	0.5668	122.30342
530	0.5548	121.10093	0.81581	28.65796	0.81581	28.65796	0.5548	121.10093
550	0.54344	119.81372	0.82232	27.99919	0.82232	27.99919	0.54344	119.81372
570	0.5299	119.04618	0.8319	26.94186	0.8319	26.94186	0.5299	119.04618
590	0.51794	118.31804	0.83845	26.08017	0.83845	26.08017	0.51794	118.31804
610	0.50607	117.33404	0.84569	25.19027	0.84569	25.19027	0.50607	117.33404
630	0.49416	116.17916	0.85385	24.24617	0.85385	24.24617	0.49416	116.17916
650	0.48343	115.31865	0.85964	23.41973	0.85964	23.41973	0.48343	115.31865
670	0.47183	114.20722	0.86548	22.28088	0.86548	22.28088	0.47183	114.20722
690	0.46341	113.30797	0.86958	21.5171	0.86958	21.5171	0.46341	113.30797
710	0.45599	112.45808	0.8758	20.75887	0.8758	20.75887	0.45599	112.45808
730	0.4479	111.70098	0.8830	19.9114	0.8830	19.9114	0.4479	111.70098
750	0.43806	111.28626	0.88506	19.15467	0.88506	19.15467	0.43806	111.28626
770	0.42754	111.06197	0.89325	18.29727	0.89325	18.29727	0.42754	111.06197
790	0.41827	110.51004	0.89637	17.69204	0.89637	17.69204	0.41827	110.51004
810	0.40792	109.82838	0.89824	17.17758	0.89824	17.17758	0.40792	109.82838
830	0.39645	109.09859	0.90107	16.5971	0.90107	16.5971	0.39645	109.09859
850	0.38614	108.28602	0.90548	15.79845	0.90548	15.79845	0.38614	108.28602
870	0.37828	107.44652	0.90903	15.05313	0.90903	15.05313	0.37828	107.44652
890	0.37185	106.70294	0.91166	14.34171	0.91166	14.34171	0.37185	106.70294
910	0.36584	105.99259	0.91553	13.71802	0.91553	13.71802	0.36584	105.99259
930	0.35925	105.34101	0.91983	13.12794	0.91983	13.12794	0.35925	105.34101
950	0.35105	104.86195	0.9208	12.40935	0.9208	12.40935	0.35105	104.86195
970	0.34389	104.56932	0.9247	12.10891	0.9247	12.10891	0.34389	104.56932
990	0.3377	103.98306	0.92657	11.51604	0.92657	11.51604	0.3377	103.98306
1010	0.33066	103.08858	0.92845	10.91658	0.92845	10.91658	0.33066	103.08858
1030	0.32303	102.13311	0.9315	10.38851	0.9315	10.38851	0.32303	102.13311
1050	0.31711	101.62569	0.93609	9.80196	0.93609	9.80196	0.31711	101.62569
1070	0.31217	100.62575	0.93569	9.27265	0.93569	9.27265	0.31217	100.62575
1090	0.30804	100.11787	0.93734	8.84247	0.93734	8.84247	0.30804	100.11787
1110	0.30359	99.69075	0.93981	8.46526	0.93981	8.46526	0.30359	99.69075
1130	0.29867	99.17589	0.94213	8.06753	0.94213	8.06753	0.29867	99.17589
1150	0.2941	98.64762	0.94366	7.54836	0.94366	7.54836	0.2941	98.64762
1170	0.28897	98.4564	0.94437	6.81438	0.94437	6.81438	0.28897	98.4564
1190	0.28325	97.95831	0.94681	6.48139	0.94681	6.48139	0.28325	97.95831
1210	0.27785	97.30139	0.94975	6.17703	0.94975	6.17703	0.27785	97.30139
1230	0.27299	96.63492	0.95139	5.70212	0.95139	5.70212	0.27299	96.63492
1250	0.26825	96.10949	0.9494	5.03069	0.9494	5.03069	0.26825	96.10949
1270	0.26586	95.71403	0.95084	4.91084	0.95084	4.91084	0.26586	95.71403
1290	0.26245	95.00495	0.95303	4.36424	0.95303	4.36424	0.26245	95.00495
1310	0.25834	94.55465	0.95486	3.86032	0.95486	3.86032	0.25834	94.55465
1330	0.25421	94.40966	0.95638	3.52303	0.95638	3.52303	0.25421	94.40966
1350	0.25113	94.09058	0.95883	3.13087	0.95883	3.13087	0.25113	94.09058
1370	0.24817	93.57727	0.9588	2.47954	0.9588	2.47954	0.24817	93.57727
1390	0.24421	93.28212	0.96058	2.18577	0.96058	2.18577	0.24421	93.28212
1410	0.24019	92.9504	0.96294	1.97116	0.96294	1.97116	0.24019	92.9504
1430	0.23626	92.56455	0.96404	1.6806	0.96404	1.6806	0.23626	92.56455
1450	0.23185	92.34426	0.96142	1.28228	0.96142	1.28228	0.23185	92.34426
1470	0.22746	92.03416	0.96335	1.04747	0.96335	1.04747	0.22746	92.03416
1490	0.22387	91.62433	0.96599	0.38032	0.96599	0.38032	0.22387	91.62433
1510	0.2201	91.23903	0.96688	-0.07817	0.96688	-0.07817	0.2201	91.23903
1530	0.21625	90.84878	0.96611	-0.25951	0.96611	-0.25951	0.21625	90.84878
1550	0.21342	90.27037	0.9664	-0.66765	0.9664	-0.66765	0.21342	90.27037
1570	0.21054	89.6624	0.96679	-1.08844	0.96679	-1.08844	0.21054	89.6624
1590	0.20697	89.46394	0.96665	-1.41653	0.96665	-1.41653	0.20697	89.46394
1610	0.20408	89.32057	0.96785	-1.72452	0.96785	-1.72452	0.20408	89.32057
1630	0.20174	89.14395	0.97018	-2.05314	0.97018	-2.05314	0.20174	89.14395
1650	0.19835	89.11182	0.97129	-2.4112	0.97129	-2.4112	0.19835	89.11182
1670	0.19366	88.59586	0.97039	-2.79304	0.97039	-2.79304	0.19366	88.59586
1690	0.18904	88.03242	0.97146	-3.10292	0.97146	-3.10292	0.18904	88.03242
1710	0.18562	87.51021	0.97302	-3.36941	0.97302	-3.36941	0.18562	87.51021
1730	0.18367	86.98342	0.97468	-3.67949	0.97468	-3.67949	0.18367	86.98342
1750	0.18257	86.27177	0.97712	-4.17856	0.97712	-4.17856	0.18257	86.27177
1770	0.1801	85.56997	0.97486	-4.42152	0.97486	-4.42152	0.1801	85.56997
1790	0.1778	85.50082	0.97624	-4.68005	0.97624	-4.68005	0.1778	85.50082
1810	0.17518	85.54755	0.97617	-4.9722	0.97617	-4.9722	0.17518	85.54755
1830	0.17191	85.42891	0.97463	-5.27246	0.97463	-5.27246	0.17191	85.42891
1850	0.1678	85.0992	0.97668	-5.51179	0.97668	-5.51179	0.1678	85.0992
1870	0.16443	84.4569	0.97852	-5.82311	0.97852	-5.82311	0.16443	84.4569
1890	0.16151	83.77043	0.97871	-6.18071	0.97871	-6.18071	0.16151	83.77043
1910	0.15944	83.03898	0.97918	-6.43561	0.97918	-6.43561	0.15944	83.03898
1930	0.15821	82.28772	0.98066	-6.61737	0.98066	-6.61737	0.15821	82.28772
1950	0.15733	81.56774	0.98281	-6.93413	0.98281	-6.93413	0.15733	81.56774
1970	0.15514	81.33055	0.98194	-7.2763	0.98194	-7.2763	0.15514	81.33055
1990	0.15323	81.57029	0.97947	-7.45247	0.97947	-7.45247	0.15323	81.57029
2010	0.15116	81.71377	0.97879	-7.6981	0.97879	-7.6981	0.15116	81.71377
2030	0.14865	81.53563	0.98074	-8.06927	0.98074	-8.06927	0.14865	81.53563
2050	0.14554	81.15838	0.98359	-8.4426	0.98359	-8.4426	0.14554	81.15838
2070	0.14227	80.60451	0.98118	-8.8041	0.98118	-8.8041	0.14227	80.60451
2090	0.14046	80.13859	0.97855	-9.02392	0.97855	-9.02392	0.14046	80.13859
2110	0.1392	79.53507	0.98051	-9.38803	0.98051	-9.38803	0.1392	79.53507
2130	0.1380	78.91885	0.98511	-9.82857	0.98511	-9.82857	0.1380	78.91885
2150	0.13682	78.76526	0.98368	-9.92375	0.98368	-9.92375	0.13682	78.76526
2170	0.1348	78.93133	0.98362	-10.07459	0.98362	-10.07459	0.1348	78.93133
2190	0.13317	78.96865	0.98319	-10.40196	0.98319	-10.40196	0.13317	78.96865
2210	0.13133	78.89335	0.98258	-10.67989	0.98258	-10.67989	0.13133	78.89335
2230	0.12878	78.73981	0.98258	-10.90608	0.98258	-10.90608	0.12878	78.73981
2250	0.12517	78.56063	0.98461	-11.30192	0.98461	-11.30192	0.12517	78.56063
2270	0.12311	78.26922	0.9832	-11.50706	0.9832	-11.50706	0.12311	78.26922
2290	0.12134	77.91848	0.98438	-11.97976	0.98438	-11.97976	0.12134	77.91848
2310	0.11938	77.51882	0.98569	-12.27517	0.98569	-12.27517	0.11938	77.51882
2330	0.11723	77.13677	0.9856	-12.39686	0.9856	-12.39686	0.11723	77.13677
2350	0.11545	76.89498	0.98347	-12.79686	0.98347	-12.79686	0.11545	76.89498
2370	0.11345	76.78906	0.98626	-13.11356	0.98626	-13.11356	0.11345	76.78906
2390	0.11176	76.35265	0.98785	-13.23289	0.98785	-13.23289	0.11176	76.35265
2410	0.1099	75.99514	0.98744	-13.36314	0.98744	-13.36314	0.1099	75.99514
2430	0.10778	75.82557	0.98578	-13.60851	0.98578	-13.60851	0.10778	75.82557
2450	0.10564	75.65263	0.98519	-13.96909	0.98519	-13.96909	0.10564	75.65263
2470	0.10453	75.75021	0.98713	-14.24198	0.98713	-14.24198	0.10453	75.75021
2490	0.10286	75.51302	0.98708	-14.50041	0.98708	-14.50041	0.10286	75.51302
2510	0.10034	75.44494	0.98775	-14.74475	0.98775	-14.74475	0.10034	75.44494
2530	0.09754	75.59359	0.98936	-15.00526	0.98936	-15.00526	0.09754	75.59359
2550	0.0959	75.55028	0.98964	-15.34205	0.98964	-15.34205	0.0959	75.55028
2570	0.09381	75.59693	0.99035	-15.44801	0.99035	-15.44801	0.09381	75.59693
2590	0.09189	74.61125	0.98978	-15.82813	0.98978	-15.82813	0.09189	74.61125
2610	0.0899	73.74093	0.98893	-16.16179	0.98893	-16.16179	0.0899	73.74093
2630	0.08804	73.44828	0.98781	-16.37183	0.98781	-16.37183	0.08804	73.44828
2650	0.08697	73.51019	0.9854	-16.62446	0.9854	-16.62446	0.08697	73.51019
2670	0.08575	73.42849	0.98889	-16.84456	0.98889	-16.84456	0.08575	73.42849
2690	0.08426	73.2394	0.98856	-17.09863	0.98856	-17.09863	0.08426	73.2394
2710	0.08253	73.37691	0.98879	-17.28887	0.98879	-17.28887	0.08253	73.37691
2730	0.08053	73.68393	0.9908	-17.49467	0.9908	-17.49467	0.08053	73.68393
2750	0.07814	73.41221	0.99259	-17.97258	0.99259	-17.97258	0.07814	73.41221
2770	0.07569	72.64083	0.98928	-18.16436	0.98928	-18.16436	0.07569	72.64083
2790	0.07408	72.01142	0.99024	-18.37668	0.99024	-18.37668	0.07408	72.01142
2810	0.07304	71.51708	0.99024	-18.80944	0.99024	-18.80944	0.07304	71.51708
2830	0.07216	71.15509	0.98885	-19.3133	0.98885	-19.3133	0.07216	71.15509
2850	0.07094	70.92689	0.99047	-19.3896	0.99047	-19.3896	0.07094	70.92689
2870	0.07021	71.06631	0.99149	-19.42878	0.99149	-19.42878	0.07021	71.06631
2890	0.06839	71.89462	0.99176	-19.53691	0.99176	-19.53691	0.06839	71.89462
2910	0.06638	72.69355	0.99207	-19.80542	0.99207	-19.80542	0.06638	72.69355
2930	0.06437	72.97429	0.9921	-20.15668	0.9921	-20.15668	0.06437	72.97429
2950	0.06182	72.47745	0.99043	-20.34405	0.99043	-20.34405	0.06182	72.47745
2970	0.05959	70.68437	0.99116	-20.54222	0.99116	-20.54222	0.05959	70.68437
2990	0.05778	69.55625	0.9907	-20.78596	0.9907	-20.78596	0.05778	69.55625
3010	0.05692	69.13145	0.99122	-20.98131	0.99122	-20.98131	0.05692	69.13145
3030	0.05668	69.21334	0.9921	-21.20248	0.9921	-21.20248	0.05668	69.21334
3050	0.05591	69.37029	0.98997	-21.69186	0.98997	-21.69186	0.05591	69.37029
3070	0.05391	69.70743	0.98884	-22.18021	0.98884	-22.18021	0.05391	69.70743
3090	0.05192	70.8891	0.99418	-22.26551	0.99418	-22.26551	0.05192	70.8891
3110	0.04983	71.78261	0.9952	-22.33826	0.9952	-22.33826	0.04983	71.78261
3130	0.04761	71.65614	0.99114	-22.47542	0.99114	-22.47542	0.04761	71.65614
3150	0.0453	70.1787	0.99126	-22.44049	0.99126	-22.44049	0.0453	70.1787
3170	0.04363	68.46311	0.98984	-22.74569	0.98984	-22.74569	0.04363	68.46311
3190	0.04256	67.42593	0.98998	-23.06312	0.98998	-23.06312	0.04256	67.42593
3210	0.0420	67.3565	0.99106	-23.43192	0.99106	-23.43192	0.0420	67.3565
3230	0.04155	68.23605	0.99146	-23.76773	0.99146	-23.76773	0.04155	68.23605
3250	0.04059	69.73764	0.98852	-23.86263	0.98852	-23.86263	0.04059	69.73764
3270	0.03857	71.64485	0.99448	-24.36663	0.99448	-24.36663	0.03857	71.64485
3290	0.03611	73.50314	0.99461	-24.58855	0.99461	-24.58855	0.03611	73.50314
3310	0.03366	74.07534	0.99304	-24.75025	0.99304	-24.75025	0.03366	74.07534
3330	0.0314	72.98258	0.99302	-24.90512	0.99302	-24.90512	0.0314	72.98258
3350	0.02927	70.70432	0.99694	-24.93806	0.99694	-24.93806	0.02927	70.70432
3370	0.02762	69.00339	0.9933	-25.31799	0.9933	-25.31799	0.02762	69.00339
3390	0.02672	68.74168	0.99258	-25.63394	0.99258	-25.63394	0.02672	68.74168
3410	0.0262	69.19991	0.99253	-25.89492	0.99253	-25.89492	0.0262	69.19991
3430	0.02537	70.26204	0.99258	-26.11216	0.99258	-26.11216	0.02537	70.26204
3450	0.02315	72.41531	0.99379	-26.2991	0.99379	-26.2991	0.02315	72.41531
3470	0.02158	74.5463	0.99196	-26.69862	0.99196	-26.69862	0.02158	74.5463
3490	0.01981	75.35779	0.99117	-26.89942	0.99117	-26.89942	0.01981	75.35779
3510	0.01801	73.74881	0.99298	-27.0755	0.99298	-27.0755	0.01801	73.74881
3530	0.01629	70.57654	0.99615	-27.26997	0.99615	-27.26997	0.01629	70.57654
3550	0.0147	68.65632	0.99673	-27.39512	0.99673	-27.39512	0.0147	68.65632
3570	0.01384	70.55095	0.99303	-27.70155	0.99303	-27.70155	0.01384	70.55095
3590	0.01304	71.46769	0.99353	-27.93546	0.99353	-27.93546	0.01304	71.46769
3610	0.01189	71.81754	0.99569	-28.23586	0.99569	-28.23586	0.01189	71.81754
3630	0.01035	73.5326	0.99703	-28.53481	0.99703	-28.53481	0.01035	73.5326
3650	0.00873	80.06597	0.99519	-28.55732	0.99519	-28.55732	0.00873	80.06597
3670	0.00734	84.08693	0.99619	-28.94737	0.99619	-28.94737	0.00734	84.08693
3690	0.00607	83.10975	0.99527	-29.19089	0.99527	-29.19089	0.00607	83.10975
3710	0.00486	81.47189	0.9932	-29.41216	0.9932	-29.41216	0.00486	81.47189
3730	0.0038	83.39797	0.99169	-29.65114	0.99169	-29.65114	0.0038	83.39797
3750	0.00313	92.99985	0.99342	-29.86343	0.99342	-29.86343	0.00313	92.99985
3770	0.00343	118.78252	0.99221	-30.02415	0.99221	-30.02415	0.00343	118.78252
3790	0.00342	147.65963	0.99451	-30.38979	0.99451	-30.38979	0.00342	147.65963
3810	0.00379	168.94976	0.99457	-30.62309	0.99457	-30.62309	0.00379	168.94976
3830	0.00484	111.68574	0.99213	-30.74006	0.99213	-30.74006	0.00484	111.68574
3850	0.00649	-155.38536	0.9924	-31.11001	0.9924	-31.11001	0.00649	-155.38536
3870	0.00754	-144.71152	0.99106	-31.12376	0.99106	-31.12376	0.00754	-144.71152
3890	0.00809	-136.55598	0.99246	-31.17183	0.99246	-31.17183	0.00809	-136.55598
3910	0.00884	-132.09876	0.99421	-31.47326	0.99421	-31.47326	0.00884	-132.09876
3930	0.00988	-131.30731	0.9952	-31.93746	0.9952	-31.93746	0.00988	-131.30731
3950	0.01068	-132.93646	0.99553	-32.16419	0.99553	-32.16419	0.01068	-132.93646
3970	0.01193	-135.09474	0.99308	-32.44352	0.99308	-32.44352	0.01193	-135.09474
3990	0.01339	-135.42402	0.99249	-32.5641	0.99249	-32.5641	0.01339	-135.42402
4010	0.01503	-134.76846	0.99329	-32.75448	0.99329	-32.75448	0.01503	-134.76846
4030	0.01669	-133.47292	0.99504	-33.02335	0.99504	-33.02335	0.01669	-133.47292
4050	0.01805	-131.38295	0.99731	-33.15955	0.99731	-33.15955	0.01805	-131.38295
4070	0.01858	-129.98494	0.99616	-33.69811	0.99616	-33.69811	0.01858	-129.98494
4090	0.01925	-129.28268	0.99388	-33.88082	0.99388	-33.88082	0.01925	-129.28268
4110	0.02009	-129.46146	0.99377	-34.01781	0.99377	-34.01781	0.02009	-129.46146
4130	0.02094	-130.4563	0.99517	-34.24095	0.99517	-34.24095	0.02094	-130.4563
4150	0.02151	-131.9519	0.99338	-34.5039	0.99338	-34.5039	0.02151	-131.9519
4170	0.02306	-131.93498	0.99259	-34.69301	0.99259	-34.69301	0.02306	-131.93498
4190	0.02482	-131.96273	0.99416	-34.94573	0.99416	-34.94573	0.02482	-131.96273
4210	0.02627	-131.70461	0.99502	-35.20157	0.99502	-35.20157	0.02627	-131.70461
4230	0.0272	-130.98675	0.99479	-35.37879	0.99479	-35.37879	0.0272	-130.98675
4250	0.02775	-129.79196	0.99579	-35.37438	0.99579	-35.37438	0.02775	-129.79196
4270	0.02854	-128.23943	0.99451	-35.61706	0.99451	-35.61706	0.02854	-128.23943
4290	0.02904	-129.70089	0.99462	-35.96047	0.99462	-35.96047	0.02904	-129.70089
4310	0.02948	-131.83984	0.99519	-36.26002	0.99519	-36.26002	0.02948	-131.83984
4330	0.02998	-133.64627	0.99702	-36.53843	0.99702	-36.53843	0.02998	-133.64627
4350	0.03062	-135.43663	1.00265	-36.98569	1.00265	-36.98569	0.03062	-135.43663
4370	0.03237	-136.33115	0.99581	-37.03968	0.99581	-37.03968	0.03237	-136.33115
4390	0.03437	-136.71528	0.99318	-37.14615	0.99318	-37.14615	0.03437	-136.71528
4410	0.03593	-136.85919	0.99378	-37.3835	0.99378	-37.3835	0.03593	-136.85919
4430	0.03676	-136.53832	0.99552	-37.68764	0.99552	-37.68764	0.03676	-136.53832
4450	0.03702	-135.0334	0.99526	-37.85202	0.99526	-37.85202	0.03702	-135.0334
4470	0.03934	-134.40114	0.99574	-38.12664	0.99574	-38.12664	0.03934	-134.40114
4490	0.03967	-136.37376	0.99768	-38.33638	0.99768	-38.33638	0.03967	-136.37376
4510	0.0404	-137.21655	0.99742	-38.44712	0.99742	-38.44712	0.0404	-137.21655
4530	0.04194	-136.5392	0.99512	-38.54694	0.99512	-38.54694	0.04194	-136.5392
4550	0.04279	-137.29581	0.99484	-38.84619	0.99484	-38.84619	0.04279	-137.29581
4570	0.04464	-138.27338	0.99438	-39.0794	0.99438	-39.0794	0.04464	-138.27338
4590	0.04608	-139.08651	0.99811	-39.38083	0.99811	-39.38083	0.04608	-139.08651
4610	0.04715	-139.14771	0.99856	-39.61865	0.99856	-39.61865	0.04715	-139.14771
4630	0.04828	-138.76995	0.99538	-39.82767	0.99538	-39.82767	0.04828	-138.76995
4650	0.05027	-139.16667	0.9953	-40.20933	0.9953	-40.20933	0.05027	-139.16667
4670	0.05052	-138.50871	0.99476	-40.37936	0.99476	-40.37936	0.05052	-138.50871
4690	0.05136	-138.63826	0.99279	-40.48465	0.99279	-40.48465	0.05136	-138.63826
4710	0.05246	-139.52633	0.9925	-40.67145	0.9925	-40.67145	0.05246	-139.52633
4730	0.05347	-140.55992	0.99345	-40.9277	0.99345	-40.9277	0.05347	-140.55992
4750	0.05402	-140.54205	0.99161	-41.08308	0.99161	-41.08308	0.05402	-140.54205
4770	0.05553	-140.83332	0.99089	-41.43539	0.99089	-41.43539	0.05553	-140.83332
4790	0.05688	-141.28939	0.99267	-41.74115	0.99267	-41.74115	0.05688	-141.28939
4810	0.05811	-141.40976	0.9943	-41.90073	0.9943	-41.90073	0.05811	-141.40976
4830	0.0592	-141.22904	0.99463	-41.99641	0.99463	-41.99641	0.0592	-141.22904
4850	0.06011	-141.31691	0.99401	-42.29238	0.99401	-42.29238	0.06011	-141.31691
4870	0.06166	-141.12514	0.99422	-42.35967	0.99422	-42.35967	0.06166	-141.12514
4890	0.06255	-141.62579	0.99457	-42.58255	0.99457	-42.58255	0.06255	-141.62579
4910	0.06304	-141.62004	0.99405	-42.9221	0.99405	-42.9221	0.06304	-141.62004
4930	0.06344	-141.16843	0.99315	-43.24736	0.99315	-43.24736	0.06344	-141.16843
4950	0.06416	-141.59078	0.99388	-43.33528	0.99388	-43.33528	0.06416	-141.59078
4970	0.06467	-142.87621	0.99215	-43.37528	0.99215	-43.37528	0.06467	-142.87621
4990	0.06542	-143.50649	0.99469	-43.73555	0.99469	-43.73555	0.06542	-143.50649
5010	0.06658	-144.05682	0.99397	-43.94977	0.99397	-43.94977	0.06658	-144.05682
5030	0.0679	-144.68984	0.99009	-44.03183	0.99009	-44.03183	0.0679	-144.68984
5050	0.06869	-145.15552	0.99074	-44.47585	0.99074	-44.47585	0.06869	-145.15552
5070	0.07057	-144.54745	0.99177	-44.66285	0.99177	-44.66285	0.07057	-144.54745
5090	0.07164	-144.82112	0.99069	-44.97378	0.99069	-44.97378	0.07164	-144.82112
5110	0.07256	-145.18157	0.99037	-45.24212	0.99037	-45.24212	0.07256	-145.18157
5130	0.07339	-145.38094	0.99125	-45.40662	0.99125	-45.40662	0.07339	-145.38094
5150	0.07359	-145.71848	0.99139	-45.51133	0.99139	-45.51133	0.07359	-145.71848
5170	0.07496	-146.57869	0.99119	-45.74697	0.99119	-45.74697	0.07496	-146.57869
5190	0.07654	-146.66235	0.98884	-45.94978	0.98884	-45.94978	0.07654	-146.66235
5210	0.07778	-146.53935	0.98831	-46.18509	0.98831	-46.18509	0.07778	-146.53935
5230	0.07868	-146.59943	0.98992	-46.44995	0.98992	-46.44995	0.07868	-146.59943
5250	0.07978	-147.05227	0.9903	-46.67323	0.9903	-46.67323	0.07978	-147.05227
5270	0.08019	-146.97119	0.98972	-46.87023	0.98972	-46.87023	0.08019	-146.97119
5290	0.08084	-146.93538	0.98927	-47.17825	0.98927	-47.17825	0.08084	-146.93538
5310	0.08224	-147.13421	0.99063	-47.31667	0.99063	-47.31667	0.08224	-147.13421
5330	0.08404	-147.65696	0.99251	-47.3655	0.99251	-47.3655	0.08404	-147.65696
5350	0.08505	-148.49284	0.99071	-47.76537	0.99071	-47.76537	0.08505	-148.49284
