! Data Taken on a HP 8720C VNA using a shunt-through fixture with TRL* de-embedding
#	mhz	s	ma	r	50
50	0.96324	176.6653	0.03966	74.18518	0.03966	74.18518	0.96324	176.6653
70	0.99206	176.65781	0.05405	75.43589	0.05405	75.43589	0.99206	176.65781
90	0.9876	175.2422	0.06764	75.46371	0.06764	75.46371	0.9876	175.2422
110	0.9787	174.26937	0.08082	75.83973	0.08082	75.83973	0.9787	174.26937
130	0.97956	173.81894	0.0943	76.42834	0.0943	76.42834	0.97956	173.81894
150	0.98975	172.19919	0.10905	75.38722	0.10905	75.38722	0.98975	172.19919
170	0.97507	171.78668	0.12152	75.19647	0.12152	75.19647	0.97507	171.78668
190	0.97465	171.00821	0.13493	74.52988	0.13493	74.52988	0.97465	171.00821
210	0.973	169.9037	0.14797	73.54474	0.14797	73.54474	0.973	169.9037
230	0.96688	168.80202	0.16033	72.709	0.16033	72.709	0.96688	168.80202
250	0.9653	168.32097	0.17267	72.80123	0.17267	72.80123	0.9653	168.32097
270	0.96633	167.23585	0.18778	71.60561	0.18778	71.60561	0.96633	167.23585
290	0.95631	166.14942	0.19951	70.71006	0.19951	70.71006	0.95631	166.14942
310	0.95005	165.3734	0.2116	70.31821	0.2116	70.31821	0.95005	165.3734
330	0.95105	164.61299	0.22512	70.03316	0.22512	70.03316	0.95105	164.61299
350	0.9515	162.96685	0.23851	68.85749	0.23851	68.85749	0.9515	162.96685
370	0.94271	162.52693	0.24904	68.33811	0.24904	68.33811	0.94271	162.52693
390	0.9426	161.90546	0.26176	67.58093	0.26176	67.58093	0.9426	161.90546
410	0.94054	160.88149	0.27421	66.57439	0.27421	66.57439	0.94054	160.88149
430	0.93417	159.76847	0.28563	65.64632	0.28563	65.64632	0.93417	159.76847
450	0.9293	159.41423	0.29701	65.46396	0.29701	65.46396	0.9293	159.41423
470	0.92813	158.47167	0.30976	64.48545	0.30976	64.48545	0.92813	158.47167
490	0.91891	155.90426	0.33925	62.77223	0.33925	62.77223	0.91891	155.90426
510	0.91053	153.89449	0.36386	61.55048	0.36386	61.55048	0.91053	153.89449
530	0.90695	153.00926	0.37721	61.03013	0.37721	61.03013	0.90695	153.00926
550	0.9073	152.19981	0.38818	60.40485	0.38818	60.40485	0.9073	152.19981
570	0.90598	151.6756	0.39759	59.5445	0.39759	59.5445	0.90598	151.6756
590	0.89973	150.80067	0.40683	58.81371	0.40683	58.81371	0.89973	150.80067
610	0.89222	149.86632	0.41649	58.04869	0.41649	58.04869	0.89222	149.86632
630	0.88618	149.03385	0.42718	57.23058	0.42718	57.23058	0.88618	149.03385
650	0.88334	148.33453	0.43946	56.48539	0.43946	56.48539	0.88334	148.33453
670	0.87359	147.22701	0.44775	55.37811	0.44775	55.37811	0.87359	147.22701
690	0.86987	146.52617	0.45734	54.79546	0.45734	54.79546	0.86987	146.52617
710	0.86934	145.67882	0.46813	54.12873	0.46813	54.12873	0.86934	145.67882
730	0.86723	144.65136	0.47849	53.21171	0.47849	53.21171	0.86723	144.65136
750	0.85679	143.92971	0.48519	52.32067	0.48519	52.32067	0.85679	143.92971
770	0.85686	143.63578	0.49674	51.62024	0.49674	51.62024	0.85686	143.63578
790	0.85247	142.74304	0.50482	50.82738	0.50482	50.82738	0.85247	142.74304
810	0.84318	141.9902	0.51139	50.1317	0.51139	50.1317	0.84318	141.9902
830	0.83219	141.47869	0.51879	49.44062	0.51879	49.44062	0.83219	141.47869
850	0.82632	140.67263	0.52972	48.37934	0.52972	48.37934	0.82632	140.67263
870	0.82143	139.52992	0.53749	47.55951	0.53749	47.55951	0.82143	139.52992
890	0.81387	138.79903	0.54484	47.00111	0.54484	47.00111	0.81387	138.79903
910	0.80841	138.05081	0.55405	46.45145	0.55405	46.45145	0.80841	138.05081
930	0.80442	137.16897	0.56371	45.72344	0.56371	45.72344	0.80442	137.16897
950	0.79591	136.35006	0.56862	44.69559	0.56862	44.69559	0.79591	136.35006
970	0.79152	136.01337	0.579	44.30814	0.579	44.30814	0.79152	136.01337
990	0.78794	135.27827	0.58572	43.68723	0.58572	43.68723	0.78794	135.27827
1010	0.78166	134.46163	0.59188	42.95688	0.59188	42.95688	0.78166	134.46163
1030	0.77347	133.72737	0.59876	42.23776	0.59876	42.23776	0.77347	133.72737
1050	0.76841	133.08651	0.60586	41.6472	0.60586	41.6472	0.76841	133.08651
1070	0.76147	132.16068	0.61276	41.00257	0.61276	41.00257	0.76147	132.16068
1090	0.75616	131.33189	0.61966	40.35766	0.61966	40.35766	0.75616	131.33189
1110	0.75181	130.57845	0.62588	39.66914	0.62588	39.66914	0.75181	130.57845
1130	0.74776	129.90938	0.63133	38.93975	0.63133	38.93975	0.74776	129.90938
1150	0.74339	129.36438	0.63649	38.21833	0.63649	38.21833	0.74339	129.36438
1170	0.73859	128.676	0.64373	37.63235	0.64373	37.63235	0.73859	128.676
1190	0.7328	128.1147	0.64928	37.11918	0.64928	37.11918	0.7328	128.1147
1210	0.72727	127.54461	0.6558	36.65319	0.6558	36.65319	0.72727	127.54461
1230	0.72187	126.83455	0.66259	36.14635	0.66259	36.14635	0.72187	126.83455
1250	0.71509	125.85803	0.66569	35.44821	0.66569	35.44821	0.71509	125.85803
1270	0.70898	125.48222	0.66969	35.13161	0.66969	35.13161	0.70898	125.48222
1290	0.7067	124.7781	0.67716	34.3153	0.67716	34.3153	0.7067	124.7781
1310	0.70233	123.98101	0.68389	33.54744	0.68389	33.54744	0.70233	123.98101
1330	0.69561	123.29857	0.68852	33.05209	0.68852	33.05209	0.69561	123.29857
1350	0.69187	122.91061	0.69246	32.72916	0.69246	32.72916	0.69187	122.91061
1370	0.69162	122.03549	0.70097	31.93988	0.70097	31.93988	0.69162	122.03549
1390	0.68612	121.48262	0.70463	31.51572	0.70463	31.51572	0.68612	121.48262
1410	0.68153	121.03862	0.7087	31.08665	0.7087	31.08665	0.68153	121.03862
1430	0.67831	120.56714	0.71377	30.55554	0.71377	30.55554	0.67831	120.56714
1450	0.67115	120.00889	0.71577	30.09818	0.71577	30.09818	0.67115	120.00889
1470	0.66469	119.52372	0.71952	29.74233	0.71952	29.74233	0.66469	119.52372
1490	0.66103	118.80616	0.72581	29.01637	0.72581	29.01637	0.66103	118.80616
1510	0.65537	118.15518	0.73082	28.26458	0.73082	28.26458	0.65537	118.15518
1530	0.64816	117.653	0.73403	27.70497	0.73403	27.70497	0.64816	117.653
1550	0.6451	117.16508	0.73827	27.42938	0.73827	27.42938	0.6451	117.16508
1570	0.64223	116.57584	0.74305	27.02118	0.74305	27.02118	0.64223	116.57584
1590	0.63795	115.84381	0.74514	26.57582	0.74514	26.57582	0.63795	115.84381
1610	0.63343	115.27795	0.74802	26.0404	0.74802	26.0404	0.63343	115.27795
1630	0.62943	114.93298	0.75233	25.48239	0.75233	25.48239	0.62943	114.93298
1650	0.62628	114.60939	0.75582	25.08957	0.75582	25.08957	0.62628	114.60939
1670	0.61938	114.00265	0.76049	24.57764	0.76049	24.57764	0.61938	114.00265
1690	0.61231	113.31607	0.76373	24.03679	0.76373	24.03679	0.61231	113.31607
1710	0.60627	112.75684	0.76706	23.5929	0.76706	23.5929	0.60627	112.75684
1730	0.60279	112.25117	0.77158	23.19834	0.77158	23.19834	0.60279	112.25117
1750	0.60368	111.44427	0.77799	22.63197	0.77799	22.63197	0.60368	111.44427
1770	0.59818	110.78718	0.77805	22.07435	0.77805	22.07435	0.59818	110.78718
1790	0.5964	110.56982	0.78095	21.89912	0.78095	21.89912	0.5964	110.56982
1810	0.59395	110.28668	0.78468	21.48874	0.78468	21.48874	0.59395	110.28668
1830	0.58856	109.81181	0.78783	20.8549	0.78783	20.8549	0.58856	109.81181
1850	0.58005	109.39873	0.78963	20.63846	0.78963	20.63846	0.58005	109.39873
1870	0.57588	108.96014	0.79423	20.09374	0.79423	20.09374	0.57588	108.96014
1890	0.57158	108.30984	0.79887	19.53097	0.79887	19.53097	0.57158	108.30984
1910	0.5675	107.69588	0.80169	19.09392	0.80169	19.09392	0.5675	107.69588
1930	0.56402	107.16519	0.80359	18.8052	0.80359	18.8052	0.56402	107.16519
1950	0.56148	106.56353	0.80817	18.56631	0.80817	18.56631	0.56148	106.56353
1970	0.5586	105.9254	0.80888	17.99976	0.80888	17.99976	0.5586	105.9254
1990	0.5565	105.52004	0.80891	17.65456	0.80891	17.65456	0.5565	105.52004
2010	0.55329	105.29097	0.81143	17.35303	0.81143	17.35303	0.55329	105.29097
2030	0.54891	105.07229	0.81632	16.95182	0.81632	16.95182	0.54891	105.07229
2050	0.5451	104.58862	0.82018	16.3419	0.82018	16.3419	0.5451	104.58862
2070	0.53986	103.94324	0.82149	15.7806	0.82149	15.7806	0.53986	103.94324
2090	0.53536	103.47115	0.8196	15.55314	0.8196	15.55314	0.53536	103.47115
2110	0.53282	103.04532	0.82219	15.20563	0.82219	15.20563	0.53282	103.04532
2130	0.5311	102.61359	0.82868	14.68411	0.82868	14.68411	0.5311	102.61359
2150	0.52672	102.19863	0.83029	14.33453	0.83029	14.33453	0.52672	102.19863
2170	0.5234	101.88613	0.83089	14.09304	0.83089	14.09304	0.5234	101.88613
2190	0.52194	101.57583	0.83454	13.60002	0.83454	13.60002	0.52194	101.57583
2210	0.51899	101.13085	0.83658	13.17295	0.83658	13.17295	0.51899	101.13085
2230	0.51431	100.63945	0.83703	12.87933	0.83703	12.87933	0.51431	100.63945
2250	0.51083	100.41506	0.8406	12.5367	0.8406	12.5367	0.51083	100.41506
2270	0.50776	99.98535	0.84533	12.12567	0.84533	12.12567	0.50776	99.98535
2290	0.50397	99.55005	0.84547	11.62192	0.84547	11.62192	0.50397	99.55005
2310	0.5008	99.29926	0.84623	11.29792	0.84623	11.29792	0.5008	99.29926
2330	0.49846	99.0528	0.84875	11.07138	0.84875	11.07138	0.49846	99.0528
2350	0.49599	98.26023	0.85013	10.50518	0.85013	10.50518	0.49599	98.26023
2370	0.49103	98.01274	0.85179	10.08241	0.85179	10.08241	0.49103	98.01274
2390	0.48829	97.80692	0.85492	9.90886	0.85492	9.90886	0.48829	97.80692
2410	0.48528	97.50509	0.85759	9.6363	0.85759	9.6363	0.48528	97.50509
2430	0.48186	97.08031	0.85946	9.14257	0.85946	9.14257	0.48186	97.08031
2450	0.48033	96.61637	0.86171	8.53157	0.86171	8.53157	0.48033	96.61637
2470	0.47652	96.30545	0.86435	8.45304	0.86435	8.45304	0.47652	96.30545
2490	0.47247	95.99412	0.86551	8.09189	0.86551	8.09189	0.47247	95.99412
2510	0.46913	95.7183	0.86705	7.76463	0.86705	7.76463	0.46913	95.7183
2530	0.46654	95.50492	0.86827	7.53539	0.86827	7.53539	0.46654	95.50492
2550	0.46386	95.37189	0.8659	7.21594	0.8659	7.21594	0.46386	95.37189
2570	0.46192	94.93652	0.87387	6.85062	0.87387	6.85062	0.46192	94.93652
2590	0.45923	94.69914	0.87447	6.41963	0.87447	6.41963	0.45923	94.69914
2610	0.45531	94.28839	0.87488	5.95833	0.87488	5.95833	0.45531	94.28839
2630	0.45106	93.75096	0.87665	5.53745	0.87665	5.53745	0.45106	93.75096
2650	0.4488	93.55155	0.87564	5.26313	0.87564	5.26313	0.4488	93.55155
2670	0.4462	93.41657	0.87837	4.89208	0.87837	4.89208	0.4462	93.41657
2690	0.44512	93.21485	0.87999	4.5743	0.87999	4.5743	0.44512	93.21485
2710	0.44392	93.06102	0.88187	4.29818	0.88187	4.29818	0.44392	93.06102
2730	0.44099	92.89826	0.88424	4.02722	0.88424	4.02722	0.44099	92.89826
2750	0.43477	92.49829	0.88622	3.70002	0.88622	3.70002	0.43477	92.49829
2770	0.4268	92.29635	0.88557	3.34662	0.88557	3.34662	0.4268	92.29635
2790	0.42547	91.8123	0.88658	2.94966	0.88658	2.94966	0.42547	91.8123
2810	0.42504	91.33241	0.88796	2.53417	0.88796	2.53417	0.42504	91.33241
2830	0.42306	90.96709	0.88949	2.13322	0.88949	2.13322	0.42306	90.96709
2850	0.42039	90.65094	0.89204	1.78795	0.89204	1.78795	0.42039	90.65094
2870	0.41769	90.40189	0.8932	1.60551	0.8932	1.60551	0.41769	90.40189
2890	0.4167	90.62581	0.8952	1.43281	0.8952	1.43281	0.4167	90.62581
2910	0.41535	90.69286	0.89798	1.08305	0.89798	1.08305	0.41535	90.69286
2930	0.41216	90.45617	0.89981	0.62946	0.89981	0.62946	0.41216	90.45617
2950	0.40618	90.25183	0.89724	0.40535	0.89724	0.40535	0.40618	90.25183
2970	0.40331	89.79325	0.89893	0.19306	0.89893	0.19306	0.40331	89.79325
2990	0.40024	89.35958	0.90131	-0.19507	0.90131	-0.19507	0.40024	89.35958
3010	0.39808	88.96424	0.90232	-0.49613	0.90232	-0.49613	0.39808	88.96424
3030	0.39691	88.60134	0.90221	-0.72934	0.90221	-0.72934	0.39691	88.60134
3050	0.39575	88.24569	0.90355	-1.19603	0.90355	-1.19603	0.39575	88.24569
3070	0.39113	88.058	0.90452	-1.55664	0.90452	-1.55664	0.39113	88.058
3090	0.38933	88.07525	0.90951	-2.02123	0.90951	-2.02123	0.38933	88.07525
3110	0.38655	88.09095	0.91072	-2.35208	0.91072	-2.35208	0.38655	88.09095
3130	0.38261	88.04228	0.90843	-2.47757	0.90843	-2.47757	0.38261	88.04228
3150	0.381	88.01012	0.91096	-2.49222	0.91096	-2.49222	0.381	88.01012
3170	0.37656	87.43285	0.91497	-3.00266	0.91497	-3.00266	0.37656	87.43285
3190	0.37308	86.87812	0.91217	-3.3941	0.91217	-3.3941	0.37308	86.87812
3210	0.37226	86.45471	0.9123	-3.72555	0.9123	-3.72555	0.37226	86.45471
3230	0.37275	86.27354	0.91563	-4.01831	0.91563	-4.01831	0.37275	86.27354
3250	0.37014	86.44768	0.91292	-4.25592	0.91292	-4.25592	0.37014	86.44768
3270	0.36919	86.37206	0.91791	-4.82058	0.91791	-4.82058	0.36919	86.37206
3290	0.36538	86.20274	0.91962	-5.08174	0.91962	-5.08174	0.36538	86.20274
3310	0.36107	85.99641	0.91944	-5.27462	0.91944	-5.27462	0.36107	85.99641
3330	0.35773	85.83235	0.92018	-5.49438	0.92018	-5.49438	0.35773	85.83235
3350	0.35585	85.81233	0.92611	-5.69613	0.92611	-5.69613	0.35585	85.81233
3370	0.35348	85.08408	0.92371	-6.0355	0.92371	-6.0355	0.35348	85.08408
3390	0.35054	84.66248	0.92439	-6.4541	0.92439	-6.4541	0.35054	84.66248
3410	0.34875	84.51921	0.92437	-6.74328	0.92437	-6.74328	0.34875	84.51921
3430	0.3475	84.55048	0.92423	-6.94153	0.92423	-6.94153	0.3475	84.55048
3450	0.3439	84.57702	0.92896	-7.33443	0.92896	-7.33443	0.3439	84.57702
3470	0.34133	84.18944	0.92862	-7.83717	0.92862	-7.83717	0.34133	84.18944
3490	0.33893	84.20371	0.92886	-8.1084	0.92886	-8.1084	0.33893	84.20371
3510	0.33634	84.02091	0.9293	-8.23679	0.9293	-8.23679	0.33634	84.02091
3530	0.33375	83.52257	0.93049	-8.39826	0.93049	-8.39826	0.33375	83.52257
3550	0.33188	83.0707	0.93386	-8.85592	0.93386	-8.85592	0.33188	83.0707
3570	0.32905	83.06658	0.93029	-9.08074	0.93029	-9.08074	0.32905	83.06658
3590	0.3264	82.7977	0.9338	-9.29332	0.9338	-9.29332	0.3264	82.7977
3610	0.32462	82.51779	0.93792	-9.72853	0.93792	-9.72853	0.32462	82.51779
3630	0.32337	82.38821	0.93871	-10.21611	0.93871	-10.21611	0.32337	82.38821
3650	0.32125	82.47801	0.93476	-10.1807	0.93476	-10.1807	0.32125	82.47801
3670	0.3192	82.21685	0.93809	-10.57744	0.93809	-10.57744	0.3192	82.21685
3690	0.3155	82.06778	0.93763	-10.80666	0.93763	-10.80666	0.3155	82.06778
3710	0.3127	81.81533	0.93562	-11.09935	0.93562	-11.09935	0.3127	81.81533
3730	0.3114	81.45784	0.9352	-11.48449	0.9352	-11.48449	0.3114	81.45784
3750	0.31026	81.20756	0.94043	-11.78907	0.94043	-11.78907	0.31026	81.20756
3770	0.30681	81.07981	0.93842	-12.01591	0.93842	-12.01591	0.30681	81.07981
3790	0.30494	81.07053	0.94311	-12.31844	0.94311	-12.31844	0.30494	81.07053
3810	0.30348	80.95203	0.94467	-12.56568	0.94467	-12.56568	0.30348	80.95203
3830	0.30118	80.65439	0.9419	-12.77274	0.9419	-12.77274	0.30118	80.65439
3850	0.29672	80.26545	0.94219	-13.10089	0.94219	-13.10089	0.29672	80.26545
3870	0.29398	80.06218	0.94237	-13.50717	0.94237	-13.50717	0.29398	80.06218
3890	0.29299	79.80048	0.94534	-13.6799	0.94534	-13.6799	0.29299	79.80048
3910	0.29153	79.48459	0.94788	-13.97534	0.94788	-13.97534	0.29153	79.48459
3930	0.28938	79.13078	0.94869	-14.4318	0.94869	-14.4318	0.28938	79.13078
3950	0.28827	78.76739	0.94833	-14.76965	0.94833	-14.76965	0.28827	78.76739
3970	0.28551	78.9627	0.94723	-14.93389	0.94723	-14.93389	0.28551	78.9627
3990	0.28359	78.80046	0.9483	-15.06317	0.9483	-15.06317	0.28359	78.80046
4010	0.28156	78.6253	0.94977	-15.26661	0.94977	-15.26661	0.28156	78.6253
4030	0.27904	78.4288	0.95087	-15.58732	0.95087	-15.58732	0.27904	78.4288
4050	0.27621	77.84953	0.9518	-16.00243	0.9518	-16.00243	0.27621	77.84953
4070	0.27415	77.61561	0.94972	-16.58839	0.94972	-16.58839	0.27415	77.61561
4090	0.27374	77.13361	0.9507	-16.69154	0.9507	-16.69154	0.27374	77.13361
4110	0.27279	76.73202	0.95333	-16.86751	0.95333	-16.86751	0.27279	76.73202
4130	0.27041	76.5363	0.9547	-17.26255	0.9547	-17.26255	0.27041	76.5363
4150	0.26699	76.46886	0.95044	-17.61347	0.95044	-17.61347	0.26699	76.46886
4170	0.26648	76.52844	0.9545	-17.75122	0.9545	-17.75122	0.26648	76.52844
4190	0.26499	76.35842	0.95672	-17.98606	0.95672	-17.98606	0.26499	76.35842
4210	0.26275	76.06674	0.95591	-18.275	0.95591	-18.275	0.26275	76.06674
4230	0.26059	75.80751	0.95438	-18.49179	0.95438	-18.49179	0.26059	75.80751
4250	0.25992	75.78102	0.95793	-18.42687	0.95793	-18.42687	0.25992	75.78102
4270	0.25614	75.53768	0.95653	-18.90891	0.95653	-18.90891	0.25614	75.53768
4290	0.25531	75.13279	0.958	-19.28149	0.958	-19.28149	0.25531	75.13279
4310	0.25484	74.69777	0.96096	-19.61484	0.96096	-19.61484	0.25484	74.69777
4330	0.254	74.35037	0.96417	-19.96952	0.96417	-19.96952	0.254	74.35037
4350	0.25389	74.19461	0.96654	-20.3964	0.96654	-20.3964	0.25389	74.19461
4370	0.25117	74.32577	0.96266	-20.51663	0.96266	-20.51663	0.25117	74.32577
4390	0.24865	74.42635	0.9613	-20.62423	0.9613	-20.62423	0.24865	74.42635
4410	0.24642	74.42872	0.96105	-20.86733	0.96105	-20.86733	0.24642	74.42872
4430	0.24447	74.19205	0.96152	-21.24499	0.96152	-21.24499	0.24447	74.19205
4450	0.24266	73.50229	0.96332	-21.60726	0.96332	-21.60726	0.24266	73.50229
4470	0.23974	73.63705	0.96406	-21.74911	0.96406	-21.74911	0.23974	73.63705
4490	0.23883	73.43107	0.96473	-21.99231	0.96473	-21.99231	0.23883	73.43107
4510	0.23766	73.15936	0.96669	-22.31532	0.96669	-22.31532	0.23766	73.15936
4530	0.2356	72.94479	0.96787	-22.62689	0.96787	-22.62689	0.2356	72.94479
4550	0.23361	72.75805	0.96276	-22.766	0.96276	-22.766	0.23361	72.75805
4570	0.2325	72.74852	0.96744	-22.96947	0.96744	-22.96947	0.2325	72.74852
4590	0.23007	72.42928	0.97115	-23.42664	0.97115	-23.42664	0.23007	72.42928
4610	0.22718	72.2837	0.96959	-23.74888	0.96959	-23.74888	0.22718	72.2837
4630	0.22498	72.25736	0.96527	-23.92376	0.96527	-23.92376	0.22498	72.25736
4650	0.22491	71.75804	0.96744	-24.31502	0.96744	-24.31502	0.22491	71.75804
4670	0.22181	71.09131	0.96608	-24.64437	0.96608	-24.64437	0.22181	71.09131
4690	0.21979	70.92403	0.96518	-24.78888	0.96518	-24.78888	0.21979	70.92403
4710	0.21868	70.90758	0.9662	-24.96888	0.9662	-24.96888	0.21868	70.90758
4730	0.21796	70.78363	0.96843	-25.27618	0.96843	-25.27618	0.21796	70.78363
4750	0.21681	70.38415	0.96895	-25.67406	0.96895	-25.67406	0.21681	70.38415
4770	0.21483	70.49711	0.96732	-25.96825	0.96732	-25.96825	0.21483	70.49711
4790	0.21221	70.1803	0.96873	-26.34269	0.96873	-26.34269	0.21221	70.1803
4810	0.2095	69.92107	0.97184	-26.48685	0.97184	-26.48685	0.2095	69.92107
4830	0.2075	69.73866	0.97469	-26.54628	0.97469	-26.54628	0.2075	69.73866
4850	0.20722	69.18422	0.97471	-27.12263	0.97471	-27.12263	0.20722	69.18422
4870	0.20494	68.96261	0.97334	-27.10734	0.97334	-27.10734	0.20494	68.96261
4890	0.20288	68.79132	0.97398	-27.23729	0.97398	-27.23729	0.20288	68.79132
4910	0.20164	68.44593	0.97272	-27.53732	0.97272	-27.53732	0.20164	68.44593
4930	0.20124	68.0177	0.97124	-27.87016	0.97124	-27.87016	0.20124	68.0177
4950	0.20108	67.91359	0.97684	-27.93645	0.97684	-27.93645	0.20108	67.91359
4970	0.19831	67.69863	0.97376	-28.27911	0.97376	-28.27911	0.19831	67.69863
4990	0.19676	67.64544	0.97268	-28.6719	0.97268	-28.6719	0.19676	67.64544
5010	0.19545	67.70286	0.97271	-28.89701	0.97271	-28.89701	0.19545	67.70286
5030	0.19379	67.65026	0.97373	-29.0497	0.97373	-29.0497	0.19379	67.65026
5050	0.19154	67.09749	0.97643	-29.53831	0.97643	-29.53831	0.19154	67.09749
5070	0.18911	66.83212	0.97358	-29.69643	0.97358	-29.69643	0.18911	66.83212
5090	0.1879	66.6832	0.97223	-29.97792	0.97223	-29.97792	0.1879	66.6832
5110	0.1872	66.43705	0.97458	-30.22099	0.97458	-30.22099	0.1872	66.43705
5130	0.18629	66.13418	0.97803	-30.41279	0.97803	-30.41279	0.18629	66.13418
5150	0.18448	66.06927	0.97517	-30.68946	0.97517	-30.68946	0.18448	66.06927
5170	0.1821	66.32458	0.97547	-30.88111	0.97547	-30.88111	0.1821	66.32458
5190	0.18064	66.23629	0.97594	-31.15094	0.97594	-31.15094	0.18064	66.23629
5210	0.17886	65.92966	0.97515	-31.47754	0.97515	-31.47754	0.17886	65.92966
5230	0.17636	65.59143	0.97354	-31.79711	0.97354	-31.79711	0.17636	65.59143
5250	0.17364	65.46979	0.97345	-32.00348	0.97345	-32.00348	0.17364	65.46979
5270	0.17349	64.90956	0.97683	-32.29513	0.97683	-32.29513	0.17349	64.90956
5290	0.17182	64.47029	0.97592	-32.69855	0.97592	-32.69855	0.17182	64.47029
5310	0.17065	64.47353	0.97543	-32.87413	0.97543	-32.87413	0.17065	64.47353
5330	0.1703	64.68466	0.97698	-32.86869	0.97698	-32.86869	0.1703	64.68466
5350	0.16945	64.31295	0.9791	-33.1155	0.9791	-33.1155	0.16945	64.31295
5370	0.16574	64.1562	0.97965	-33.54783	0.97965	-33.54783	0.16574	64.1562
5390	0.16308	64.26991	0.98117	-33.77685	0.98117	-33.77685	0.16308	64.26991
5410	0.16158	64.34572	0.98141	-34.07009	0.98141	-34.07009	0.16158	64.34572
5430	0.16044	64.11465	0.9804	-34.40594	0.9804	-34.40594	0.16044	64.11465
5450	0.158	63.3471	0.9804	-34.47362	0.9804	-34.47362	0.158	63.3471
5470	0.15675	63.31541	0.98033	-34.67909	0.98033	-34.67909	0.15675	63.31541
