! Data Taken on a HP 8720C VNA using a shunt-through fixture with TRL* de-embedding
#	mhz	s	ma	r	50
50	0.96012	176.79128	0.04654	76.3533	0.04654	76.3533	0.96012	176.79128
70	0.99352	175.93995	0.06373	76.19752	0.06373	76.19752	0.99352	175.93995
90	0.9882	174.29042	0.08181	75.36041	0.08181	75.36041	0.9882	174.29042
110	0.97675	173.1797	0.09852	75.055	0.09852	75.055	0.97675	173.1797
130	0.975	172.49354	0.1141	75.11167	0.1141	75.11167	0.975	172.49354
150	0.98206	170.66647	0.13127	73.97822	0.13127	73.97822	0.98206	170.66647
170	0.97011	170.19796	0.14603	73.84008	0.14603	73.84008	0.97011	170.19796
190	0.96731	169.19002	0.1625	73.12664	0.1625	73.12664	0.96731	169.19002
210	0.96462	167.83604	0.17828	72.20969	0.17828	72.20969	0.96462	167.83604
230	0.95855	166.59869	0.19295	71.38722	0.19295	71.38722	0.95855	166.59869
250	0.95112	166.20988	0.20808	70.88345	0.20808	70.88345	0.95112	166.20988
270	0.95558	164.82026	0.22602	69.72901	0.22602	69.72901	0.95558	164.82026
290	0.94547	163.44091	0.24026	68.52163	0.24026	68.52163	0.94547	163.44091
310	0.9386	162.33782	0.25418	67.90742	0.25418	67.90742	0.9386	162.33782
330	0.93864	161.30908	0.26907	67.57638	0.26907	67.57638	0.93864	161.30908
350	0.93509	159.68492	0.28414	66.26245	0.28414	66.26245	0.93509	159.68492
370	0.92425	159.14446	0.29668	65.68149	0.29668	65.68149	0.92425	159.14446
390	0.92358	158.24908	0.31201	64.78038	0.31201	64.78038	0.92358	158.24908
410	0.9224	157.13115	0.32655	63.62908	0.32655	63.62908	0.9224	157.13115
430	0.91682	156.05841	0.33958	62.5703	0.33958	62.5703	0.91682	156.05841
450	0.90971	155.43388	0.35321	62.21944	0.35321	62.21944	0.90971	155.43388
470	0.90394	154.19865	0.36819	60.92112	0.36819	60.92112	0.90394	154.19865
490	0.89187	151.3425	0.40094	59.13249	0.40094	59.13249	0.89187	151.3425
510	0.88286	149.07936	0.42689	57.7918	0.42689	57.7918	0.88286	149.07936
530	0.87911	148.00786	0.44029	57.0747	0.44029	57.0747	0.87911	148.00786
550	0.87567	147.11132	0.45428	56.39427	0.45428	56.39427	0.87567	147.11132
570	0.87072	146.29619	0.46454	55.35663	0.46454	55.35663	0.87072	146.29619
590	0.86379	145.47513	0.47473	54.49947	0.47473	54.49947	0.86379	145.47513
610	0.85622	144.55171	0.48591	53.65074	0.48591	53.65074	0.85622	144.55171
630	0.84923	143.55141	0.49804	52.76894	0.49804	52.76894	0.84923	143.55141
650	0.84393	142.62165	0.51001	51.9431	0.51001	51.9431	0.84393	142.62165
670	0.83384	141.40465	0.5199	50.70462	0.5199	50.70462	0.83384	141.40465
690	0.82876	140.45514	0.5271	49.92684	0.5271	49.92684	0.82876	140.45514
710	0.82623	139.54596	0.53768	49.22062	0.53768	49.22062	0.82623	139.54596
730	0.82261	138.63791	0.55028	48.41689	0.55028	48.41689	0.82261	138.63791
750	0.81307	137.87979	0.55609	47.56662	0.55609	47.56662	0.81307	137.87979
770	0.809	137.20813	0.56884	46.71177	0.56884	46.71177	0.809	137.20813
790	0.80236	136.40969	0.57808	45.92674	0.57808	45.92674	0.80236	136.40969
810	0.79262	135.70973	0.58561	45.2639	0.58561	45.2639	0.79262	135.70973
830	0.78216	135.05163	0.59353	44.56542	0.59353	44.56542	0.78216	135.05163
850	0.77628	134.09689	0.60428	43.46323	0.60428	43.46323	0.77628	134.09689
870	0.76498	132.95525	0.61077	42.55984	0.61077	42.55984	0.76498	132.95525
890	0.75759	132.19309	0.61695	41.96544	0.61695	41.96544	0.75759	132.19309
910	0.75254	131.41	0.62651	41.29608	0.62651	41.29608	0.75254	131.41
930	0.74704	130.46423	0.63706	40.42519	0.63706	40.42519	0.74704	130.46423
950	0.73708	129.47268	0.6402	39.4835	0.6402	39.4835	0.73708	129.47268
970	0.73246	129.10737	0.65083	38.96495	0.65083	38.96495	0.73246	129.10737
990	0.72719	128.34792	0.65809	38.21528	0.65809	38.21528	0.72719	128.34792
1010	0.71989	127.52104	0.66438	37.52526	0.66438	37.52526	0.71989	127.52104
1030	0.71167	126.75804	0.67099	36.92862	0.67099	36.92862	0.71167	126.75804
1050	0.70614	125.99479	0.67806	36.20199	0.67806	36.20199	0.70614	125.99479
1070	0.69814	124.97643	0.68271	35.39186	0.68271	35.39186	0.69814	124.97643
1090	0.69284	124.1626	0.68992	34.90659	0.68992	34.90659	0.69284	124.1626
1110	0.68691	123.41477	0.69695	34.36856	0.69695	34.36856	0.68691	123.41477
1130	0.6803	122.68344	0.70228	33.65466	0.70228	33.65466	0.6803	122.68344
1150	0.67623	122.00812	0.70568	32.89631	0.70568	32.89631	0.67623	122.00812
1170	0.67193	121.26525	0.71437	32.33297	0.71437	32.33297	0.67193	121.26525
1190	0.66435	120.61096	0.71908	31.81332	0.71908	31.81332	0.66435	120.61096
1210	0.65798	119.99776	0.72503	31.30557	0.72503	31.30557	0.65798	119.99776
1230	0.65277	119.29384	0.73183	30.69499	0.73183	30.69499	0.65277	119.29384
1250	0.64413	118.28311	0.73356	29.78391	0.73356	29.78391	0.64413	118.28311
1270	0.6397	118.02944	0.73787	29.59725	0.73787	29.59725	0.6397	118.02944
1290	0.63687	117.10699	0.74451	28.87438	0.74451	28.87438	0.63687	117.10699
1310	0.63188	116.22238	0.74995	28.19228	0.74995	28.19228	0.63188	116.22238
1330	0.62485	115.6034	0.75416	27.72498	0.75416	27.72498	0.62485	115.6034
1350	0.61974	114.999	0.76065	27.24356	0.76065	27.24356	0.61974	114.999
1370	0.61828	114.14129	0.76697	26.46796	0.76697	26.46796	0.61828	114.14129
1390	0.61361	113.67057	0.76943	26.03553	0.76943	26.03553	0.61361	113.67057
1410	0.60876	113.27193	0.77317	25.64445	0.77317	25.64445	0.60876	113.27193
1430	0.60434	112.74778	0.77827	25.16975	0.77827	25.16975	0.60434	112.74778
1450	0.59856	112.01785	0.77975	24.66332	0.77975	24.66332	0.59856	112.01785
1470	0.59141	111.48345	0.78295	24.22697	0.78295	24.22697	0.59141	111.48345
1490	0.58615	110.87294	0.78915	23.50757	0.78915	23.50757	0.58615	110.87294
1510	0.58066	110.30424	0.79312	22.85034	0.79312	22.85034	0.58066	110.30424
1530	0.57531	109.74413	0.79477	22.35556	0.79477	22.35556	0.57531	109.74413
1550	0.57296	109.0082	0.79913	21.87861	0.79913	21.87861	0.57296	109.0082
1570	0.56797	108.43408	0.80327	21.36406	0.80327	21.36406	0.56797	108.43408
1590	0.56284	107.74651	0.80668	20.80075	0.80668	20.80075	0.56284	107.74651
1610	0.55782	107.14843	0.80977	20.37194	0.80977	20.37194	0.55782	107.14843
1630	0.55309	106.74781	0.81229	20.04887	0.81229	20.04887	0.55309	106.74781
1650	0.54882	106.55765	0.81332	19.59077	0.81332	19.59077	0.54882	106.55765
1670	0.54283	105.90635	0.81833	19.14431	0.81833	19.14431	0.54283	105.90635
1690	0.53564	105.19616	0.82109	18.62482	0.82109	18.62482	0.53564	105.19616
1710	0.53004	104.59142	0.82428	18.2013	0.82428	18.2013	0.53004	104.59142
1730	0.52698	104.00296	0.82856	17.84668	0.82856	17.84668	0.52698	104.00296
1750	0.52559	103.08813	0.83257	17.33774	0.83257	17.33774	0.52559	103.08813
1770	0.521	102.50204	0.83434	16.6902	0.83434	16.6902	0.521	102.50204
1790	0.51872	102.22551	0.83738	16.46537	0.83738	16.46537	0.51872	102.22551
1810	0.51551	101.9268	0.83979	16.12754	0.83979	16.12754	0.51551	101.9268
1830	0.51022	101.50438	0.84114	15.56306	0.84114	15.56306	0.51022	101.50438
1850	0.50371	101.08698	0.84243	15.08036	0.84243	15.08036	0.50371	101.08698
1870	0.49868	100.67935	0.84788	14.70529	0.84788	14.70529	0.49868	100.67935
1890	0.49398	100.02588	0.85119	14.2574	0.85119	14.2574	0.49398	100.02588
1910	0.48981	99.30194	0.85263	13.79775	0.85263	13.79775	0.48981	99.30194
1930	0.48657	98.62586	0.85387	13.40654	0.85387	13.40654	0.48657	98.62586
1950	0.48478	98.05895	0.858	13.18311	0.858	13.18311	0.48478	98.05895
1970	0.48086	97.3062	0.85943	12.77014	0.85943	12.77014	0.48086	97.3062
1990	0.47852	96.91488	0.8584	12.4171	0.8584	12.4171	0.47852	96.91488
2010	0.47547	96.72608	0.86009	12.10864	0.86009	12.10864	0.47547	96.72608
2030	0.47131	96.50535	0.86499	11.77953	0.86499	11.77953	0.47131	96.50535
2050	0.46749	95.94264	0.86888	11.31467	0.86888	11.31467	0.46749	95.94264
2070	0.46202	95.3163	0.86871	10.68051	0.86871	10.68051	0.46202	95.3163
2090	0.45816	94.87197	0.86826	10.42629	0.86826	10.42629	0.45816	94.87197
2110	0.4556	94.3204	0.87267	9.99354	0.87267	9.99354	0.4556	94.3204
2130	0.45325	93.70615	0.8791	9.397	0.8791	9.397	0.45325	93.70615
2150	0.44925	93.4076	0.87666	9.2246	0.87666	9.2246	0.44925	93.4076
2170	0.44653	93.09686	0.87617	8.95014	0.87617	8.95014	0.44653	93.09686
2190	0.4449	92.78213	0.88034	8.62655	0.88034	8.62655	0.4449	92.78213
2210	0.44169	92.32543	0.88249	8.13801	0.88249	8.13801	0.44169	92.32543
2230	0.43681	91.80415	0.88219	7.61416	0.88219	7.61416	0.43681	91.80415
2250	0.43283	91.51105	0.88521	7.43005	0.88521	7.43005	0.43283	91.51105
2270	0.42981	91.11243	0.88852	7.03131	0.88852	7.03131	0.42981	91.11243
2290	0.42594	90.67738	0.88928	6.41678	0.88928	6.41678	0.42594	90.67738
2310	0.42291	90.31708	0.89027	6.12408	0.89027	6.12408	0.42291	90.31708
2330	0.42088	89.94964	0.8922	6.04304	0.8922	6.04304	0.42088	89.94964
2350	0.4185	89.30016	0.89373	5.41566	0.89373	5.41566	0.4185	89.30016
2370	0.41388	89.02624	0.89295	5.10888	0.89295	5.10888	0.41388	89.02624
2390	0.41142	88.76146	0.89685	4.87696	0.89685	4.87696	0.41142	88.76146
2410	0.40906	88.36501	0.89985	4.58264	0.89985	4.58264	0.40906	88.36501
2430	0.40574	87.88787	0.90041	4.18519	0.90041	4.18519	0.40574	87.88787
2450	0.40138	87.5728	0.90097	3.74049	0.90097	3.74049	0.40138	87.5728
2470	0.3991	87.25321	0.90355	3.48178	0.90355	3.48178	0.3991	87.25321
2490	0.3967	86.96503	0.90502	3.22834	0.90502	3.22834	0.3967	86.96503
2510	0.39366	86.62131	0.90645	2.87884	0.90645	2.87884	0.39366	86.62131
2530	0.39015	86.28094	0.907	2.43985	0.907	2.43985	0.39015	86.28094
2550	0.3871	86.14867	0.90385	2.02587	0.90385	2.02587	0.3871	86.14867
2570	0.38458	85.74528	0.91166	1.8722	0.91166	1.8722	0.38458	85.74528
2590	0.38151	85.39053	0.91283	1.38903	0.91283	1.38903	0.38151	85.39053
2610	0.37767	84.89193	0.91281	0.9786	0.91281	0.9786	0.37767	84.89193
2630	0.37401	84.3497	0.9132	0.70294	0.9132	0.70294	0.37401	84.3497
2650	0.3726	84.15679	0.91169	0.28385	0.91169	0.28385	0.3726	84.15679
2670	0.37004	83.91811	0.91444	0.12861	0.91444	0.12861	0.37004	83.91811
2690	0.36819	83.72618	0.91661	-0.22476	0.91661	-0.22476	0.36819	83.72618
2710	0.36648	83.51789	0.91778	-0.57685	0.91778	-0.57685	0.36648	83.51789
2730	0.36366	83.22894	0.9184	-0.90004	0.9184	-0.90004	0.36366	83.22894
2750	0.35787	82.79378	0.91978	-1.33845	0.91978	-1.33845	0.35787	82.79378
2770	0.35151	82.70454	0.92024	-1.66772	0.92024	-1.66772	0.35151	82.70454
2790	0.3504	82.24094	0.92265	-1.94557	0.92265	-1.94557	0.3504	82.24094
2810	0.35024	81.68084	0.92334	-2.39294	0.92334	-2.39294	0.35024	81.68084
2830	0.34866	81.22764	0.9227	-2.89145	0.9227	-2.89145	0.34866	81.22764
2850	0.3452	81.01026	0.92527	-2.98339	0.92527	-2.98339	0.3452	81.01026
2870	0.34239	80.6682	0.92637	-3.02063	0.92637	-3.02063	0.34239	80.6682
2890	0.34063	80.87357	0.92834	-3.29462	0.92834	-3.29462	0.34063	80.87357
2910	0.33892	80.84023	0.93064	-3.72758	0.93064	-3.72758	0.33892	80.84023
2930	0.33634	80.46701	0.93187	-4.17201	0.93187	-4.17201	0.33634	80.46701
2950	0.33201	80.33768	0.92976	-4.41068	0.92976	-4.41068	0.33201	80.33768
2970	0.32859	79.71982	0.93022	-4.62263	0.93022	-4.62263	0.32859	79.71982
2990	0.32579	79.12356	0.93151	-4.91141	0.93151	-4.91141	0.32579	79.12356
3010	0.32375	78.70245	0.93359	-5.26805	0.93359	-5.26805	0.32375	78.70245
3030	0.32235	78.4238	0.93512	-5.65933	0.93512	-5.65933	0.32235	78.4238
3050	0.32121	78.06873	0.93344	-6.02783	0.93344	-6.02783	0.32121	78.06873
3070	0.31783	77.78168	0.93458	-6.50674	0.93458	-6.50674	0.31783	77.78168
3090	0.31524	77.73787	0.94037	-6.78459	0.94037	-6.78459	0.31524	77.73787
3110	0.31219	77.73287	0.94147	-6.96911	0.94147	-6.96911	0.31219	77.73287
3130	0.30881	77.66181	0.93808	-7.11834	0.93808	-7.11834	0.30881	77.66181
3150	0.30658	77.51944	0.93996	-7.24061	0.93996	-7.24061	0.30658	77.51944
3170	0.30264	76.75176	0.94085	-7.79602	0.94085	-7.79602	0.30264	76.75176
3190	0.3001	76.18305	0.93885	-7.9629	0.93885	-7.9629	0.3001	76.18305
3210	0.29934	75.75787	0.93984	-8.22644	0.93984	-8.22644	0.29934	75.75787
3230	0.29907	75.55679	0.94316	-8.68709	0.94316	-8.68709	0.29907	75.55679
3250	0.29626	75.79628	0.94162	-9.06057	0.94162	-9.06057	0.29626	75.79628
3270	0.29529	75.59679	0.95018	-9.4264	0.95018	-9.4264	0.29529	75.59679
3290	0.2912	75.37827	0.94912	-9.66048	0.94912	-9.66048	0.2912	75.37827
3310	0.28697	75.22447	0.94609	-9.87462	0.94609	-9.87462	0.28697	75.22447
3330	0.28394	75.07772	0.94624	-10.09504	0.94624	-10.09504	0.28394	75.07772
3350	0.28185	74.7389	0.95225	-10.26231	0.95225	-10.26231	0.28185	74.7389
3370	0.27988	74.00921	0.95145	-10.60898	0.95145	-10.60898	0.27988	74.00921
3390	0.27778	73.54839	0.95065	-11.0207	0.95065	-11.0207	0.27778	73.54839
3410	0.27641	73.40158	0.95011	-11.3015	0.95011	-11.3015	0.27641	73.40158
3430	0.27491	73.43798	0.95111	-11.50867	0.95111	-11.50867	0.27491	73.43798
3450	0.27065	73.35088	0.95603	-11.95271	0.95603	-11.95271	0.27065	73.35088
3470	0.26865	72.91704	0.95411	-12.37636	0.95411	-12.37636	0.26865	72.91704
3490	0.26532	72.80807	0.95319	-12.5502	0.95319	-12.5502	0.26532	72.80807
3510	0.26275	72.50333	0.95599	-12.68561	0.95599	-12.68561	0.26275	72.50333
3530	0.26128	71.92655	0.95998	-12.90531	0.95998	-12.90531	0.26128	71.92655
3550	0.25952	71.44574	0.95741	-13.24334	0.95741	-13.24334	0.25952	71.44574
3570	0.25725	71.20341	0.95458	-13.53053	0.95458	-13.53053	0.25725	71.20341
3590	0.25508	70.94947	0.95441	-13.73262	0.95441	-13.73262	0.25508	70.94947
3610	0.2533	70.82768	0.95638	-14.06648	0.95638	-14.06648	0.2533	70.82768
3630	0.25161	70.79545	0.95861	-14.46451	0.95861	-14.46451	0.25161	70.79545
3650	0.24909	70.62382	0.95782	-14.57464	0.95782	-14.57464	0.24909	70.62382
3670	0.24647	70.28802	0.95989	-14.94938	0.95989	-14.94938	0.24647	70.28802
3690	0.24372	69.96082	0.96001	-15.35533	0.96001	-15.35533	0.24372	69.96082
3710	0.24146	69.56236	0.95988	-15.65663	0.95988	-15.65663	0.24146	69.56236
3730	0.23976	69.09874	0.96059	-15.88989	0.96059	-15.88989	0.23976	69.09874
3750	0.23819	68.66207	0.9626	-16.26427	0.9626	-16.26427	0.23819	68.66207
3770	0.23657	68.74336	0.96083	-16.50455	0.96083	-16.50455	0.23657	68.74336
3790	0.23457	68.76587	0.96447	-16.7441	0.96447	-16.7441	0.23457	68.76587
3810	0.23239	68.75093	0.96438	-16.9573	0.96438	-16.9573	0.23239	68.75093
3830	0.22995	68.56927	0.96081	-17.20279	0.96081	-17.20279	0.22995	68.56927
3850	0.22687	67.94098	0.96343	-17.6234	0.96343	-17.6234	0.22687	67.94098
3870	0.22361	67.44401	0.96276	-17.871	0.96276	-17.871	0.22361	67.44401
3890	0.22193	67.06103	0.96449	-18.0816	0.96449	-18.0816	0.22193	67.06103
3910	0.22036	66.62794	0.96683	-18.34865	0.96683	-18.34865	0.22036	66.62794
3930	0.21861	66.13903	0.96829	-18.68191	0.96829	-18.68191	0.21861	66.13903
3950	0.21753	65.74697	0.96774	-19.00746	0.96774	-19.00746	0.21753	65.74697
3970	0.21556	65.8876	0.96692	-19.22943	0.96692	-19.22943	0.21556	65.8876
3990	0.21344	65.86219	0.96632	-19.34161	0.96632	-19.34161	0.21344	65.86219
4010	0.21133	65.52762	0.96698	-19.57312	0.96698	-19.57312	0.21133	65.52762
4030	0.20914	64.94617	0.9686	-19.95286	0.9686	-19.95286	0.20914	64.94617
4050	0.20648	64.38556	0.96945	-20.30948	0.96945	-20.30948	0.20648	64.38556
4070	0.20503	64.04687	0.9711	-20.74098	0.9711	-20.74098	0.20503	64.04687
4090	0.20434	63.58608	0.97052	-20.97183	0.97052	-20.97183	0.20434	63.58608
4110	0.203	63.17244	0.97128	-21.22063	0.97128	-21.22063	0.203	63.17244
4130	0.20074	62.91515	0.97329	-21.49784	0.97329	-21.49784	0.20074	62.91515
4150	0.19838	62.86339	0.97283	-21.60583	0.97283	-21.60583	0.19838	62.86339
4170	0.19841	62.69321	0.97283	-21.90007	0.97283	-21.90007	0.19841	62.69321
4190	0.19641	62.45499	0.97365	-22.21706	0.97365	-22.21706	0.19641	62.45499
4210	0.19385	62.12844	0.97309	-22.51532	0.97309	-22.51532	0.19385	62.12844
4230	0.1919	61.80631	0.97185	-22.71675	0.97185	-22.71675	0.1919	61.80631
4250	0.1914	61.69429	0.97353	-22.70663	0.97353	-22.70663	0.1914	61.69429
4270	0.18749	61.12577	0.97342	-23.10416	0.97342	-23.10416	0.18749	61.12577
4290	0.18731	60.76785	0.974	-23.51089	0.974	-23.51089	0.18731	60.76785
4310	0.18754	60.44352	0.97657	-23.90456	0.97657	-23.90456	0.18754	60.44352
4330	0.1868	60.14349	0.98048	-24.29819	0.98048	-24.29819	0.1868	60.14349
4350	0.18569	60.0262	0.98312	-24.74011	0.98312	-24.74011	0.18569	60.0262
4370	0.18297	60.23646	0.97912	-24.73777	0.97912	-24.73777	0.18297	60.23646
4390	0.18058	60.2375	0.97805	-24.86328	0.97805	-24.86328	0.18058	60.2375
4410	0.17837	60.06147	0.97763	-25.09179	0.97763	-25.09179	0.17837	60.06147
4430	0.17654	59.64767	0.97729	-25.37046	0.97729	-25.37046	0.17654	59.64767
4450	0.1757	58.84253	0.97811	-25.61844	0.97811	-25.61844	0.1757	58.84253
4470	0.1719	58.49054	0.97858	-25.81962	0.97858	-25.81962	0.1719	58.49054
4490	0.17092	58.32795	0.97919	-26.22808	0.97919	-26.22808	0.17092	58.32795
4510	0.16988	58.16907	0.98025	-26.53004	0.98025	-26.53004	0.16988	58.16907
4530	0.168	57.92019	0.98087	-26.67612	0.98087	-26.67612	0.168	57.92019
4550	0.16655	57.57953	0.97895	-26.88137	0.97895	-26.88137	0.16655	57.57953
4570	0.16443	57.56579	0.98084	-26.90371	0.98084	-26.90371	0.16443	57.56579
4590	0.16218	57.19218	0.98335	-27.33553	0.98335	-27.33553	0.16218	57.19218
4610	0.16022	56.89159	0.98274	-27.73421	0.98274	-27.73421	0.16022	56.89159
4630	0.15843	56.65522	0.98003	-27.99096	0.98003	-27.99096	0.15843	56.65522
4650	0.15609	56.03264	0.98107	-28.33081	0.98107	-28.33081	0.15609	56.03264
4670	0.15461	55.57659	0.98242	-28.65256	0.98242	-28.65256	0.15461	55.57659
4690	0.1534	55.25126	0.98065	-28.80817	0.98065	-28.80817	0.1534	55.25126
4710	0.15237	55.01143	0.98049	-29.01025	0.98049	-29.01025	0.15237	55.01143
4730	0.15135	54.72456	0.98209	-29.32022	0.98209	-29.32022	0.15135	54.72456
4750	0.15005	54.17074	0.98097	-29.64827	0.98097	-29.64827	0.15005	54.17074
4770	0.14795	54.31466	0.98058	-29.86677	0.98058	-29.86677	0.14795	54.31466
4790	0.1461	53.98786	0.98201	-30.28728	0.98201	-30.28728	0.1461	53.98786
4810	0.14432	53.63613	0.98447	-30.51493	0.98447	-30.51493	0.14432	53.63613
4830	0.14254	53.28215	0.98588	-30.58395	0.98588	-30.58395	0.14254	53.28215
4850	0.14084	52.52546	0.98291	-30.95765	0.98291	-30.95765	0.14084	52.52546
4870	0.13928	52.19738	0.98428	-31.17524	0.98428	-31.17524	0.13928	52.19738
4890	0.13764	51.89549	0.98589	-31.39067	0.98589	-31.39067	0.13764	51.89549
4910	0.13652	51.42632	0.98551	-31.58136	0.98551	-31.58136	0.13652	51.42632
4930	0.13589	50.87193	0.9847	-31.75578	0.9847	-31.75578	0.13589	50.87193
4950	0.13503	50.58987	0.98871	-31.95346	0.98871	-31.95346	0.13503	50.58987
4970	0.13311	50.53617	0.98597	-32.28108	0.98597	-32.28108	0.13311	50.53617
4990	0.13154	50.40354	0.98509	-32.62038	0.98509	-32.62038	0.13154	50.40354
5010	0.12992	50.33698	0.9856	-32.86767	0.9856	-32.86767	0.12992	50.33698
5030	0.12798	50.17132	0.98637	-33.0542	0.98637	-33.0542	0.12798	50.17132
5050	0.12555	49.43118	0.9856	-33.34613	0.9856	-33.34613	0.12555	49.43118
5070	0.12399	48.90742	0.98322	-33.61852	0.98322	-33.61852	0.12399	48.90742
5090	0.12279	48.56271	0.98255	-33.90192	0.98255	-33.90192	0.12279	48.56271
5110	0.12179	48.09709	0.98607	-34.14534	0.98607	-34.14534	0.12179	48.09709
5130	0.12068	47.68665	0.98975	-34.3473	0.98975	-34.3473	0.12068	47.68665
5150	0.11909	47.98359	0.98303	-34.55588	0.98303	-34.55588	0.11909	47.98359
5170	0.11711	47.75195	0.98581	-34.70488	0.98581	-34.70488	0.11711	47.75195
5190	0.11524	47.29287	0.98447	-35.0134	0.98447	-35.0134	0.11524	47.29287
5210	0.11332	46.75159	0.98349	-35.39012	0.98349	-35.39012	0.11332	46.75159
5230	0.1114	46.28167	0.98388	-35.69176	0.98388	-35.69176	0.1114	46.28167
5250	0.10974	46.04501	0.98321	-35.72312	0.98321	-35.72312	0.10974	46.04501
5270	0.10947	45.13441	0.98695	-36.05657	0.98695	-36.05657	0.10947	45.13441
5290	0.10789	44.47684	0.98485	-36.45751	0.98485	-36.45751	0.10789	44.47684
5310	0.10643	44.36683	0.9849	-36.62801	0.9849	-36.62801	0.10643	44.36683
5330	0.10547	44.45285	0.98792	-36.67821	0.98792	-36.67821	0.10547	44.45285
5350	0.10429	43.73724	0.98767	-37.12625	0.98767	-37.12625	0.10429	43.73724
5370	0.10152	43.32234	0.98925	-37.41023	0.98925	-37.41023	0.10152	43.32234
5390	0.09866	43.08342	0.98869	-37.61094	0.98869	-37.61094	0.09866	43.08342
5410	0.09702	42.76406	0.98891	-37.89098	0.98891	-37.89098	0.09702	42.76406
5430	0.09634	42.27069	0.99	-38.2127	0.99	-38.2127	0.09634	42.27069
5450	0.09481	41.6726	0.98922	-38.33821	0.98922	-38.33821	0.09481	41.6726
