! Data Taken on a HP 8720C VNA using a series-through fixture with TRL* de-embedding
#	mhz	s	ma	r	50
50	0.01262	51.19756	0.98596	-1.3497	0.98596	-1.3497	0.01262	51.19756
70	0.01952	68.05044	0.98855	-1.51874	0.98855	-1.51874	0.01952	68.05044
90	0.02451	70.14409	0.98797	-1.59697	0.98797	-1.59697	0.02451	70.14409
110	0.02839	66.85457	0.98692	-1.87031	0.98692	-1.87031	0.02839	66.85457
130	0.03206	65.09721	0.98767	-2.31841	0.98767	-2.31841	0.03206	65.09721
150	0.03652	69.32663	0.99209	-2.61465	0.99209	-2.61465	0.03652	69.32663
170	0.04133	70.86388	0.99092	-2.46084	0.99092	-2.46084	0.04133	70.86388
190	0.04632	70.77398	0.98913	-2.90124	0.98913	-2.90124	0.04632	70.77398
210	0.05091	70.95346	0.98639	-3.31878	0.98639	-3.31878	0.05091	70.95346
230	0.05477	71.77754	0.98366	-3.56888	0.98366	-3.56888	0.05477	71.77754
250	0.05787	72.10009	0.98327	-3.97944	0.98327	-3.97944	0.05787	72.10009
270	0.06226	72.33363	0.98258	-4.115	0.98258	-4.115	0.06226	72.33363
290	0.06694	72.29364	0.98284	-4.34821	0.98284	-4.34821	0.06694	72.29364
310	0.07189	72.11799	0.98178	-4.61623	0.98178	-4.61623	0.07189	72.11799
330	0.07706	71.9297	0.98041	-4.89782	0.98041	-4.89782	0.07706	71.9297
350	0.08236	71.83696	0.98304	-5.21343	0.98304	-5.21343	0.08236	71.83696
370	0.08743	73.12771	0.98347	-5.3754	0.98347	-5.3754	0.08743	73.12771
390	0.09157	74.04279	0.98201	-5.75883	0.98201	-5.75883	0.09157	74.04279
410	0.09573	74.42616	0.98121	-6.14869	0.98121	-6.14869	0.09573	74.42616
430	0.09989	74.40236	0.98231	-6.44464	0.98231	-6.44464	0.09989	74.40236
450	0.10315	74.37653	0.98529	-6.66101	0.98529	-6.66101	0.10315	74.37653
470	0.10795	74.28314	0.98212	-6.88936	0.98212	-6.88936	0.10795	74.28314
490	0.11895	76.33831	0.98066	-7.64968	0.98066	-7.64968	0.11895	76.33831
510	0.12837	77.70648	0.97853	-8.33911	0.97853	-8.33911	0.12837	77.70648
530	0.13331	77.83913	0.97521	-8.70292	0.97521	-8.70292	0.13331	77.83913
550	0.13579	78.47478	0.97207	-8.83451	0.97207	-8.83451	0.13579	78.47478
570	0.13922	78.27931	0.97534	-9.03969	0.97534	-9.03969	0.13922	78.27931
590	0.14388	77.88369	0.97265	-9.16465	0.97265	-9.16465	0.14388	77.88369
610	0.14804	77.47589	0.97352	-9.49066	0.97352	-9.49066	0.14804	77.47589
630	0.1517	77.09743	0.97724	-9.96246	0.97724	-9.96246	0.1517	77.09743
650	0.15661	76.64345	0.97289	-10.1883	0.97289	-10.1883	0.15661	76.64345
670	0.16304	76.48501	0.97205	-10.32595	0.97205	-10.32595	0.16304	76.48501
690	0.16832	76.65971	0.97101	-10.74332	0.97101	-10.74332	0.16832	76.65971
710	0.17366	76.78129	0.97	-11.03853	0.97	-11.03853	0.17366	76.78129
730	0.17883	76.89893	0.96887	-11.15685	0.96887	-11.15685	0.17883	76.89893
750	0.18213	77.49723	0.96714	-11.39077	0.96714	-11.39077	0.18213	77.49723
770	0.1858	77.76386	0.96789	-12.0904	0.96789	-12.0904	0.1858	77.76386
790	0.18911	77.74962	0.9667	-12.272	0.9667	-12.272	0.18911	77.74962
810	0.1918	77.44891	0.96459	-12.34092	0.96459	-12.34092	0.1918	77.44891
830	0.19442	76.93973	0.96297	-12.60567	0.96297	-12.60567	0.19442	76.93973
850	0.19843	76.38371	0.9636	-13.27793	0.9636	-13.27793	0.19843	76.38371
870	0.20254	76.14399	0.95966	-13.20155	0.95966	-13.20155	0.20254	76.14399
890	0.20734	75.60326	0.9592	-13.48869	0.9592	-13.48869	0.20734	75.60326
910	0.21188	75.06374	0.95887	-13.77194	0.95887	-13.77194	0.21188	75.06374
930	0.21593	74.71264	0.95754	-14.00796	0.95754	-14.00796	0.21593	74.71264
950	0.22004	74.62222	0.9563	-14.47749	0.9563	-14.47749	0.22004	74.62222
970	0.22544	74.41849	0.95416	-14.66989	0.95416	-14.66989	0.22544	74.41849
990	0.22962	73.9445	0.95295	-14.89961	0.95295	-14.89961	0.22962	73.9445
1010	0.23364	73.39557	0.95256	-15.23043	0.95256	-15.23043	0.23364	73.39557
1030	0.23827	72.96912	0.95232	-15.59127	0.95232	-15.59127	0.23827	72.96912
1050	0.24403	72.86461	0.95095	-15.77618	0.95095	-15.77618	0.24403	72.86461
1070	0.24941	72.48121	0.94886	-16.04203	0.94886	-16.04203	0.24941	72.48121
1090	0.25434	72.32867	0.94871	-16.35885	0.94871	-16.35885	0.25434	72.32867
1110	0.25906	72.23769	0.94829	-16.5709	0.94829	-16.5709	0.25906	72.23769
1130	0.26367	72.11357	0.94638	-16.76055	0.94638	-16.76055	0.26367	72.11357
1150	0.26814	71.93623	0.94276	-17.24836	0.94276	-17.24836	0.26814	71.93623
1170	0.2718	71.61982	0.9418	-17.56385	0.9418	-17.56385	0.2718	71.61982
1190	0.27572	71.3397	0.94201	-17.84802	0.94201	-17.84802	0.27572	71.3397
1210	0.27967	71.07549	0.94172	-18.10449	0.94172	-18.10449	0.27967	71.07549
1230	0.28394	70.80522	0.93993	-18.37046	0.93993	-18.37046	0.28394	70.80522
1250	0.28934	70.50532	0.93629	-18.71664	0.93629	-18.71664	0.28934	70.50532
1270	0.29517	70.31139	0.93528	-18.78508	0.93528	-18.78508	0.29517	70.31139
1290	0.29971	70.05129	0.93452	-19.1895	0.93452	-19.1895	0.29971	70.05129
1310	0.30376	69.89464	0.93375	-19.53283	0.93375	-19.53283	0.30376	69.89464
1330	0.30784	69.8526	0.93312	-19.73479	0.93312	-19.73479	0.30784	69.8526
1350	0.31223	69.77791	0.93323	-20.03193	0.93323	-20.03193	0.31223	69.77791
1370	0.31697	69.4616	0.93145	-20.51893	0.93145	-20.51893	0.31697	69.4616
1390	0.31985	69.27153	0.9304	-20.67176	0.9304	-20.67176	0.31985	69.27153
1410	0.32316	69.03868	0.92909	-20.8863	0.92909	-20.8863	0.32316	69.03868
1430	0.32724	68.74389	0.92672	-21.21941	0.92672	-21.21941	0.32724	68.74389
1450	0.3305	68.51788	0.92265	-21.38896	0.92265	-21.38896	0.3305	68.51788
1470	0.33404	68.29812	0.92224	-21.55216	0.92224	-21.55216	0.33404	68.29812
1490	0.33865	67.83607	0.92276	-22.00524	0.92276	-22.00524	0.33865	67.83607
1510	0.34248	67.52794	0.92017	-22.38351	0.92017	-22.38351	0.34248	67.52794
1530	0.34575	67.38118	0.91598	-22.60014	0.91598	-22.60014	0.34575	67.38118
1550	0.35074	67.01448	0.9172	-22.84614	0.9172	-22.84614	0.35074	67.01448
1570	0.3546	66.5984	0.9156	-23.25052	0.9156	-23.25052	0.3546	66.5984
1590	0.35717	66.1483	0.91395	-23.5736	0.91395	-23.5736	0.35717	66.1483
1610	0.36109	65.89218	0.91161	-23.76164	0.91161	-23.76164	0.36109	65.89218
1630	0.36643	65.77199	0.90866	-23.90691	0.90866	-23.90691	0.36643	65.77199
1650	0.37069	65.44361	0.90591	-24.24763	0.90591	-24.24763	0.37069	65.44361
1670	0.37365	64.96551	0.90478	-24.44962	0.90478	-24.44962	0.37365	64.96551
1690	0.3768	64.70985	0.90296	-24.69592	0.90296	-24.69592	0.3768	64.70985
1710	0.38103	64.50215	0.90177	-24.9525	0.90177	-24.9525	0.38103	64.50215
1730	0.38623	64.18594	0.9017	-25.25189	0.9017	-25.25189	0.38623	64.18594
1750	0.39133	63.62278	0.90232	-25.69321	0.90232	-25.69321	0.39133	63.62278
1770	0.3948	63.35868	0.8974	-25.96975	0.8974	-25.96975	0.3948	63.35868
1790	0.39883	63.23292	0.89728	-26.07454	0.89728	-26.07454	0.39883	63.23292
1810	0.40245	63.0317	0.89501	-26.27658	0.89501	-26.27658	0.40245	63.0317
1830	0.40538	62.66416	0.89042	-26.60196	0.89042	-26.60196	0.40538	62.66416
1850	0.40806	62.16243	0.8901	-26.83388	0.8901	-26.83388	0.40806	62.16243
1870	0.41319	61.65725	0.88944	-27.17316	0.88944	-27.17316	0.41319	61.65725
1890	0.41745	61.35867	0.88717	-27.52875	0.88717	-27.52875	0.41745	61.35867
1910	0.42158	61.04561	0.88446	-27.63544	0.88446	-27.63544	0.42158	61.04561
1930	0.42585	60.67105	0.88247	-27.65082	0.88247	-27.65082	0.42585	60.67105
1950	0.43001	60.36204	0.88229	-28.15526	0.88229	-28.15526	0.43001	60.36204
1970	0.43391	59.86078	0.87902	-28.38925	0.87902	-28.38925	0.43391	59.86078
1990	0.43865	59.68503	0.87476	-28.68654	0.87476	-28.68654	0.43865	59.68503
2010	0.44316	59.62768	0.87231	-28.86268	0.87231	-28.86268	0.44316	59.62768
2030	0.44709	59.46495	0.87217	-29.02346	0.87217	-29.02346	0.44709	59.46495
2050	0.45076	58.95641	0.87259	-29.56493	0.87259	-29.56493	0.45076	58.95641
2070	0.45186	58.68972	0.86849	-29.8355	0.86849	-29.8355	0.45186	58.68972
2090	0.45583	58.46972	0.86249	-29.88861	0.86249	-29.88861	0.45583	58.46972
2110	0.46148	58.03375	0.86235	-30.22571	0.86235	-30.22571	0.46148	58.03375
2130	0.46606	57.52557	0.86581	-30.74423	0.86581	-30.74423	0.46606	57.52557
2150	0.46517	57.49537	0.86058	-30.73761	0.86058	-30.73761	0.46517	57.49537
2170	0.47069	57.2719	0.85844	-30.87015	0.85844	-30.87015	0.47069	57.2719
2190	0.47645	56.9352	0.85603	-31.181	0.85603	-31.181	0.47645	56.9352
2210	0.48087	56.57397	0.85292	-31.46269	0.85292	-31.46269	0.48087	56.57397
2230	0.48388	56.22967	0.85045	-31.69713	0.85045	-31.69713	0.48388	56.22967
2250	0.48687	55.89656	0.85169	-32.05565	0.85169	-32.05565	0.48687	55.89656
2270	0.49089	55.54657	0.84778	-32.41887	0.84778	-32.41887	0.49089	55.54657
2290	0.49434	55.30192	0.84492	-32.72435	0.84492	-32.72435	0.49434	55.30192
2310	0.4977	55.10052	0.84366	-32.85965	0.84366	-32.85965	0.4977	55.10052
2330	0.50127	54.81461	0.84254	-33.00571	0.84254	-33.00571	0.50127	54.81461
2350	0.50527	54.25072	0.83808	-33.63683	0.83808	-33.63683	0.50527	54.25072
2370	0.50633	54.20141	0.83475	-33.54729	0.83475	-33.54729	0.50633	54.20141
2390	0.5113	53.9526	0.83435	-33.7394	0.83435	-33.7394	0.5113	53.9526
2410	0.51563	53.67581	0.83298	-34.00914	0.83298	-34.00914	0.51563	53.67581
2430	0.51823	53.39539	0.82945	-34.28936	0.82945	-34.28936	0.51823	53.39539
2450	0.52141	52.98859	0.82526	-34.64973	0.82526	-34.64973	0.52141	52.98859
2470	0.52667	52.71181	0.82479	-34.76084	0.82479	-34.76084	0.52667	52.71181
2490	0.52958	52.38269	0.82249	-35.02727	0.82249	-35.02727	0.52958	52.38269
2510	0.53143	52.05368	0.81896	-35.26322	0.81896	-35.26322	0.53143	52.05368
2530	0.53372	51.78419	0.81535	-35.41826	0.81535	-35.41826	0.53372	51.78419
2550	0.53817	51.64058	0.8134	-35.57741	0.8134	-35.57741	0.53817	51.64058
2570	0.542	51.19949	0.81464	-35.88943	0.81464	-35.88943	0.542	51.19949
2590	0.5458	50.90356	0.81066	-36.28527	0.81066	-36.28527	0.5458	50.90356
2610	0.54861	50.60393	0.80711	-36.6355	0.80711	-36.6355	0.54861	50.60393
2630	0.55126	50.2752	0.80513	-36.9203	0.80513	-36.9203	0.55126	50.2752
2650	0.55637	50.01537	0.80136	-37.22948	0.80136	-37.22948	0.55637	50.01537
2670	0.55958	49.86075	0.79932	-37.34563	0.79932	-37.34563	0.55958	49.86075
2690	0.56378	49.56303	0.79752	-37.52009	0.79752	-37.52009	0.56378	49.56303
2710	0.5686	49.20178	0.79541	-37.77371	0.79541	-37.77371	0.5686	49.20178
2730	0.57258	48.857	0.7927	-38.08386	0.7927	-38.08386	0.57258	48.857
2750	0.57316	48.60917	0.78931	-38.38442	0.78931	-38.38442	0.57316	48.60917
2770	0.57144	48.332	0.78666	-38.65837	0.78666	-38.65837	0.57144	48.332
2790	0.57752	47.91976	0.782	-38.87164	0.782	-38.87164	0.57752	47.91976
2810	0.58462	47.55993	0.77836	-39.18774	0.77836	-39.18774	0.58462	47.55993
2830	0.58873	47.32505	0.77682	-39.5958	0.77682	-39.5958	0.58873	47.32505
2850	0.58854	47.17272	0.77646	-39.91052	0.77646	-39.91052	0.58854	47.17272
2870	0.59159	46.8658	0.77211	-39.81216	0.77211	-39.81216	0.59159	46.8658
2890	0.59692	46.9697	0.77062	-39.86027	0.77062	-39.86027	0.59692	46.9697
2910	0.60166	46.88197	0.7685	-40.24828	0.7685	-40.24828	0.60166	46.88197
2930	0.60425	46.53808	0.76456	-40.7377	0.76456	-40.7377	0.60425	46.53808
2950	0.60444	46.41155	0.75991	-40.6582	0.75991	-40.6582	0.60444	46.41155
2970	0.6095	45.87343	0.75954	-40.94991	0.75954	-40.94991	0.6095	45.87343
2990	0.61376	45.39797	0.75812	-41.22691	0.75812	-41.22691	0.61376	45.39797
3010	0.6175	45.07369	0.75523	-41.50872	0.75523	-41.50872	0.6175	45.07369
3030	0.62095	44.87445	0.75104	-41.79981	0.75104	-41.79981	0.62095	44.87445
3050	0.62434	44.65938	0.74631	-42.08961	0.74631	-42.08961	0.62434	44.65938
3070	0.62518	44.09041	0.74528	-42.47103	0.74528	-42.47103	0.62518	44.09041
3090	0.62775	43.77999	0.74499	-42.78751	0.74499	-42.78751	0.62775	43.77999
3110	0.63063	43.71909	0.74078	-42.88271	0.74078	-42.88271	0.63063	43.71909
3130	0.634	43.78159	0.73475	-42.84014	0.73475	-42.84014	0.634	43.78159
3150	0.63968	43.72422	0.73579	-42.98314	0.73579	-42.98314	0.63968	43.72422
3170	0.63896	42.98538	0.7314	-43.55094	0.7314	-43.55094	0.63896	42.98538
3190	0.64143	42.60309	0.72535	-43.761	0.72535	-43.761	0.64143	42.60309
3210	0.64611	42.38608	0.72299	-43.95476	0.72299	-43.95476	0.64611	42.38608
3230	0.65088	42.21041	0.72294	-44.29012	0.72294	-44.29012	0.65088	42.21041
3250	0.6524	42.01949	0.71708	-44.74137	0.71708	-44.74137	0.6524	42.01949
3270	0.65836	41.83925	0.71798	-44.98959	0.71798	-44.98959	0.65836	41.83925
3290	0.65954	41.59658	0.71432	-45.16867	0.71432	-45.16867	0.65954	41.59658
3310	0.66061	41.31156	0.70902	-45.39356	0.70902	-45.39356	0.66061	41.31156
3330	0.66392	41.05651	0.7051	-45.60112	0.7051	-45.60112	0.66392	41.05651
3350	0.6695	40.95596	0.70572	-45.55013	0.70572	-45.55013	0.6695	40.95596
3370	0.67265	40.2766	0.70098	-46.19	0.70098	-46.19	0.67265	40.2766
3390	0.67327	39.84663	0.69642	-46.51473	0.69642	-46.51473	0.67327	39.84663
3410	0.67594	39.76223	0.69143	-46.55621	0.69143	-46.55621	0.67594	39.76223
3430	0.67974	39.77725	0.68798	-46.60698	0.68798	-46.60698	0.67974	39.77725
3450	0.67826	39.30319	0.69071	-47.22021	0.69071	-47.22021	0.67826	39.30319
3470	0.68281	38.69841	0.68447	-47.71603	0.68447	-47.71603	0.68281	38.69841
3490	0.68462	38.51002	0.6776	-47.80507	0.6776	-47.80507	0.68462	38.51002
3510	0.68951	38.29082	0.6752	-47.88541	0.6752	-47.88541	0.68951	38.29082
3530	0.69663	37.81902	0.6759	-48.15375	0.6759	-48.15375	0.69663	37.81902
3550	0.6985	37.09819	0.67188	-48.60549	0.67188	-48.60549	0.6985	37.09819
3570	0.69878	37.22701	0.66501	-48.57417	0.66501	-48.57417	0.69878	37.22701
3590	0.70275	37.08572	0.66391	-48.76222	0.66391	-48.76222	0.70275	37.08572
3610	0.70543	36.81658	0.66207	-49.17717	0.66207	-49.17717	0.70543	36.81658
3630	0.70638	36.56464	0.65766	-49.56375	0.65766	-49.56375	0.70638	36.56464
3650	0.70972	36.47768	0.65352	-49.40393	0.65352	-49.40393	0.70972	36.47768
3670	0.71508	35.87253	0.65238	-50.03193	0.65238	-50.03193	0.71508	35.87253
3690	0.71534	35.59882	0.64582	-50.37918	0.64582	-50.37918	0.71534	35.59882
3710	0.71814	35.31679	0.64107	-50.53888	0.64107	-50.53888	0.71814	35.31679
3730	0.72467	34.89265	0.63967	-50.76964	0.63967	-50.76964	0.72467	34.89265
3750	0.72968	34.39856	0.63751	-51.49547	0.63751	-51.49547	0.72968	34.39856
3770	0.72717	34.41276	0.63107	-51.18592	0.63107	-51.18592	0.72717	34.41276
3790	0.73341	34.39732	0.63077	-51.30848	0.63077	-51.30848	0.73341	34.39732
3810	0.73691	34.23742	0.62813	-51.64658	0.62813	-51.64658	0.73691	34.23742
3830	0.73578	33.86828	0.62229	-52.00979	0.62229	-52.00979	0.73578	33.86828
3850	0.73771	33.27526	0.62003	-52.23384	0.62003	-52.23384	0.73771	33.27526
3870	0.73838	32.86429	0.61567	-52.57279	0.61567	-52.57279	0.73838	32.86429
3890	0.74274	32.70627	0.61225	-52.56794	0.61225	-52.56794	0.74274	32.70627
3910	0.74747	32.3382	0.61015	-52.79611	0.61015	-52.79611	0.74747	32.3382
3930	0.75076	31.75745	0.60812	-53.33006	0.60812	-53.33006	0.75076	31.75745
3950	0.75232	31.42174	0.60331	-53.73845	0.60331	-53.73845	0.75232	31.42174
3970	0.75339	31.64233	0.59745	-53.70077	0.59745	-53.70077	0.75339	31.64233
3990	0.75879	31.44656	0.5951	-53.80796	0.5951	-53.80796	0.75879	31.44656
4010	0.76219	30.9938	0.59243	-54.12187	0.59243	-54.12187	0.76219	30.9938
4030	0.7623	30.46887	0.58836	-54.56164	0.58836	-54.56164	0.7623	30.46887
4050	0.76288	30.08205	0.58461	-54.90372	0.58461	-54.90372	0.76288	30.08205
4070	0.76632	29.97967	0.57982	-55.1419	0.57982	-55.1419	0.76632	29.97967
4090	0.77154	29.45755	0.57779	-55.33648	0.57779	-55.33648	0.77154	29.45755
4110	0.77509	28.82271	0.57534	-55.63282	0.57534	-55.63282	0.77509	28.82271
4130	0.7751	28.38746	0.5707	-55.94095	0.5707	-55.94095	0.7751	28.38746
4150	0.77131	28.46934	0.56347	-55.93554	0.56347	-55.93554	0.77131	28.46934
4170	0.7839	28.26393	0.56491	-56.18633	0.56491	-56.18633	0.7839	28.26393
4190	0.78655	27.69193	0.56114	-56.60266	0.56114	-56.60266	0.78655	27.69193
4210	0.78611	27.36484	0.55596	-56.84618	0.55596	-56.84618	0.78611	27.36484
4230	0.78759	27.31318	0.55213	-56.91186	0.55213	-56.91186	0.78759	27.31318
4250	0.79411	26.98651	0.5513	-57.12804	0.5513	-57.12804	0.79411	26.98651
4270	0.79184	26.71733	0.54482	-57.43996	0.54482	-57.43996	0.79184	26.71733
4290	0.79622	26.23286	0.54088	-57.73415	0.54088	-57.73415	0.79622	26.23286
4310	0.80229	25.67988	0.53821	-58.12394	0.53821	-58.12394	0.80229	25.67988
4330	0.80718	25.19341	0.5361	-58.5669	0.5361	-58.5669	0.80718	25.19341
4350	0.81002	24.89666	0.53441	-58.86482	0.53441	-58.86482	0.81002	24.89666
4370	0.81104	24.80619	0.52966	-58.89369	0.52966	-58.89369	0.81104	24.80619
4390	0.81228	24.53857	0.52288	-59.07361	0.52288	-59.07361	0.81228	24.53857
4410	0.81275	24.28688	0.51821	-59.34452	0.51821	-59.34452	0.81275	24.28688
4430	0.8136	23.96016	0.51591	-59.66554	0.51591	-59.66554	0.8136	23.96016
4450	0.81814	23.18344	0.51235	-60.01489	0.51235	-60.01489	0.81814	23.18344
4470	0.81943	23.06336	0.5078	-59.98603	0.5078	-59.98603	0.81943	23.06336
4490	0.82449	22.6741	0.50533	-60.2906	0.50533	-60.2906	0.82449	22.6741
4510	0.82692	22.28355	0.50179	-60.77842	0.50179	-60.77842	0.82692	22.28355
4530	0.82657	22.08602	0.49655	-61.11708	0.49655	-61.11708	0.82657	22.08602
4550	0.82957	22.2022	0.49146	-60.79196	0.49146	-60.79196	0.82957	22.2022
4570	0.83837	21.46377	0.49282	-61.30138	0.49282	-61.30138	0.83837	21.46377
4590	0.83561	20.70248	0.48728	-61.87432	0.48728	-61.87432	0.83561	20.70248
4610	0.83195	20.54458	0.48125	-62.02508	0.48125	-62.02508	0.83195	20.54458
4630	0.83448	20.62962	0.47787	-62.00889	0.47787	-62.00889	0.83448	20.62962
4650	0.84672	19.61048	0.47705	-62.82189	0.47705	-62.82189	0.84672	19.61048
4670	0.84287	18.98215	0.46958	-63.22874	0.46958	-63.22874	0.84287	18.98215
4690	0.84351	18.8589	0.46488	-63.13727	0.46488	-63.13727	0.84351	18.8589
4710	0.84694	18.66748	0.4612	-63.23057	0.4612	-63.23057	0.84694	18.66748
4730	0.85152	18.24272	0.45797	-63.61327	0.45797	-63.61327	0.85152	18.24272
4750	0.85566	17.8275	0.4558	-63.81152	0.4558	-63.81152	0.85566	17.8275
4770	0.85454	17.56985	0.45014	-64.04631	0.45014	-64.04631	0.85454	17.56985
4790	0.85541	17.02994	0.44609	-64.53195	0.44609	-64.53195	0.85541	17.02994
4810	0.8577	16.63315	0.44348	-64.81429	0.44348	-64.81429	0.8577	16.63315
4830	0.86053	16.32757	0.44087	-64.95732	0.44087	-64.95732	0.86053	16.32757
4850	0.86265	15.584	0.43557	-65.54309	0.43557	-65.54309	0.86265	15.584
4870	0.86569	15.46419	0.43179	-65.35166	0.43179	-65.35166	0.86569	15.46419
4890	0.86789	15.15541	0.42908	-65.78336	0.42908	-65.78336	0.86789	15.15541
4910	0.8679	14.80412	0.42332	-66.10234	0.42332	-66.10234	0.8679	14.80412
4930	0.86944	14.49249	0.41675	-66.12465	0.41675	-66.12465	0.86944	14.49249
4950	0.8812	14.23837	0.41793	-66.21826	0.41793	-66.21826	0.8812	14.23837
4970	0.87605	13.48404	0.41101	-67.00408	0.41101	-67.00408	0.87605	13.48404
4990	0.87202	13.19194	0.40439	-67.27701	0.40439	-67.27701	0.87202	13.19194
5010	0.87766	12.97217	0.40265	-67.3072	0.40265	-67.3072	0.87766	12.97217
5030	0.88758	12.493	0.40286	-67.52979	0.40286	-67.52979	0.88758	12.493
5050	0.88253	11.4809	0.39464	-68.54497	0.39464	-68.54497	0.88253	11.4809
5070	0.87932	11.75757	0.38838	-68.28701	0.38838	-68.28701	0.87932	11.75757
5090	0.88763	11.71879	0.38583	-68.31968	0.38583	-68.31968	0.88763	11.71879
5110	0.89504	11.07656	0.38418	-68.70484	0.38418	-68.70484	0.89504	11.07656
5130	0.89424	10.23308	0.38071	-69.24001	0.38071	-69.24001	0.89424	10.23308
5150	0.88301	10.28076	0.37281	-69.4585	0.37281	-69.4585	0.88301	10.28076
5170	0.88873	10.42484	0.37062	-69.35573	0.37062	-69.35573	0.88873	10.42484
5190	0.89827	9.69684	0.36836	-69.78963	0.36836	-69.78963	0.89827	9.69684
5210	0.8982	8.89146	0.36269	-70.38161	0.36269	-70.38161	0.8982	8.89146
5230	0.89079	8.57015	0.35506	-70.66395	0.35506	-70.66395	0.89079	8.57015
5250	0.89409	9.06108	0.35165	-70.07977	0.35165	-70.07977	0.89409	9.06108
5270	0.91097	8.17882	0.35263	-71.07369	0.35263	-71.07369	0.91097	8.17882
5290	0.90285	7.52202	0.34568	-71.77156	0.34568	-71.77156	0.90285	7.52202
5310	0.89931	7.63441	0.33946	-71.59693	0.33946	-71.59693	0.89931	7.63441
5330	0.9089	7.92522	0.33716	-71.10512	0.33716	-71.10512	0.9089	7.92522
5350	0.91918	6.66916	0.33651	-71.98324	0.33651	-71.98324	0.91918	6.66916
5370	0.90599	6.11062	0.32957	-72.57032	0.32957	-72.57032	0.90599	6.11062
5390	0.90881	6.23718	0.32559	-72.52032	0.32559	-72.52032	0.90881	6.23718
5410	0.91681	6.04583	0.32277	-72.76976	0.32277	-72.76976	0.91681	6.04583
5430	0.9215	5.43312	0.31934	-73.31449	0.31934	-73.31449	0.9215	5.43312
