! Data Taken on a HP 8720C VNA using a series-through fixture with TRL* de-embedding
#	mhz	s	ma	r	50
50	0.05615	69.21206	0.97197	-4.25121	0.97197	-4.25121	0.05615	69.21206
70	0.0817	71.78809	0.97348	-4.99408	0.97348	-4.99408	0.0817	71.78809
90	0.10295	73.39315	0.97037	-5.8728	0.97037	-5.8728	0.10295	73.39315
110	0.1216	73.23556	0.96861	-7.09333	0.96861	-7.09333	0.1216	73.23556
130	0.13983	71.94057	0.96812	-8.51181	0.96812	-8.51181	0.13983	71.94057
150	0.16032	71.55039	0.96277	-9.6346	0.96277	-9.6346	0.16032	71.55039
170	0.18026	71.41466	0.96204	-10.65001	0.96204	-10.65001	0.18026	71.41466
190	0.19906	70.51875	0.95528	-11.85813	0.95528	-11.85813	0.19906	70.51875
210	0.21774	69.61803	0.94726	-12.94664	0.94726	-12.94664	0.21774	69.61803
230	0.23664	68.97349	0.9415	-13.99533	0.9415	-13.99533	0.23664	68.97349
250	0.25549	68.35173	0.94022	-15.47613	0.94022	-15.47613	0.25549	68.35173
270	0.27266	67.08859	0.93105	-16.39648	0.93105	-16.39648	0.27266	67.08859
290	0.29115	66.27121	0.92571	-17.40989	0.92571	-17.40989	0.29115	66.27121
310	0.3102	65.41409	0.92175	-18.3742	0.92175	-18.3742	0.3102	65.41409
330	0.329	64.33708	0.91629	-19.33863	0.91629	-19.33863	0.329	64.33708
350	0.34667	63.1654	0.90607	-20.54385	0.90607	-20.54385	0.34667	63.1654
370	0.36428	62.94242	0.90256	-21.64986	0.90256	-21.64986	0.36428	62.94242
390	0.38047	62.13048	0.89572	-22.82085	0.89572	-22.82085	0.38047	62.13048
410	0.39642	61.20632	0.88803	-23.89781	0.88803	-23.89781	0.39642	61.20632
430	0.41223	60.39316	0.88112	-24.83336	0.88112	-24.83336	0.41223	60.39316
450	0.4269	59.66072	0.87576	-25.69176	0.87576	-25.69176	0.4269	59.66072
470	0.4416	58.50599	0.86667	-26.82535	0.86667	-26.82535	0.4416	58.50599
490	0.47615	58.34608	0.84934	-29.43097	0.84934	-29.43097	0.47615	58.34608
510	0.50643	57.95958	0.83367	-31.65753	0.83367	-31.65753	0.50643	57.95958
530	0.52282	57.12686	0.82368	-32.8939	0.82368	-32.8939	0.52282	57.12686
550	0.53019	56.63007	0.81745	-33.76897	0.81745	-33.76897	0.53019	56.63007
570	0.54332	55.61731	0.80913	-34.6385	0.80913	-34.6385	0.54332	55.61731
590	0.55796	54.63111	0.80018	-35.28121	0.80018	-35.28121	0.55796	54.63111
610	0.57069	53.8456	0.79201	-36.14603	0.79201	-36.14603	0.57069	53.8456
630	0.58132	53.14088	0.78374	-37.23725	0.78374	-37.23725	0.58132	53.14088
650	0.59282	52.10303	0.77219	-38.11449	0.77219	-38.11449	0.59282	52.10303
670	0.60715	51.40405	0.76111	-39.09609	0.76111	-39.09609	0.60715	51.40405
690	0.61947	50.78067	0.75183	-40.01943	0.75183	-40.01943	0.61947	50.78067
710	0.63137	49.85608	0.74307	-40.92284	0.74307	-40.92284	0.63137	49.85608
730	0.6426	48.82103	0.73371	-41.76935	0.73371	-41.76935	0.6426	48.82103
750	0.65103	48.43382	0.72271	-42.44669	0.72271	-42.44669	0.65103	48.43382
770	0.66137	47.61952	0.71617	-43.5355	0.71617	-43.5355	0.66137	47.61952
790	0.67298	46.80117	0.7056	-44.1912	0.7056	-44.1912	0.67298	46.80117
810	0.6821	46.16174	0.6952	-44.7773	0.6952	-44.7773	0.6821	46.16174
830	0.68848	45.5209	0.68463	-45.54806	0.68463	-45.54806	0.68848	45.5209
850	0.69537	44.335	0.6691	-46.6485	0.6691	-46.6485	0.69537	44.335
870	0.70244	43.85844	0.662	-47.07399	0.662	-47.07399	0.70244	43.85844
890	0.71417	42.87109	0.65444	-47.94351	0.65444	-47.94351	0.71417	42.87109
910	0.72309	41.78798	0.64469	-48.80442	0.64469	-48.80442	0.72309	41.78798
930	0.72806	40.90755	0.63329	-49.51948	0.63329	-49.51948	0.72806	40.90755
950	0.73428	40.41171	0.62309	-50.26683	0.62309	-50.26683	0.73428	40.41171
970	0.74742	39.6219	0.6153	-51.06978	0.6153	-51.06978	0.74742	39.6219
990	0.75643	38.68334	0.60605	-51.79745	0.60605	-51.79745	0.75643	38.68334
1010	0.76363	37.89772	0.59703	-52.45984	0.59703	-52.45984	0.76363	37.89772
1030	0.77081	37.36636	0.58857	-53.08213	0.58857	-53.08213	0.77081	37.36636
1050	0.77927	36.99016	0.57968	-53.70473	0.57968	-53.70473	0.77927	36.99016
1070	0.78907	36.1955	0.56949	-54.38208	0.56949	-54.38208	0.78907	36.1955
1090	0.79456	35.55385	0.56152	-55.0294	0.56152	-55.0294	0.79456	35.55385
1110	0.79868	34.94855	0.55239	-55.66507	0.55239	-55.66507	0.79868	34.94855
1130	0.80401	34.30865	0.54188	-56.32261	0.54188	-56.32261	0.80401	34.30865
1150	0.81267	33.60891	0.53292	-57.05068	0.53292	-57.05068	0.81267	33.60891
1170	0.81916	32.71991	0.52307	-57.79145	0.52307	-57.79145	0.81916	32.71991
1190	0.82488	32.24261	0.51668	-58.17996	0.51668	-58.17996	0.82488	32.24261
1210	0.82985	31.66129	0.50917	-58.75797	0.50917	-58.75797	0.82985	31.66129
1230	0.8335	30.95712	0.49936	-59.52122	0.49936	-59.52122	0.8335	30.95712
1250	0.83468	30.60808	0.48944	-59.91946	0.48944	-59.91946	0.83468	30.60808
1270	0.84768	30.06147	0.48231	-60.37773	0.48231	-60.37773	0.84768	30.06147
1290	0.8519	29.16508	0.47321	-61.31508	0.47321	-61.31508	0.8519	29.16508
1310	0.85333	28.57244	0.46395	-61.88615	0.46395	-61.88615	0.85333	28.57244
1330	0.85718	28.27157	0.45589	-62.14616	0.45589	-62.14616	0.85718	28.27157
1350	0.86795	27.58496	0.44995	-63.05087	0.44995	-63.05087	0.86795	27.58496
1370	0.8702	26.75754	0.43981	-63.74726	0.43981	-63.74726	0.8702	26.75754
1390	0.87379	26.45431	0.4314	-63.96976	0.4314	-63.96976	0.87379	26.45431
1410	0.87976	25.96559	0.42505	-64.44219	0.42505	-64.44219	0.87976	25.96559
1430	0.88509	25.22279	0.41897	-65.1854	0.41897	-65.1854	0.88509	25.22279
1450	0.88273	24.79838	0.40922	-65.51732	0.40922	-65.51732	0.88273	24.79838
1470	0.88839	24.32983	0.40178	-65.8026	0.40178	-65.8026	0.88839	24.32983
1490	0.89218	23.51145	0.39357	-66.49481	0.39357	-66.49481	0.89218	23.51145
1510	0.89238	22.93354	0.38459	-67.07114	0.38459	-67.07114	0.89238	22.93354
1530	0.89283	22.61604	0.37612	-67.44308	0.37612	-67.44308	0.89283	22.61604
1550	0.90296	22.00853	0.37066	-67.95638	0.37066	-67.95638	0.90296	22.00853
1570	0.90573	21.17166	0.3624	-68.67208	0.3624	-68.67208	0.90573	21.17166
1590	0.90496	20.73002	0.35516	-69.13538	0.35516	-69.13538	0.90496	20.73002
1610	0.90733	20.37849	0.34759	-69.48885	0.34759	-69.48885	0.90733	20.37849
1630	0.91279	19.95488	0.33966	-69.83508	0.33966	-69.83508	0.91279	19.95488
1650	0.91456	19.43982	0.33263	-70.23673	0.33263	-70.23673	0.91456	19.43982
1670	0.91424	18.62528	0.32503	-70.74085	0.32503	-70.74085	0.91424	18.62528
1690	0.91438	18.30338	0.31675	-71.02939	0.31675	-71.02939	0.91438	18.30338
1710	0.91807	17.92785	0.30983	-71.35929	0.30983	-71.35929	0.91807	17.92785
1730	0.92402	17.27569	0.3039	-71.86213	0.3039	-71.86213	0.92402	17.27569
1750	0.92652	16.44726	0.2962	-72.5442	0.2962	-72.5442	0.92652	16.44726
1770	0.92531	16.08191	0.28888	-72.86589	0.28888	-72.86589	0.92531	16.08191
1790	0.93057	15.71575	0.28329	-73.2225	0.28329	-73.2225	0.93057	15.71575
1810	0.93192	15.26986	0.27617	-73.64941	0.27617	-73.64941	0.93192	15.26986
1830	0.92983	14.77447	0.26795	-73.99508	0.26795	-73.99508	0.92983	14.77447
1850	0.93558	14.36895	0.26269	-73.92111	0.26269	-73.92111	0.93558	14.36895
1870	0.93609	13.44396	0.25624	-74.4286	0.25624	-74.4286	0.93609	13.44396
1890	0.93686	13.07481	0.24848	-74.92798	0.24848	-74.92798	0.93686	13.07481
1910	0.94045	12.8295	0.24167	-75.21518	0.24167	-75.21518	0.94045	12.8295
1930	0.94594	12.40384	0.23618	-75.47162	0.23618	-75.47162	0.94594	12.40384
1950	0.94896	11.62143	0.23044	-76.26418	0.23044	-76.26418	0.94896	11.62143
1970	0.94573	11.1423	0.22238	-76.38026	0.22238	-76.38026	0.94573	11.1423
1990	0.94745	10.93873	0.21533	-76.60233	0.21533	-76.60233	0.94745	10.93873
2010	0.94956	10.71619	0.20943	-76.82694	0.20943	-76.82694	0.94956	10.71619
2030	0.95082	10.24693	0.20404	-77.09481	0.20404	-77.09481	0.95082	10.24693
2050	0.95333	9.37005	0.19772	-77.59085	0.19772	-77.59085	0.95333	9.37005
2070	0.94779	9.01815	0.1902	-77.79645	0.1902	-77.79645	0.94779	9.01815
2090	0.9512	8.81826	0.18386	-77.96674	0.18386	-77.96674	0.9512	8.81826
2110	0.95569	8.32285	0.17852	-78.37419	0.17852	-78.37419	0.95569	8.32285
2130	0.95659	7.65585	0.1731	-78.82405	0.1731	-78.82405	0.95659	7.65585
2150	0.95233	7.51262	0.16568	-78.65436	0.16568	-78.65436	0.95233	7.51262
2170	0.95847	7.23218	0.16048	-78.89491	0.16048	-78.89491	0.95847	7.23218
2190	0.96145	6.72095	0.15448	-79.24195	0.15448	-79.24195	0.96145	6.72095
2210	0.96163	6.25629	0.14831	-79.40863	0.14831	-79.40863	0.96163	6.25629
2230	0.9611	5.8433	0.14235	-79.48218	0.14235	-79.48218	0.9611	5.8433
2250	0.96364	5.2148	0.13675	-79.92388	0.13675	-79.92388	0.96364	5.2148
2270	0.95891	4.71875	0.13041	-80.1583	0.13041	-80.1583	0.95891	4.71875
2290	0.96173	4.59309	0.12473	-80.11585	0.12473	-80.11585	0.96173	4.59309
2310	0.96618	4.22311	0.11928	-80.19263	0.11928	-80.19263	0.96618	4.22311
2330	0.96709	3.53711	0.1135	-80.46448	0.1135	-80.46448	0.96709	3.53711
2350	0.96006	3.00647	0.10666	-80.68691	0.10666	-80.68691	0.96006	3.00647
2370	0.96223	3.28491	0.10145	-80.13383	0.10145	-80.13383	0.96223	3.28491
2390	0.96836	2.7625	0.09647	-80.17912	0.09647	-80.17912	0.96836	2.7625
2410	0.96874	2.17415	0.09078	-80.33992	0.09078	-80.33992	0.96874	2.17415
2430	0.96386	1.82205	0.08463	-80.25109	0.08463	-80.25109	0.96386	1.82205
2450	0.96445	1.57569	0.07948	-79.66515	0.07948	-79.66515	0.96445	1.57569
2470	0.96943	1.05877	0.07417	-79.6256	0.07417	-79.6256	0.96943	1.05877
2490	0.96805	0.56507	0.06864	-79.45063	0.06864	-79.45063	0.96805	0.56507
2510	0.96438	0.21581	0.06316	-78.9976	0.06316	-78.9976	0.96438	0.21581
2530	0.96222	-0.00273	0.0578	-78.23926	0.0578	-78.23926	0.96222	-0.00273
2550	0.96504	-0.23917	0.05245	-77.26371	0.05245	-77.26371	0.96504	-0.23917
2570	0.96807	-0.90408	0.0474	-76.15573	0.0474	-76.15573	0.96807	-0.90408
2590	0.96741	-1.19782	0.04206	-74.75656	0.04206	-74.75656	0.96741	-1.19782
2610	0.96618	-1.54909	0.0369	-72.99282	0.0369	-72.99282	0.96618	-1.54909
2630	0.96557	-2.05227	0.03196	-70.6434	0.03196	-70.6434	0.96557	-2.05227
2650	0.96476	-2.46743	0.02686	-67.33944	0.02686	-67.33944	0.96476	-2.46743
2670	0.96758	-2.51807	0.02229	-61.73299	0.02229	-61.73299	0.96758	-2.51807
2690	0.97073	-2.90679	0.01804	-53.38855	0.01804	-53.38855	0.97073	-2.90679
2710	0.97249	-3.35373	0.01442	-40.2853	0.01442	-40.2853	0.97249	-3.35373
2730	0.97148	-3.69792	0.01191	-21.19941	0.01191	-21.19941	0.97148	-3.69792
2750	0.96671	-3.89721	0.01111	4.29596	0.01111	4.29596	0.96671	-3.89721
2770	0.96	-4.37241	0.01303	26.83863	0.01303	26.83863	0.96	-4.37241
2790	0.96442	-4.72915	0.01621	42.28124	0.01621	42.28124	0.96442	-4.72915
2810	0.97036	-5.11793	0.02004	52.40065	0.02004	52.40065	0.97036	-5.11793
2830	0.97121	-5.50419	0.02426	58.86269	0.02426	58.86269	0.97121	-5.50419
2850	0.96339	-5.66833	0.02894	63.2222	0.02894	63.2222	0.96339	-5.66833
2870	0.96372	-5.91732	0.03361	66.43289	0.03361	66.43289	0.96372	-5.91732
2890	0.96701	-6.08381	0.03837	68.55344	0.03837	68.55344	0.96701	-6.08381
2910	0.96814	-6.39346	0.04309	70.01183	0.04309	70.01183	0.96814	-6.39346
2930	0.96628	-6.75144	0.04773	71.20056	0.04773	71.20056	0.96628	-6.75144
2950	0.96486	-6.74244	0.05239	72.47673	0.05239	72.47673	0.96486	-6.74244
2970	0.96817	-7.42058	0.05757	73.01362	0.05757	73.01362	0.96817	-7.42058
2990	0.96678	-7.84679	0.06221	73.44701	0.06221	73.44701	0.96678	-7.84679
3010	0.96467	-8.07017	0.06682	74.00848	0.06682	74.00848	0.96467	-8.07017
3030	0.96463	-8.2028	0.07154	74.57624	0.07154	74.57624	0.96463	-8.2028
3050	0.96832	-8.41969	0.07615	74.67515	0.07615	74.67515	0.96832	-8.41969
3070	0.96346	-9.49756	0.08099	74.33766	0.08099	74.33766	0.96346	-9.49756
3090	0.95925	-9.70564	0.08559	74.46563	0.08559	74.46563	0.95925	-9.70564
3110	0.95816	-9.57489	0.0901	74.81796	0.0901	74.81796	0.95816	-9.57489
3130	0.96087	-9.5893	0.09471	75.11625	0.09471	75.11625	0.96087	-9.5893
3150	0.96622	-10.18588	0.09963	75.04484	0.09963	75.04484	0.96622	-10.18588
3170	0.95474	-10.58652	0.10327	74.97151	0.10327	74.97151	0.95474	-10.58652
3190	0.95559	-10.74279	0.10729	75.05579	0.10729	75.05579	0.95559	-10.74279
3210	0.95995	-10.97357	0.11192	74.94492	0.11192	74.94492	0.95995	-10.97357
3230	0.96116	-11.29803	0.11673	74.66853	0.11673	74.66853	0.96116	-11.29803
3250	0.95478	-11.43564	0.12059	74.63869	0.12059	74.63869	0.95478	-11.43564
3270	0.95855	-11.74422	0.12618	74.36421	0.12618	74.36421	0.95855	-11.74422
3290	0.95558	-12.17478	0.13021	74.36313	0.13021	74.36313	0.95558	-12.17478
3310	0.95246	-12.45999	0.13399	74.38627	0.13399	74.38627	0.95246	-12.45999
3330	0.95318	-12.61004	0.1384	74.38591	0.1384	74.38591	0.95318	-12.61004
3350	0.9591	-12.91263	0.14389	74.51573	0.14389	74.51573	0.9591	-12.91263
3370	0.95623	-13.6489	0.14684	73.87603	0.14684	73.87603	0.95623	-13.6489
3390	0.95143	-13.8321	0.15044	73.81515	0.15044	73.81515	0.95143	-13.8321
3410	0.9515	-13.71283	0.15489	73.96614	0.15489	73.96614	0.9515	-13.71283
3430	0.95464	-13.70086	0.15988	73.95709	0.15988	73.95709	0.95464	-13.70086
3450	0.95046	-14.36508	0.16461	73.41115	0.16461	73.41115	0.95046	-14.36508
3470	0.94391	-14.98779	0.16733	72.96515	0.16733	72.96515	0.94391	-14.98779
3490	0.94421	-14.91403	0.17145	73.14187	0.17145	73.14187	0.94421	-14.91403
3510	0.94943	-15.17939	0.17629	73.17016	0.17629	73.17016	0.94943	-15.17939
3530	0.9536	-15.87577	0.18065	72.87216	0.18065	72.87216	0.9536	-15.87577
3550	0.94676	-16.15139	0.18278	72.66324	0.18278	72.66324	0.94676	-16.15139
3570	0.94646	-15.88305	0.1869	73.00821	0.1869	73.00821	0.94646	-15.88305
3590	0.94612	-16.22802	0.19188	72.65355	0.19188	72.65355	0.94612	-16.22802
3610	0.94297	-16.47654	0.19587	72.30245	0.19587	72.30245	0.94297	-16.47654
3630	0.93975	-16.53711	0.19905	72.26916	0.19905	72.26916	0.93975	-16.53711
3650	0.94472	-16.93644	0.2036	72.47896	0.2036	72.47896	0.94472	-16.93644
3670	0.94209	-17.53004	0.20717	71.7473	0.20717	71.7473	0.94209	-17.53004
3690	0.93894	-17.4711	0.21006	71.59617	0.21006	71.59617	0.93894	-17.4711
3710	0.94047	-17.68175	0.21366	71.52919	0.21366	71.52919	0.94047	-17.68175
3730	0.94393	-18.30842	0.21786	71.348	0.21786	71.348	0.94393	-18.30842
3750	0.93861	-18.72184	0.22105	71.15232	0.22105	71.15232	0.93861	-18.72184
3770	0.93834	-18.48054	0.22408	71.16969	0.22408	71.16969	0.93834	-18.48054
3790	0.94199	-18.61452	0.22947	70.94072	0.22947	70.94072	0.94199	-18.61452
3810	0.94149	-19.00825	0.23344	70.64816	0.23344	70.64816	0.94149	-19.00825
3830	0.93663	-19.49612	0.23596	70.42851	0.23596	70.42851	0.93663	-19.49612
3850	0.93512	-19.86249	0.2408	70.37206	0.2408	70.37206	0.93512	-19.86249
3870	0.93002	-20.11713	0.24356	70.22615	0.24356	70.22615	0.93002	-20.11713
3890	0.9341	-20.13827	0.24767	70.19789	0.24767	70.19789	0.9341	-20.13827
3910	0.93682	-20.5458	0.25202	69.93554	0.25202	69.93554	0.93682	-20.5458
3930	0.93398	-21.18702	0.2555	69.44728	0.2555	69.44728	0.93398	-21.18702
3950	0.92764	-21.13671	0.25704	69.10119	0.25704	69.10119	0.92764	-21.13671
3970	0.92983	-21.04753	0.26182	69.27145	0.26182	69.27145	0.92983	-21.04753
3990	0.93313	-21.3953	0.26625	69.02438	0.26625	69.02438	0.93313	-21.3953
4010	0.93155	-21.89923	0.2698	68.79484	0.2698	68.79484	0.93155	-21.89923
4030	0.92573	-22.3309	0.27278	68.72739	0.27278	68.72739	0.92573	-22.3309
4050	0.92291	-22.51421	0.27632	68.67626	0.27632	68.67626	0.92291	-22.51421
4070	0.9262	-22.77006	0.27995	68.39031	0.27995	68.39031	0.9262	-22.77006
4090	0.9289	-23.34734	0.28355	68.05074	0.28355	68.05074	0.9289	-23.34734
4110	0.9271	-23.82597	0.28665	67.71394	0.28665	67.71394	0.9271	-23.82597
4130	0.92135	-23.95343	0.28937	67.55979	0.28937	67.55979	0.92135	-23.95343
4150	0.91668	-23.64467	0.29244	67.89159	0.29244	67.89159	0.91668	-23.64467
4170	0.92685	-24.18806	0.29828	67.31909	0.29828	67.31909	0.92685	-24.18806
4190	0.92309	-24.62989	0.30086	66.98206	0.30086	66.98206	0.92309	-24.62989
4210	0.91935	-24.72963	0.30325	66.93948	0.30325	66.93948	0.91935	-24.72963
4230	0.92092	-24.73865	0.30684	66.97563	0.30684	66.97563	0.92092	-24.73865
4250	0.92448	-25.40024	0.31133	66.60008	0.31133	66.60008	0.92448	-25.40024
4270	0.91674	-25.441	0.3128	66.57317	0.3128	66.57317	0.91674	-25.441
4290	0.91766	-25.81592	0.31717	66.25774	0.31717	66.25774	0.91766	-25.81592
4310	0.9189	-26.32519	0.32069	65.84855	0.32069	65.84855	0.9189	-26.32519
4330	0.91853	-26.74955	0.32326	65.53474	0.32326	65.53474	0.91853	-26.74955
4350	0.92101	-26.85033	0.3284	65.49986	0.3284	65.49986	0.92101	-26.85033
4370	0.91746	-27.12035	0.33189	65.21953	0.33189	65.21953	0.91746	-27.12035
4390	0.91334	-27.2771	0.33325	65.18074	0.33325	65.18074	0.91334	-27.2771
4410	0.91038	-27.45872	0.33557	65.13805	0.33557	65.13805	0.91038	-27.45872
4430	0.90957	-27.79893	0.33921	64.93894	0.33921	64.93894	0.90957	-27.79893
4450	0.91109	-28.42697	0.34183	64.5239	0.34183	64.5239	0.91109	-28.42697
4470	0.91118	-28.48175	0.34607	64.55117	0.34607	64.55117	0.91118	-28.48175
4490	0.91208	-29.05904	0.34956	64.27964	0.34956	64.27964	0.91208	-29.05904
4510	0.90803	-29.23031	0.35189	64.08742	0.35189	64.08742	0.90803	-29.23031
4530	0.90309	-28.96181	0.35419	64.13272	0.35419	64.13272	0.90309	-28.96181
4550	0.91122	-29.11462	0.35914	64.35381	0.35914	64.35381	0.91122	-29.11462
4570	0.90939	-30.21861	0.36217	63.46962	0.36217	63.46962	0.90939	-30.21861
4590	0.89908	-30.65716	0.363	63.32874	0.363	63.32874	0.89908	-30.65716
4610	0.89671	-30.53624	0.36573	63.45912	0.36573	63.45912	0.89671	-30.53624
4630	0.90331	-30.50092	0.37032	63.35897	0.37032	63.35897	0.90331	-30.50092
4650	0.90445	-31.73529	0.37258	62.49676	0.37258	62.49676	0.90445	-31.73529
4670	0.89782	-31.77019	0.37353	62.38699	0.37353	62.38699	0.89782	-31.77019
4690	0.89597	-31.85521	0.37656	62.49891	0.37656	62.49891	0.89597	-31.85521
4710	0.89726	-32.05387	0.38048	62.4414	0.38048	62.4414	0.89726	-32.05387
4730	0.89928	-32.39963	0.38402	62.16729	0.38402	62.16729	0.89928	-32.39963
4750	0.89893	-32.89592	0.38579	61.97337	0.38579	61.97337	0.89893	-32.89592
4770	0.89221	-33.20406	0.38734	61.71131	0.38734	61.71131	0.89221	-33.20406
4790	0.89058	-33.36508	0.39055	61.49716	0.39055	61.49716	0.89058	-33.36508
4810	0.89097	-33.64182	0.39406	61.28331	0.39406	61.28331	0.89097	-33.64182
4830	0.89127	-34.06452	0.39684	61.07178	0.39684	61.07178	0.89127	-34.06452
4850	0.89036	-34.43084	0.39814	60.91426	0.39814	60.91426	0.89036	-34.43084
4870	0.89194	-34.48475	0.40222	60.84348	0.40222	60.84348	0.89194	-34.48475
4890	0.88805	-34.79179	0.40502	60.52503	0.40502	60.52503	0.88805	-34.79179
4910	0.88477	-34.96046	0.40619	60.43923	0.40619	60.43923	0.88477	-34.96046
4930	0.88588	-35.05454	0.40815	60.53078	0.40815	60.53078	0.88588	-35.05454
4950	0.89289	-35.593	0.41614	60.20874	0.41614	60.20874	0.89289	-35.593
4970	0.87945	-36.19746	0.41256	59.89897	0.41256	59.89897	0.87945	-36.19746
4990	0.87865	-36.11292	0.4159	59.90081	0.4159	59.90081	0.87865	-36.11292
5010	0.88551	-36.22295	0.42046	59.7123	0.42046	59.7123	0.88551	-36.22295
5030	0.88899	-36.80989	0.42237	59.22657	0.42237	59.22657	0.88899	-36.80989
5050	0.87199	-37.5549	0.41962	58.73182	0.41962	58.73182	0.87199	-37.5549
5070	0.87637	-36.94377	0.42394	59.1842	0.42394	59.1842	0.87637	-36.94377
5090	0.88186	-37.10963	0.42889	58.88504	0.42889	58.88504	0.88186	-37.10963
5110	0.88009	-37.69226	0.43231	58.40022	0.43231	58.40022	0.88009	-37.69226
5130	0.87107	-38.18214	0.43331	58.20855	0.43331	58.20855	0.87107	-38.18214
5150	0.86319	-37.92047	0.43219	58.70181	0.43219	58.70181	0.86319	-37.92047
5170	0.87119	-38.15792	0.43993	58.38136	0.43993	58.38136	0.87119	-38.15792
5190	0.87209	-39.02812	0.44211	57.67623	0.44211	57.67623	0.87209	-39.02812
5210	0.86631	-39.44007	0.44077	57.33227	0.44077	57.33227	0.86631	-39.44007
5230	0.86124	-39.12692	0.44032	57.55274	0.44032	57.55274	0.86124	-39.12692
5250	0.87119	-38.64602	0.44756	57.99834	0.44756	57.99834	0.87119	-38.64602
5270	0.87367	-39.98255	0.45206	56.88218	0.45206	56.88218	0.87367	-39.98255
5290	0.86139	-40.11035	0.44877	56.51076	0.44877	56.51076	0.86139	-40.11035
5310	0.86065	-39.75923	0.45027	56.81082	0.45027	56.81082	0.86065	-39.75923
5330	0.87195	-39.74889	0.45742	57.08867	0.45742	57.08867	0.87195	-39.74889
5350	0.86996	-40.98891	0.45938	56.03018	0.45938	56.03018	0.86996	-40.98891
5370	0.85562	-40.93524	0.4588	56.09496	0.4588	56.09496	0.85562	-40.93524
5390	0.85934	-40.80746	0.46318	56.18361	0.46318	56.18361	0.85934	-40.80746
5410	0.86416	-41.00752	0.46692	55.86562	0.46692	55.86562	0.86416	-41.00752
5430	0.86313	-41.40439	0.4682	55.36972	0.4682	55.36972	0.86313	-41.40439
