! Data Taken on a HP 8720C VNA using a series-through fixture with TRL* de-embedding
#	mhz	s	ma	r	50
50	0.03248	63.73591	0.98823	-2.63904	0.98823	-2.63904	0.03248	63.73591
70	0.04652	68.56453	0.9849	-3.03225	0.9849	-3.03225	0.04652	68.56453
90	0.05843	71.0569	0.98121	-3.59803	0.98121	-3.59803	0.05843	71.0569
110	0.06923	71.30792	0.97871	-4.26356	0.97871	-4.26356	0.06923	71.30792
130	0.08012	70.57682	0.97774	-4.96506	0.97774	-4.96506	0.08012	70.57682
150	0.09251	71.28711	0.97743	-5.64776	0.97743	-5.64776	0.09251	71.28711
170	0.1038	72.14215	0.97706	-6.02414	0.97706	-6.02414	0.1038	72.14215
190	0.11459	72.27706	0.9717	-6.92982	0.9717	-6.92982	0.11459	72.27706
210	0.1255	72.11145	0.96792	-7.67569	0.96792	-7.67569	0.1255	72.11145
230	0.13654	71.96236	0.96777	-8.19047	0.96777	-8.19047	0.13654	71.96236
250	0.14713	72.04423	0.96871	-9.02077	0.96871	-9.02077	0.14713	72.04423
270	0.15789	71.4357	0.96491	-9.61114	0.96491	-9.61114	0.15789	71.4357
290	0.16889	71.01213	0.96221	-10.23472	0.96221	-10.23472	0.16889	71.01213
310	0.18056	70.54656	0.95971	-10.86451	0.95971	-10.86451	0.18056	70.54656
330	0.19272	69.98589	0.95677	-11.51537	0.95677	-11.51537	0.19272	69.98589
350	0.20458	69.45096	0.95304	-12.24404	0.95304	-12.24404	0.20458	69.45096
370	0.21563	69.60465	0.95516	-12.75333	0.95516	-12.75333	0.21563	69.60465
390	0.22598	69.59695	0.95231	-13.46768	0.95231	-13.46768	0.22598	69.59695
410	0.23638	69.32019	0.94846	-14.1926	0.94846	-14.1926	0.23638	69.32019
430	0.2469	68.84504	0.94558	-14.82473	0.94558	-14.82473	0.2469	68.84504
450	0.25685	68.42045	0.94361	-15.35182	0.94361	-15.35182	0.25685	68.42045
470	0.26587	67.7421	0.93982	-16.04402	0.93982	-16.04402	0.26587	67.7421
490	0.29072	68.71787	0.93419	-17.85852	0.93419	-17.85852	0.29072	68.71787
510	0.31252	69.10678	0.92994	-19.32257	0.92994	-19.32257	0.31252	69.10678
530	0.32382	68.56933	0.92659	-20.00648	0.92659	-20.00648	0.32382	68.56933
550	0.32856	68.66752	0.9199	-20.52356	0.9199	-20.52356	0.32856	68.66752
570	0.3387	68.07277	0.91679	-21.12955	0.91679	-21.12955	0.3387	68.07277
590	0.34988	67.4273	0.9129	-21.58877	0.9129	-21.58877	0.34988	67.4273
610	0.35943	66.84869	0.91005	-22.16461	0.91005	-22.16461	0.35943	66.84869
630	0.36748	66.29153	0.90742	-22.88351	0.90742	-22.88351	0.36748	66.29153
650	0.37692	65.54741	0.9016	-23.53499	0.9016	-23.53499	0.37692	65.54741
670	0.38949	65.0908	0.89865	-24.22593	0.89865	-24.22593	0.38949	65.0908
690	0.39937	64.76615	0.89379	-24.93968	0.89379	-24.93968	0.39937	64.76615
710	0.40968	64.21226	0.88882	-25.56814	0.88882	-25.56814	0.40968	64.21226
730	0.42038	63.57515	0.88371	-26.11154	0.88371	-26.11154	0.42038	63.57515
750	0.4282	63.508	0.87655	-26.67835	0.87655	-26.67835	0.4282	63.508
770	0.4367	63.06607	0.87624	-27.46383	0.87624	-27.46383	0.4367	63.06607
790	0.44582	62.49327	0.87057	-27.9174	0.87057	-27.9174	0.44582	62.49327
810	0.45347	62.01897	0.86441	-28.3844	0.86441	-28.3844	0.45347	62.01897
830	0.45971	61.50825	0.85922	-28.93767	0.85922	-28.93767	0.45971	61.50825
850	0.4668	60.46187	0.85308	-29.37752	0.85308	-29.37752	0.4668	60.46187
870	0.47477	60.13052	0.84798	-30.25891	0.84798	-30.25891	0.47477	60.13052
890	0.48393	59.4364	0.84281	-30.95669	0.84281	-30.95669	0.48393	59.4364
910	0.49294	58.61978	0.83828	-31.57868	0.83828	-31.57868	0.49294	58.61978
930	0.50101	57.8605	0.83359	-32.19027	0.83359	-32.19027	0.50101	57.8605
950	0.50798	57.27801	0.82635	-32.81443	0.82635	-32.81443	0.50798	57.27801
970	0.52013	56.78016	0.82139	-33.41986	0.82139	-33.41986	0.52013	56.78016
990	0.52819	56.07599	0.81698	-34.00854	0.81698	-34.00854	0.52819	56.07599
1010	0.53518	55.35024	0.81228	-34.60252	0.81228	-34.60252	0.53518	55.35024
1030	0.54296	54.77921	0.80692	-35.16637	0.80692	-35.16637	0.54296	54.77921
1050	0.55233	54.53077	0.80101	-35.60721	0.80101	-35.60721	0.55233	54.53077
1070	0.56219	53.77936	0.79425	-36.22272	0.79425	-36.22272	0.56219	53.77936
1090	0.57002	53.30662	0.7897	-36.80175	0.7897	-36.80175	0.57002	53.30662
1110	0.57724	52.88319	0.78458	-37.30458	0.78458	-37.30458	0.57724	52.88319
1130	0.5846	52.38745	0.77842	-37.78831	0.77842	-37.78831	0.5846	52.38745
1150	0.59221	51.80546	0.77301	-38.40687	0.77301	-38.40687	0.59221	51.80546
1170	0.59942	51.1044	0.76653	-39.06619	0.76653	-39.06619	0.59942	51.1044
1190	0.60644	50.66186	0.76214	-39.52858	0.76214	-39.52858	0.60644	50.66186
1210	0.61312	50.13624	0.75782	-40.06039	0.75782	-40.06039	0.61312	50.13624
1230	0.61933	49.50184	0.75194	-40.68368	0.75194	-40.68368	0.61933	49.50184
1250	0.625	49.04883	0.74327	-41.17619	0.74327	-41.17619	0.625	49.04883
1270	0.63609	48.78296	0.7404	-41.51239	0.7404	-41.51239	0.63609	48.78296
1290	0.64273	47.93779	0.73645	-42.27132	0.73645	-42.27132	0.64273	47.93779
1310	0.64783	47.32727	0.72993	-42.80121	0.72993	-42.80121	0.64783	47.32727
1330	0.65378	47.09451	0.72264	-43.08264	0.72264	-43.08264	0.65378	47.09451
1350	0.66245	46.71174	0.71967	-43.72857	0.71967	-43.72857	0.66245	46.71174
1370	0.66865	45.91057	0.71075	-44.52654	0.71075	-44.52654	0.66865	45.91057
1390	0.67272	45.58442	0.70515	-44.81759	0.70515	-44.81759	0.67272	45.58442
1410	0.6793	45.17498	0.7016	-45.25588	0.7016	-45.25588	0.6793	45.17498
1430	0.68694	44.55779	0.69722	-45.87718	0.69722	-45.87718	0.68694	44.55779
1450	0.68806	44.04219	0.68751	-46.09887	0.68751	-46.09887	0.68806	44.04219
1470	0.69495	43.65261	0.68435	-46.27256	0.68435	-46.27256	0.69495	43.65261
1490	0.70069	42.98095	0.67906	-47.15101	0.67906	-47.15101	0.70069	42.98095
1510	0.70476	42.42215	0.67205	-47.87118	0.67205	-47.87118	0.70476	42.42215
1530	0.70901	42.02252	0.66462	-48.24652	0.66462	-48.24652	0.70901	42.02252
1550	0.71765	41.47976	0.65888	-48.76702	0.65888	-48.76702	0.71765	41.47976
1570	0.72163	40.73626	0.65458	-49.38973	0.65458	-49.38973	0.72163	40.73626
1590	0.72455	40.26894	0.64932	-49.79312	0.64932	-49.79312	0.72455	40.26894
1610	0.72984	39.9165	0.64314	-50.10684	0.64314	-50.10684	0.72984	39.9165
1630	0.73668	39.55313	0.63692	-50.47293	0.63692	-50.47293	0.73668	39.55313
1650	0.74004	39.08859	0.63237	-51.0459	0.63237	-51.0459	0.74004	39.08859
1670	0.74487	38.32391	0.6246	-51.53482	0.6246	-51.53482	0.74487	38.32391
1690	0.74649	37.97636	0.61755	-51.8331	0.61755	-51.8331	0.74649	37.97636
1710	0.75142	37.58078	0.61253	-52.20886	0.61253	-52.20886	0.75142	37.58078
1730	0.75966	36.95729	0.60838	-52.75423	0.60838	-52.75423	0.75966	36.95729
1750	0.76464	36.2113	0.60152	-53.38532	0.60152	-53.38532	0.76464	36.2113
1770	0.76552	35.71657	0.59528	-53.70914	0.59528	-53.70914	0.76552	35.71657
1790	0.77192	35.36992	0.59153	-54.03439	0.59153	-54.03439	0.77192	35.36992
1810	0.77653	34.95221	0.58636	-54.5211	0.58636	-54.5211	0.77653	34.95221
1830	0.77853	34.44672	0.57937	-55.01721	0.57937	-55.01721	0.77853	34.44672
1850	0.78355	34.03914	0.5736	-55.05855	0.5736	-55.05855	0.78355	34.03914
1870	0.7885	33.27058	0.56962	-55.74273	0.56962	-55.74273	0.7885	33.27058
1890	0.79229	32.80186	0.56255	-56.25541	0.56255	-56.25541	0.79229	32.80186
1910	0.79708	32.46769	0.5552	-56.58203	0.5552	-56.58203	0.79708	32.46769
1930	0.80272	32.05305	0.54974	-56.86053	0.54974	-56.86053	0.80272	32.05305
1950	0.80669	31.29311	0.54774	-57.38129	0.54774	-57.38129	0.80669	31.29311
1970	0.8088	30.78301	0.54022	-57.85942	0.54022	-57.85942	0.8088	30.78301
1990	0.81285	30.52129	0.53355	-58.06457	0.53355	-58.06457	0.81285	30.52129
2010	0.81719	30.23363	0.52855	-58.28846	0.52855	-58.28846	0.81719	30.23363
2030	0.82141	29.77856	0.5245	-58.71524	0.5245	-58.71524	0.82141	29.77856
2050	0.82632	29.1475	0.51918	-59.4215	0.51918	-59.4215	0.82632	29.1475
2070	0.82419	28.63275	0.5113	-59.80429	0.5113	-59.80429	0.82419	28.63275
2090	0.82873	28.46064	0.50413	-59.92099	0.50413	-59.92099	0.82873	28.46064
2110	0.83531	27.92481	0.5003	-60.425	0.5003	-60.425	0.83531	27.92481
2130	0.83941	27.13807	0.49739	-61.14326	0.49739	-61.14326	0.83941	27.13807
2150	0.83664	27.03238	0.48798	-61.07626	0.48798	-61.07626	0.83664	27.03238
2170	0.84243	26.75785	0.48412	-61.2712	0.48412	-61.2712	0.84243	26.75785
2190	0.84796	26.2871	0.47904	-61.80083	0.47904	-61.80083	0.84796	26.2871
2210	0.85083	25.7699	0.47284	-62.22109	0.47284	-62.22109	0.85083	25.7699
2230	0.8523	25.26545	0.46693	-62.49397	0.46693	-62.49397	0.8523	25.26545
2250	0.85733	24.74238	0.46403	-62.98753	0.46403	-62.98753	0.85733	24.74238
2270	0.85735	24.14365	0.4574	-63.399	0.4574	-63.399	0.85735	24.14365
2290	0.85959	23.98102	0.45137	-63.7442	0.45137	-63.7442	0.85959	23.98102
2310	0.86434	23.69604	0.44684	-64.01092	0.44684	-64.01092	0.86434	23.69604
2330	0.86878	23.09322	0.44204	-64.32518	0.44204	-64.32518	0.86878	23.09322
2350	0.86695	22.33998	0.43248	-64.95123	0.43248	-64.95123	0.86695	22.33998
2370	0.86783	22.5148	0.42808	-64.93388	0.42808	-64.93388	0.86783	22.5148
2390	0.87463	22.12818	0.42524	-65.28763	0.42524	-65.28763	0.87463	22.12818
2410	0.87809	21.56549	0.41958	-65.70089	0.41958	-65.70089	0.87809	21.56549
2430	0.8772	21.10665	0.41159	-66.00938	0.41159	-66.00938	0.8772	21.10665
2450	0.87922	20.92614	0.40668	-66.1962	0.40668	-66.1962	0.87922	20.92614
2470	0.88612	20.55077	0.40369	-66.63182	0.40369	-66.63182	0.88612	20.55077
2490	0.88726	19.93958	0.39816	-67.154	0.39816	-67.154	0.88726	19.93958
2510	0.88583	19.48447	0.39228	-67.39708	0.39228	-67.39708	0.88583	19.48447
2530	0.88554	19.26227	0.38689	-67.43795	0.38689	-67.43795	0.88554	19.26227
2550	0.89062	19.03469	0.38148	-67.796	0.38148	-67.796	0.89062	19.03469
2570	0.89416	18.4353	0.37746	-68.30541	0.37746	-68.30541	0.89416	18.4353
2590	0.89496	18.03334	0.37094	-68.59965	0.37094	-68.59965	0.89496	18.03334
2610	0.89567	17.62355	0.36584	-68.87133	0.36584	-68.87133	0.89567	17.62355
2630	0.89715	17.1587	0.36187	-69.24651	0.36187	-69.24651	0.89715	17.1587
2650	0.89841	16.74958	0.35459	-69.78476	0.35459	-69.78476	0.89841	16.74958
2670	0.90101	16.69653	0.35022	-69.7276	0.35022	-69.7276	0.90101	16.69653
2690	0.90663	16.25575	0.34529	-70.01602	0.34529	-70.01602	0.90663	16.25575
2710	0.91116	15.77371	0.3398	-70.40061	0.3398	-70.40061	0.91116	15.77371
2730	0.91237	15.40701	0.33426	-70.6982	0.33426	-70.6982	0.91237	15.40701
2750	0.90986	15.1223	0.32971	-70.79192	0.32971	-70.79192	0.90986	15.1223
2770	0.90457	14.60428	0.32374	-71.15922	0.32374	-71.15922	0.90457	14.60428
2790	0.9099	14.27009	0.3184	-71.55552	0.3184	-71.55552	0.9099	14.27009
2810	0.91678	13.94504	0.31336	-71.99613	0.31336	-71.99613	0.91678	13.94504
2830	0.91968	13.57964	0.30862	-72.44023	0.30862	-72.44023	0.91968	13.57964
2850	0.91661	13.2497	0.30449	-72.79088	0.30449	-72.79088	0.91661	13.2497
2870	0.91669	12.97289	0.29896	-72.62784	0.29896	-72.62784	0.91669	12.97289
2890	0.92107	12.86497	0.29473	-72.784	0.29473	-72.784	0.92107	12.86497
2910	0.92515	12.56606	0.28966	-73.21454	0.28966	-73.21454	0.92515	12.56606
2930	0.92653	12.13986	0.2834	-73.61507	0.2834	-73.61507	0.92653	12.13986
2950	0.925	12.07363	0.27734	-73.42153	0.27734	-73.42153	0.925	12.07363
2970	0.9299	11.42025	0.27352	-73.85679	0.27352	-73.85679	0.9299	11.42025
2990	0.93162	10.89309	0.26898	-74.25577	0.26898	-74.25577	0.93162	10.89309
3010	0.93181	10.60627	0.26374	-74.5339	0.26374	-74.5339	0.93181	10.60627
3030	0.93242	10.48511	0.25839	-74.70574	0.25839	-74.70574	0.93242	10.48511
3050	0.93563	10.26607	0.25414	-74.88488	0.25414	-74.88488	0.93563	10.26607
3070	0.93509	9.36136	0.24901	-75.35356	0.24901	-75.35356	0.93509	9.36136
3090	0.93148	8.99586	0.24389	-75.64319	0.24389	-75.64319	0.93148	8.99586
3110	0.93046	8.98465	0.23821	-75.64863	0.23821	-75.64863	0.93046	8.98465
3130	0.93456	9.01422	0.2329	-75.54782	0.2329	-75.54782	0.93456	9.01422
3150	0.94314	8.64242	0.2304	-75.80178	0.2304	-75.80178	0.94314	8.64242
3170	0.93626	7.92012	0.22411	-76.41389	0.22411	-76.41389	0.93626	7.92012
3190	0.93637	7.68366	0.21851	-76.52394	0.21851	-76.52394	0.93637	7.68366
3210	0.94088	7.47729	0.21391	-76.71715	0.21391	-76.71715	0.94088	7.47729
3230	0.94461	7.18142	0.20978	-77.09746	0.20978	-77.09746	0.94461	7.18142
3250	0.93986	7.01264	0.20473	-77.28754	0.20473	-77.28754	0.93986	7.01264
3270	0.94763	6.66274	0.20112	-77.42878	0.20112	-77.42878	0.94763	6.66274
3290	0.94661	6.15691	0.19592	-77.69794	0.19592	-77.69794	0.94661	6.15691
3310	0.94347	5.86293	0.19023	-77.85556	0.19023	-77.85556	0.94347	5.86293
3330	0.94348	5.79616	0.18523	-77.88217	0.18523	-77.88217	0.94348	5.79616
3350	0.95052	5.61962	0.18213	-77.97833	0.18213	-77.97833	0.95052	5.61962
3370	0.95134	4.74256	0.17645	-78.47288	0.17645	-78.47288	0.95134	4.74256
3390	0.94745	4.45493	0.1709	-78.63858	0.1709	-78.63858	0.94745	4.45493
3410	0.94837	4.4903	0.1664	-78.53424	0.1664	-78.53424	0.94837	4.4903
3430	0.95336	4.42607	0.16284	-78.49796	0.16284	-78.49796	0.95336	4.42607
3450	0.95146	3.68352	0.15908	-79.14706	0.15908	-79.14706	0.95146	3.68352
3470	0.94537	3.06896	0.15291	-79.31524	0.15291	-79.31524	0.94537	3.06896
3490	0.94626	3.17171	0.148	-79.11081	0.148	-79.11081	0.94626	3.17171
3510	0.95255	2.99133	0.1442	-79.11731	0.1442	-79.11731	0.95255	2.99133
3530	0.95819	2.35921	0.14049	-79.4243	0.14049	-79.4243	0.95819	2.35921
3550	0.95269	1.9385	0.135	-79.62738	0.135	-79.62738	0.95269	1.9385
3570	0.95275	2.07942	0.13043	-79.21174	0.13043	-79.21174	0.95275	2.07942
3590	0.95555	1.71492	0.1265	-79.42936	0.1265	-79.42936	0.95555	1.71492
3610	0.95649	1.38023	0.12222	-79.61562	0.12222	-79.61562	0.95649	1.38023
3630	0.95544	1.25629	0.11755	-79.50491	0.11755	-79.50491	0.95544	1.25629
3650	0.95668	1.16981	0.11341	-79.23058	0.11341	-79.23058	0.95668	1.16981
3670	0.95816	0.36238	0.10883	-79.76213	0.10883	-79.76213	0.95816	0.36238
3690	0.95452	0.22623	0.1038	-79.66001	0.1038	-79.66001	0.95452	0.22623
3710	0.95608	-0.00585	0.09936	-79.49466	0.09936	-79.49466	0.95608	-0.00585
3730	0.96182	-0.55227	0.09548	-79.54056	0.09548	-79.54056	0.96182	-0.55227
3750	0.9594	-1.08264	0.09098	-79.77616	0.09098	-79.77616	0.9594	-1.08264
3770	0.95687	-0.94798	0.08641	-79.35408	0.08641	-79.35408	0.95687	-0.94798
3790	0.96298	-0.91228	0.08263	-79.16247	0.08263	-79.16247	0.96298	-0.91228
3810	0.96449	-1.22639	0.07844	-79.00624	0.07844	-79.00624	0.96449	-1.22639
3830	0.96012	-1.80758	0.07378	-78.79709	0.07378	-78.79709	0.96012	-1.80758
3850	0.96054	-2.23961	0.0697	-78.55354	0.0697	-78.55354	0.96054	-2.23961
3870	0.95567	-2.53416	0.06519	-78.05034	0.06519	-78.05034	0.95567	-2.53416
3890	0.96061	-2.69784	0.06139	-77.22488	0.06139	-77.22488	0.96061	-2.69784
3910	0.96533	-3.12729	0.05743	-76.57812	0.05743	-76.57812	0.96533	-3.12729
3930	0.96498	-3.73563	0.05316	-76.1204	0.05316	-76.1204	0.96498	-3.73563
3950	0.95986	-3.95246	0.04908	-75.37135	0.04908	-75.37135	0.95986	-3.95246
3970	0.96088	-3.76595	0.04506	-73.97473	0.04506	-73.97473	0.96088	-3.76595
3990	0.96625	-4.04779	0.04119	-72.6727	0.04119	-72.6727	0.96625	-4.04779
4010	0.96689	-4.53713	0.03723	-70.99735	0.03723	-70.99735	0.96689	-4.53713
4030	0.96199	-5.01927	0.03325	-68.75926	0.03325	-68.75926	0.96199	-5.01927
4050	0.9591	-5.32565	0.02964	-66.04743	0.02964	-66.04743	0.9591	-5.32565
4070	0.96434	-5.45963	0.02601	-62.24552	0.02601	-62.24552	0.96434	-5.45963
4090	0.96833	-6.0563	0.02256	-57.59118	0.02256	-57.59118	0.96833	-6.0563
4110	0.96755	-6.63101	0.0193	-51.04764	0.0193	-51.04764	0.96755	-6.63101
4130	0.96215	-6.85921	0.01637	-41.90353	0.01637	-41.90353	0.96215	-6.85921
4150	0.95606	-6.57649	0.01404	-29.77289	0.01404	-29.77289	0.95606	-6.57649
4170	0.96903	-7.05636	0.01289	-13.98014	0.01289	-13.98014	0.96903	-7.05636
4190	0.96774	-7.56019	0.01288	3.46678	0.01288	3.46678	0.96774	-7.56019
4210	0.96441	-7.71903	0.01388	19.75693	0.01388	19.75693	0.96441	-7.71903
4230	0.96536	-7.74196	0.01578	33.20063	0.01578	33.20063	0.96536	-7.74196
4250	0.97103	-8.41608	0.01844	43.22952	0.01844	43.22952	0.97103	-8.41608
4270	0.96392	-8.38612	0.02138	50.24638	0.02138	50.24638	0.96392	-8.38612
4290	0.96655	-8.80558	0.0247	55.16149	0.0247	55.16149	0.96655	-8.80558
4310	0.96961	-9.42389	0.02816	58.80567	0.02816	58.80567	0.96961	-9.42389
4330	0.97027	-9.92834	0.0317	61.68109	0.0317	61.68109	0.97027	-9.92834
4350	0.97215	-9.94401	0.03548	63.9612	0.03548	63.9612	0.97215	-9.94401
4370	0.97139	-10.28704	0.03907	65.77262	0.03907	65.77262	0.97139	-10.28704
4390	0.96773	-10.51097	0.04241	67.2744	0.04241	67.2744	0.96773	-10.51097
4410	0.96548	-10.70498	0.04594	68.58234	0.04594	68.58234	0.96548	-10.70498
4430	0.96533	-11.01751	0.04973	69.69147	0.04973	69.69147	0.96533	-11.01751
4450	0.96444	-11.65625	0.05344	70.47603	0.05344	70.47603	0.96444	-11.65625
4470	0.96884	-11.77941	0.05704	71.09147	0.05704	71.09147	0.96884	-11.77941
4490	0.97164	-12.2802	0.06087	71.387	0.06087	71.387	0.97164	-12.2802
4510	0.96859	-12.59114	0.06441	71.72975	0.06441	71.72975	0.96859	-12.59114
4530	0.96412	-12.54604	0.06777	72.34828	0.06777	72.34828	0.96412	-12.54604
4550	0.97135	-12.38003	0.07173	73.33257	0.07173	73.33257	0.97135	-12.38003
4570	0.97341	-13.53605	0.07576	72.88017	0.07576	72.88017	0.97341	-13.53605
4590	0.96243	-14.0709	0.07886	72.92544	0.07886	72.92544	0.96243	-14.0709
4610	0.95929	-13.95941	0.08227	73.41498	0.08227	73.41498	0.95929	-13.95941
4630	0.96742	-13.88542	0.0862	73.7988	0.0862	73.7988	0.96742	-13.88542
4650	0.97279	-15.24172	0.08982	73.03038	0.08982	73.03038	0.97279	-15.24172
4670	0.9639	-15.40566	0.0926	73.12012	0.0926	73.12012	0.9639	-15.40566
4690	0.96299	-15.50757	0.09604	73.47759	0.09604	73.47759	0.96299	-15.50757
4710	0.96582	-15.7042	0.0998	73.60872	0.0998	73.60872	0.96582	-15.7042
4730	0.96915	-16.04	0.1035	73.50594	0.1035	73.50594	0.96915	-16.04
4750	0.97072	-16.44718	0.1068	73.64811	0.1068	73.64811	0.97072	-16.44718
4770	0.96212	-16.76914	0.10995	73.49787	0.10995	73.49787	0.96212	-16.76914
4790	0.96051	-17.10263	0.11339	73.49809	0.11339	73.49809	0.96051	-17.10263
4810	0.96259	-17.46979	0.11704	73.49197	0.11704	73.49197	0.96259	-17.46979
4830	0.96467	-17.88538	0.12067	73.39614	0.12067	73.39614	0.96467	-17.88538
4850	0.96272	-18.35684	0.12383	73.20067	0.12383	73.20067	0.96272	-18.35684
4870	0.96806	-18.46496	0.12742	73.28857	0.12742	73.28857	0.96806	-18.46496
4890	0.96527	-18.81486	0.13065	73.12472	0.13065	73.12472	0.96527	-18.81486
4910	0.96164	-19.00739	0.13348	73.13391	0.13348	73.13391	0.96164	-19.00739
4930	0.96324	-19.07141	0.13672	73.30899	0.13672	73.30899	0.96324	-19.07141
4950	0.97494	-19.46381	0.14197	73.2108	0.14197	73.2108	0.97494	-19.46381
4970	0.95784	-20.33708	0.1432	72.67797	0.1432	72.67797	0.95784	-20.33708
4990	0.95549	-20.27011	0.14614	72.85992	0.14614	72.85992	0.95549	-20.27011
5010	0.96342	-20.43066	0.15031	72.84952	0.15031	72.84952	0.96342	-20.43066
5030	0.97045	-21.16966	0.15428	72.34205	0.15428	72.34205	0.97045	-21.16966
5050	0.95871	-22.02121	0.15563	71.63522	0.15563	71.63522	0.95871	-22.02121
5070	0.95716	-21.29125	0.15869	72.29624	0.15869	72.29624	0.95716	-21.29125
5090	0.96433	-21.44295	0.16322	72.24242	0.16322	72.24242	0.96433	-21.44295
5110	0.96592	-22.08475	0.16702	71.81282	0.16702	71.81282	0.96592	-22.08475
5130	0.9584	-22.63223	0.16929	71.45348	0.16929	71.45348	0.9584	-22.63223
5150	0.94892	-22.30817	0.17063	71.71736	0.17063	71.71736	0.94892	-22.30817
5170	0.95523	-22.45822	0.17545	71.8622	0.17545	71.8622	0.95523	-22.45822
5190	0.96028	-23.33805	0.17881	71.29301	0.17881	71.29301	0.96028	-23.33805
5210	0.95529	-23.91077	0.18056	70.92781	0.18056	70.92781	0.95529	-23.91077
5230	0.9466	-23.77799	0.18222	71.10533	0.18222	71.10533	0.9466	-23.77799
5250	0.95572	-23.17985	0.18703	71.58501	0.18703	71.58501	0.95572	-23.17985
5270	0.96384	-24.48167	0.19158	70.58198	0.19158	70.58198	0.96384	-24.48167
5290	0.94882	-24.81271	0.19244	70.03423	0.19244	70.03423	0.94882	-24.81271
5310	0.94579	-24.50109	0.19485	70.35138	0.19485	70.35138	0.94579	-24.50109
5330	0.95928	-24.3671	0.19951	70.87294	0.19951	70.87294	0.95928	-24.3671
5350	0.96329	-25.72322	0.20256	69.86829	0.20256	69.86829	0.96329	-25.72322
5370	0.94652	-25.77131	0.20427	69.75597	0.20427	69.75597	0.94652	-25.77131
5390	0.95168	-25.60678	0.20801	69.70473	0.20801	69.70473	0.95168	-25.60678
5410	0.9578	-25.84761	0.21168	69.37204	0.21168	69.37204	0.9578	-25.84761
5430	0.95642	-26.38206	0.21426	68.94207	0.21426	68.94207	0.95642	-26.38206
