! Data Taken on a HP 8720C VNA using a series-through fixture with TRL* de-embedding
#	mhz	s	ma	r	50
50	0.01312	69.99234	0.98702	-1.31636	0.98702	-1.31636	0.01312	69.99234
70	0.01771	65.93691	0.98756	-1.40205	0.98756	-1.40205	0.01771	65.93691
90	0.02133	66.83274	0.98686	-1.46725	0.98686	-1.46725	0.02133	66.83274
110	0.02436	67.21389	0.98766	-1.61526	0.98766	-1.61526	0.02436	67.21389
130	0.02749	66.1425	0.98933	-1.87601	0.98933	-1.87601	0.02749	66.1425
150	0.0317	67.20882	0.98782	-2.20607	0.98782	-2.20607	0.0317	67.20882
170	0.03471	69.19284	0.99044	-2.38246	0.99044	-2.38246	0.03471	69.19284
190	0.03917	69.85743	0.98831	-2.68892	0.98831	-2.68892	0.03917	69.85743
210	0.04313	70.59236	0.9858	-2.91624	0.9858	-2.91624	0.04313	70.59236
230	0.04616	71.86324	0.98459	-3.04679	0.98459	-3.04679	0.04616	71.86324
250	0.04933	73.21143	0.98373	-3.25447	0.98373	-3.25447	0.04933	73.21143
270	0.05242	73.15538	0.98577	-3.43101	0.98577	-3.43101	0.05242	73.15538
290	0.0562	72.5148	0.98609	-3.72104	0.98609	-3.72104	0.0562	72.5148
310	0.06028	72.01163	0.98502	-4.01989	0.98502	-4.01989	0.06028	72.01163
330	0.06458	71.86361	0.98394	-4.26137	0.98394	-4.26137	0.06458	71.86361
350	0.06936	71.78427	0.98532	-4.41776	0.98532	-4.41776	0.06936	71.78427
370	0.07379	73.28304	0.98539	-4.54133	0.98539	-4.54133	0.07379	73.28304
390	0.07757	74.15667	0.98378	-4.94303	0.98378	-4.94303	0.07757	74.15667
410	0.08103	74.71738	0.98394	-5.29482	0.98394	-5.29482	0.08103	74.71738
430	0.08427	75.03679	0.98518	-5.49383	0.98518	-5.49383	0.08427	75.03679
450	0.0872	74.94603	0.98264	-5.66243	0.98264	-5.66243	0.0872	74.94603
470	0.09044	74.8562	0.98251	-5.88499	0.98251	-5.88499	0.09044	74.8562
490	0.09968	77.00929	0.98206	-6.46901	0.98206	-6.46901	0.09968	77.00929
510	0.1079	78.43342	0.98155	-6.85657	0.98155	-6.85657	0.1079	78.43342
530	0.11233	78.57777	0.98101	-7.02572	0.98101	-7.02572	0.11233	78.57777
550	0.11445	79.31254	0.98017	-7.49055	0.98017	-7.49055	0.11445	79.31254
570	0.11752	79.16883	0.97934	-7.72318	0.97934	-7.72318	0.11752	79.16883
590	0.12155	78.90919	0.97799	-7.90329	0.97799	-7.90329	0.12155	78.90919
610	0.1251	78.60289	0.97847	-8.05864	0.97847	-8.05864	0.1251	78.60289
630	0.12824	78.21201	0.9801	-8.26816	0.9801	-8.26816	0.12824	78.21201
650	0.13251	77.59142	0.97912	-8.66198	0.97912	-8.66198	0.13251	77.59142
670	0.13798	77.55485	0.97878	-8.92395	0.97878	-8.92395	0.13798	77.55485
690	0.14276	77.90921	0.97665	-9.29616	0.97665	-9.29616	0.14276	77.90921
710	0.14763	78.21261	0.97524	-9.52729	0.97524	-9.52729	0.14763	78.21261
730	0.15212	78.44352	0.97494	-9.59869	0.97494	-9.59869	0.15212	78.44352
750	0.15451	79.00078	0.97402	-9.72439	0.97402	-9.72439	0.15451	79.00078
770	0.15753	79.51873	0.97654	-10.44368	0.97654	-10.44368	0.15753	79.51873
790	0.16028	79.53166	0.975	-10.49284	0.975	-10.49284	0.16028	79.53166
810	0.16256	79.23685	0.97283	-10.50881	0.97283	-10.50881	0.16256	79.23685
830	0.16462	78.77515	0.97194	-10.7586	0.97194	-10.7586	0.16462	78.77515
850	0.16713	78.23096	0.97273	-11.13931	0.97273	-11.13931	0.16713	78.23096
870	0.17102	77.99652	0.96963	-11.30356	0.96963	-11.30356	0.17102	77.99652
890	0.1753	77.41715	0.96857	-11.64549	0.96857	-11.64549	0.1753	77.41715
910	0.17945	76.96143	0.96803	-11.92949	0.96803	-11.92949	0.17945	76.96143
930	0.18318	76.75447	0.96664	-12.15249	0.96664	-12.15249	0.18318	76.75447
950	0.18643	76.57796	0.96321	-12.54397	0.96321	-12.54397	0.18643	76.57796
970	0.19071	76.48198	0.964	-12.66135	0.964	-12.66135	0.19071	76.48198
990	0.19471	75.90981	0.96405	-12.89246	0.96405	-12.89246	0.19471	75.90981
1010	0.19813	75.3378	0.96401	-13.15073	0.96401	-13.15073	0.19813	75.3378
1030	0.20154	75.00128	0.96398	-13.37319	0.96398	-13.37319	0.20154	75.00128
1050	0.20646	74.89455	0.96359	-13.52044	0.96359	-13.52044	0.20646	74.89455
1070	0.21244	74.53425	0.96126	-13.93026	0.96126	-13.93026	0.21244	74.53425
1090	0.21666	74.44097	0.95978	-14.12396	0.95978	-14.12396	0.21666	74.44097
1110	0.22052	74.42586	0.95891	-14.28448	0.95891	-14.28448	0.22052	74.42586
1130	0.22436	74.38314	0.95778	-14.54143	0.95778	-14.54143	0.22436	74.38314
1150	0.22744	74.29009	0.95487	-14.97117	0.95487	-14.97117	0.22744	74.29009
1170	0.23141	74.25879	0.95543	-15.1471	0.95543	-15.1471	0.23141	74.25879
1190	0.23474	73.87305	0.95412	-15.37228	0.95412	-15.37228	0.23474	73.87305
1210	0.23813	73.51689	0.95351	-15.50463	0.95351	-15.50463	0.23813	73.51689
1230	0.24198	73.30415	0.95346	-15.61689	0.95346	-15.61689	0.24198	73.30415
1250	0.24645	73.07854	0.95114	-15.99666	0.95114	-15.99666	0.24645	73.07854
1270	0.25148	72.85845	0.95151	-16.14787	0.95151	-16.14787	0.25148	72.85845
1290	0.25578	72.59898	0.94974	-16.58864	0.94974	-16.58864	0.25578	72.59898
1310	0.2591	72.54423	0.94762	-16.94535	0.94762	-16.94535	0.2591	72.54423
1330	0.26226	72.68165	0.94684	-17.12743	0.94684	-17.12743	0.26226	72.68165
1350	0.26709	72.74205	0.94904	-17.32732	0.94904	-17.32732	0.26709	72.74205
1370	0.27097	72.47064	0.94824	-17.64883	0.94824	-17.64883	0.27097	72.47064
1390	0.27312	72.16117	0.94667	-17.74643	0.94667	-17.74643	0.27312	72.16117
1410	0.27623	71.89328	0.94643	-17.93348	0.94643	-17.93348	0.27623	71.89328
1430	0.28033	71.72293	0.94635	-18.24481	0.94635	-18.24481	0.28033	71.72293
1450	0.28276	71.68238	0.942	-18.43671	0.942	-18.43671	0.28276	71.68238
1470	0.28579	71.32223	0.94049	-18.53317	0.94049	-18.53317	0.28579	71.32223
1490	0.28911	70.99895	0.94107	-19.01587	0.94107	-19.01587	0.28911	70.99895
1510	0.29157	70.78036	0.93966	-19.3814	0.93966	-19.3814	0.29157	70.78036
1530	0.29409	70.58561	0.93664	-19.50647	0.93664	-19.50647	0.29409	70.58561
1550	0.29957	70.1852	0.93684	-19.64792	0.93684	-19.64792	0.29957	70.1852
1570	0.30319	69.73891	0.9354	-19.9801	0.9354	-19.9801	0.30319	69.73891
1590	0.30557	69.40435	0.93409	-20.39125	0.93409	-20.39125	0.30557	69.40435
1610	0.30936	69.20647	0.93274	-20.60264	0.93274	-20.60264	0.30936	69.20647
1630	0.31428	69.09081	0.93136	-20.67727	0.93136	-20.67727	0.31428	69.09081
1650	0.31713	68.9235	0.93018	-21.01983	0.93018	-21.01983	0.31713	68.9235
1670	0.32065	68.39245	0.92724	-21.13511	0.92724	-21.13511	0.32065	68.39245
1690	0.32322	68.22934	0.92497	-21.3421	0.92497	-21.3421	0.32322	68.22934
1710	0.3268	68.06872	0.92365	-21.5653	0.92365	-21.5653	0.3268	68.06872
1730	0.33155	67.73636	0.92379	-21.82757	0.92379	-21.82757	0.33155	67.73636
1750	0.33585	67.24918	0.9262	-22.25014	0.9262	-22.25014	0.33585	67.24918
1770	0.33906	66.89961	0.92117	-22.50533	0.92117	-22.50533	0.33906	66.89961
1790	0.34321	66.83863	0.92173	-22.59843	0.92173	-22.59843	0.34321	66.83863
1810	0.34637	66.69579	0.92103	-22.7511	0.92103	-22.7511	0.34637	66.69579
1830	0.34857	66.34132	0.91807	-22.97243	0.91807	-22.97243	0.34857	66.34132
1850	0.35182	65.88613	0.91768	-23.05899	0.91768	-23.05899	0.35182	65.88613
1870	0.35487	65.59488	0.91629	-23.48872	0.91629	-23.48872	0.35487	65.59488
1890	0.35871	65.24402	0.91428	-23.8037	0.91428	-23.8037	0.35871	65.24402
1910	0.36276	64.90563	0.91189	-23.97693	0.91189	-23.97693	0.36276	64.90563
1930	0.36695	64.57009	0.91023	-24.1067	0.91023	-24.1067	0.36695	64.57009
1950	0.37171	64.14602	0.91124	-24.41664	0.91124	-24.41664	0.37171	64.14602
1970	0.37382	63.8788	0.90824	-24.71991	0.90824	-24.71991	0.37382	63.8788
1990	0.378	63.76706	0.90482	-24.86484	0.90482	-24.86484	0.378	63.76706
2010	0.38205	63.61299	0.90415	-24.98582	0.90415	-24.98582	0.38205	63.61299
2030	0.38551	63.33089	0.90554	-25.19217	0.90554	-25.19217	0.38551	63.33089
2050	0.38958	62.94719	0.90446	-25.56815	0.90446	-25.56815	0.38958	62.94719
2070	0.39055	62.67785	0.89965	-25.89498	0.89965	-25.89498	0.39055	62.67785
2090	0.39431	62.50426	0.89441	-25.89772	0.89441	-25.89772	0.39431	62.50426
2110	0.39905	62.1954	0.89461	-26.20231	0.89461	-26.20231	0.39905	62.1954
2130	0.40301	61.79414	0.89756	-26.74018	0.89756	-26.74018	0.40301	61.79414
2150	0.40445	61.61726	0.89199	-26.74827	0.89199	-26.74827	0.40445	61.61726
2170	0.40892	61.49662	0.89151	-26.88522	0.89151	-26.88522	0.40892	61.49662
2190	0.41331	61.19159	0.8915	-27.21728	0.8915	-27.21728	0.41331	61.19159
2210	0.41701	60.83037	0.88906	-27.52178	0.88906	-27.52178	0.41701	60.83037
2230	0.42013	60.51712	0.8855	-27.72581	0.8855	-27.72581	0.42013	60.51712
2250	0.42357	60.33192	0.88633	-27.90619	0.88633	-27.90619	0.42357	60.33192
2270	0.4268	60.04326	0.88463	-28.16002	0.88463	-28.16002	0.4268	60.04326
2290	0.43039	59.851	0.88178	-28.43179	0.88178	-28.43179	0.43039	59.851
2310	0.43299	59.65584	0.88032	-28.55394	0.88032	-28.55394	0.43299	59.65584
2330	0.43521	59.32451	0.87922	-28.64636	0.87922	-28.64636	0.43521	59.32451
2350	0.43967	58.68977	0.87378	-29.11641	0.87378	-29.11641	0.43967	58.68977
2370	0.4419	58.75766	0.87135	-29.31631	0.87135	-29.31631	0.4419	58.75766
2390	0.44636	58.46911	0.87337	-29.484	0.87337	-29.484	0.44636	58.46911
2410	0.45031	58.16006	0.87238	-29.72097	0.87238	-29.72097	0.45031	58.16006
2430	0.45312	57.94739	0.86782	-30.02868	0.86782	-30.02868	0.45312	57.94739
2450	0.45628	57.72896	0.86602	-30.30861	0.86602	-30.30861	0.45628	57.72896
2470	0.45961	57.433	0.86704	-30.45239	0.86704	-30.45239	0.45961	57.433
2490	0.46308	57.10014	0.86484	-30.64665	0.86484	-30.64665	0.46308	57.10014
2510	0.46546	56.86269	0.86227	-30.79934	0.86227	-30.79934	0.46546	56.86269
2530	0.4674	56.70514	0.86005	-30.93283	0.86005	-30.93283	0.4674	56.70514
2550	0.47142	56.46424	0.85673	-31.18392	0.85673	-31.18392	0.47142	56.46424
2570	0.47584	56.01623	0.85927	-31.38414	0.85927	-31.38414	0.47584	56.01623
2590	0.47823	55.79417	0.85586	-31.71186	0.85586	-31.71186	0.47823	55.79417
2610	0.48017	55.53569	0.85313	-31.99813	0.85313	-31.99813	0.48017	55.53569
2630	0.48308	55.21388	0.85179	-32.22649	0.85179	-32.22649	0.48308	55.21388
2650	0.48819	55.03732	0.84666	-32.53297	0.84666	-32.53297	0.48819	55.03732
2670	0.49157	54.81278	0.84465	-32.5748	0.84465	-32.5748	0.49157	54.81278
2690	0.49593	54.59351	0.84457	-32.81969	0.84457	-32.81969	0.49593	54.59351
2710	0.50047	54.33166	0.8431	-33.06428	0.8431	-33.06428	0.50047	54.33166
2730	0.50368	54.0274	0.8397	-33.27105	0.8397	-33.27105	0.50368	54.0274
2750	0.50336	53.72898	0.83661	-33.56834	0.83661	-33.56834	0.50336	53.72898
2770	0.50202	53.37368	0.83407	-33.78489	0.83407	-33.78489	0.50202	53.37368
2790	0.50798	53.14284	0.83271	-33.94894	0.83271	-33.94894	0.50798	53.14284
2810	0.51496	52.84517	0.8303	-34.30059	0.8303	-34.30059	0.51496	52.84517
2830	0.51941	52.51934	0.8273	-34.76852	0.8273	-34.76852	0.51941	52.51934
2850	0.52053	52.43407	0.8268	-34.97002	0.8268	-34.97002	0.52053	52.43407
2870	0.52379	52.15947	0.8245	-35.01738	0.8245	-35.01738	0.52379	52.15947
2890	0.52744	52.27874	0.82359	-35.00857	0.82359	-35.00857	0.52744	52.27874
2910	0.53195	52.18069	0.8215	-35.28316	0.8215	-35.28316	0.53195	52.18069
2930	0.53597	51.84307	0.81753	-35.72305	0.81753	-35.72305	0.53597	51.84307
2950	0.53636	51.83252	0.81281	-35.75249	0.81281	-35.75249	0.53636	51.83252
2970	0.54001	51.25813	0.81146	-36.00245	0.81146	-36.00245	0.54001	51.25813
2990	0.54329	50.83735	0.81088	-36.26037	0.81088	-36.26037	0.54329	50.83735
3010	0.54693	50.56358	0.80907	-36.50379	0.80907	-36.50379	0.54693	50.56358
3030	0.55083	50.38361	0.80583	-36.73352	0.80583	-36.73352	0.55083	50.38361
3050	0.55406	50.19766	0.80271	-36.97358	0.80271	-36.97358	0.55406	50.19766
3070	0.5548	49.62903	0.80137	-37.53818	0.80137	-37.53818	0.5548	49.62903
3090	0.55819	49.46382	0.80127	-37.80189	0.80127	-37.80189	0.55819	49.46382
3110	0.56094	49.41357	0.79752	-37.84637	0.79752	-37.84637	0.56094	49.41357
3130	0.56341	49.3381	0.79168	-37.79386	0.79168	-37.79386	0.56341	49.3381
3150	0.56957	49.24554	0.79176	-37.80719	0.79176	-37.80719	0.56957	49.24554
3170	0.56924	48.59657	0.78902	-38.36597	0.78902	-38.36597	0.56924	48.59657
3190	0.571	48.23237	0.78439	-38.55581	0.78439	-38.55581	0.571	48.23237
3210	0.57583	48.01295	0.78215	-38.80028	0.78215	-38.80028	0.57583	48.01295
3230	0.58136	47.86892	0.78154	-39.15635	0.78154	-39.15635	0.58136	47.86892
3250	0.58191	47.8015	0.77674	-39.31443	0.77674	-39.31443	0.58191	47.8015
3270	0.58847	47.50185	0.77971	-39.73075	0.77971	-39.73075	0.58847	47.50185
3290	0.59036	47.25496	0.77604	-39.93438	0.77604	-39.93438	0.59036	47.25496
3310	0.59164	47.04785	0.77098	-40.14849	0.77098	-40.14849	0.59164	47.04785
3330	0.59446	46.87001	0.76847	-40.33812	0.76847	-40.33812	0.59446	46.87001
3350	0.599	46.71345	0.77117	-40.21026	0.77117	-40.21026	0.599	46.71345
3370	0.60117	46.08574	0.76536	-40.80234	0.76536	-40.80234	0.60117	46.08574
3390	0.60308	45.73018	0.76122	-41.1377	0.76122	-41.1377	0.60308	45.73018
3410	0.60617	45.6443	0.7572	-41.20417	0.7572	-41.20417	0.60617	45.6443
3430	0.61008	45.65607	0.75406	-41.20755	0.75406	-41.20755	0.61008	45.65607
3450	0.61265	45.42381	0.7549	-41.5716	0.7549	-41.5716	0.61265	45.42381
3470	0.61163	44.58322	0.75092	-42.21382	0.75092	-42.21382	0.61163	44.58322
3490	0.61369	44.52495	0.74629	-42.2597	0.74629	-42.2597	0.61369	44.52495
3510	0.61917	44.36586	0.74394	-42.32856	0.74394	-42.32856	0.61917	44.36586
3530	0.62602	43.84964	0.74342	-42.65402	0.74342	-42.65402	0.62602	43.84964
3550	0.62981	43.34683	0.74093	-43.08395	0.74093	-43.08395	0.62981	43.34683
3570	0.62947	43.34592	0.73441	-43.13714	0.73441	-43.13714	0.62947	43.34592
3590	0.63342	43.13917	0.73468	-43.27017	0.73468	-43.27017	0.63342	43.13917
3610	0.6376	42.86537	0.73344	-43.57077	0.73344	-43.57077	0.6376	42.86537
3630	0.64028	42.63583	0.72861	-43.91226	0.72861	-43.91226	0.64028	42.63583
3650	0.64206	42.53437	0.7243	-43.95353	0.7243	-43.95353	0.64206	42.53437
3670	0.64571	42.01078	0.72289	-44.28555	0.72289	-44.28555	0.64571	42.01078
3690	0.6465	41.73558	0.71789	-44.69346	0.71789	-44.69346	0.6465	41.73558
3710	0.64972	41.49136	0.7141	-44.94881	0.7141	-44.94881	0.64972	41.49136
3730	0.65527	41.15361	0.71277	-45.12579	0.71277	-45.12579	0.65527	41.15361
3750	0.65765	40.69069	0.71159	-45.60119	0.71159	-45.60119	0.65765	40.69069
3770	0.65883	40.70895	0.70587	-45.57658	0.70587	-45.57658	0.65883	40.70895
3790	0.66374	40.6897	0.7057	-45.79413	0.7057	-45.79413	0.66374	40.6897
3810	0.66703	40.43428	0.70309	-46.06698	0.70309	-46.06698	0.66703	40.43428
3830	0.66803	39.99899	0.69759	-46.31855	0.69759	-46.31855	0.66803	39.99899
3850	0.67079	39.6951	0.69622	-46.58251	0.69622	-46.58251	0.67079	39.6951
3870	0.67116	39.25383	0.69041	-47.00955	0.69041	-47.00955	0.67116	39.25383
3890	0.67576	39.05074	0.68781	-46.92968	0.68781	-46.92968	0.67576	39.05074
3910	0.68092	38.75332	0.68748	-47.09327	0.68748	-47.09327	0.68092	38.75332
3930	0.6843	38.2599	0.68676	-47.58884	0.68676	-47.58884	0.6843	38.2599
3950	0.68489	37.69966	0.68132	-47.84301	0.68132	-47.84301	0.68489	37.69966
3970	0.68772	37.94702	0.67639	-47.93417	0.67639	-47.93417	0.68772	37.94702
3990	0.69203	37.85487	0.6743	-48.08317	0.6743	-48.08317	0.69203	37.85487
4010	0.69442	37.40049	0.67151	-48.27305	0.67151	-48.27305	0.69442	37.40049
4030	0.69491	36.79816	0.66794	-48.55914	0.66794	-48.55914	0.69491	36.79816
4050	0.69705	36.49914	0.6669	-49.06911	0.6669	-49.06911	0.69705	36.49914
4070	0.70086	36.4302	0.66055	-49.3146	0.66055	-49.3146	0.70086	36.4302
4090	0.70679	35.75417	0.65845	-49.54333	0.65845	-49.54333	0.70679	35.75417
4110	0.71061	35.12643	0.65693	-49.87317	0.65693	-49.87317	0.71061	35.12643
4130	0.71049	34.86426	0.65316	-50.21042	0.65316	-50.21042	0.71049	34.86426
4150	0.70698	34.94684	0.64515	-50.24978	0.64515	-50.24978	0.70698	34.94684
4170	0.7199	34.64052	0.64722	-50.50523	0.64722	-50.50523	0.7199	34.64052
4190	0.72322	34.16433	0.64459	-50.86688	0.64459	-50.86688	0.72322	34.16433
4210	0.72259	33.8957	0.64001	-51.04108	0.64001	-51.04108	0.72259	33.8957
4230	0.72373	33.82436	0.63611	-51.05365	0.63611	-51.05365	0.72373	33.82436
4250	0.73238	33.55234	0.63539	-51.24994	0.63539	-51.24994	0.73238	33.55234
4270	0.72946	33.2563	0.62913	-51.63613	0.62913	-51.63613	0.72946	33.2563
4290	0.73181	32.84302	0.62678	-51.74835	0.62678	-51.74835	0.73181	32.84302
4310	0.73724	32.31532	0.62461	-52.07675	0.62461	-52.07675	0.73724	32.31532
4330	0.74312	31.79866	0.62188	-52.66192	0.62188	-52.66192	0.74312	31.79866
4350	0.74645	31.54105	0.6208	-53.0949	0.6208	-53.0949	0.74645	31.54105
4370	0.74905	31.34449	0.61492	-53.09159	0.61492	-53.09159	0.74905	31.34449
4390	0.75005	31.06857	0.60999	-53.33156	0.60999	-53.33156	0.75005	31.06857
4410	0.75117	30.83392	0.60616	-53.54951	0.60616	-53.54951	0.75117	30.83392
4430	0.7539	30.50829	0.60323	-53.72909	0.60323	-53.72909	0.7539	30.50829
4450	0.75955	29.70662	0.60056	-54.10288	0.60056	-54.10288	0.75955	29.70662
4470	0.75942	29.63624	0.59656	-54.11999	0.59656	-54.11999	0.75942	29.63624
4490	0.76395	29.27464	0.59493	-54.40649	0.59493	-54.40649	0.76395	29.27464
4510	0.7669	28.87821	0.59134	-54.85975	0.59134	-54.85975	0.7669	28.87821
4530	0.76707	28.67973	0.58537	-55.15254	0.58537	-55.15254	0.76707	28.67973
4550	0.76827	28.88837	0.58053	-54.73298	0.58053	-54.73298	0.76827	28.88837
4570	0.77809	28.1663	0.58332	-55.35347	0.58332	-55.35347	0.77809	28.1663
4590	0.7754	27.35457	0.579	-56.12335	0.579	-56.12335	0.7754	27.35457
4610	0.7736	27.12969	0.57225	-56.32622	0.57225	-56.32622	0.7736	27.12969
4630	0.77856	27.19634	0.56727	-56.169	0.56727	-56.169	0.77856	27.19634
4650	0.78858	26.2874	0.56773	-56.78188	0.56773	-56.78188	0.78858	26.2874
4670	0.78579	25.69036	0.5601	-57.21826	0.5601	-57.21826	0.78579	25.69036
4690	0.78745	25.55961	0.55578	-57.29947	0.55578	-57.29947	0.78745	25.55961
4710	0.79119	25.44471	0.55304	-57.40905	0.55304	-57.40905	0.79119	25.44471
4730	0.79558	25.10908	0.5506	-57.69116	0.5506	-57.69116	0.79558	25.10908
4750	0.80019	24.53004	0.54767	-58.05063	0.54767	-58.05063	0.80019	24.53004
4770	0.79763	24.21714	0.54248	-58.39694	0.54248	-58.39694	0.79763	24.21714
4790	0.79684	23.79534	0.53796	-58.7129	0.53796	-58.7129	0.79684	23.79534
4810	0.79965	23.43612	0.53553	-58.88569	0.53553	-58.88569	0.79965	23.43612
4830	0.80504	23.04092	0.53357	-59.1114	0.53357	-59.1114	0.80504	23.04092
4850	0.80917	22.24121	0.52741	-59.8951	0.52741	-59.8951	0.80917	22.24121
4870	0.81206	22.2211	0.5253	-59.58516	0.5253	-59.58516	0.81206	22.2211
4890	0.81463	21.97444	0.5236	-59.92777	0.5236	-59.92777	0.81463	21.97444
4910	0.8154	21.54776	0.51778	-60.27138	0.51778	-60.27138	0.8154	21.54776
4930	0.81754	21.11338	0.5107	-60.35496	0.5107	-60.35496	0.81754	21.11338
4950	0.82888	20.96936	0.51265	-60.308	0.51265	-60.308	0.82888	20.96936
4970	0.82338	20.09894	0.50644	-61.2022	0.50644	-61.2022	0.82338	20.09894
4990	0.82002	19.7981	0.49941	-61.35192	0.49941	-61.35192	0.82002	19.7981
5010	0.82643	19.63973	0.49646	-61.3463	0.49646	-61.3463	0.82643	19.63973
5030	0.83724	19.22122	0.4961	-61.69565	0.4961	-61.69565	0.83724	19.22122
5050	0.83404	18.16446	0.49044	-62.83145	0.49044	-62.83145	0.83404	18.16446
5070	0.8312	18.27859	0.48317	-62.53703	0.48317	-62.53703	0.8312	18.27859
5090	0.83889	18.29896	0.48156	-62.64115	0.48156	-62.64115	0.83889	18.29896
5110	0.84554	17.78345	0.48063	-63.15154	0.48063	-63.15154	0.84554	17.78345
5130	0.84446	17.00088	0.47661	-63.75235	0.47661	-63.75235	0.84446	17.00088
5150	0.83394	16.931	0.46699	-63.80418	0.46699	-63.80418	0.83394	16.931
5170	0.84034	17.02759	0.46533	-63.56934	0.46533	-63.56934	0.84034	17.02759
5190	0.8508	16.3267	0.46459	-64.00275	0.46459	-64.00275	0.8508	16.3267
5210	0.85108	15.4712	0.45945	-64.71086	0.45945	-64.71086	0.85108	15.4712
5230	0.8442	15.10014	0.45121	-65.12652	0.45121	-65.12652	0.8442	15.10014
5250	0.85038	15.8488	0.4478	-64.50896	0.4478	-64.50896	0.85038	15.8488
5270	0.86476	14.859	0.45012	-65.30669	0.45012	-65.30669	0.86476	14.859
5290	0.85889	14.07655	0.44245	-66.15419	0.44245	-66.15419	0.85889	14.07655
5310	0.85643	14.09236	0.43569	-66.14067	0.43569	-66.14067	0.85643	14.09236
5330	0.86519	14.38248	0.43389	-65.67934	0.43389	-65.67934	0.86519	14.38248
5350	0.87713	13.30809	0.43427	-66.50745	0.43427	-66.50745	0.87713	13.30809
5370	0.86451	12.66	0.42624	-67.03617	0.42624	-67.03617	0.86451	12.66
5390	0.86731	12.67268	0.42263	-66.95897	0.42263	-66.95897	0.86731	12.67268
5410	0.87442	12.40904	0.42024	-67.2349	0.42024	-67.2349	0.87442	12.40904
5430	0.87856	11.81385	0.41672	-67.86703	0.41672	-67.86703	0.87856	11.81385
