! Data Taken on a HP 8720C VNA using a series-through fixture with TRL* de-embedding
#	mhz	s	ma	r	50
50	0.00814	25.75912	0.98827	-0.98023	0.98827	-0.98023	0.00814	25.75912
70	0.01515	56.91327	0.99215	-1.12009	0.99215	-1.12009	0.01515	56.91327
90	0.01844	63.89878	0.99189	-1.13003	0.99189	-1.13003	0.01844	63.89878
110	0.02032	61.12663	0.9901	-1.32813	0.9901	-1.32813	0.02032	61.12663
130	0.02221	59.37353	0.98897	-1.65616	0.98897	-1.65616	0.02221	59.37353
150	0.02466	65.78195	0.9902	-1.67954	0.9902	-1.67954	0.02466	65.78195
170	0.02834	65.98336	0.99093	-1.62606	0.99093	-1.62606	0.02834	65.98336
190	0.0316	65.87215	0.98528	-2.11434	0.98528	-2.11434	0.0316	65.87215
210	0.03419	66.76286	0.98364	-2.46517	0.98364	-2.46517	0.03419	66.76286
230	0.03635	68.58463	0.98682	-2.5659	0.98682	-2.5659	0.03635	68.58463
250	0.03879	69.88115	0.98604	-2.87038	0.98604	-2.87038	0.03879	69.88115
270	0.0414	69.69758	0.98662	-2.83745	0.98662	-2.83745	0.0414	69.69758
290	0.04418	69.62923	0.98693	-3.08634	0.98693	-3.08634	0.04418	69.62923
310	0.04745	69.65592	0.98594	-3.27491	0.98594	-3.27491	0.04745	69.65592
330	0.05125	69.64677	0.98433	-3.37421	0.98433	-3.37421	0.05125	69.64677
350	0.05528	69.36019	0.98444	-3.66852	0.98444	-3.66852	0.05528	69.36019
370	0.05827	71.22433	0.98618	-3.84674	0.98618	-3.84674	0.05827	71.22433
390	0.06084	72.55296	0.98576	-4.10394	0.98576	-4.10394	0.06084	72.55296
410	0.0636	73.41358	0.98417	-4.22939	0.98417	-4.22939	0.0636	73.41358
430	0.06649	73.84026	0.98375	-4.26699	0.98375	-4.26699	0.06649	73.84026
450	0.06875	73.83364	0.98811	-4.51529	0.98811	-4.51529	0.06875	73.83364
470	0.07135	73.59506	0.9867	-4.7665	0.9867	-4.7665	0.07135	73.59506
490	0.07874	76.36586	0.98479	-5.35107	0.98479	-5.35107	0.07874	76.36586
510	0.08549	78.32566	0.98201	-5.8828	0.98201	-5.8828	0.08549	78.32566
530	0.08915	78.55808	0.98004	-6.12815	0.98004	-6.12815	0.08915	78.55808
550	0.09024	79.05062	0.98257	-6.0063	0.98257	-6.0063	0.09024	79.05062
570	0.09228	79.16276	0.98281	-6.36127	0.98281	-6.36127	0.09228	79.16276
590	0.09512	79.00636	0.98139	-6.35966	0.98139	-6.35966	0.09512	79.00636
610	0.09782	78.69842	0.98204	-6.50418	0.98204	-6.50418	0.09782	78.69842
630	0.10045	78.25866	0.98371	-6.83438	0.98371	-6.83438	0.10045	78.25866
650	0.10405	77.60949	0.98058	-6.92662	0.98058	-6.92662	0.10405	77.60949
670	0.10815	77.70246	0.98343	-7.09116	0.98343	-7.09116	0.10815	77.70246
690	0.11221	78.13953	0.97966	-7.3992	0.97966	-7.3992	0.11221	78.13953
710	0.11634	78.60478	0.97706	-7.6932	0.97706	-7.6932	0.11634	78.60478
730	0.11984	79.1219	0.97806	-7.86544	0.97806	-7.86544	0.11984	79.1219
750	0.1213	80.05423	0.97969	-7.85801	0.97969	-7.85801	0.1213	80.05423
770	0.12329	80.54269	0.97874	-8.27725	0.97874	-8.27725	0.12329	80.54269
790	0.12531	80.73803	0.97851	-8.42208	0.97851	-8.42208	0.12531	80.73803
810	0.12684	80.54257	0.97726	-8.48802	0.97726	-8.48802	0.12684	80.54257
830	0.12803	80.00059	0.97603	-8.59316	0.97603	-8.59316	0.12803	80.00059
850	0.12967	79.29834	0.97866	-8.77822	0.97866	-8.77822	0.12967	79.29834
870	0.1329	79.07794	0.97618	-9.08082	0.97618	-9.08082	0.1329	79.07794
890	0.13662	78.67247	0.97509	-9.35077	0.97509	-9.35077	0.13662	78.67247
910	0.14019	78.23039	0.97436	-9.56451	0.97436	-9.56451	0.14019	78.23039
930	0.14313	77.89911	0.97268	-9.75245	0.97268	-9.75245	0.14313	77.89911
950	0.14517	77.82491	0.96845	-9.99899	0.96845	-9.99899	0.14517	77.82491
970	0.14856	78.02404	0.97204	-10.20998	0.97204	-10.20998	0.14856	78.02404
990	0.15135	77.60713	0.97224	-10.38862	0.97224	-10.38862	0.15135	77.60713
1010	0.15415	76.96835	0.97211	-10.59411	0.97211	-10.59411	0.15415	76.96835
1030	0.1573	76.45375	0.97213	-10.7799	0.97213	-10.7799	0.1573	76.45375
1050	0.16084	76.36124	0.97026	-10.79357	0.97026	-10.79357	0.16084	76.36124
1070	0.16566	76.07223	0.9689	-11.03983	0.9689	-11.03983	0.16566	76.07223
1090	0.16935	76.05599	0.96904	-11.24817	0.96904	-11.24817	0.16935	76.05599
1110	0.17273	76.1593	0.97051	-11.44755	0.97051	-11.44755	0.17273	76.1593
1130	0.1759	76.27419	0.97118	-11.65238	0.97118	-11.65238	0.1759	76.27419
1150	0.17821	76.33797	0.96691	-11.86249	0.96691	-11.86249	0.17821	76.33797
1170	0.18124	76.22827	0.96591	-12.05114	0.96591	-12.05114	0.18124	76.22827
1190	0.18392	75.9947	0.96575	-12.26718	0.96575	-12.26718	0.18392	75.9947
1210	0.18641	75.73292	0.96556	-12.48112	0.96556	-12.48112	0.18641	75.73292
1230	0.18906	75.49076	0.96484	-12.6855	0.96484	-12.6855	0.18906	75.49076
1250	0.19237	75.26823	0.96354	-12.89492	0.96354	-12.89492	0.19237	75.26823
1270	0.1966	75.26465	0.96429	-12.84901	0.96429	-12.84901	0.1966	75.26465
1290	0.2004	75.0332	0.96342	-13.16849	0.96342	-13.16849	0.2004	75.0332
1310	0.2035	75.06008	0.96116	-13.43089	0.96116	-13.43089	0.2035	75.06008
1330	0.206	75.34924	0.95966	-13.56579	0.95966	-13.56579	0.206	75.34924
1350	0.20837	75.42237	0.96308	-13.85482	0.96308	-13.85482	0.20837	75.42237
1370	0.21202	74.9887	0.96157	-14.22515	0.96157	-14.22515	0.21202	74.9887
1390	0.21402	74.99122	0.95978	-14.1767	0.95978	-14.1767	0.21402	74.99122
1410	0.21643	75.02755	0.96015	-14.31218	0.96015	-14.31218	0.21643	75.02755
1430	0.2194	74.91303	0.9613	-14.67502	0.9613	-14.67502	0.2194	74.91303
1450	0.22114	74.68074	0.95799	-14.74942	0.95799	-14.74942	0.22114	74.68074
1470	0.22468	74.47669	0.95763	-14.89709	0.95763	-14.89709	0.22468	74.47669
1490	0.22725	74.15224	0.95961	-15.24617	0.95961	-15.24617	0.22725	74.15224
1510	0.22932	74.00901	0.95892	-15.51966	0.95892	-15.51966	0.22932	74.00901
1530	0.23158	73.964	0.95544	-15.66025	0.95544	-15.66025	0.23158	73.964
1550	0.23493	73.54956	0.95393	-15.83033	0.95393	-15.83033	0.23493	73.54956
1570	0.23728	73.34854	0.95399	-16.1971	0.95399	-16.1971	0.23728	73.34854
1590	0.23946	73.06393	0.9533	-16.3987	0.9533	-16.3987	0.23946	73.06393
1610	0.24225	72.84041	0.95241	-16.48412	0.95241	-16.48412	0.24225	72.84041
1630	0.24572	72.69672	0.95161	-16.56705	0.95161	-16.56705	0.24572	72.69672
1650	0.24925	72.52566	0.95096	-16.82587	0.95096	-16.82587	0.24925	72.52566
1670	0.251	72.1143	0.94963	-17.05667	0.94963	-17.05667	0.251	72.1143
1690	0.25329	72.00758	0.94771	-17.19384	0.94771	-17.19384	0.25329	72.00758
1710	0.25631	71.94643	0.94737	-17.30743	0.94737	-17.30743	0.25631	71.94643
1730	0.25994	71.72294	0.94827	-17.44052	0.94827	-17.44052	0.25994	71.72294
1750	0.2637	71.18028	0.94754	-17.6092	0.94754	-17.6092	0.2637	71.18028
1770	0.2656	70.85302	0.94683	-17.9628	0.94683	-17.9628	0.2656	70.85302
1790	0.26826	70.72904	0.94724	-18.04303	0.94724	-18.04303	0.26826	70.72904
1810	0.27115	70.6488	0.94541	-18.20452	0.94541	-18.20452	0.27115	70.6488
1830	0.27385	70.50165	0.94209	-18.4684	0.94209	-18.4684	0.27385	70.50165
1850	0.27603	70.2258	0.94221	-18.52239	0.94221	-18.52239	0.27603	70.2258
1870	0.27833	69.79815	0.9432	-18.77455	0.9432	-18.77455	0.27833	69.79815
1890	0.28128	69.52507	0.94182	-18.97407	0.94182	-18.97407	0.28128	69.52507
1910	0.28449	69.21703	0.94065	-19.09427	0.94065	-19.09427	0.28449	69.21703
1930	0.28787	68.83119	0.9407	-19.20775	0.9407	-19.20775	0.28787	68.83119
1950	0.29165	68.47135	0.94137	-19.4864	0.94137	-19.4864	0.29165	68.47135
1970	0.29447	68.18054	0.93763	-19.66725	0.93763	-19.66725	0.29447	68.18054
1990	0.29776	68.21921	0.93485	-19.74841	0.93485	-19.74841	0.29776	68.21921
2010	0.30099	68.21333	0.93543	-19.81953	0.93543	-19.81953	0.30099	68.21333
2030	0.3039	68.02215	0.93752	-19.99957	0.93752	-19.99957	0.3039	68.02215
2050	0.30647	67.73826	0.93491	-20.43675	0.93491	-20.43675	0.30647	67.73826
2070	0.30792	67.47497	0.93225	-20.65819	0.93225	-20.65819	0.30792	67.47497
2090	0.31086	67.43189	0.92874	-20.74491	0.92874	-20.74491	0.31086	67.43189
2110	0.31416	67.17457	0.92971	-21.02347	0.92971	-21.02347	0.31416	67.17457
2130	0.31732	66.75356	0.9328	-21.41163	0.9328	-21.41163	0.31732	66.75356
2150	0.32055	66.70436	0.92804	-21.4183	0.92804	-21.4183	0.32055	66.70436
2170	0.32336	66.58419	0.92667	-21.58486	0.92667	-21.58486	0.32336	66.58419
2190	0.32685	66.39112	0.92646	-21.69738	0.92646	-21.69738	0.32685	66.39112
2210	0.32993	66.06717	0.92541	-21.86943	0.92541	-21.86943	0.32993	66.06717
2230	0.33228	65.69783	0.92366	-22.08896	0.92366	-22.08896	0.33228	65.69783
2250	0.33437	65.51212	0.92359	-22.21836	0.92359	-22.21836	0.33437	65.51212
2270	0.33664	65.36908	0.92216	-22.54026	0.92216	-22.54026	0.33664	65.36908
2290	0.34037	65.22674	0.91996	-22.7157	0.91996	-22.7157	0.34037	65.22674
2310	0.34337	65.02365	0.91954	-22.80002	0.91954	-22.80002	0.34337	65.02365
2330	0.34533	64.74423	0.91994	-22.92263	0.91994	-22.92263	0.34533	64.74423
2350	0.34777	64.41874	0.91675	-23.287	0.91675	-23.287	0.34777	64.41874
2370	0.34917	64.37628	0.91593	-23.39419	0.91593	-23.39419	0.34917	64.37628
2390	0.35296	64.25959	0.91632	-23.51942	0.91632	-23.51942	0.35296	64.25959
2410	0.35649	64.08107	0.91558	-23.67074	0.91558	-23.67074	0.35649	64.08107
2430	0.35879	63.83941	0.91289	-23.83612	0.91289	-23.83612	0.35879	63.83941
2450	0.36052	63.51954	0.90898	-23.98339	0.90898	-23.98339	0.36052	63.51954
2470	0.36404	63.30444	0.91255	-24.17238	0.91255	-24.17238	0.36404	63.30444
2490	0.36714	63.17095	0.91066	-24.34782	0.91066	-24.34782	0.36714	63.17095
2510	0.36903	62.97811	0.90862	-24.53964	0.90862	-24.53964	0.36903	62.97811
2530	0.37037	62.74095	0.90735	-24.74097	0.90735	-24.74097	0.37037	62.74095
2550	0.37327	62.63047	0.90343	-24.90815	0.90343	-24.90815	0.37327	62.63047
2570	0.37699	62.40994	0.90725	-25.09703	0.90725	-25.09703	0.37699	62.40994
2590	0.37946	62.13346	0.90539	-25.36681	0.90539	-25.36681	0.37946	62.13346
2610	0.38083	61.84689	0.90325	-25.51383	0.90325	-25.51383	0.38083	61.84689
2630	0.38243	61.58637	0.90198	-25.58894	0.90198	-25.58894	0.38243	61.58637
2650	0.38677	61.37836	0.89849	-25.89751	0.89849	-25.89751	0.38677	61.37836
2670	0.38992	61.3533	0.89756	-25.97838	0.89756	-25.97838	0.38992	61.3533
2690	0.39338	61.1615	0.8977	-26.15612	0.8977	-26.15612	0.39338	61.1615
2710	0.397	60.90245	0.89682	-26.4442	0.89682	-26.4442	0.397	60.90245
2730	0.40004	60.63565	0.89482	-26.73006	0.89482	-26.73006	0.40004	60.63565
2750	0.40111	60.38056	0.89353	-26.77509	0.89353	-26.77509	0.40111	60.38056
2770	0.39942	60.09279	0.891	-26.90496	0.891	-26.90496	0.39942	60.09279
2790	0.40388	59.87024	0.88972	-27.13081	0.88972	-27.13081	0.40388	59.87024
2810	0.40948	59.62133	0.88858	-27.45308	0.88858	-27.45308	0.40948	59.62133
2830	0.41324	59.3749	0.88739	-27.75917	0.88739	-27.75917	0.41324	59.3749
2850	0.41424	59.2802	0.88686	-27.82337	0.88686	-27.82337	0.41424	59.2802
2870	0.41614	59.10346	0.88377	-27.7718	0.88377	-27.7718	0.41614	59.10346
2890	0.42007	59.28444	0.88334	-27.86254	0.88334	-27.86254	0.42007	59.28444
2910	0.42419	59.29742	0.88337	-28.17857	0.88337	-28.17857	0.42419	59.29742
2930	0.42717	59.06116	0.88192	-28.55425	0.88192	-28.55425	0.42717	59.06116
2950	0.42811	58.93888	0.87735	-28.57531	0.87735	-28.57531	0.42811	58.93888
2970	0.43072	58.51792	0.87621	-28.67225	0.87621	-28.67225	0.43072	58.51792
2990	0.43288	58.24771	0.87574	-28.81814	0.87574	-28.81814	0.43288	58.24771
3010	0.43548	57.98787	0.87528	-29.00177	0.87528	-29.00177	0.43548	57.98787
3030	0.43891	57.74203	0.87375	-29.23013	0.87375	-29.23013	0.43891	57.74203
3050	0.44295	57.65778	0.8696	-29.5284	0.8696	-29.5284	0.44295	57.65778
3070	0.44349	57.20394	0.86926	-29.91957	0.86926	-29.91957	0.44349	57.20394
3090	0.4456	57.1007	0.87072	-30.07972	0.87072	-30.07972	0.4456	57.1007
3110	0.44814	57.22608	0.8685	-30.08896	0.8685	-30.08896	0.44814	57.22608
3130	0.45083	57.36491	0.86376	-30.03233	0.86376	-30.03233	0.45083	57.36491
3150	0.45429	57.20881	0.86426	-29.99984	0.86426	-29.99984	0.45429	57.20881
3170	0.45425	56.60245	0.86193	-30.42979	0.86193	-30.42979	0.45425	56.60245
3190	0.45637	56.21185	0.85807	-30.58442	0.85807	-30.58442	0.45637	56.21185
3210	0.46052	55.99766	0.85706	-30.79104	0.85706	-30.79104	0.46052	55.99766
3230	0.46502	55.90076	0.85796	-31.08762	0.85796	-31.08762	0.46502	55.90076
3250	0.46667	55.8423	0.85448	-31.22275	0.85448	-31.22275	0.46667	55.8423
3270	0.4711	55.72672	0.85738	-31.52884	0.85738	-31.52884	0.4711	55.72672
3290	0.47329	55.62679	0.85545	-31.7254	0.85545	-31.7254	0.47329	55.62679
3310	0.47443	55.46327	0.85203	-31.88331	0.85203	-31.88331	0.47443	55.46327
3330	0.476	55.28296	0.85035	-31.99286	0.85035	-31.99286	0.476	55.28296
3350	0.47982	55.25875	0.85353	-31.96369	0.85353	-31.96369	0.47982	55.25875
3370	0.48151	54.62464	0.84883	-32.42981	0.84883	-32.42981	0.48151	54.62464
3390	0.48348	54.25089	0.84474	-32.74853	0.84474	-32.74853	0.48348	54.25089
3410	0.48641	54.20085	0.84104	-32.84784	0.84104	-32.84784	0.48641	54.20085
3430	0.48928	54.2915	0.83911	-32.84469	0.83911	-32.84469	0.48928	54.2915
3450	0.48935	54.09347	0.84194	-33.04494	0.84194	-33.04494	0.48935	54.09347
3470	0.49154	53.30458	0.83861	-33.49343	0.83861	-33.49343	0.49154	53.30458
3490	0.49335	53.31717	0.83501	-33.53822	0.83501	-33.53822	0.49335	53.31717
3510	0.49717	53.21918	0.83381	-33.54693	0.83381	-33.54693	0.49717	53.21918
3530	0.50223	52.73353	0.8345	-33.7332	0.8345	-33.7332	0.50223	52.73353
3550	0.50459	52.21802	0.83347	-34.15672	0.83347	-34.15672	0.50459	52.21802
3570	0.50629	52.3039	0.82731	-34.18463	0.82731	-34.18463	0.50629	52.3039
3590	0.5094	52.23108	0.82797	-34.23518	0.82797	-34.23518	0.5094	52.23108
3610	0.51264	51.96601	0.82884	-34.48725	0.82884	-34.48725	0.51264	51.96601
3630	0.51537	51.694	0.82654	-34.81757	0.82654	-34.81757	0.51537	51.694
3650	0.51759	51.81925	0.8209	-34.80077	0.8209	-34.80077	0.51759	51.81925
3670	0.5207	51.54157	0.8228	-35.27337	0.8228	-35.27337	0.5207	51.54157
3690	0.52152	51.27988	0.81583	-35.60675	0.81583	-35.60675	0.52152	51.27988
3710	0.52359	51.01264	0.81175	-35.76282	0.81175	-35.76282	0.52359	51.01264
3730	0.52737	50.70981	0.81318	-35.86349	0.81318	-35.86349	0.52737	50.70981
3750	0.53029	50.3329	0.81359	-36.19075	0.81359	-36.19075	0.53029	50.3329
3770	0.53163	50.34939	0.8087	-36.20881	0.8087	-36.20881	0.53163	50.34939
3790	0.53656	50.34917	0.80969	-36.27824	0.80969	-36.27824	0.53656	50.34917
3810	0.53942	50.16228	0.80819	-36.48448	0.80819	-36.48448	0.53942	50.16228
3830	0.53966	49.82084	0.80351	-36.75154	0.80351	-36.75154	0.53966	49.82084
3850	0.54188	49.559	0.80262	-36.84201	0.80262	-36.84201	0.54188	49.559
3870	0.54263	49.24573	0.79881	-37.17079	0.79881	-37.17079	0.54263	49.24573
3890	0.5464	49.06151	0.79795	-37.16196	0.79795	-37.16196	0.5464	49.06151
3910	0.55061	48.74134	0.79831	-37.30102	0.79831	-37.30102	0.55061	48.74134
3930	0.55378	48.29165	0.79826	-37.68331	0.79826	-37.68331	0.55378	48.29165
3950	0.55554	47.99033	0.79627	-38.01404	0.79627	-38.01404	0.55554	47.99033
3970	0.55782	48.15726	0.79153	-37.86476	0.79153	-37.86476	0.55782	48.15726
3990	0.56142	48.04464	0.78957	-37.99275	0.78957	-37.99275	0.56142	48.04464
4010	0.564	47.81259	0.78837	-38.24052	0.78837	-38.24052	0.564	47.81259
4030	0.56513	47.48731	0.78661	-38.53084	0.78661	-38.53084	0.56513	47.48731
4050	0.56627	46.96109	0.78367	-38.86679	0.78367	-38.86679	0.56627	46.96109
4070	0.56991	46.84282	0.78096	-38.98566	0.78096	-38.98566	0.56991	46.84282
4090	0.57362	46.49622	0.77978	-39.1636	0.77978	-39.1636	0.57362	46.49622
4110	0.57659	46.00441	0.77937	-39.47232	0.77937	-39.47232	0.57659	46.00441
4130	0.57771	45.58556	0.77729	-39.82049	0.77729	-39.82049	0.57771	45.58556
4150	0.57559	45.59287	0.76935	-39.95369	0.76935	-39.95369	0.57559	45.59287
4170	0.58428	45.48288	0.77195	-40.00419	0.77195	-40.00419	0.58428	45.48288
4190	0.58874	45.22614	0.77211	-40.21136	0.77211	-40.21136	0.58874	45.22614
4210	0.58972	44.97597	0.76873	-40.41914	0.76873	-40.41914	0.58972	44.97597
4230	0.5903	44.79589	0.76459	-40.53235	0.76459	-40.53235	0.5903	44.79589
4250	0.59581	44.65967	0.76633	-40.51666	0.76633	-40.51666	0.59581	44.65967
4270	0.59447	44.16776	0.7601	-40.8642	0.7601	-40.8642	0.59447	44.16776
4290	0.59828	43.85261	0.75841	-41.0886	0.75841	-41.0886	0.59828	43.85261
4310	0.60316	43.48498	0.75774	-41.381	0.75774	-41.381	0.60316	43.48498
4330	0.60756	43.06845	0.75706	-41.74331	0.75706	-41.74331	0.60756	43.06845
4350	0.61246	42.83945	0.75776	-41.98824	0.75776	-41.98824	0.61246	42.83945
4370	0.61235	42.75012	0.75197	-41.9478	0.75197	-41.9478	0.61235	42.75012
4390	0.61415	42.57529	0.74869	-42.08623	0.74869	-42.08623	0.61415	42.57529
4410	0.61593	42.45505	0.74636	-42.34193	0.74636	-42.34193	0.61593	42.45505
4430	0.61794	42.1687	0.74452	-42.63957	0.74452	-42.63957	0.61794	42.1687
4450	0.62262	41.13467	0.7438	-42.8901	0.7438	-42.8901	0.62262	41.13467
4470	0.6221	41.28125	0.74016	-42.92522	0.74016	-42.92522	0.6221	41.28125
4490	0.62651	41.04212	0.73897	-43.10705	0.73897	-43.10705	0.62651	41.04212
4510	0.63095	40.75237	0.73761	-43.46429	0.73761	-43.46429	0.63095	40.75237
4530	0.63313	40.6077	0.73425	-43.76371	0.73425	-43.76371	0.63313	40.6077
4550	0.63341	40.66447	0.72792	-43.51021	0.72792	-43.51021	0.63341	40.66447
4570	0.64045	40.23923	0.73242	-43.84305	0.73242	-43.84305	0.64045	40.23923
4590	0.64027	39.56547	0.73033	-44.47372	0.73033	-44.47372	0.64027	39.56547
4610	0.63899	39.48961	0.72469	-44.68599	0.72469	-44.68599	0.63899	39.48961
4630	0.64121	39.68313	0.72015	-44.58367	0.72015	-44.58367	0.64121	39.68313
4650	0.65012	38.64259	0.72297	-45.09064	0.72297	-45.09064	0.65012	38.64259
4670	0.64938	38.07991	0.71897	-45.67667	0.71897	-45.67667	0.64938	38.07991
4690	0.65061	37.90535	0.71503	-45.6549	0.71503	-45.6549	0.65061	37.90535
4710	0.65458	37.79765	0.71296	-45.62468	0.71296	-45.62468	0.65458	37.79765
4730	0.65955	37.56298	0.71231	-45.80209	0.71231	-45.80209	0.65955	37.56298
4750	0.66121	37.13487	0.71037	-46.01998	0.71037	-46.01998	0.66121	37.13487
4770	0.66172	36.91909	0.70349	-46.26682	0.70349	-46.26682	0.66172	36.91909
4790	0.66252	36.51035	0.70156	-46.71091	0.70156	-46.71091	0.66252	36.51035
4810	0.66503	36.19757	0.70229	-46.93173	0.70229	-46.93173	0.66503	36.19757
4830	0.66906	35.87963	0.70225	-47.03447	0.70225	-47.03447	0.66906	35.87963
4850	0.67281	35.06547	0.69683	-47.65002	0.69683	-47.65002	0.67281	35.06547
4870	0.67516	35.11524	0.69481	-47.43241	0.69481	-47.43241	0.67516	35.11524
4890	0.67887	34.83046	0.69414	-47.69528	0.69414	-47.69528	0.67887	34.83046
4910	0.68045	34.44378	0.68955	-48.03835	0.68955	-48.03835	0.68045	34.44378
4930	0.68143	34.15373	0.68385	-48.21173	0.68385	-48.21173	0.68143	34.15373
4950	0.68842	34.12472	0.68799	-48.11593	0.68799	-48.11593	0.68842	34.12472
4970	0.68674	33.0828	0.68287	-48.74569	0.68287	-48.74569	0.68674	33.0828
4990	0.68559	32.84689	0.67663	-49.01914	0.67663	-49.01914	0.68559	32.84689
5010	0.69024	32.85601	0.6743	-49.05167	0.6743	-49.05167	0.69024	32.85601
5030	0.69809	32.55657	0.6756	-49.20927	0.6756	-49.20927	0.69809	32.55657
5050	0.69868	31.4024	0.67494	-50.10852	0.67494	-50.10852	0.69868	31.4024
5070	0.69741	31.75355	0.66581	-49.96644	0.66581	-49.96644	0.69741	31.75355
5090	0.70292	31.79973	0.66415	-49.90165	0.66415	-49.90165	0.70292	31.79973
5110	0.70891	31.30704	0.66589	-50.25324	0.66589	-50.25324	0.70891	31.30704
5130	0.71099	30.59963	0.66516	-50.8303	0.66516	-50.8303	0.71099	30.59963
5150	0.70664	30.55976	0.65429	-50.91197	0.65429	-50.91197	0.70664	30.55976
5170	0.70629	30.56533	0.65306	-50.73579	0.65306	-50.73579	0.70629	30.56533
5190	0.71485	30.05935	0.65363	-51.07631	0.65363	-51.07631	0.71485	30.05935
5210	0.71757	29.28757	0.65049	-51.69223	0.65049	-51.69223	0.71757	29.28757
5230	0.71399	28.79198	0.64376	-52.10515	0.64376	-52.10515	0.71399	28.79198
5250	0.71803	29.41081	0.63914	-51.59954	0.63914	-51.59954	0.71803	29.41081
5270	0.73064	28.77479	0.64493	-52.19682	0.64493	-52.19682	0.73064	28.77479
5290	0.72782	28.07376	0.63793	-52.92934	0.63793	-52.92934	0.72782	28.07376
5310	0.72643	28.05023	0.63134	-52.95512	0.63134	-52.95512	0.72643	28.05023
5330	0.73276	28.35279	0.6308	-52.55328	0.6308	-52.55328	0.73276	28.35279
5350	0.7425	27.53611	0.63432	-53.12404	0.63432	-53.12404	0.7425	27.53611
5370	0.73557	26.82576	0.62888	-53.70982	0.62888	-53.70982	0.73557	26.82576
5390	0.73685	26.73101	0.6255	-53.72279	0.6255	-53.72279	0.73685	26.73101
5410	0.74274	26.6167	0.6237	-53.90766	0.6237	-53.90766	0.74274	26.6167
5430	0.7481	26.28389	0.62161	-54.33415	0.62161	-54.33415	0.7481	26.28389
