! Data Taken on a HP 8720C VNA using a series-through fixture with TRL* de-embedding
#	mhz	s	ma	r	50
50	0.10347	71.91508	0.96585	-6.78842	0.96585	-6.78842	0.10347	71.91508
70	0.1453	70.32632	0.95838	-8.57676	0.95838	-8.57676	0.1453	70.32632
90	0.18074	69.70707	0.94732	-10.38588	0.94732	-10.38588	0.18074	69.70707
110	0.2139	68.69976	0.93989	-12.43768	0.93989	-12.43768	0.2139	68.69976
130	0.24704	67.00007	0.93558	-14.66264	0.93558	-14.66264	0.24704	67.00007
150	0.28057	65.35696	0.92618	-16.69979	0.92618	-16.69979	0.28057	65.35696
170	0.31374	64.61098	0.91508	-17.98706	0.91508	-17.98706	0.31374	64.61098
190	0.34329	62.85871	0.89991	-20.16384	0.89991	-20.16384	0.34329	62.85871
210	0.37209	61.18899	0.8849	-22.17232	0.8849	-22.17232	0.37209	61.18899
230	0.40135	59.84873	0.87283	-23.76084	0.87283	-23.76084	0.40135	59.84873
250	0.43058	58.24299	0.86505	-25.48385	0.86505	-25.48385	0.43058	58.24299
270	0.45427	56.51613	0.84471	-27.28095	0.84471	-27.28095	0.45427	56.51613
290	0.48001	55.12105	0.83075	-28.95416	0.83075	-28.95416	0.48001	55.12105
310	0.50635	53.5907	0.81738	-30.57402	0.81738	-30.57402	0.50635	53.5907
330	0.53187	51.87822	0.80215	-32.16116	0.80215	-32.16116	0.53187	51.87822
350	0.5552	50.35693	0.78593	-33.68637	0.78593	-33.68637	0.5552	50.35693
370	0.57692	49.66565	0.7752	-35.09122	0.7752	-35.09122	0.57692	49.66565
390	0.59742	48.34613	0.75979	-36.82872	0.75979	-36.82872	0.59742	48.34613
410	0.61614	46.96486	0.74377	-38.30402	0.74377	-38.30402	0.61614	46.96486
430	0.63391	45.73664	0.72939	-39.45443	0.72939	-39.45443	0.63391	45.73664
450	0.6529	44.52468	0.71709	-40.7494	0.71709	-40.7494	0.6529	44.52468
470	0.66685	43.218	0.69942	-42.20522	0.69942	-42.20522	0.66685	43.218
490	0.70009	42.31528	0.66642	-45.7886	0.66642	-45.7886	0.70009	42.31528
510	0.73028	41.23347	0.63861	-48.5608	0.63861	-48.5608	0.73028	41.23347
530	0.74655	40.0305	0.62239	-49.7975	0.62239	-49.7975	0.74655	40.0305
550	0.74948	39.4053	0.61004	-50.9888	0.61004	-50.9888	0.74948	39.4053
570	0.75973	38.36355	0.59887	-51.8774	0.59887	-51.8774	0.75973	38.36355
590	0.77372	37.25631	0.58278	-52.64513	0.58278	-52.64513	0.77372	37.25631
610	0.78537	36.23732	0.56914	-53.63017	0.56914	-53.63017	0.78537	36.23732
630	0.79336	35.31984	0.55783	-54.81271	0.55783	-54.81271	0.79336	35.31984
650	0.80111	34.37655	0.54133	-55.81496	0.54133	-55.81496	0.80111	34.37655
670	0.81177	33.67588	0.5273	-56.58128	0.5273	-56.58128	0.81177	33.67588
690	0.82125	32.88066	0.51415	-57.50504	0.51415	-57.50504	0.82125	32.88066
710	0.83014	31.85097	0.50134	-58.50991	0.50134	-58.50991	0.83014	31.85097
730	0.83759	30.827	0.48843	-59.40602	0.48843	-59.40602	0.83759	30.827
750	0.84128	30.42908	0.4751	-59.88993	0.4751	-59.88993	0.84128	30.42908
770	0.84998	29.36171	0.46504	-61.08636	0.46504	-61.08636	0.84998	29.36171
790	0.85683	28.73275	0.45185	-61.76793	0.45185	-61.76793	0.85683	28.73275
810	0.86318	28.18787	0.43943	-62.30753	0.43943	-62.30753	0.86318	28.18787
830	0.8684	27.45886	0.42785	-63.01606	0.42785	-63.01606	0.8684	27.45886
850	0.86989	26.36369	0.41336	-64.14247	0.41336	-64.14247	0.86989	26.36369
870	0.87216	26.03304	0.40185	-64.46475	0.40185	-64.46475	0.87216	26.03304
890	0.88186	25.08251	0.39214	-65.28796	0.39214	-65.28796	0.88186	25.08251
910	0.8871	24.01269	0.38062	-66.13855	0.38062	-66.13855	0.8871	24.01269
930	0.88694	23.16962	0.3679	-66.78455	0.3679	-66.78455	0.88694	23.16962
950	0.89147	22.74479	0.35877	-67.23561	0.35877	-67.23561	0.89147	22.74479
970	0.90234	21.87988	0.34862	-68.11333	0.34862	-68.11333	0.90234	21.87988
990	0.90788	21.04174	0.3384	-68.69828	0.3384	-68.69828	0.90788	21.04174
1010	0.91066	20.36389	0.32857	-69.287	0.32857	-69.287	0.91066	20.36389
1030	0.9133	19.89942	0.31925	-69.92884	0.31925	-69.92884	0.9133	19.89942
1050	0.91844	19.62104	0.31021	-70.42599	0.31021	-70.42599	0.91844	19.62104
1070	0.92579	18.9869	0.30063	-70.86632	0.30063	-70.86632	0.92579	18.9869
1090	0.927	18.39753	0.29136	-71.35099	0.29136	-71.35099	0.927	18.39753
1110	0.9274	17.86288	0.28199	-71.74379	0.28199	-71.74379	0.9274	17.86288
1130	0.92966	17.29945	0.27279	-72.14379	0.27279	-72.14379	0.92966	17.29945
1150	0.9338	16.53029	0.2647	-72.88537	0.2647	-72.88537	0.9338	16.53029
1170	0.93713	15.82434	0.25416	-73.38227	0.25416	-73.38227	0.93713	15.82434
1190	0.94064	15.48446	0.246	-73.87699	0.246	-73.87699	0.94064	15.48446
1210	0.94319	14.92604	0.23839	-74.44292	0.23839	-74.44292	0.94319	14.92604
1230	0.94438	14.2139	0.2303	-74.95631	0.2303	-74.95631	0.94438	14.2139
1250	0.9445	14.06229	0.22147	-75.0963	0.22147	-75.0963	0.9445	14.06229
1270	0.95354	13.62544	0.21455	-75.32318	0.21455	-75.32318	0.95354	13.62544
1290	0.95218	12.74358	0.20618	-76.04046	0.20618	-76.04046	0.95218	12.74358
1310	0.95033	12.27236	0.19773	-76.45012	0.19773	-76.45012	0.95033	12.27236
1330	0.95285	12.14941	0.19004	-76.5908	0.19004	-76.5908	0.95285	12.14941
1350	0.95959	11.39427	0.18349	-77.33786	0.18349	-77.33786	0.95959	11.39427
1370	0.95788	10.65001	0.17525	-77.87511	0.17525	-77.87511	0.95788	10.65001
1390	0.95866	10.33719	0.16809	-77.84247	0.16809	-77.84247	0.95866	10.33719
1410	0.9622	9.88418	0.16137	-78.07504	0.16137	-78.07504	0.9622	9.88418
1430	0.96516	9.26868	0.15442	-78.59923	0.15442	-78.59923	0.96516	9.26868
1450	0.96067	9.01767	0.14651	-78.63272	0.14651	-78.63272	0.96067	9.01767
1470	0.9653	8.51722	0.14008	-78.7103	0.14008	-78.7103	0.9653	8.51722
1490	0.96668	7.78986	0.13304	-79.18245	0.13304	-79.18245	0.96668	7.78986
1510	0.96439	7.36321	0.12577	-79.43173	0.12577	-79.43173	0.96439	7.36321
1530	0.96257	7.1938	0.11862	-79.387	0.11862	-79.387	0.96257	7.1938
1550	0.96994	6.66708	0.11192	-79.52346	0.11192	-79.52346	0.96994	6.66708
1570	0.96866	5.91741	0.10549	-80.00859	0.10549	-80.00859	0.96866	5.91741
1590	0.96685	5.47041	0.099	-79.99828	0.099	-79.99828	0.96685	5.47041
1610	0.96757	5.19823	0.09262	-79.79834	0.09262	-79.79834	0.96757	5.19823
1630	0.97025	4.93251	0.08636	-79.57404	0.08636	-79.57404	0.97025	4.93251
1650	0.97072	4.46447	0.08007	-79.35016	0.08007	-79.35016	0.97072	4.46447
1670	0.96666	3.62944	0.07361	-79.28509	0.07361	-79.28509	0.96666	3.62944
1690	0.96427	3.43867	0.06715	-78.66045	0.06715	-78.66045	0.96427	3.43867
1710	0.9665	3.16832	0.06106	-77.97396	0.06106	-77.97396	0.9665	3.16832
1730	0.97034	2.5945	0.05523	-77.42472	0.05523	-77.42472	0.97034	2.5945
1750	0.96689	1.99326	0.04903	-76.91316	0.04903	-76.91316	0.96689	1.99326
1770	0.96948	1.7052	0.04332	-75.39193	0.04332	-75.39193	0.96948	1.7052
1790	0.97217	1.25893	0.03778	-73.34487	0.03778	-73.34487	0.97217	1.25893
1810	0.97046	0.81494	0.03216	-70.80151	0.03216	-70.80151	0.97046	0.81494
1830	0.9669	0.4733	0.02656	-67.08311	0.02656	-67.08311	0.9669	0.4733
1850	0.9712	0.27366	0.02145	-60.80264	0.02145	-60.80264	0.9712	0.27366
1870	0.973	-0.68678	0.01686	-51.36819	0.01686	-51.36819	0.973	-0.68678
1890	0.97029	-0.98411	0.01313	-34.00233	0.01313	-34.00233	0.97029	-0.98411
1910	0.97157	-1.10322	0.01125	-9.30761	0.01125	-9.30761	0.97157	-1.10322
1930	0.97635	-1.43461	0.01168	17.98239	0.01168	17.98239	0.97635	-1.43461
1950	0.97507	-2.27441	0.01432	39.003	0.01432	39.003	0.97507	-2.27441
1970	0.97069	-2.60093	0.01859	51.21539	0.01859	51.21539	0.97069	-2.60093
1990	0.97064	-2.76296	0.02332	58.96334	0.02332	58.96334	0.97064	-2.76296
2010	0.97264	-2.9838	0.02825	63.9679	0.02825	63.9679	0.97264	-2.9838
2030	0.97412	-3.42374	0.03327	67.32571	0.03327	67.32571	0.97412	-3.42374
2050	0.97216	-4.18006	0.03833	69.50902	0.03833	69.50902	0.97216	-4.18006
2070	0.96459	-4.44034	0.04333	71.06206	0.04333	71.06206	0.96459	-4.44034
2090	0.96804	-4.61812	0.04853	72.61042	0.04853	72.61042	0.96804	-4.61812
2110	0.97206	-5.12644	0.05379	73.49593	0.05379	73.49593	0.97206	-5.12644
2130	0.97116	-5.76862	0.05892	73.87675	0.05892	73.87675	0.97116	-5.76862
2150	0.96483	-5.73818	0.06368	74.72742	0.06368	74.72742	0.96483	-5.73818
2170	0.96798	-5.99671	0.06895	75.1462	0.06895	75.1462	0.96798	-5.99671
2190	0.96858	-6.51385	0.07406	75.37791	0.07406	75.37791	0.96858	-6.51385
2210	0.96861	-6.92347	0.07911	75.66893	0.07911	75.66893	0.96861	-6.92347
2230	0.96889	-7.23365	0.08419	75.89801	0.08419	75.89801	0.96889	-7.23365
2250	0.96902	-7.82669	0.08931	75.57618	0.08931	75.57618	0.96902	-7.82669
2270	0.962	-8.18149	0.09385	75.60765	0.09385	75.60765	0.962	-8.18149
2290	0.96653	-8.26317	0.09904	75.75318	0.09904	75.75318	0.96653	-8.26317
2310	0.97014	-8.62341	0.10418	75.69703	0.10418	75.69703	0.97014	-8.62341
2330	0.96742	-9.27874	0.10884	75.52475	0.10884	75.52475	0.96742	-9.27874
2350	0.96001	-9.71055	0.11283	75.7232	0.11283	75.7232	0.96001	-9.71055
2370	0.96183	-9.45915	0.11843	75.87742	0.11843	75.87742	0.96183	-9.45915
2390	0.96614	-9.90472	0.12392	75.55187	0.12392	75.55187	0.96614	-9.90472
2410	0.96437	-10.40725	0.12836	75.27004	0.12836	75.27004	0.96437	-10.40725
2430	0.95767	-10.68783	0.13216	75.20707	0.13216	75.20707	0.95767	-10.68783
2450	0.95692	-10.82866	0.13712	75.18975	0.13712	75.18975	0.95692	-10.82866
2470	0.9623	-11.26891	0.14254	74.92892	0.14254	74.92892	0.9623	-11.26891
2490	0.95909	-11.79488	0.14703	74.66576	0.14703	74.66576	0.95909	-11.79488
2510	0.95387	-12.15298	0.15137	74.56016	0.15137	74.56016	0.95387	-12.15298
2530	0.95141	-12.34302	0.1559	74.5821	0.1559	74.5821	0.95141	-12.34302
2550	0.9547	-12.6182	0.16042	74.51163	0.16042	74.51163	0.9547	-12.6182
2570	0.95362	-13.16579	0.16547	74.36324	0.16547	74.36324	0.95362	-13.16579
2590	0.95313	-13.39972	0.16976	74.16574	0.16976	74.16574	0.95313	-13.39972
2610	0.9519	-13.7142	0.17434	73.88943	0.17434	73.88943	0.9519	-13.7142
2630	0.95011	-14.14081	0.17899	73.52659	0.17899	73.52659	0.95011	-14.14081
2650	0.94945	-14.34846	0.18223	73.09144	0.18223	73.09144	0.94945	-14.34846
2670	0.95084	-14.39829	0.18798	73.22087	0.18798	73.22087	0.95084	-14.39829
2690	0.95181	-14.89689	0.19234	73.04124	0.19234	73.04124	0.95181	-14.89689
2710	0.95125	-15.37995	0.19643	72.7219	0.19643	72.7219	0.95125	-15.37995
2730	0.94934	-15.65147	0.20088	72.45392	0.20088	72.45392	0.94934	-15.65147
2750	0.94759	-15.78369	0.20586	72.45013	0.20586	72.45013	0.94759	-15.78369
2770	0.93855	-16.28245	0.20967	72.25242	0.20967	72.25242	0.93855	-16.28245
2790	0.9406	-16.61308	0.21329	72.02848	0.21329	72.02848	0.9406	-16.61308
2810	0.94429	-16.91796	0.2169	71.75316	0.2169	71.75316	0.94429	-16.91796
2830	0.94394	-17.22173	0.221	71.41782	0.221	71.41782	0.94394	-17.22173
2850	0.93765	-17.43123	0.22644	71.03028	0.22644	71.03028	0.93765	-17.43123
2870	0.93586	-17.60052	0.23051	71.03776	0.23051	71.03776	0.93586	-17.60052
2890	0.93609	-17.73552	0.23495	70.9731	0.23495	70.9731	0.93609	-17.73552
2910	0.93719	-17.99248	0.23919	70.7032	0.23919	70.7032	0.93719	-17.99248
2930	0.9377	-18.28872	0.24299	70.41712	0.24299	70.41712	0.9377	-18.28872
2950	0.93593	-18.30261	0.24645	70.62608	0.24645	70.62608	0.93593	-18.30261
2970	0.9369	-19.00324	0.25119	70.10984	0.25119	70.10984	0.9369	-19.00324
2990	0.93518	-19.41801	0.25511	69.79872	0.25511	69.79872	0.93518	-19.41801
3010	0.93297	-19.55202	0.25867	69.63489	0.25867	69.63489	0.93297	-19.55202
3030	0.93209	-19.58123	0.26253	69.4965	0.26253	69.4965	0.93209	-19.58123
3050	0.93395	-19.85243	0.2675	69.19761	0.2675	69.19761	0.93395	-19.85243
3070	0.92885	-20.71962	0.27128	68.59687	0.27128	68.59687	0.92885	-20.71962
3090	0.92382	-21.06485	0.2748	68.35137	0.2748	68.35137	0.92382	-21.06485
3110	0.92167	-20.97466	0.27817	68.49024	0.27817	68.49024	0.92167	-20.97466
3130	0.92346	-20.84462	0.28191	68.70422	0.28191	68.70422	0.92346	-20.84462
3150	0.92848	-21.37931	0.28698	68.34568	0.28698	68.34568	0.92848	-21.37931
3170	0.91776	-21.78086	0.28967	67.8008	0.28967	67.8008	0.91776	-21.78086
3190	0.91782	-21.84711	0.29278	67.7557	0.29278	67.7557	0.91782	-21.84711
3210	0.91971	-22.07711	0.29721	67.43709	0.29721	67.43709	0.91971	-22.07711
3230	0.91813	-22.41576	0.30173	66.88299	0.30173	66.88299	0.91813	-22.41576
3250	0.91139	-22.25387	0.30303	66.94271	0.30303	66.94271	0.91139	-22.25387
3270	0.91725	-22.80152	0.30948	66.46715	0.30948	66.46715	0.91725	-22.80152
3290	0.91368	-23.19562	0.31353	66.26084	0.31353	66.26084	0.91368	-23.19562
3310	0.9096	-23.43382	0.31635	66.24537	0.31635	66.24537	0.9096	-23.43382
3330	0.9097	-23.52623	0.31947	66.30658	0.31947	66.30658	0.9097	-23.52623
3350	0.91444	-23.49536	0.32485	66.29465	0.32485	66.29465	0.91444	-23.49536
3370	0.91043	-24.34665	0.32623	65.64793	0.32623	65.64793	0.91043	-24.34665
3390	0.90525	-24.56944	0.32875	65.4052	0.32875	65.4052	0.90525	-24.56944
3410	0.90692	-24.5577	0.33278	65.4559	0.33278	65.4559	0.90692	-24.5577
3430	0.91206	-24.67881	0.33764	65.41208	0.33764	65.41208	0.91206	-24.67881
3450	0.90586	-25.27355	0.34154	64.60841	0.34154	64.60841	0.90586	-25.27355
3470	0.89668	-25.63316	0.34284	64.35692	0.34284	64.35692	0.89668	-25.63316
3490	0.89749	-25.50897	0.3458	64.62642	0.3458	64.62642	0.89749	-25.50897
3510	0.90137	-25.81843	0.35039	64.53548	0.35039	64.53548	0.90137	-25.81843
3530	0.90244	-26.5364	0.35472	64.0335	0.35472	64.0335	0.90244	-26.5364
3550	0.89588	-26.69511	0.35507	63.90074	0.35507	63.90074	0.89588	-26.69511
3570	0.89696	-26.45998	0.36001	64.06236	0.36001	64.06236	0.89696	-26.45998
3590	0.89547	-26.78964	0.36415	63.56302	0.36415	63.56302	0.89547	-26.78964
3610	0.89283	-27.12245	0.36689	63.18416	0.36689	63.18416	0.89283	-27.12245
3630	0.89129	-27.27384	0.36924	63.1598	0.36924	63.1598	0.89129	-27.27384
3650	0.89394	-27.43632	0.37372	63.17654	0.37372	63.17654	0.89394	-27.43632
3670	0.89018	-27.93397	0.37645	62.64839	0.37645	62.64839	0.89018	-27.93397
3690	0.88573	-27.98196	0.37848	62.62414	0.37848	62.62414	0.88573	-27.98196
3710	0.887	-28.30212	0.38155	62.45383	0.38155	62.45383	0.887	-28.30212
3730	0.89078	-28.89983	0.38529	62.03835	0.38529	62.03835	0.89078	-28.89983
3750	0.88427	-29.06402	0.38727	61.82951	0.38727	61.82951	0.88427	-29.06402
3770	0.88188	-28.82569	0.39044	62.01844	0.39044	62.01844	0.88188	-28.82569
3790	0.88412	-28.82742	0.39629	61.73185	0.39629	61.73185	0.88412	-28.82742
3810	0.88321	-29.14422	0.39981	61.39582	0.39981	61.39582	0.88321	-29.14422
3830	0.87836	-29.67412	0.4008	61.15727	0.4008	61.15727	0.87836	-29.67412
3850	0.87574	-30.13816	0.40385	60.884	0.40385	60.884	0.87574	-30.13816
3870	0.87274	-30.45529	0.40698	60.88214	0.40698	60.88214	0.87274	-30.45529
3890	0.87629	-30.52317	0.41124	60.93494	0.41124	60.93494	0.87629	-30.52317
3910	0.87785	-30.89971	0.41543	60.61981	0.41543	60.61981	0.87785	-30.89971
3930	0.87434	-31.47277	0.41848	60.08153	0.41848	60.08153	0.87434	-31.47277
3950	0.86816	-31.46012	0.41942	60.03225	0.41942	60.03225	0.86816	-31.46012
3970	0.86866	-31.21158	0.42338	60.10097	0.42338	60.10097	0.86866	-31.21158
3990	0.87009	-31.54273	0.42721	59.81368	0.42721	59.81368	0.87009	-31.54273
4010	0.86767	-32.03033	0.42976	59.47169	0.42976	59.47169	0.86767	-32.03033
4030	0.86252	-32.41212	0.43173	59.2485	0.43173	59.2485	0.86252	-32.41212
4050	0.86162	-32.58684	0.43566	59.18974	0.43566	59.18974	0.86162	-32.58684
4070	0.86301	-32.88253	0.43944	58.94274	0.43944	58.94274	0.86301	-32.88253
4090	0.86478	-33.46653	0.44249	58.6215	0.44249	58.6215	0.86478	-33.46653
4110	0.86216	-33.85982	0.44432	58.24229	0.44432	58.24229	0.86216	-33.85982
4130	0.85591	-33.89852	0.44588	58.02595	0.44588	58.02595	0.85591	-33.89852
4150	0.85238	-33.73388	0.44954	58.39785	0.44954	58.39785	0.85238	-33.73388
4170	0.85947	-34.24301	0.45578	57.66156	0.45578	57.66156	0.85947	-34.24301
4190	0.85506	-34.61667	0.45728	57.44264	0.45728	57.44264	0.85506	-34.61667
4210	0.85078	-34.80258	0.45915	57.44506	0.45915	57.44506	0.85078	-34.80258
4230	0.85103	-34.95757	0.46314	57.38383	0.46314	57.38383	0.85103	-34.95757
4250	0.85303	-35.44761	0.46763	56.98507	0.46763	56.98507	0.85303	-35.44761
4270	0.84625	-35.39875	0.46864	56.95466	0.46864	56.95466	0.84625	-35.39875
4290	0.84738	-35.86123	0.4731	56.67912	0.4731	56.67912	0.84738	-35.86123
4310	0.84724	-36.36079	0.47639	56.27302	0.47639	56.27302	0.84724	-36.36079
4330	0.8449	-36.66508	0.47869	55.91844	0.47869	55.91844	0.8449	-36.66508
4350	0.8477	-36.78368	0.48495	55.86492	0.48495	55.86492	0.8477	-36.78368
4370	0.84376	-37.10062	0.48508	55.50914	0.48508	55.50914	0.84376	-37.10062
4390	0.83802	-37.33947	0.48586	55.43052	0.48586	55.43052	0.83802	-37.33947
4410	0.83604	-37.5424	0.48871	55.3612	0.48871	55.3612	0.83604	-37.5424
4430	0.83703	-37.82682	0.4929	55.18072	0.4929	55.18072	0.83703	-37.82682
4450	0.83382	-38.38537	0.49548	54.91604	0.49548	54.91604	0.83382	-38.38537
4470	0.83592	-38.49131	0.49921	54.73091	0.49921	54.73091	0.83592	-38.49131
4490	0.83353	-39.16673	0.50217	54.26907	0.50217	54.26907	0.83353	-39.16673
4510	0.82895	-39.38453	0.50373	54.00029	0.50373	54.00029	0.82895	-39.38453
4530	0.82632	-39.08269	0.50561	54.04931	0.50561	54.04931	0.82632	-39.08269
4550	0.83153	-39.16424	0.5119	54.19588	0.5119	54.19588	0.83153	-39.16424
4570	0.82793	-40.21482	0.51433	53.47963	0.51433	53.47963	0.82793	-40.21482
4590	0.81836	-40.58201	0.51533	53.20276	0.51533	53.20276	0.81836	-40.58201
4610	0.81568	-40.55211	0.51808	53.23242	0.51808	53.23242	0.81568	-40.55211
4630	0.82006	-40.69593	0.5223	53.11816	0.5223	53.11816	0.82006	-40.69593
4650	0.81897	-41.86882	0.52418	52.09196	0.52418	52.09196	0.81897	-41.86882
4670	0.81288	-41.84167	0.5243	51.95345	0.5243	51.95345	0.81288	-41.84167
4690	0.80941	-41.9642	0.52754	51.95429	0.52754	51.95429	0.80941	-41.9642
4710	0.80864	-42.17408	0.53079	51.75382	0.53079	51.75382	0.80864	-42.17408
4730	0.80897	-42.4899	0.53382	51.30867	0.53382	51.30867	0.80897	-42.4899
4750	0.80712	-43.01123	0.53927	50.8728	0.53927	50.8728	0.80712	-43.01123
4770	0.79823	-43.30356	0.53927	50.62203	0.53927	50.62203	0.79823	-43.30356
4790	0.79557	-43.60901	0.5426	50.32018	0.5426	50.32018	0.79557	-43.60901
4810	0.79402	-43.9749	0.54735	49.93796	0.54735	49.93796	0.79402	-43.9749
4830	0.79162	-44.32911	0.55116	49.4939	0.55116	49.4939	0.79162	-44.32911
4850	0.78953	-44.48008	0.55122	49.05429	0.55122	49.05429	0.78953	-44.48008
4870	0.78802	-44.71267	0.55583	48.51884	0.55583	48.51884	0.78802	-44.71267
4890	0.77889	-44.97934	0.55771	47.88547	0.55771	47.88547	0.77889	-44.97934
4910	0.77074	-45.09164	0.55852	47.37128	0.55852	47.37128	0.77074	-45.09164
4930	0.76723	-45.15634	0.56079	46.89599	0.56079	46.89599	0.76723	-45.15634
4950	0.76707	-45.57544	0.56796	46.08199	0.56796	46.08199	0.76707	-45.57544
4970	0.75007	-45.81801	0.56047	45.0287	0.56047	45.0287	0.75007	-45.81801
4990	0.74322	-45.40048	0.55909	44.42476	0.55909	44.42476	0.74322	-45.40048
5010	0.74089	-45.07308	0.55789	43.47059	0.55789	43.47059	0.74089	-45.07308
5030	0.73654	-44.94274	0.55217	42.14048	0.55217	42.14048	0.73654	-44.94274
5050	0.72272	-44.47308	0.53837	41.18256	0.53837	41.18256	0.72272	-44.47308
5070	0.72587	-42.83309	0.52591	41.17493	0.52591	41.17493	0.72587	-42.83309
5090	0.73499	-41.97865	0.515	41.0648	0.515	41.0648	0.73499	-41.97865
5110	0.7433	-41.71847	0.50284	41.38172	0.50284	41.38172	0.7433	-41.71847
5130	0.74895	-41.62684	0.49028	42.47679	0.49028	42.47679	0.74895	-41.62684
5150	0.755	-41.04366	0.48184	44.52272	0.48184	44.52272	0.755	-41.04366
5170	0.77249	-41.48371	0.48849	45.99031	0.48849	45.99031	0.77249	-41.48371
5190	0.78353	-42.43501	0.49229	46.70009	0.49229	46.70009	0.78353	-42.43501
5210	0.78686	-43.08126	0.49459	47.38643	0.49459	47.38643	0.78686	-43.08126
5230	0.78803	-43.23396	0.49856	48.33305	0.49856	48.33305	0.78803	-43.23396
5250	0.79937	-43.33241	0.50913	49.373	0.50913	49.373	0.79937	-43.33241
5270	0.8029	-44.82892	0.51877	48.64712	0.51877	48.64712	0.8029	-44.82892
5290	0.79263	-45.22483	0.51862	48.73313	0.51862	48.73313	0.79263	-45.22483
5310	0.79288	-45.19894	0.52347	49.24262	0.52347	49.24262	0.79288	-45.19894
5330	0.80395	-45.46991	0.53437	49.54137	0.53437	49.54137	0.80395	-45.46991
5350	0.80204	-46.79622	0.53856	48.74933	0.53856	48.74933	0.80204	-46.79622
5370	0.79221	-46.94765	0.53968	48.93614	0.53968	48.93614	0.79221	-46.94765
5390	0.79534	-47.04872	0.54611	48.87745	0.54611	48.87745	0.79534	-47.04872
5410	0.79828	-47.33884	0.55211	48.54058	0.55211	48.54058	0.79828	-47.33884
5430	0.79619	-47.72736	0.55548	48.18082	0.55548	48.18082	0.79619	-47.72736
