! Data Taken on a HP 8720C VNA using a series-through fixture with TRL* de-embedding
#	mhz	s	ma	r	50
50	0.04542	66.97645	0.98597	-3.8103	0.98597	-3.8103	0.04542	66.97645
70	0.06795	70.98473	0.98007	-4.62319	0.98007	-4.62319	0.06795	70.98473
90	0.08696	72.60499	0.97588	-5.37535	0.97588	-5.37535	0.08696	72.60499
110	0.10406	72.36167	0.97357	-6.2528	0.97357	-6.2528	0.10406	72.36167
130	0.12037	71.36315	0.97121	-7.251	0.97121	-7.251	0.12037	71.36315
150	0.13651	71.30176	0.9647	-8.17496	0.9647	-8.17496	0.13651	71.30176
170	0.15443	71.57224	0.96193	-8.94503	0.96193	-8.94503	0.15443	71.57224
190	0.17076	71.07637	0.9574	-10.096	0.9574	-10.096	0.17076	71.07637
210	0.18671	70.43726	0.95352	-11.1512	0.95352	-11.1512	0.18671	70.43726
230	0.20282	69.91441	0.95124	-12.0346	0.95124	-12.0346	0.20282	69.91441
250	0.21892	69.40376	0.95012	-13.07076	0.95012	-13.07076	0.21892	69.40376
270	0.23355	68.49547	0.94319	-14.01143	0.94319	-14.01143	0.23355	68.49547
290	0.24949	67.79291	0.93879	-14.82186	0.93879	-14.82186	0.24949	67.79291
310	0.26613	66.9948	0.93378	-15.69871	0.93378	-15.69871	0.26613	66.9948
330	0.28278	66.04716	0.92769	-16.66526	0.92769	-16.66526	0.28278	66.04716
350	0.29871	65.1433	0.92272	-17.57141	0.92272	-17.57141	0.29871	65.1433
370	0.31312	65.12387	0.91951	-18.50202	0.91951	-18.50202	0.31312	65.12387
390	0.32819	64.48648	0.91354	-19.52352	0.91354	-19.52352	0.32819	64.48648
410	0.34288	63.73143	0.90815	-20.54906	0.90815	-20.54906	0.34288	63.73143
430	0.3568	63.03178	0.9042	-21.48473	0.9042	-21.48473	0.3568	63.03178
450	0.37031	62.23332	0.90016	-22.22957	0.90016	-22.22957	0.37031	62.23332
470	0.38356	61.38314	0.89209	-23.09538	0.89209	-23.09538	0.38356	61.38314
490	0.41443	61.58596	0.8778	-25.32635	0.8778	-25.32635	0.41443	61.58596
510	0.44276	61.39035	0.86648	-27.25563	0.86648	-27.25563	0.44276	61.39035
530	0.45892	60.61855	0.86013	-28.34306	0.86013	-28.34306	0.45892	60.61855
550	0.46376	60.36642	0.85352	-29.17518	0.85352	-29.17518	0.46376	60.36642
570	0.47573	59.63803	0.84944	-29.97717	0.84944	-29.97717	0.47573	59.63803
590	0.48927	58.78394	0.84039	-30.60838	0.84039	-30.60838	0.48927	58.78394
610	0.50157	58.05826	0.83345	-31.41877	0.83345	-31.41877	0.50157	58.05826
630	0.51214	57.4403	0.82904	-32.38892	0.82904	-32.38892	0.51214	57.4403
650	0.52282	56.63459	0.82093	-33.13004	0.82093	-33.13004	0.52282	56.63459
670	0.53724	55.93083	0.81263	-33.86477	0.81263	-33.86477	0.53724	55.93083
690	0.54888	55.27883	0.80414	-34.78555	0.80414	-34.78555	0.54888	55.27883
710	0.56034	54.39987	0.79645	-35.75627	0.79645	-35.75627	0.56034	54.39987
730	0.57156	53.51086	0.78889	-36.58659	0.78889	-36.58659	0.57156	53.51086
750	0.57981	53.32431	0.77913	-37.03193	0.77913	-37.03193	0.57981	53.32431
770	0.59102	52.6097	0.7734	-37.89248	0.7734	-37.89248	0.59102	52.6097
790	0.60137	51.85867	0.76508	-38.60461	0.76508	-38.60461	0.60137	51.85867
810	0.60948	51.21048	0.75583	-39.21993	0.75583	-39.21993	0.60948	51.21048
830	0.61621	50.54392	0.7467	-39.9168	0.7467	-39.9168	0.61621	50.54392
850	0.62472	49.47733	0.73817	-41.0003	0.73817	-41.0003	0.62472	49.47733
870	0.6317	49.06472	0.73015	-41.47211	0.73015	-41.47211	0.6317	49.06472
890	0.64227	48.20474	0.72315	-42.22681	0.72315	-42.22681	0.64227	48.20474
910	0.65191	47.24673	0.7155	-43.12481	0.7155	-43.12481	0.65191	47.24673
930	0.65908	46.41641	0.70634	-43.97384	0.70634	-43.97384	0.65908	46.41641
950	0.66529	45.81588	0.69559	-44.52896	0.69559	-44.52896	0.66529	45.81588
970	0.67692	45.10498	0.68857	-45.22983	0.68857	-45.22983	0.67692	45.10498
990	0.68728	44.22499	0.68097	-45.82384	0.68097	-45.82384	0.68728	44.22499
1010	0.69499	43.43612	0.67354	-46.395	0.67354	-46.395	0.69499	43.43612
1030	0.70144	42.88666	0.66654	-46.96335	0.66654	-46.96335	0.70144	42.88666
1050	0.71083	42.6129	0.6597	-47.48499	0.6597	-47.48499	0.71083	42.6129
1070	0.72028	41.87667	0.65001	-48.22425	0.65001	-48.22425	0.72028	41.87667
1090	0.72676	41.27929	0.64226	-48.83324	0.64226	-48.83324	0.72676	41.27929
1110	0.73279	40.75803	0.6343	-49.37226	0.6343	-49.37226	0.73279	40.75803
1130	0.73928	40.20998	0.62592	-49.97396	0.62592	-49.97396	0.73928	40.20998
1150	0.74551	39.49206	0.61891	-50.84338	0.61891	-50.84338	0.74551	39.49206
1170	0.75378	38.63146	0.61004	-51.50123	0.61004	-51.50123	0.75378	38.63146
1190	0.76045	38.16454	0.60383	-51.97679	0.60383	-51.97679	0.76045	38.16454
1210	0.76629	37.61679	0.59705	-52.58517	0.59705	-52.58517	0.76629	37.61679
1230	0.77158	36.94591	0.5886	-53.27047	0.5886	-53.27047	0.77158	36.94591
1250	0.7761	36.54186	0.57958	-53.60587	0.57958	-53.60587	0.7761	36.54186
1270	0.78725	36.18599	0.57437	-54.00103	0.57437	-54.00103	0.78725	36.18599
1290	0.7919	35.27581	0.56559	-54.89776	0.56559	-54.89776	0.7919	35.27581
1310	0.79371	34.67877	0.55643	-55.51118	0.55643	-55.51118	0.79371	34.67877
1330	0.79763	34.44669	0.54917	-55.80624	0.54917	-55.80624	0.79763	34.44669
1350	0.80993	33.81581	0.5452	-56.49762	0.5452	-56.49762	0.80993	33.81581
1370	0.81289	32.99803	0.53615	-57.35653	0.53615	-57.35653	0.81289	32.99803
1390	0.8152	32.53647	0.52955	-57.61454	0.52955	-57.61454	0.8152	32.53647
1410	0.82182	32.02936	0.52347	-58.02594	0.52347	-58.02594	0.82182	32.02936
1430	0.82955	31.4324	0.51627	-58.64609	0.51627	-58.64609	0.82955	31.4324
1450	0.82707	31.05875	0.50656	-58.83142	0.50656	-58.83142	0.82707	31.05875
1470	0.83311	30.63381	0.50134	-59.31456	0.50134	-59.31456	0.83311	30.63381
1490	0.83698	29.91892	0.49413	-60.11489	0.49413	-60.11489	0.83698	29.91892
1510	0.8385	29.35792	0.48581	-60.6851	0.48581	-60.6851	0.8385	29.35792
1530	0.84098	28.98321	0.47798	-60.95038	0.47798	-60.95038	0.84098	28.98321
1550	0.85114	28.41568	0.47299	-61.30841	0.47299	-61.30841	0.85114	28.41568
1570	0.85428	27.66535	0.46607	-62.03149	0.46607	-62.03149	0.85428	27.66535
1590	0.8546	27.07733	0.45899	-62.6059	0.45899	-62.6059	0.8546	27.07733
1610	0.85801	26.72166	0.45231	-63.01881	0.45231	-63.01881	0.85801	26.72166
1630	0.8644	26.45481	0.44598	-63.32962	0.44598	-63.32962	0.8644	26.45481
1650	0.86754	25.91966	0.43932	-63.6699	0.43932	-63.6699	0.86754	25.91966
1670	0.86762	25.10336	0.43206	-64.19151	0.43206	-64.19151	0.86762	25.10336
1690	0.86822	24.79342	0.42394	-64.52475	0.42394	-64.52475	0.86822	24.79342
1710	0.87248	24.45509	0.41727	-64.90104	0.41727	-64.90104	0.87248	24.45509
1730	0.87893	23.83185	0.412	-65.45478	0.412	-65.45478	0.87893	23.83185
1750	0.88158	22.94545	0.40568	-66.22328	0.40568	-66.22328	0.88158	22.94545
1770	0.88214	22.67913	0.39883	-66.4418	0.39883	-66.4418	0.88214	22.67913
1790	0.88814	22.36435	0.39444	-66.76081	0.39444	-66.76081	0.88814	22.36435
1810	0.89097	21.92394	0.38727	-67.14487	0.38727	-67.14487	0.89097	21.92394
1830	0.89045	21.41638	0.37832	-67.48962	0.37832	-67.48962	0.89045	21.41638
1850	0.89491	21.03583	0.3749	-67.62177	0.3749	-67.62177	0.89491	21.03583
1870	0.89872	20.21889	0.36914	-68.26266	0.36914	-68.26266	0.89872	20.21889
1890	0.89943	19.75751	0.36179	-68.75107	0.36179	-68.75107	0.89943	19.75751
1910	0.90257	19.40882	0.35513	-68.96805	0.35513	-68.96805	0.90257	19.40882
1930	0.90816	18.99235	0.34972	-69.13761	0.34972	-69.13761	0.90816	18.99235
1950	0.91064	18.39002	0.34437	-69.82667	0.34437	-69.82667	0.91064	18.39002
1970	0.91009	17.81635	0.33655	-70.1319	0.33655	-70.1319	0.91009	17.81635
1990	0.91184	17.59166	0.32979	-70.39449	0.32979	-70.39449	0.91184	17.59166
2010	0.91479	17.3573	0.32422	-70.5796	0.32422	-70.5796	0.91479	17.3573
2030	0.9181	16.89865	0.31934	-70.83922	0.31934	-70.83922	0.9181	16.89865
2050	0.92122	16.14511	0.31403	-71.51223	0.31403	-71.51223	0.92122	16.14511
2070	0.91665	15.72257	0.30661	-71.82736	0.30661	-71.82736	0.91665	15.72257
2090	0.91925	15.62046	0.30007	-71.93556	0.30007	-71.93556	0.91925	15.62046
2110	0.92501	15.1385	0.29527	-72.42247	0.29527	-72.42247	0.92501	15.1385
2130	0.92902	14.40891	0.29104	-73.13808	0.29104	-73.13808	0.92902	14.40891
2150	0.92548	14.39641	0.28418	-73.19674	0.28418	-73.19674	0.92548	14.39641
2170	0.93001	13.98731	0.27902	-73.05418	0.27902	-73.05418	0.93001	13.98731
2190	0.93313	13.54988	0.27359	-73.50289	0.27359	-73.50289	0.93313	13.54988
2210	0.93463	13.09065	0.26747	-73.90743	0.26747	-73.90743	0.93463	13.09065
2230	0.93554	12.60476	0.26128	-74.12945	0.26128	-74.12945	0.93554	12.60476
2250	0.93824	12.07601	0.25665	-74.52768	0.25665	-74.52768	0.93824	12.07601
2270	0.93502	11.6135	0.25016	-74.96738	0.25016	-74.96738	0.93502	11.6135
2290	0.93917	11.40257	0.24491	-75.13986	0.24491	-75.13986	0.93917	11.40257
2310	0.94358	11.06619	0.24011	-75.35961	0.24011	-75.35961	0.94358	11.06619
2330	0.94402	10.49784	0.23471	-75.73279	0.23471	-75.73279	0.94402	10.49784
2350	0.93905	9.8615	0.22745	-76.1572	0.22745	-76.1572	0.93905	9.8615
2370	0.93904	10.0491	0.22285	-75.99211	0.22285	-75.99211	0.93904	10.0491
2390	0.94679	9.61506	0.21883	-76.33896	0.21883	-76.33896	0.94679	9.61506
2410	0.94896	9.09764	0.2136	-76.73948	0.2136	-76.73948	0.94896	9.09764
2430	0.9447	8.7614	0.20732	-76.9289	0.20732	-76.9289	0.9447	8.7614
2450	0.94562	8.59714	0.20204	-76.83592	0.20204	-76.83592	0.94562	8.59714
2470	0.9496	8.11779	0.1975	-77.20602	0.1975	-77.20602	0.9496	8.11779
2490	0.95019	7.58679	0.19233	-77.67396	0.19233	-77.67396	0.95019	7.58679
2510	0.94798	7.20696	0.18703	-77.88636	0.18703	-77.88636	0.94798	7.20696
2530	0.94648	6.99718	0.18185	-77.88196	0.18185	-77.88196	0.94648	6.99718
2550	0.95212	6.79245	0.17677	-78.0916	0.17677	-78.0916	0.95212	6.79245
2570	0.95465	6.28511	0.17242	-78.42066	0.17242	-78.42066	0.95465	6.28511
2590	0.95393	5.93457	0.16715	-78.63775	0.16715	-78.63775	0.95393	5.93457
2610	0.95242	5.5706	0.16184	-78.87142	0.16184	-78.87142	0.95242	5.5706
2630	0.95163	5.19526	0.15661	-79.13489	0.15661	-79.13489	0.95163	5.19526
2650	0.95215	4.98294	0.15084	-79.32605	0.15084	-79.32605	0.95215	4.98294
2670	0.95596	4.62565	0.14631	-79.11157	0.14631	-79.11157	0.95596	4.62565
2690	0.95992	4.17436	0.14184	-79.38802	0.14184	-79.38802	0.95992	4.17436
2710	0.96171	3.80997	0.1369	-79.65091	0.1369	-79.65091	0.96171	3.80997
2730	0.96111	3.53446	0.13171	-79.71436	0.13171	-79.71436	0.96111	3.53446
2750	0.95997	3.17094	0.12729	-79.71113	0.12729	-79.71113	0.95997	3.17094
2770	0.95252	2.72285	0.1222	-79.84152	0.1222	-79.84152	0.95252	2.72285
2790	0.95648	2.3829	0.11726	-79.94122	0.11726	-79.94122	0.95648	2.3829
2810	0.9611	2.02192	0.11236	-80.05614	0.11236	-80.05614	0.9611	2.02192
2830	0.96131	1.68007	0.10761	-80.16949	0.10761	-80.16949	0.96131	1.68007
2850	0.95766	1.56675	0.10334	-80.20178	0.10334	-80.20178	0.95766	1.56675
2870	0.95762	1.28628	0.09821	-79.83585	0.09821	-79.83585	0.95762	1.28628
2890	0.96158	1.14585	0.09375	-79.67208	0.09375	-79.67208	0.96158	1.14585
2910	0.96425	0.91616	0.08912	-79.65569	0.08912	-79.65569	0.96425	0.91616
2930	0.96386	0.60076	0.08412	-79.55675	0.08412	-79.55675	0.96386	0.60076
2950	0.96213	0.43617	0.07912	-78.97017	0.07912	-78.97017	0.96213	0.43617
2970	0.96597	-0.19053	0.07509	-78.83958	0.07509	-78.83958	0.96597	-0.19053
2990	0.96622	-0.64078	0.07058	-78.6833	0.07058	-78.6833	0.96622	-0.64078
3010	0.96494	-0.84882	0.06591	-78.1838	0.06591	-78.1838	0.96494	-0.84882
3030	0.96457	-0.92471	0.06133	-77.34116	0.06133	-77.34116	0.96457	-0.92471
3050	0.96791	-1.15443	0.05698	-76.47309	0.05698	-76.47309	0.96791	-1.15443
3070	0.96279	-1.97999	0.05263	-76.27789	0.05263	-76.27789	0.96279	-1.97999
3090	0.96058	-2.37227	0.04834	-75.18051	0.04834	-75.18051	0.96058	-2.37227
3110	0.96048	-2.32736	0.044	-73.64623	0.044	-73.64623	0.96048	-2.32736
3130	0.96319	-2.1893	0.03971	-71.83954	0.03971	-71.83954	0.96319	-2.1893
3150	0.97092	-2.65007	0.03585	-69.62414	0.03585	-69.62414	0.97092	-2.65007
3170	0.95947	-3.41845	0.03166	-67.45034	0.03166	-67.45034	0.95947	-3.41845
3190	0.95923	-3.52192	0.02765	-63.88157	0.02765	-63.88157	0.95923	-3.52192
3210	0.96364	-3.63079	0.02389	-59.3818	0.02389	-59.3818	0.96364	-3.63079
3230	0.96655	-3.92088	0.02039	-53.55982	0.02039	-53.55982	0.96655	-3.92088
3250	0.9623	-4.07358	0.01713	-45.16916	0.01713	-45.16916	0.9623	-4.07358
3270	0.9671	-4.41988	0.01496	-31.92559	0.01496	-31.92559	0.9671	-4.41988
3290	0.96416	-4.80839	0.01333	-16.00215	0.01333	-16.00215	0.96416	-4.80839
3310	0.96123	-5.04569	0.01289	1.54621	0.01289	1.54621	0.96123	-5.04569
3330	0.96272	-5.16282	0.01383	18.89068	0.01383	18.89068	0.96272	-5.16282
3350	0.96978	-5.41529	0.01594	33.42859	0.01594	33.42859	0.96978	-5.41529
3370	0.96737	-6.03681	0.01869	42.57408	0.01869	42.57408	0.96737	-6.03681
3390	0.96219	-6.31977	0.02181	50.00413	0.02181	50.00413	0.96219	-6.31977
3410	0.96216	-6.37601	0.02525	55.58899	0.02525	55.58899	0.96216	-6.37601
3430	0.96621	-6.46192	0.02894	59.52201	0.02894	59.52201	0.96621	-6.46192
3450	0.9643	-6.97838	0.03278	62.31971	0.03278	62.31971	0.9643	-6.97838
3470	0.95779	-7.4479	0.03646	64.16264	0.03646	64.16264	0.95779	-7.4479
3490	0.95835	-7.36389	0.04008	66.312	0.04008	66.312	0.95835	-7.36389
3510	0.96452	-7.6113	0.04396	67.95879	0.04396	67.95879	0.96452	-7.6113
3530	0.9695	-8.29224	0.04793	68.93135	0.04793	68.93135	0.9695	-8.29224
3550	0.96114	-8.72597	0.0513	69.69529	0.0513	69.69529	0.96114	-8.72597
3570	0.9619	-8.44112	0.05506	70.8801	0.05506	70.8801	0.9619	-8.44112
3590	0.96262	-8.79073	0.0591	71.33971	0.0591	71.33971	0.96262	-8.79073
3610	0.96125	-9.10247	0.06289	71.74264	0.06289	71.74264	0.96125	-9.10247
3630	0.96015	-9.21141	0.06641	72.33198	0.06641	72.33198	0.96015	-9.21141
3650	0.96608	-9.45994	0.07012	72.92546	0.07012	72.92546	0.96608	-9.45994
3670	0.96278	-10.02102	0.07397	72.95146	0.07397	72.95146	0.96278	-10.02102
3690	0.95796	-10.08152	0.07738	73.31228	0.07738	73.31228	0.95796	-10.08152
3710	0.95897	-10.23889	0.08115	73.70751	0.08115	73.70751	0.95897	-10.23889
3730	0.96359	-10.69848	0.08518	73.90845	0.08518	73.90845	0.96359	-10.69848
3750	0.96005	-11.2735	0.08849	73.75807	0.08849	73.75807	0.96005	-11.2735
3770	0.95944	-11.00294	0.09203	74.59506	0.09203	74.59506	0.95944	-11.00294
3790	0.96363	-11.12112	0.09643	74.48396	0.09643	74.48396	0.96363	-11.12112
3810	0.96326	-11.45218	0.10024	74.32326	0.10024	74.32326	0.96326	-11.45218
3830	0.95827	-11.87346	0.10341	74.43995	0.10341	74.43995	0.95827	-11.87346
3850	0.9579	-12.31557	0.10736	74.58955	0.10736	74.58955	0.9579	-12.31557
3870	0.95123	-12.52115	0.11045	74.37105	0.11045	74.37105	0.95123	-12.52115
3890	0.95789	-12.55351	0.11446	74.67804	0.11446	74.67804	0.95789	-12.55351
3910	0.96263	-12.94666	0.11872	74.60051	0.11872	74.60051	0.96263	-12.94666
3930	0.95986	-13.59681	0.12244	74.1091	0.12244	74.1091	0.95986	-13.59681
3950	0.95365	-13.76231	0.12473	74.05509	0.12473	74.05509	0.95365	-13.76231
3970	0.95756	-13.49195	0.12859	74.45328	0.12859	74.45328	0.95756	-13.49195
3990	0.95946	-13.8217	0.13248	74.35627	0.13248	74.35627	0.95946	-13.8217
4010	0.95791	-14.30314	0.13615	74.14711	0.13615	74.14711	0.95791	-14.30314
4030	0.95414	-14.68201	0.13955	74.04059	0.13955	74.04059	0.95414	-14.68201
4050	0.95208	-14.89817	0.14283	74.08319	0.14283	74.08319	0.95208	-14.89817
4070	0.95384	-15.00503	0.14656	73.99323	0.14656	73.99323	0.95384	-15.00503
4090	0.95811	-15.62659	0.15021	73.67104	0.15021	73.67104	0.95811	-15.62659
4110	0.95767	-16.16954	0.15337	73.32124	0.15337	73.32124	0.95767	-16.16954
4130	0.9518	-16.27886	0.15614	73.20643	0.15614	73.20643	0.9518	-16.27886
4150	0.94623	-15.83777	0.15917	73.64719	0.15917	73.64719	0.94623	-15.83777
4170	0.95955	-16.5417	0.16396	73.1293	0.16396	73.1293	0.95955	-16.5417
4190	0.95591	-17.03304	0.167	73.02449	0.167	73.02449	0.95591	-17.03304
4210	0.95095	-17.21378	0.16988	73.12251	0.16988	73.12251	0.95095	-17.21378
4230	0.9518	-17.27554	0.17344	73.19314	0.17344	73.19314	0.9518	-17.27554
4250	0.95711	-17.6995	0.17783	72.98619	0.17783	72.98619	0.95711	-17.6995
4270	0.94978	-17.80535	0.17946	72.92406	0.17946	72.92406	0.94978	-17.80535
4290	0.95185	-18.12522	0.18337	72.64197	0.18337	72.64197	0.95185	-18.12522
4310	0.95339	-18.62046	0.18706	72.32038	0.18706	72.32038	0.95339	-18.62046
4330	0.95256	-19.08018	0.19033	72.08216	0.19033	72.08216	0.95256	-19.08018
4350	0.95558	-19.12122	0.19529	71.99259	0.19529	71.99259	0.95558	-19.12122
4370	0.95411	-19.40987	0.19803	71.91991	0.19803	71.91991	0.95411	-19.40987
4390	0.95026	-19.61645	0.19981	71.88046	0.19981	71.88046	0.95026	-19.61645
4410	0.9478	-19.80641	0.20246	71.87611	0.20246	71.87611	0.9478	-19.80641
4430	0.94759	-20.11667	0.20608	71.80771	0.20608	71.80771	0.94759	-20.11667
4450	0.94761	-20.7556	0.20901	71.4751	0.20901	71.4751	0.94761	-20.7556
4470	0.94956	-20.79275	0.21271	71.45492	0.21271	71.45492	0.94956	-20.79275
4490	0.94925	-21.33657	0.21627	71.14694	0.21627	71.14694	0.94925	-21.33657
4510	0.9453	-21.62069	0.21867	70.92965	0.21867	70.92965	0.9453	-21.62069
4530	0.9422	-21.47333	0.22088	71.00309	0.22088	71.00309	0.9422	-21.47333
4550	0.95037	-21.31729	0.22591	71.38882	0.22591	71.38882	0.95037	-21.31729
4570	0.9487	-22.47078	0.22963	70.34493	0.22963	70.34493	0.9487	-22.47078
4590	0.93897	-22.88591	0.23116	70.08068	0.23116	70.08068	0.93897	-22.88591
4610	0.93726	-22.74248	0.23368	70.28091	0.23368	70.28091	0.93726	-22.74248
4630	0.94472	-22.70649	0.23766	70.3616	0.23766	70.3616	0.94472	-22.70649
4650	0.9476	-23.93008	0.24087	69.46987	0.24087	69.46987	0.9476	-23.93008
4670	0.94024	-24.08889	0.24191	69.43866	0.24191	69.43866	0.94024	-24.08889
4690	0.94084	-24.08409	0.24487	69.50542	0.24487	69.50542	0.94084	-24.08409
4710	0.94254	-24.25518	0.24838	69.39942	0.24838	69.39942	0.94254	-24.25518
4730	0.94257	-24.67721	0.25156	69.06672	0.25156	69.06672	0.94257	-24.67721
4750	0.94225	-25.16073	0.25405	68.6702	0.25405	68.6702	0.94225	-25.16073
4770	0.93601	-25.43326	0.25604	68.66503	0.25604	68.66503	0.93601	-25.43326
4790	0.93609	-25.61241	0.25939	68.52631	0.25939	68.52631	0.93609	-25.61241
4810	0.93755	-25.89283	0.26314	68.40619	0.26314	68.40619	0.93755	-25.89283
4830	0.93779	-26.29635	0.26619	68.28927	0.26619	68.28927	0.93779	-26.29635
4850	0.93651	-26.67193	0.26724	67.99265	0.26724	67.99265	0.93651	-26.67193
4870	0.941	-26.83543	0.27109	67.84852	0.27109	67.84852	0.941	-26.83543
4890	0.93685	-27.15959	0.27406	67.59601	0.27406	67.59601	0.93685	-27.15959
4910	0.9326	-27.31514	0.27599	67.58298	0.27599	67.58298	0.9326	-27.31514
4930	0.93446	-27.40382	0.27837	67.7127	0.27837	67.7127	0.93446	-27.40382
4950	0.94632	-27.95836	0.28434	67.44376	0.28434	67.44376	0.94632	-27.95836
4970	0.93021	-28.49957	0.28331	66.94675	0.28331	66.94675	0.93021	-28.49957
4990	0.92722	-28.38616	0.28584	67.03969	0.28584	67.03969	0.92722	-28.38616
5010	0.93361	-28.54223	0.29002	66.95131	0.29002	66.95131	0.93361	-28.54223
5030	0.93884	-29.19474	0.29324	66.45149	0.29324	66.45149	0.93884	-29.19474
5050	0.9256	-29.87352	0.29215	65.85126	0.29215	65.85126	0.9256	-29.87352
5070	0.92662	-29.2738	0.2955	66.44744	0.2955	66.44744	0.92662	-29.2738
5090	0.93372	-29.46915	0.30027	66.29873	0.30027	66.29873	0.93372	-29.46915
5110	0.93395	-30.11147	0.30364	65.75882	0.30364	65.75882	0.93395	-30.11147
5130	0.92476	-30.63056	0.30491	65.38313	0.30491	65.38313	0.92476	-30.63056
5150	0.91407	-30.23413	0.3055	65.92884	0.3055	65.92884	0.91407	-30.23413
5170	0.92324	-30.41788	0.31042	65.84123	0.31042	65.84123	0.92324	-30.41788
5190	0.92891	-31.20782	0.31313	65.23194	0.31313	65.23194	0.92891	-31.20782
5210	0.9225	-31.6721	0.31326	64.81463	0.31326	64.81463	0.9225	-31.6721
5230	0.91232	-31.50606	0.31341	64.89161	0.31341	64.89161	0.91232	-31.50606
5250	0.9236	-31.03226	0.31914	65.35381	0.31914	65.35381	0.9236	-31.03226
5270	0.92845	-32.24411	0.32409	64.24754	0.32409	64.24754	0.92845	-32.24411
5290	0.91541	-32.45775	0.32251	63.9186	0.32251	63.9186	0.91541	-32.45775
5310	0.91411	-32.13233	0.32405	64.30767	0.32405	64.30767	0.91411	-32.13233
5330	0.9267	-32.04065	0.32987	64.63391	0.32987	64.63391	0.9267	-32.04065
5350	0.92775	-33.26927	0.33268	63.39499	0.33268	63.39499	0.92775	-33.26927
5370	0.91115	-33.36551	0.33258	63.50408	0.33258	63.50408	0.91115	-33.36551
5390	0.91448	-33.16891	0.33624	63.59264	0.33624	63.59264	0.91448	-33.16891
5410	0.92067	-33.35997	0.33969	63.24878	0.33969	63.24878	0.92067	-33.35997
5430	0.92113	-33.83254	0.34137	62.77681	0.34137	62.77681	0.92113	-33.83254
