#	mhz	s	ma	r	50			
50	0.13	64.70	0.95	-5.50	0.95	-5.50	0.13	64.70
100	0.23	63.10	0.92	-11.60	0.92	-11.60	0.23	63.10
150	0.34	61.60	0.89	-17.70	0.89	-17.70	0.34	61.60
200	0.42	57.40	0.85	-23.10	0.85	-23.10	0.42	57.40
250	0.50	53.30	0.81	-28.50	0.81	-28.50	0.50	53.30
300	0.57	49.10	0.76	-33.20	0.76	-33.20	0.57	49.10
350	0.63	44.90	0.72	-37.90	0.72	-37.90	0.63	44.90
400	0.68	41.00	0.67	-41.90	0.67	-41.90	0.68	41.00
450	0.74	37.10	0.62	-45.80	0.62	-45.80	0.74	37.10
500	0.80	35.70	0.56	-51.00	0.56	-51.00	0.80	35.70
550	0.87	34.30	0.50	-56.20	0.50	-56.20	0.87	34.30
600	0.88	31.80	0.46	-58.80	0.46	-58.80	0.88	31.80
650	0.89	29.20	0.42	-61.40	0.42	-61.40	0.89	29.20
700	0.92	27.30	0.38	-64.00	0.38	-64.00	0.92	27.30
750	0.94	25.40	0.34	-66.60	0.34	-66.60	0.94	25.40
800	0.94	22.90	0.31	-68.40	0.31	-68.40	0.94	22.90
850	0.94	20.40	0.28	-70.20	0.28	-70.20	0.94	20.40
900	0.96	18.60	0.24	-71.70	0.24	-71.70	0.96	18.60
950	0.98	16.70	0.21	-73.30	0.21	-73.30	0.98	16.70
1000	0.98	15.00	0.18	-74.50	0.18	-74.50	0.98	15.00
1050	0.99	13.20	0.16	-75.70	0.16	-75.70	0.99	13.20
1100	0.99	11.50	0.13	-76.60	0.13	-76.60	0.99	11.50
1150	1.00	9.90	0.10	-77.40	0.10	-77.40	1.00	9.90
1200	1.00	8.70	0.08	-75.80	0.08	-75.80	1.00	8.70
1250	1.00	7.40	0.05	-74.30	0.05	-74.30	1.00	7.40
1300	1.00	5.60	0.04	-55.60	0.04	-55.60	1.00	5.60
1350	1.00	3.70	0.01	-36.80	0.01	-36.80	1.00	3.70
1400	1.00	2.60	0.03	16.40	0.03	16.40	1.00	2.60
1450	1.00	1.50	0.04	69.60	0.04	69.60	1.00	1.50
1500	1.00	-0.20	0.05	73.00	0.05	73.00	1.00	-0.20
1550	1.00	-1.90	0.08	76.40	0.08	76.40	1.00	-1.90
1600	0.99	-3.30	0.09	76.60	0.09	76.60	0.99	-3.30
1650	0.99	-4.80	0.11	76.90	0.11	76.90	0.99	-4.80
1700	0.99	-6.00	0.13	76.50	0.13	76.50	0.99	-6.00
1750	0.98	-7.20	0.15	76.10	0.15	76.10	0.98	-7.20
1800	0.98	-8.60	0.17	75.20	0.17	75.20	0.98	-8.60
1850	0.98	-10.10	0.19	74.30	0.19	74.30	0.98	-10.10
1900	0.97	-11.40	0.20	73.70	0.20	73.70	0.97	-11.40
1950	0.96	-12.70	0.22	73.10	0.22	73.10	0.96	-12.70
2000	0.96	-14.00	0.23	72.20	0.23	72.20	0.96	-14.00
2050	0.95	-15.30	0.25	71.30	0.25	71.30	0.95	-15.30
2100	0.95	-16.30	0.27	70.50	0.27	70.50	0.95	-16.30
2150	0.95	-17.30	0.28	69.70	0.28	69.70	0.95	-17.30
2200	0.94	-18.80	0.30	68.70	0.30	68.70	0.94	-18.80
2250	0.93	-20.30	0.31	67.70	0.31	67.70	0.93	-20.30
2300	0.93	-21.10	0.33	67.10	0.33	67.10	0.93	-21.10
2350	0.93	-22.00	0.34	66.40	0.34	66.40	0.93	-22.00
2400	0.92	-23.40	0.36	65.30	0.36	65.30	0.92	-23.40
2450	0.92	-24.80	0.37	64.10	0.37	64.10	0.92	-24.80
2500	0.91	-25.70	0.38	63.30	0.38	63.30	0.91	-25.70
2550	0.90	-26.70	0.39	62.40	0.39	62.40	0.90	-26.70
2600	0.90	-27.50	0.41	61.70	0.41	61.70	0.90	-27.50
2650	0.89	-28.40	0.42	61.00	0.42	61.00	0.89	-28.40
2700	0.88	-29.30	0.43	60.10	0.43	60.10	0.88	-29.30
2750	0.88	-30.30	0.44	59.20	0.44	59.20	0.88	-30.30
2800	0.87	-31.20	0.46	58.50	0.46	58.50	0.87	-31.20
2850	0.87	-32.20	0.47	57.90	0.47	57.90	0.87	-32.20
2900	0.86	-33.00	0.48	56.90	0.48	56.90	0.86	-33.00
2950	0.86	-33.80	0.49	55.90	0.49	55.90	0.86	-33.80
3000	0.85	-34.50	0.50	55.10	0.50	55.10	0.85	-34.50
3050	0.84	-35.20	0.51	54.40	0.51	54.40	0.84	-35.20
3100	0.83	-36.10	0.52	53.70	0.52	53.70	0.83	-36.10
3150	0.83	-37.00	0.52	53.10	0.52	53.10	0.83	-37.00
3200	0.82	-37.50	0.54	52.40	0.54	52.40	0.82	-37.50
3250	0.81	-38.00	0.55	51.70	0.55	51.70	0.81	-38.00
3300	0.81	-38.60	0.56	50.90	0.56	50.90	0.81	-38.60
3350	0.80	-39.10	0.57	50.10	0.57	50.10	0.80	-39.10
3400	0.79	-39.90	0.58	49.30	0.58	49.30	0.79	-39.90
3450	0.78	-40.70	0.59	48.60	0.59	48.60	0.78	-40.70
3500	0.77	-41.10	0.59	47.70	0.59	47.70	0.77	-41.10
3550	0.76	-41.40	0.59	46.90	0.59	46.90	0.76	-41.40
3600	0.76	-42.10	0.60	47.00	0.60	47.00	0.76	-42.10
3650	0.76	-42.80	0.61	47.00	0.61	47.00	0.76	-42.80
3700	0.75	-43.90	0.62	46.30	0.62	46.30	0.75	-43.90
3750	0.75	-45.00	0.63	45.60	0.63	45.60	0.75	-45.00
3800	0.74	-45.50	0.64	45.10	0.64	45.10	0.74	-45.50
3850	0.73	-46.10	0.64	44.60	0.64	44.60	0.73	-46.10
3900	0.72	-47.10	0.65	43.70	0.65	43.70	0.72	-47.10
3950	0.71	-48.10	0.66	42.70	0.66	42.70	0.71	-48.10
4000	0.71	-48.70	0.67	42.20	0.67	42.20	0.71	-48.70
4050	0.70	-49.40	0.67	41.80	0.67	41.80	0.70	-49.40
4100	0.69	-50.00	0.68	41.20	0.68	41.20	0.69	-50.00
4150	0.68	-50.60	0.68	40.60	0.68	40.60	0.68	-50.60
4200	0.68	-51.50	0.69	40.00	0.69	40.00	0.68	-51.50
4250	0.68	-52.40	0.70	39.50	0.70	39.50	0.68	-52.40
4300	0.67	-53.20	0.71	39.00	0.71	39.00	0.67	-53.20
4350	0.66	-53.90	0.71	38.50	0.71	38.50	0.66	-53.90
4400	0.65	-54.70	0.72	37.80	0.72	37.80	0.65	-54.70
4450	0.65	-55.60	0.73	37.00	0.73	37.00	0.65	-55.60
4500	0.64	-56.00	0.73	36.50	0.73	36.50	0.64	-56.00
4550	0.63	-56.30	0.73	36.00	0.73	36.00	0.63	-56.30
4600	0.63	-57.50	0.74	35.10	0.74	35.10	0.63	-57.50
4650	0.62	-58.70	0.75	34.20	0.75	34.20	0.62	-58.70
4700	0.61	-59.40	0.76	33.60	0.76	33.60	0.61	-59.40
4750	0.60	-60.20	0.76	32.90	0.76	32.90	0.60	-60.20
4800	0.58	-61.10	0.76	32.10	0.76	32.10	0.58	-61.10
4850	0.57	-62.00	0.77	31.30	0.77	31.30	0.57	-62.00
4900	0.57	-62.60	0.78	30.60	0.78	30.60	0.57	-62.60
4950	0.56	-63.20	0.79	29.90	0.79	29.90	0.56	-63.20
5000	0.55	-64.40	0.79	28.70	0.79	28.70	0.55	-64.40
5050	0.53	-65.60	0.79	27.50	0.79	27.50	0.53	-65.60
5100	0.51	-66.10	0.80	26.60	0.80	26.60	0.51	-66.10
5150	0.50	-66.50	0.80	25.70	0.80	25.70	0.50	-66.50
5200	0.48	-66.70	0.81	24.80	0.81	24.80	0.48	-66.70
5250	0.47	-66.90	0.81	23.80	0.81	23.80	0.47	-66.90
5300	0.45	-67.80	0.82	21.90	0.82	21.90	0.45	-67.80
5350	0.43	-68.70	0.83	20.00	0.83	20.00	0.43	-68.70
5400	0.40	-67.90	0.83	18.10	0.83	18.10	0.40	-67.90
5450	0.37	-67.10	0.83	16.10	0.83	16.10	0.37	-67.10
5500	0.34	-64.20	0.82	13.40	0.82	13.40	0.34	-64.20
5550	0.30	-61.30	0.82	10.80	0.82	10.80	0.30	-61.30
5600	0.28	-50.60	0.80	7.00	0.80	7.00	0.28	-50.60
5650	0.25	-39.90	0.78	3.20	0.78	3.20	0.25	-39.90
5700	0.29	-26.00	0.71	-0.90	0.71	-0.90	0.29	-26.00
5750	0.34	-12.10	0.65	-5.00	0.65	-5.00	0.34	-12.10
5800	0.44	-12.00	0.55	-4.80	0.55	-4.80	0.44	-12.00
5850	0.54	-11.90	0.45	-4.50	0.45	-4.50	0.54	-11.90
5900	0.61	-17.60	0.41	7.60	0.41	7.60	0.61	-17.60
5950	0.68	-23.30	0.37	19.70	0.37	19.70	0.68	-23.30
6000	0.69	-29.60	0.41	26.80	0.41	26.80	0.69	-29.60
6050	0.71	-35.80	0.46	33.90	0.46	33.90	0.71	-35.80
6100	0.71	-39.00	0.50	35.60	0.50	35.60	0.71	-39.00
6150	0.71	-42.20	0.55	37.20	0.55	37.20	0.71	-42.20
6200	0.70	-44.10	0.58	36.70	0.58	36.70	0.70	-44.10
6250	0.69	-46.00	0.61	36.20	0.61	36.20	0.69	-46.00
6300	0.68	-47.40	0.63	35.50	0.63	35.50	0.68	-47.40
6350	0.67	-48.90	0.65	34.90	0.65	34.90	0.67	-48.90
6400	0.66	-49.40	0.67	34.10	0.67	34.10	0.66	-49.40
6450	0.65	-50.00	0.69	33.30	0.69	33.30	0.65	-50.00
6500	0.64	-50.50	0.70	32.60	0.70	32.60	0.64	-50.50
6550	0.63	-51.00	0.71	31.80	0.71	31.80	0.63	-51.00
6600	0.62	-51.20	0.72	31.10	0.72	31.10	0.62	-51.20
6650	0.62	-51.40	0.73	30.40	0.73	30.40	0.62	-51.40
6700	0.61	-51.20	0.73	30.10	0.73	30.10	0.61	-51.20
6750	0.60	-51.10	0.74	29.70	0.74	29.70	0.60	-51.10
6800	0.60	-51.30	0.75	29.20	0.75	29.20	0.60	-51.30
6850	0.60	-51.40	0.76	28.60	0.76	28.60	0.60	-51.40
6900	0.59	-51.50	0.76	28.10	0.76	28.10	0.59	-51.50
6950	0.58	-51.60	0.76	27.50	0.76	27.50	0.58	-51.60
7000	0.57	-51.50	0.77	27.10	0.77	27.10	0.57	-51.50
7050	0.57	-51.30	0.78	26.60	0.78	26.60	0.57	-51.30
7100	0.56	-51.50	0.78	26.20	0.78	26.20	0.56	-51.50
7150	0.55	-51.60	0.78	25.80	0.78	25.80	0.55	-51.60
7200	0.54	-51.40	0.79	25.50	0.79	25.50	0.54	-51.40
7250	0.54	-51.20	0.80	25.20	0.80	25.20	0.54	-51.20
7300	0.54	-51.80	0.80	24.80	0.80	24.80	0.54	-51.80
7350	0.54	-52.40	0.81	24.30	0.81	24.30	0.54	-52.40
7400	0.52	-52.60	0.81	23.90	0.81	23.90	0.52	-52.60
7450	0.51	-52.80	0.81	23.40	0.81	23.40	0.51	-52.80
7500	0.51	-53.40	0.82	23.00	0.82	23.00	0.51	-53.40
7550	0.51	-54.10	0.82	22.50	0.82	22.50	0.51	-54.10
7600	0.50	-54.70	0.82	22.00	0.82	22.00	0.50	-54.70
7650	0.50	-55.20	0.83	21.50	0.83	21.50	0.50	-55.20
7700	0.49	-55.60	0.83	21.20	0.83	21.20	0.49	-55.60
7750	0.48	-56.00	0.83	20.90	0.83	20.90	0.48	-56.00
7800	0.48	-56.90	0.83	20.60	0.83	20.60	0.48	-56.90
7850	0.47	-57.70	0.84	20.20	0.84	20.20	0.47	-57.70
7900	0.47	-58.80	0.84	19.80	0.84	19.80	0.47	-58.80
7950	0.46	-59.80	0.85	19.30	0.85	19.30	0.46	-59.80
8000	0.45	-60.70	0.85	18.80	0.85	18.80	0.45	-60.70
8050	0.44	-61.60	0.85	18.30	0.85	18.30	0.44	-61.60
8100	0.44	-62.20	0.85	18.20	0.85	18.20	0.44	-62.20
8150	0.43	-62.90	0.86	18.00	0.86	18.00	0.43	-62.90
8200	0.42	-63.60	0.86	17.40	0.86	17.40	0.42	-63.60
8250	0.42	-64.30	0.86	16.90	0.86	16.90	0.42	-64.30
8300	0.41	-64.90	0.87	16.60	0.87	16.60	0.41	-64.90
8350	0.41	-65.60	0.87	16.40	0.87	16.40	0.41	-65.60
8400	0.40	-66.10	0.87	15.80	0.87	15.80	0.40	-66.10
8450	0.40	-66.50	0.88	15.20	0.88	15.20	0.40	-66.50
8500	0.39	-67.00	0.88	14.90	0.88	14.90	0.39	-67.00
8550	0.38	-67.40	0.88	14.50	0.88	14.50	0.38	-67.40
8600	0.38	-67.60	0.89	13.90	0.89	13.90	0.38	-67.60
8650	0.37	-67.70	0.89	13.30	0.89	13.30	0.37	-67.70
8700	0.36	-67.80	0.89	12.80	0.89	12.80	0.36	-67.80
8750	0.35	-68.00	0.89	12.30	0.89	12.30	0.35	-68.00
8800	0.35	-68.00	0.89	12.10	0.89	12.10	0.35	-68.00
8850	0.34	-67.90	0.89	11.90	0.89	11.90	0.34	-67.90
8900	0.33	-67.60	0.90	11.30	0.90	11.30	0.33	-67.60
8950	0.32	-67.30	0.90	10.60	0.90	10.60	0.32	-67.30
9000	0.31	-67.00	0.90	10.10	0.90	10.10	0.31	-67.00
9050	0.31	-66.70	0.90	9.60	0.90	9.60	0.31	-66.70
9100	0.30	-66.50	0.90	9.10	0.90	9.10	0.30	-66.50
9150	0.29	-66.30	0.90	8.60	0.90	8.60	0.29	-66.30
9200	0.28	-66.70	0.91	8.20	0.91	8.20	0.28	-66.70
9250	0.27	-67.10	0.91	7.70	0.91	7.70	0.27	-67.10
9300	0.26	-65.70	0.91	7.00	0.91	7.00	0.26	-65.70
9350	0.25	-64.30	0.91	6.40	0.91	6.40	0.25	-64.30
9400	0.24	-63.80	0.91	5.80	0.91	5.80	0.24	-63.80
9450	0.24	-63.20	0.91	5.30	0.91	5.30	0.24	-63.20
9500	0.22	-60.70	0.91	4.40	0.91	4.40	0.22	-60.70
9550	0.21	-58.20	0.91	3.50	0.91	3.50	0.21	-58.20
9600	0.21	-55.30	0.91	2.50	0.91	2.50	0.21	-55.30
9650	0.20	-52.40	0.90	1.50	0.90	1.50	0.20	-52.40
9700	0.19	-47.90	0.90	0.60	0.90	0.60	0.19	-47.90
9750	0.18	-43.40	0.89	-0.40	0.89	-0.40	0.18	-43.40
9800	0.19	-36.80	0.88	-1.60	0.88	-1.60	0.19	-36.80
9850	0.19	-30.10	0.87	-2.80	0.87	-2.80	0.19	-30.10
9900	0.21	-24.00	0.85	-4.00	0.85	-4.00	0.21	-24.00
9950	0.22	-17.90	0.82	-5.20	0.82	-5.20	0.22	-17.90
10000	0.25	-14.90	0.79	-5.90	0.79	-5.90	0.25	-14.90
10050	0.28	-11.90	0.75	-6.60	0.75	-6.60	0.28	-11.90
10100	0.32	-13.40	0.71	-5.70	0.71	-5.70	0.32	-13.40
10150	0.37	-14.90	0.67	-4.90	0.67	-4.90	0.37	-14.90
10200	0.40	-19.20	0.64	-0.90	0.64	-0.90	0.40	-19.20
10250	0.43	-23.60	0.61	3.00	0.61	3.00	0.43	-23.60
10300	0.45	-29.50	0.62	7.50	0.62	7.50	0.45	-29.50
10350	0.46	-35.40	0.63	11.90	0.63	11.90	0.46	-35.40
10400	0.45	-40.70	0.67	13.70	0.67	13.70	0.45	-40.70
10450	0.44	-45.90	0.70	15.50	0.70	15.50	0.44	-45.90
10500	0.44	-49.10	0.73	15.90	0.73	15.90	0.44	-49.10
10550	0.43	-52.40	0.76	16.30	0.76	16.30	0.43	-52.40
10600	0.41	-55.90	0.79	15.60	0.79	15.60	0.41	-55.90
10650	0.39	-59.30	0.81	15.00	0.81	15.00	0.39	-59.30
10700	0.38	-60.60	0.83	14.50	0.83	14.50	0.38	-60.60
10750	0.37	-61.90	0.84	14.00	0.84	14.00	0.37	-61.90
10800	0.36	-64.20	0.85	13.50	0.85	13.50	0.36	-64.20
10850	0.35	-66.40	0.86	13.00	0.86	13.00	0.35	-66.40
10900	0.34	-68.20	0.87	12.20	0.87	12.20	0.34	-68.20
10950	0.32	-70.00	0.88	11.30	0.88	11.30	0.32	-70.00
11000	0.32	-71.20	0.88	10.90	0.88	10.90	0.32	-71.20
11050	0.31	-72.40	0.89	10.50	0.89	10.50	0.31	-72.40
11100	0.31	-73.90	0.89	10.00	0.89	10.00	0.31	-73.90
11150	0.31	-75.40	0.90	9.50	0.90	9.50	0.31	-75.40
11200	0.30	-75.50	0.90	9.10	0.90	9.10	0.30	-75.50
11250	0.30	-75.50	0.90	8.60	0.90	8.60	0.30	-75.50
11300	0.29	-76.70	0.91	8.10	0.91	8.10	0.29	-76.70
11350	0.29	-77.80	0.91	7.50	0.91	7.50	0.29	-77.80
11400	0.29	-77.20	0.91	7.40	0.91	7.40	0.29	-77.20
11450	0.28	-76.50	0.91	7.30	0.91	7.30	0.28	-76.50
11500	0.28	-77.50	0.92	6.70	0.92	6.70	0.28	-77.50
11550	0.27	-78.50	0.92	6.20	0.92	6.20	0.27	-78.50
11600	0.27	-78.30	0.92	5.90	0.92	5.90	0.27	-78.30
11650	0.26	-78.10	0.93	5.60	0.93	5.60	0.26	-78.10
11700	0.26	-78.20	0.93	5.30	0.93	5.30	0.26	-78.20
11750	0.25	-78.20	0.93	4.90	0.93	4.90	0.25	-78.20
11800	0.24	-78.60	0.93	4.60	0.93	4.60	0.24	-78.60
11850	0.24	-78.90	0.93	4.30	0.93	4.30	0.24	-78.90
11900	0.23	-80.10	0.93	4.10	0.93	4.10	0.23	-80.10
11950	0.22	-81.20	0.93	3.80	0.93	3.80	0.22	-81.20
12000	0.22	-82.40	0.93	3.30	0.93	3.30	0.22	-82.40
12050	0.22	-83.60	0.93	2.70	0.93	2.70	0.22	-83.60
12100	0.22	-84.60	0.93	2.50	0.93	2.50	0.22	-84.60
12150	0.21	-85.60	0.93	2.20	0.93	2.20	0.21	-85.60
12200	0.21	-86.40	0.93	1.90	0.93	1.90	0.21	-86.40
12250	0.21	-87.10	0.93	1.60	0.93	1.60	0.21	-87.10
12300	0.21	-86.90	0.93	1.20	0.93	1.20	0.21	-86.90
12350	0.20	-86.70	0.93	0.90	0.93	0.90	0.20	-86.70
12400	0.21	-87.50	0.93	0.70	0.93	0.70	0.21	-87.50
12450	0.21	-88.30	0.93	0.50	0.93	0.50	0.21	-88.30
12500	0.21	-87.00	0.93	0.20	0.93	0.20	0.21	-87.00
12550	0.20	-85.80	0.93	-0.10	0.93	-0.10	0.20	-85.80
12600	0.21	-85.60	0.93	-0.30	0.93	-0.30	0.21	-85.60
12650	0.21	-85.50	0.93	-0.40	0.93	-0.40	0.21	-85.50
12700	0.21	-83.50	0.93	-0.60	0.93	-0.60	0.21	-83.50
12750	0.21	-81.40	0.93	-0.90	0.93	-0.90	0.21	-81.40
12800	0.20	-80.30	0.93	-1.10	0.93	-1.10	0.20	-80.30
12850	0.20	-79.20	0.93	-1.30	0.93	-1.30	0.20	-79.20
12900	0.20	-77.40	0.93	-1.60	0.93	-1.60	0.20	-77.40
12950	0.20	-75.60	0.93	-1.90	0.93	-1.90	0.20	-75.60
13000	0.20	-74.60	0.93	-2.10	0.93	-2.10	0.20	-74.60
13050	0.19	-73.50	0.94	-2.30	0.94	-2.30	0.19	-73.50
13100	0.19	-71.50	0.94	-2.60	0.94	-2.60	0.19	-71.50
13150	0.19	-69.40	0.93	-3.00	0.93	-3.00	0.19	-69.40
13200	0.18	-68.50	0.93	-3.10	0.93	-3.10	0.18	-68.50
13250	0.18	-67.50	0.94	-3.20	0.94	-3.20	0.18	-67.50
13300	0.17	-64.50	0.93	-3.80	0.93	-3.80	0.17	-64.50
13350	0.16	-61.40	0.93	-4.40	0.93	-4.40	0.16	-61.40
13400	0.16	-61.00	0.93	-4.90	0.93	-4.90	0.16	-61.00
13450	0.16	-60.60	0.93	-5.40	0.93	-5.40	0.16	-60.60
13500	0.15	-58.80	0.93	-5.80	0.93	-5.80	0.15	-58.80
13550	0.15	-57.00	0.93	-6.20	0.93	-6.20	0.15	-57.00
13600	0.14	-55.20	0.92	-6.70	0.92	-6.70	0.14	-55.20
13650	0.14	-53.50	0.92	-7.30	0.92	-7.30	0.14	-53.50
13700	0.14	-51.10	0.92	-7.80	0.92	-7.80	0.14	-51.10
13750	0.14	-48.70	0.91	-8.40	0.91	-8.40	0.14	-48.70
13800	0.14	-44.90	0.90	-8.90	0.90	-8.90	0.14	-44.90
13850	0.14	-41.10	0.90	-9.40	0.90	-9.40	0.14	-41.10
13900	0.15	-38.20	0.89	-10.00	0.89	-10.00	0.15	-38.20
13950	0.16	-35.40	0.89	-10.50	0.89	-10.50	0.16	-35.40
14000	0.17	-31.40	0.87	-11.20	0.87	-11.20	0.17	-31.40
14050	0.19	-27.30	0.86	-11.80	0.86	-11.80	0.19	-27.30
14100	0.21	-26.70	0.84	-12.20	0.84	-12.20	0.21	-26.70
14150	0.23	-26.10	0.82	-12.60	0.82	-12.60	0.23	-26.10
14200	0.25	-25.70	0.80	-12.50	0.80	-12.50	0.25	-25.70
14250	0.28	-25.30	0.78	-12.40	0.78	-12.40	0.28	-25.30
14300	0.30	-28.00	0.76	-11.20	0.76	-11.20	0.30	-28.00
14350	0.33	-30.70	0.74	-10.00	0.74	-10.00	0.33	-30.70
14400	0.35	-34.10	0.73	-8.00	0.73	-8.00	0.35	-34.10
14450	0.37	-37.40	0.72	-6.00	0.72	-6.00	0.37	-37.40
14500	0.37	-40.80	0.73	-3.80	0.73	-3.80	0.37	-40.80
14550	0.37	-44.10	0.74	-1.70	0.74	-1.70	0.37	-44.10
14600	0.37	-46.70	0.76	-0.90	0.76	-0.90	0.37	-46.70
14650	0.36	-49.30	0.78	-0.10	0.78	-0.10	0.36	-49.30
14700	0.35	-51.70	0.80	0.10	0.80	0.10	0.35	-51.70
14750	0.34	-54.00	0.82	0.20	0.82	0.20	0.34	-54.00
14800	0.33	-54.80	0.83	-0.10	0.83	-0.10	0.33	-54.80
14850	0.31	-55.50	0.85	-0.40	0.85	-0.40	0.31	-55.50
14900	0.30	-56.20	0.86	-0.80	0.86	-0.80	0.30	-56.20
14950	0.29	-57.00	0.87	-1.20	0.87	-1.20	0.29	-57.00
15000	0.28	-57.50	0.88	-1.80	0.88	-1.80	0.28	-57.50
15050	0.27	-58.10	0.88	-2.30	0.88	-2.30	0.27	-58.10
15100	0.26	-57.20	0.89	-2.70	0.89	-2.70	0.26	-57.20
15150	0.25	-56.40	0.90	-3.00	0.90	-3.00	0.25	-56.40
15200	0.25	-56.40	0.91	-3.40	0.91	-3.40	0.25	-56.40
15250	0.24	-56.40	0.92	-3.70	0.92	-3.70	0.24	-56.40
15300	0.24	-55.20	0.92	-4.40	0.92	-4.40	0.24	-55.20
15350	0.23	-54.10	0.92	-5.10	0.92	-5.10	0.23	-54.10
15400	0.23	-52.50	0.92	-5.40	0.92	-5.40	0.23	-52.50
15450	0.23	-51.00	0.92	-5.70	0.92	-5.70	0.23	-51.00
15500	0.22	-48.50	0.92	-6.30	0.92	-6.30	0.22	-48.50
15550	0.22	-46.10	0.92	-6.80	0.92	-6.80	0.22	-46.10
15600	0.22	-44.00	0.92	-7.20	0.92	-7.20	0.22	-44.00
15650	0.23	-42.00	0.92	-7.50	0.92	-7.50	0.23	-42.00
15700	0.22	-39.20	0.92	-8.00	0.92	-8.00	0.22	-39.20
15750	0.22	-36.40	0.92	-8.50	0.92	-8.50	0.22	-36.40
15800	0.22	-33.40	0.92	-8.70	0.92	-8.70	0.22	-33.40
15850	0.22	-30.40	0.92	-8.90	0.92	-8.90	0.22	-30.40
15900	0.22	-28.50	0.91	-9.20	0.91	-9.20	0.22	-28.50
15950	0.23	-26.50	0.91	-9.60	0.91	-9.60	0.23	-26.50
16000	0.23	-22.90	0.90	-9.70	0.90	-9.70	0.23	-22.90
16050	0.23	-19.30	0.90	-9.70	0.90	-9.70	0.23	-19.30
16100	0.23	-18.50	0.90	-9.90	0.90	-9.90	0.23	-18.50
16150	0.23	-17.60	0.89	-10.10	0.89	-10.10	0.23	-17.60
16200	0.22	-16.70	0.89	-9.90	0.89	-9.90	0.22	-16.70
16250	0.22	-15.80	0.88	-9.70	0.88	-9.70	0.22	-15.80
16300	0.21	-16.30	0.89	-9.50	0.89	-9.50	0.21	-16.30
16350	0.20	-16.80	0.89	-9.40	0.89	-9.40	0.20	-16.80
16400	0.19	-16.40	0.89	-9.30	0.89	-9.30	0.19	-16.40
16450	0.18	-15.90	0.90	-9.30	0.90	-9.30	0.18	-15.90
16500	0.17	-18.10	0.90	-9.20	0.90	-9.20	0.17	-18.10
16550	0.16	-20.40	0.90	-9.00	0.90	-9.00	0.16	-20.40
16600	0.15	-19.50	0.91	-9.30	0.91	-9.30	0.15	-19.50
16650	0.15	-18.70	0.92	-9.60	0.92	-9.60	0.15	-18.70
16700	0.14	-20.00	0.92	-9.70	0.92	-9.70	0.14	-20.00
16750	0.13	-21.30	0.93	-9.90	0.93	-9.90	0.13	-21.30
16800	0.13	-21.10	0.93	-10.10	0.93	-10.10	0.13	-21.10
16850	0.13	-21.00	0.93	-10.30	0.93	-10.30	0.13	-21.00
16900	0.13	-19.40	0.93	-10.50	0.93	-10.50	0.13	-19.40
16950	0.12	-17.90	0.93	-10.80	0.93	-10.80	0.12	-17.90
17000	0.12	-16.30	0.94	-11.20	0.94	-11.20	0.12	-16.30
17050	0.12	-14.70	0.94	-11.50	0.94	-11.50	0.12	-14.70
17100	0.12	-12.20	0.94	-11.90	0.94	-11.90	0.12	-12.20
17150	0.13	-9.60	0.94	-12.30	0.94	-12.30	0.13	-9.60
17200	0.13	-5.10	0.93	-12.60	0.93	-12.60	0.13	-5.10
17250	0.13	-0.50	0.93	-12.80	0.93	-12.80	0.13	-0.50
17300	0.13	2.70	0.93	-13.20	0.93	-13.20	0.13	2.70
17350	0.13	5.80	0.93	-13.50	0.93	-13.50	0.13	5.80
17400	0.13	9.50	0.93	-13.90	0.93	-13.90	0.13	9.50
17450	0.13	13.30	0.93	-14.20	0.93	-14.20	0.13	13.30
17500	0.14	15.20	0.92	-14.60	0.92	-14.60	0.14	15.20
17550	0.15	17.20	0.92	-15.10	0.92	-15.10	0.15	17.20
17600	0.15	20.80	0.92	-15.60	0.92	-15.60	0.15	20.80
17650	0.15	24.50	0.91	-16.00	0.91	-16.00	0.15	24.50
17700	0.15	26.00	0.91	-16.40	0.91	-16.40	0.15	26.00
17750	0.16	27.40	0.90	-16.70	0.90	-16.70	0.16	27.40
17800	0.16	26.40	0.89	-17.20	0.89	-17.20	0.16	26.40
17850	0.16	25.40	0.89	-17.60	0.89	-17.60	0.16	25.40
17900	0.16	24.80	0.87	-17.80	0.87	-17.80	0.16	24.80
17950	0.16	24.20	0.86	-18.00	0.86	-18.00	0.16	24.20
18000	0.17	20.00	0.85	-18.10	0.85	-18.10	0.17	20.00
18050	0.17	15.70	0.84	-18.20	0.84	-18.20	0.17	15.70
18100	0.17	9.10	0.82	-17.70	0.82	-17.70	0.17	9.10
18150	0.17	2.40	0.81	-17.30	0.81	-17.30	0.17	2.40
18200	0.18	-4.20	0.80	-16.30	0.80	-16.30	0.18	-4.20
18250	0.18	-10.80	0.80	-15.40	0.80	-15.40	0.18	-10.80
18300	0.18	-19.10	0.80	-14.30	0.80	-14.30	0.18	-19.10
18350	0.19	-27.30	0.80	-13.20	0.80	-13.20	0.19	-27.30
18400	0.19	-30.80	0.81	-12.30	0.81	-12.30	0.19	-30.80
18450	0.19	-34.30	0.82	-11.40	0.82	-11.40	0.19	-34.30
18500	0.19	-38.10	0.83	-11.00	0.83	-11.00	0.19	-38.10
18550	0.18	-41.80	0.85	-10.60	0.85	-10.60	0.18	-41.80
18600	0.17	-41.40	0.86	-10.60	0.86	-10.60	0.17	-41.40
18650	0.16	-40.90	0.88	-10.60	0.88	-10.60	0.16	-40.90
18700	0.16	-45.10	0.88	-11.00	0.88	-11.00	0.16	-45.10
18750	0.15	-49.30	0.89	-11.50	0.89	-11.50	0.15	-49.30
18800	0.14	-48.10	0.89	-11.80	0.89	-11.80	0.14	-48.10
18850	0.13	-46.90	0.90	-12.00	0.90	-12.00	0.13	-46.90
18900	0.12	-48.00	0.90	-12.60	0.90	-12.60	0.12	-48.00
18950	0.11	-49.20	0.91	-13.20	0.91	-13.20	0.11	-49.20
19000	0.10	-54.90	0.91	-13.30	0.91	-13.30	0.10	-54.90
19050	0.08	-60.50	0.91	-13.40	0.91	-13.40	0.08	-60.50
19100	0.08	-55.20	0.91	-13.50	0.91	-13.50	0.08	-55.20
19150	0.08	-49.80	0.91	-13.50	0.91	-13.50	0.08	-49.80
19200	0.08	-54.30	0.91	-13.60	0.91	-13.60	0.08	-54.30
19250	0.08	-58.90	0.92	-13.70	0.92	-13.70	0.08	-58.90
19300	0.09	-55.00	0.92	-14.10	0.92	-14.10	0.09	-55.00
19350	0.10	-51.10	0.93	-14.40	0.93	-14.40	0.10	-51.10
19400	0.11	-54.40	0.93	-15.00	0.93	-15.00	0.11	-54.40
19450	0.11	-57.70	0.94	-15.70	0.94	-15.70	0.11	-57.70
