#	mhz	s	ma	r	50

50	0.77	150.80	0.49	53.50	0.49	53.50	0.77	150.80
100	0.62	136.80	0.66	40.80	0.66	40.80	0.62	136.80
150	0.47	122.80	0.83	28.20	0.83	28.20	0.47	122.80
200	0.39	117.30	0.88	23.00	0.88	23.00	0.39	117.30
250	0.31	111.70	0.92	17.70	0.92	17.70	0.31	111.70
300	0.27	108.70	0.94	14.60	0.94	14.60	0.27	108.70
350	0.22	105.60	0.96	11.40	0.96	11.40	0.22	105.60
400	0.19	103.30	0.96	9.50	0.96	9.50	0.19	103.30
450	0.17	101.10	0.97	7.60	0.97	7.60	0.17	101.10
500	0.14	99.40	0.98	5.60	0.98	5.60	0.14	99.40
550	0.12	97.70	0.98	3.60	0.98	3.60	0.12	97.70
600	0.11	97.50	0.98	2.50	0.98	2.50	0.11	97.50
650	0.10	97.40	0.99	1.30	0.99	1.30	0.10	97.40
700	0.09	96.40	0.99	0.30	0.99	0.30	0.09	96.40
750	0.07	95.40	0.99	-0.70	0.99	-0.70	0.07	95.40
800	0.07	95.60	0.99	-1.70	0.99	-1.70	0.07	95.60
850	0.06	95.80	0.99	-2.60	0.99	-2.60	0.06	95.80
900	0.05	96.80	0.99	-3.50	0.99	-3.50	0.05	96.80
950	0.04	97.80	0.99	-4.30	0.99	-4.30	0.04	97.80
1000	0.04	100.60	0.99	-5.10	0.99	-5.10	0.04	100.60
1050	0.03	103.30	0.99	-5.90	0.99	-5.90	0.03	103.30
1100	0.03	110.50	0.99	-6.70	0.99	-6.70	0.03	110.50
1150	0.02	117.70	0.99	-7.50	0.99	-7.50	0.02	117.70
1200	0.01	131.70	0.99	-8.30	0.99	-8.30	0.01	131.70
1250	0.01	145.70	0.99	-9.00	0.99	-9.00	0.01	145.70
1300	0.01	-8.90	0.99	-9.70	0.99	-9.70	0.01	-8.90
1350	0.01	-163.40	0.99	-10.40	0.99	-10.40	0.01	-163.40
1400	0.02	-150.20	0.99	-11.10	0.99	-11.10	0.02	-150.20
1450	0.02	-137.00	0.99	-11.80	0.99	-11.80	0.02	-137.00
1500	0.03	-133.40	0.99	-12.50	0.99	-12.50	0.03	-133.40
1550	0.03	-129.80	0.99	-13.30	0.99	-13.30	0.03	-129.80
1600	0.04	-127.40	0.99	-14.00	0.99	-14.00	0.04	-127.40
1650	0.04	-125.10	0.99	-14.70	0.99	-14.70	0.04	-125.10
1700	0.05	-125.20	0.99	-15.40	0.99	-15.40	0.05	-125.20
1750	0.05	-125.30	0.99	-16.10	0.99	-16.10	0.05	-125.30
1800	0.06	-123.90	0.99	-16.80	0.99	-16.80	0.06	-123.90
1850	0.06	-122.40	0.99	-17.50	0.99	-17.50	0.06	-122.40
1900	0.07	-122.50	0.99	-18.10	0.99	-18.10	0.07	-122.50
1950	0.07	-122.70	0.99	-18.70	0.99	-18.70	0.07	-122.70
2000	0.08	-122.90	0.99	-19.50	0.99	-19.50	0.08	-122.90
2050	0.08	-123.10	0.99	-20.30	0.99	-20.30	0.08	-123.10
2100	0.09	-123.20	0.99	-20.90	0.99	-20.90	0.09	-123.20
2150	0.09	-123.30	0.99	-21.60	0.99	-21.60	0.09	-123.30
2200	0.10	-124.10	0.99	-22.30	0.99	-22.30	0.10	-124.10
2250	0.11	-125.00	0.99	-23.00	0.99	-23.00	0.11	-125.00
2300	0.11	-124.90	0.99	-23.60	0.99	-23.60	0.11	-124.90
2350	0.12	-124.80	0.99	-24.30	0.99	-24.30	0.12	-124.80
2400	0.12	-125.30	0.98	-25.00	0.98	-25.00	0.12	-125.30
2450	0.13	-125.80	0.98	-25.80	0.98	-25.80	0.13	-125.80
2500	0.14	-125.90	0.98	-26.50	0.98	-26.50	0.14	-125.90
2550	0.14	-125.90	0.98	-27.10	0.98	-27.10	0.14	-125.90
2600	0.15	-126.20	0.98	-27.80	0.98	-27.80	0.15	-126.20
2650	0.16	-126.60	0.98	-28.50	0.98	-28.50	0.16	-126.60
2700	0.16	-126.70	0.97	-29.20	0.97	-29.20	0.16	-126.70
2750	0.17	-126.80	0.97	-29.90	0.97	-29.90	0.17	-126.80
2800	0.18	-127.20	0.97	-30.60	0.97	-30.60	0.18	-127.20
2850	0.19	-127.60	0.97	-31.30	0.97	-31.30	0.19	-127.60
2900	0.19	-128.70	0.96	-32.40	0.96	-32.40	0.19	-128.70
2950	0.20	-129.80	0.96	-33.50	0.96	-33.50	0.20	-129.80
3000	0.21	-135.40	0.94	-33.50	0.94	-33.50	0.21	-135.40
3050	0.22	-141.00	0.91	-33.60	0.91	-33.60	0.22	-141.00
3100	0.20	-138.20	0.93	-33.30	0.93	-33.30	0.20	-138.20
3150	0.18	-135.40	0.95	-33.00	0.95	-33.00	0.18	-135.40
3200	0.19	-132.80	0.96	-34.00	0.96	-34.00	0.19	-132.80
3250	0.19	-130.30	0.96	-34.90	0.96	-34.90	0.19	-130.30
3300	0.20	-130.20	0.96	-35.80	0.96	-35.80	0.20	-130.20
3350	0.21	-130.10	0.96	-36.80	0.96	-36.80	0.21	-130.10
3400	0.22	-130.30	0.96	-37.50	0.96	-37.50	0.22	-130.30
3450	0.23	-130.50	0.96	-38.30	0.96	-38.30	0.23	-130.50
3500	0.23	-130.70	0.96	-39.00	0.96	-39.00	0.23	-130.70
3550	0.23	-130.90	0.96	-39.80	0.96	-39.80	0.23	-130.90
3600	0.24	-130.90	0.96	-40.40	0.96	-40.40	0.24	-130.90
3650	0.25	-130.80	0.96	-41.10	0.96	-41.10	0.25	-130.80
3700	0.25	-131.30	0.96	-42.00	0.96	-42.00	0.25	-131.30
3750	0.26	-131.70	0.95	-42.90	0.95	-42.90	0.26	-131.70
3800	0.26	-131.60	0.95	-43.50	0.95	-43.50	0.26	-131.60
3850	0.27	-131.40	0.95	-44.10	0.95	-44.10	0.27	-131.40
3900	0.28	-132.00	0.95	-45.10	0.95	-45.10	0.28	-132.00
3950	0.28	-132.60	0.94	-46.10	0.94	-46.10	0.28	-132.60
4000	0.29	-132.70	0.94	-46.80	0.94	-46.80	0.29	-132.70
4050	0.30	-132.70	0.94	-47.50	0.94	-47.50	0.30	-132.70
4100	0.30	-133.30	0.94	-48.30	0.94	-48.30	0.30	-133.30
4150	0.31	-133.80	0.94	-49.10	0.94	-49.10	0.31	-133.80
4200	0.32	-134.70	0.93	-50.10	0.93	-50.10	0.32	-134.70
4250	0.33	-135.70	0.93	-51.10	0.93	-51.10	0.33	-135.70
4300	0.33	-136.70	0.92	-51.90	0.92	-51.90	0.33	-136.70
4350	0.34	-137.70	0.91	-52.70	0.91	-52.70	0.34	-137.70
4400	0.35	-139.10	0.91	-53.90	0.91	-53.90	0.35	-139.10
4450	0.36	-140.50	0.90	-55.20	0.90	-55.20	0.36	-140.50
4500	0.38	-142.80	0.89	-56.50	0.89	-56.50	0.38	-142.80
4550	0.39	-145.00	0.88	-57.80	0.88	-57.80	0.39	-145.00
4600	0.41	-149.20	0.85	-59.50	0.85	-59.50	0.41	-149.20
4650	0.43	-153.30	0.82	-61.20	0.82	-61.20	0.43	-153.30
4700	0.45	-159.90	0.77	-61.80	0.77	-61.80	0.45	-159.90
4750	0.47	-166.50	0.72	-62.50	0.72	-62.50	0.47	-166.50
4800	0.45	1.80	0.66	-57.10	0.66	-57.10	0.45	1.80
4850	0.44	170.10	0.60	-51.80	0.60	-51.80	0.44	170.10
4900	0.35	160.20	0.67	-45.50	0.67	-45.50	0.35	160.20
4950	0.27	150.30	0.74	-39.20	0.74	-39.20	0.27	150.30
5000	0.21	159.10	0.80	-41.10	0.80	-41.10	0.21	159.10
5050	0.15	167.80	0.87	-42.90	0.87	-42.90	0.15	167.80
5100	0.15	2.10	0.89	-45.30	0.89	-45.30	0.15	2.10
5150	0.15	-163.60	0.92	-47.70	0.92	-47.70	0.15	-163.60
5200	0.17	-158.60	0.93	-49.40	0.93	-49.40	0.17	-158.60
5250	0.19	-153.60	0.94	-51.20	0.94	-51.20	0.19	-153.60
5300	0.20	-152.50	0.94	-52.70	0.94	-52.70	0.20	-152.50
5350	0.22	-151.40	0.94	-54.30	0.94	-54.30	0.22	-151.40
5400	0.23	-151.60	0.94	-55.50	0.94	-55.50	0.23	-151.60
5450	0.24	-151.70	0.94	-56.70	0.94	-56.70	0.24	-151.70
5500	0.25	-152.10	0.94	-57.80	0.94	-57.80	0.25	-152.10
5550	0.26	-152.50	0.94	-58.80	0.94	-58.80	0.26	-152.50
5600	0.27	-153.60	0.94	-59.80	0.94	-59.80	0.27	-153.60
5650	0.28	-154.70	0.94	-60.70	0.94	-60.70	0.28	-154.70
5700	0.29	-155.40	0.94	-61.60	0.94	-61.60	0.29	-155.40
5750	0.30	-156.10	0.94	-62.50	0.94	-62.50	0.30	-156.10
5800	0.30	-157.20	0.93	-63.30	0.93	-63.30	0.30	-157.20
5850	0.31	-158.30	0.93	-64.20	0.93	-64.20	0.31	-158.30
5900	0.32	-159.30	0.93	-64.90	0.93	-64.90	0.32	-159.30
5950	0.32	-160.40	0.93	-65.70	0.93	-65.70	0.32	-160.40
6000	0.34	-160.70	0.92	-66.70	0.92	-66.70	0.34	-160.70
6050	0.36	-161.10	0.92	-67.70	0.92	-67.70	0.36	-161.10
6100	0.37	-162.20	0.91	-68.30	0.91	-68.30	0.37	-162.20
6150	0.37	-163.40	0.91	-68.90	0.91	-68.90	0.37	-163.40
6200	0.38	-164.80	0.91	-69.70	0.91	-69.70	0.38	-164.80
6250	0.38	-166.30	0.90	-70.50	0.90	-70.50	0.38	-166.30
6300	0.39	-167.40	0.90	-71.20	0.90	-71.20	0.39	-167.40
6350	0.40	-168.50	0.90	-71.90	0.90	-71.90	0.40	-168.50
6400	0.41	-169.40	0.89	-72.60	0.89	-72.60	0.41	-169.40
6450	0.41	-170.30	0.89	-73.40	0.89	-73.40	0.41	-170.30
6500	0.42	-171.30	0.88	-74.10	0.88	-74.10	0.42	-171.30
6550	0.42	-172.20	0.88	-74.80	0.88	-74.80	0.42	-172.20
6600	0.43	-173.80	0.87	-75.30	0.87	-75.30	0.43	-173.80
6650	0.43	-175.30	0.87	-75.90	0.87	-75.90	0.43	-175.30
6700	0.43	-176.00	0.87	-76.10	0.87	-76.10	0.43	-176.00
6750	0.43	-176.60	0.87	-76.30	0.87	-76.30	0.43	-176.60
6800	0.44	-177.50	0.87	-77.10	0.87	-77.10	0.44	-177.50
6850	0.44	-178.30	0.87	-77.90	0.87	-77.90	0.44	-178.30
6900	0.44	-179.00	0.87	-78.60	0.87	-78.60	0.44	-179.00
6950	0.45	-179.70	0.87	-79.30	0.87	-79.30	0.45	-179.70
7000	0.45	-1.00	0.87	-80.20	0.87	-80.20	0.45	-1.00
7050	0.46	177.60	0.87	-81.10	0.87	-81.10	0.46	177.60
7100	0.46	176.70	0.86	-81.80	0.86	-81.80	0.46	176.70
7150	0.47	175.80	0.86	-82.40	0.86	-82.40	0.47	175.80
7200	0.47	174.60	0.86	-83.40	0.86	-83.40	0.47	174.60
7250	0.48	173.30	0.86	-84.40	0.86	-84.40	0.48	173.30
7300	0.49	172.00	0.85	-85.20	0.85	-85.20	0.49	172.00
7350	0.49	170.80	0.85	-86.10	0.85	-86.10	0.49	170.80
7400	0.50	169.30	0.84	-86.90	0.84	-86.90	0.50	169.30
7450	0.50	167.80	0.84	-87.70	0.84	-87.70	0.50	167.80
7500	0.51	166.70	0.83	-88.70	0.83	-88.70	0.51	166.70
7550	0.51	165.60	0.83	-89.80	0.83	-89.80	0.51	165.60
7600	0.52	164.20	0.82	-90.60	0.82	-90.60	0.52	164.20
7650	0.52	162.80	0.81	-91.30	0.81	-91.30	0.52	162.80
7700	0.53	161.40	0.81	-92.40	0.81	-92.40	0.53	161.40
7750	0.53	160.00	0.80	-93.40	0.80	-93.40	0.53	160.00
7800	0.54	158.20	0.79	-94.60	0.79	-94.60	0.54	158.20
7850	0.55	156.30	0.78	-95.70	0.78	-95.70	0.55	156.30
7900	0.56	154.80	0.77	-96.70	0.77	-96.70	0.56	154.80
7950	0.57	153.30	0.76	-97.70	0.76	-97.70	0.57	153.30
8000	0.58	151.30	0.74	-98.70	0.74	-98.70	0.58	151.30
8050	0.59	149.30	0.73	-99.70	0.73	-99.70	0.59	149.30
8100	0.60	146.50	0.71	-100.80	0.71	-100.80	0.60	146.50
8150	0.61	143.70	0.69	-101.90	0.69	-101.90	0.61	143.70
8200	0.61	140.60	0.65	-102.00	0.65	-102.00	0.61	140.60
8250	0.62	137.50	0.62	-102.10	0.62	-102.10	0.62	137.50
8300	0.61	133.20	0.59	-100.40	0.59	-100.40	0.61	133.20
8350	0.61	128.90	0.55	-98.70	0.55	-98.70	0.61	128.90
8400	0.58	124.40	0.54	-93.50	0.54	-93.50	0.58	124.40
8450	0.55	119.80	0.53	-88.20	0.53	-88.20	0.55	119.80
8500	0.49	117.20	0.57	-84.50	0.57	-84.50	0.49	117.20
8550	0.43	114.60	0.61	-80.70	0.61	-80.70	0.43	114.60
8600	0.39	117.30	0.67	-81.20	0.67	-81.20	0.39	117.30
8650	0.35	120.00	0.72	-81.80	0.72	-81.80	0.35	120.00
8700	0.33	126.40	0.75	-84.30	0.75	-84.30	0.33	126.40
8750	0.32	132.80	0.78	-86.70	0.78	-86.70	0.32	132.80
8800	0.33	136.80	0.80	-89.00	0.80	-89.00	0.33	136.80
8850	0.34	140.80	0.82	-91.30	0.82	-91.30	0.34	140.80
8900	0.36	143.20	0.82	-93.70	0.82	-93.70	0.36	143.20
8950	0.38	145.60	0.82	-96.10	0.82	-96.10	0.38	145.60
9000	0.40	146.50	0.82	-97.90	0.82	-97.90	0.40	146.50
9050	0.42	147.40	0.82	-99.80	0.82	-99.80	0.42	147.40
9100	0.44	147.70	0.82	-101.50	0.82	-101.50	0.44	147.70
9150	0.47	148.00	0.82	-103.20	0.82	-103.20	0.47	148.00
9200	0.48	147.20	0.81	-105.20	0.81	-105.20	0.48	147.20
9250	0.50	146.30	0.81	-107.10	0.81	-107.10	0.50	146.30
9300	0.51	146.80	0.80	-108.20	0.80	-108.20	0.51	146.80
9350	0.52	147.30	0.79	-109.40	0.79	-109.40	0.52	147.30
9400	0.54	146.70	0.78	-110.80	0.78	-110.80	0.54	146.70
9450	0.56	146.20	0.77	-112.20	0.77	-112.20	0.56	146.20
9500	0.56	145.80	0.76	-113.50	0.76	-113.50	0.56	145.80
9550	0.57	145.40	0.75	-114.80	0.75	-114.80	0.57	145.40
9600	0.59	145.20	0.74	-116.00	0.74	-116.00	0.59	145.20
9650	0.61	145.10	0.73	-117.20	0.73	-117.20	0.61	145.10
9700	0.62	144.40	0.72	-118.30	0.72	-118.30	0.62	144.40
9750	0.63	143.60	0.71	-119.50	0.71	-119.50	0.63	143.60
9800	0.63	143.70	0.69	-120.40	0.69	-120.40	0.63	143.70
9850	0.63	143.80	0.68	-121.30	0.68	-121.30	0.63	143.80
9900	0.65	143.30	0.68	-122.20	0.68	-122.20	0.65	143.30
9950	0.67	142.80	0.67	-123.20	0.67	-123.20	0.67	142.80
10000	0.67	141.20	0.65	-124.50	0.65	-124.50	0.67	141.20
10050	0.68	139.60	0.64	-125.70	0.64	-125.70	0.68	139.60
10100	0.69	139.80	0.63	-126.30	0.63	-126.30	0.69	139.80
10150	0.70	140.00	0.62	-126.90	0.62	-126.90	0.70	140.00
10200	0.72	138.30	0.61	-128.10	0.61	-128.10	0.72	138.30
10250	0.73	136.50	0.60	-129.30	0.60	-129.30	0.73	136.50
10300	0.74	135.10	0.58	-130.40	0.58	-130.40	0.74	135.10
10350	0.75	133.80	0.57	-131.50	0.57	-131.50	0.75	133.80
10400	0.75	132.70	0.55	-132.10	0.55	-132.10	0.75	132.70
10450	0.75	131.60	0.54	-132.60	0.54	-132.60	0.75	131.60
10500	0.76	130.00	0.53	-133.70	0.53	-133.70	0.76	130.00
10550	0.77	128.30	0.52	-134.70	0.52	-134.70	0.77	128.30
10600	0.76	127.20	0.51	-134.80	0.51	-134.80	0.76	127.20
10650	0.76	126.10	0.49	-134.90	0.49	-134.90	0.76	126.10
10700	0.77	124.80	0.49	-136.10	0.49	-136.10	0.77	124.80
10750	0.79	123.60	0.48	-137.30	0.48	-137.30	0.79	123.60
10800	0.80	123.00	0.47	-138.00	0.47	-138.00	0.80	123.00
10850	0.80	122.30	0.45	-138.70	0.45	-138.70	0.80	122.30
10900	0.81	120.10	0.44	-139.70	0.44	-139.70	0.81	120.10
10950	0.81	118.00	0.42	-140.70	0.42	-140.70	0.81	118.00
11000	0.82	116.40	0.41	-141.90	0.41	-141.90	0.82	116.40
11050	0.83	114.90	0.40	-143.00	0.40	-143.00	0.83	114.90
11100	0.84	112.70	0.37	-143.40	0.37	-143.40	0.84	112.70
11150	0.84	110.50	0.35	-143.70	0.35	-143.70	0.84	110.50
11200	0.85	108.10	0.33	-144.00	0.33	-144.00	0.85	108.10
11250	0.85	105.80	0.32	-144.20	0.32	-144.20	0.85	105.80
11300	0.85	103.60	0.30	-143.30	0.30	-143.30	0.85	103.60
11350	0.86	101.50	0.28	-142.30	0.28	-142.30	0.86	101.50
11400	0.85	98.70	0.25	-140.50	0.25	-140.50	0.85	98.70
11450	0.85	95.90	0.23	-138.70	0.23	-138.70	0.85	95.90
11500	0.85	93.60	0.22	-133.60	0.22	-133.60	0.85	93.60
11550	0.84	91.40	0.20	-128.40	0.20	-128.40	0.84	91.40
11600	0.83	88.60	0.19	-120.70	0.19	-120.70	0.83	88.60
11650	0.82	85.90	0.18	-112.90	0.18	-112.90	0.82	85.90
11700	0.81	83.40	0.19	-104.20	0.19	-104.20	0.81	83.40
11750	0.79	81.00	0.21	-95.50	0.21	-95.50	0.79	81.00
11800	0.77	79.10	0.23	-90.00	0.23	-90.00	0.77	79.10
11850	0.75	77.20	0.26	-84.60	0.26	-84.60	0.75	77.20
11900	0.71	76.00	0.30	-84.10	0.30	-84.10	0.71	76.00
11950	0.67	74.80	0.34	-83.70	0.34	-83.70	0.67	74.80
12000	0.64	74.90	0.38	-85.40	0.38	-85.40	0.64	74.90
12050	0.61	74.90	0.43	-87.20	0.43	-87.20	0.61	74.90
12100	0.57	76.80	0.46	-91.60	0.46	-91.60	0.57	76.80
12150	0.53	78.60	0.50	-95.90	0.50	-95.90	0.53	78.60
12200	0.52	82.80	0.52	-100.40	0.52	-100.40	0.52	82.80
12250	0.51	87.00	0.54	-104.90	0.54	-104.90	0.51	87.00
12300	0.52	90.60	0.54	-109.70	0.54	-109.70	0.52	90.60
12350	0.54	94.30	0.54	-114.40	0.54	-114.40	0.54	94.30
12400	0.56	95.60	0.54	-118.60	0.54	-118.60	0.56	95.60
12450	0.59	96.80	0.54	-122.90	0.54	-122.90	0.59	96.80
12500	0.62	96.50	0.52	-126.60	0.52	-126.60	0.62	96.50
12550	0.65	96.10	0.50	-130.40	0.50	-130.40	0.65	96.10
12600	0.67	95.70	0.48	-133.50	0.48	-133.50	0.67	95.70
12650	0.69	95.20	0.46	-136.70	0.46	-136.70	0.69	95.20
12700	0.72	93.60	0.44	-139.00	0.44	-139.00	0.72	93.60
12750	0.74	91.90	0.42	-141.40	0.42	-141.40	0.74	91.90
12800	0.76	89.90	0.39	-143.90	0.39	-143.90	0.76	89.90
12850	0.77	87.80	0.37	-146.30	0.37	-146.30	0.77	87.80
12900	0.79	86.40	0.34	-147.40	0.34	-147.40	0.79	86.40
12950	0.81	84.90	0.32	-148.50	0.32	-148.50	0.81	84.90
13000	0.81	83.00	0.30	-149.40	0.30	-149.40	0.81	83.00
13050	0.82	81.00	0.27	-150.40	0.27	-150.40	0.82	81.00
13100	0.83	79.20	0.25	-149.60	0.25	-149.60	0.83	79.20
13150	0.84	77.40	0.23	-148.90	0.23	-148.90	0.84	77.40
13200	0.84	75.70	0.21	-146.70	0.21	-146.70	0.84	75.70
13250	0.85	74.00	0.19	-144.50	0.19	-144.50	0.85	74.00
13300	0.83	73.60	0.17	-140.80	0.17	-140.80	0.83	73.60
13350	0.82	73.30	0.16	-137.10	0.16	-137.10	0.82	73.30
13400	0.84	69.80	0.15	-130.30	0.15	-130.30	0.84	69.80
13450	0.86	66.40	0.14	-123.50	0.14	-123.50	0.86	66.40
13500	0.85	64.80	0.14	-116.60	0.14	-116.60	0.85	64.80
13550	0.85	63.20	0.14	-109.80	0.14	-109.80	0.85	63.20
13600	0.85	61.30	0.14	-105.60	0.14	-105.60	0.85	61.30
13650	0.85	59.30	0.15	-101.40	0.15	-101.40	0.85	59.30
13700	0.85	57.90	0.15	-98.20	0.15	-98.20	0.85	57.90
13750	0.84	56.50	0.16	-95.10	0.16	-95.10	0.84	56.50
13800	0.85	54.30	0.16	-91.10	0.16	-91.10	0.85	54.30
13850	0.85	52.10	0.16	-87.00	0.16	-87.00	0.85	52.10
13900	0.85	49.80	0.17	-82.20	0.17	-82.20	0.85	49.80
13950	0.86	47.50	0.17	-77.40	0.17	-77.40	0.86	47.50
14000	0.86	45.00	0.19	-74.00	0.19	-74.00	0.86	45.00
14050	0.86	42.60	0.20	-70.70	0.20	-70.70	0.86	42.60
14100	0.86	40.10	0.22	-68.70	0.22	-68.70	0.86	40.10
14150	0.86	37.70	0.23	-66.60	0.23	-66.60	0.86	37.70
14200	0.86	35.50	0.25	-66.10	0.25	-66.10	0.86	35.50
14250	0.86	33.40	0.27	-65.60	0.27	-65.60	0.86	33.40
14300	0.86	30.70	0.29	-65.80	0.29	-65.80	0.86	30.70
14350	0.85	28.00	0.31	-65.90	0.31	-65.90	0.85	28.00
14400	0.85	26.50	0.32	-66.30	0.32	-66.30	0.85	26.50
14450	0.85	24.90	0.34	-66.60	0.34	-66.60	0.85	24.90
14500	0.84	22.90	0.36	-67.40	0.36	-67.40	0.84	22.90
14550	0.83	21.00	0.37	-68.10	0.37	-68.10	0.83	21.00
14600	0.83	19.60	0.39	-68.90	0.39	-68.90	0.83	19.60
14650	0.83	18.20	0.41	-69.80	0.41	-69.80	0.83	18.20
14700	0.82	16.50	0.42	-70.90	0.42	-70.90	0.82	16.50
14750	0.80	14.80	0.44	-72.10	0.44	-72.10	0.80	14.80
14800	0.80	13.20	0.45	-73.40	0.45	-73.40	0.80	13.20
14850	0.80	11.70	0.46	-74.70	0.46	-74.70	0.80	11.70
14900	0.79	11.10	0.48	-75.50	0.48	-75.50	0.79	11.10
14950	0.77	10.50	0.49	-76.30	0.49	-76.30	0.77	10.50
15000	0.76	8.40	0.50	-78.20	0.50	-78.20	0.76	8.40
15050	0.75	6.30	0.51	-80.00	0.51	-80.00	0.75	6.30
15100	0.74	5.90	0.53	-81.00	0.53	-81.00	0.74	5.90
15150	0.72	5.40	0.54	-82.00	0.54	-82.00	0.72	5.40
15200	0.71	4.30	0.55	-83.40	0.55	-83.40	0.71	4.30
15250	0.70	3.20	0.56	-84.90	0.56	-84.90	0.70	3.20
15300	0.69	1.90	0.57	-87.00	0.57	-87.00	0.69	1.90
15350	0.68	0.60	0.58	-89.00	0.58	-89.00	0.68	0.60
15400	0.65	0.40	0.58	-90.20	0.58	-90.20	0.65	0.40
15450	0.63	0.20	0.58	-91.50	0.58	-91.50	0.63	0.20
15500	0.63	0.90	0.58	-93.10	0.58	-93.10	0.63	0.90
15550	0.63	1.60	0.59	-94.70	0.59	-94.70	0.63	1.60
15600	0.62	1.30	0.59	-95.80	0.59	-95.80	0.62	1.30
15650	0.61	1.00	0.59	-96.90	0.59	-96.90	0.61	1.00
15700	0.60	1.40	0.59	-98.60	0.59	-98.60	0.60	1.40
15750	0.59	1.80	0.59	-100.30	0.59	-100.30	0.59	1.80
15800	0.58	2.90	0.59	-101.70	0.59	-101.70	0.58	2.90
15850	0.56	3.90	0.59	-103.10	0.59	-103.10	0.56	3.90
15900	0.56	5.60	0.57	-104.90	0.57	-104.90	0.56	5.60
15950	0.55	7.30	0.56	-106.70	0.56	-106.70	0.55	7.30
16000	0.56	10.10	0.55	-107.40	0.55	-107.40	0.56	10.10
16050	0.56	12.80	0.53	-108.10	0.53	-108.10	0.56	12.80
16100	0.57	14.40	0.51	-108.10	0.51	-108.10	0.57	14.40
16150	0.58	16.10	0.50	-108.10	0.50	-108.10	0.58	16.10
16200	0.59	16.40	0.49	-106.70	0.49	-106.70	0.59	16.40
16250	0.60	16.70	0.47	-105.30	0.47	-105.30	0.60	16.70
16300	0.60	17.10	0.47	-104.40	0.47	-104.40	0.60	17.10
16350	0.60	17.60	0.47	-103.50	0.47	-103.50	0.60	17.60
16400	0.61	18.10	0.47	-102.60	0.47	-102.60	0.61	18.10
16450	0.63	18.70	0.46	-101.70	0.46	-101.70	0.63	18.70
16500	0.64	16.90	0.46	-98.70	0.46	-98.70	0.64	16.90
16550	0.65	15.10	0.46	-95.70	0.46	-95.70	0.65	15.10
16600	0.67	12.80	0.48	-93.60	0.48	-93.60	0.67	12.80
16650	0.68	10.40	0.50	-91.50	0.50	-91.50	0.68	10.40
16700	0.68	7.50	0.52	-91.10	0.52	-91.10	0.68	7.50
16750	0.68	4.60	0.55	-90.60	0.55	-90.60	0.68	4.60
16800	0.67	2.10	0.57	-91.00	0.57	-91.00	0.67	2.10
16850	0.66	-0.50	0.59	-91.30	0.59	-91.30	0.66	-0.50
16900	0.65	-2.90	0.61	-92.00	0.61	-92.00	0.65	-2.90
16950	0.65	-5.20	0.63	-92.70	0.63	-92.70	0.65	-5.20
17000	0.64	-7.10	0.65	-93.70	0.65	-93.70	0.64	-7.10
17050	0.62	-8.90	0.67	-94.60	0.67	-94.60	0.62	-8.90
17100	0.62	-10.00	0.68	-95.80	0.68	-95.80	0.62	-10.00
17150	0.61	-11.00	0.69	-96.90	0.69	-96.90	0.61	-11.00
17200	0.60	-11.90	0.70	-97.80	0.70	-97.80	0.60	-11.90
17250	0.58	-12.70	0.72	-98.70	0.72	-98.70	0.58	-12.70
17300	0.57	-13.00	0.73	-99.60	0.73	-99.60	0.57	-13.00
17350	0.57	-13.30	0.74	-100.60	0.74	-100.60	0.57	-13.30
17400	0.56	-14.20	0.75	-101.30	0.75	-101.30	0.56	-14.20
17450	0.55	-15.10	0.76	-102.00	0.76	-102.00	0.55	-15.10
17500	0.54	-15.40	0.77	-103.20	0.77	-103.20	0.54	-15.40
17550	0.53	-15.80	0.79	-104.40	0.79	-104.40	0.53	-15.80
17600	0.52	-16.70	0.80	-105.60	0.80	-105.60	0.52	-16.70
17650	0.50	-17.70	0.81	-106.80	0.81	-106.80	0.50	-17.70
17700	0.49	-18.20	0.82	-107.90	0.82	-107.90	0.49	-18.20
17750	0.47	-18.80	0.83	-109.00	0.83	-109.00	0.47	-18.80
17800	0.46	-20.90	0.84	-110.50	0.84	-110.50	0.46	-20.90
17850	0.44	-23.00	0.85	-112.00	0.85	-112.00	0.44	-23.00
17900	0.43	-22.90	0.85	-113.00	0.85	-113.00	0.43	-22.90
17950	0.41	-22.80	0.85	-114.00	0.85	-114.00	0.41	-22.80
18000	0.40	-24.80	0.86	-115.30	0.86	-115.30	0.40	-24.80
18050	0.39	-26.80	0.87	-116.70	0.87	-116.70	0.39	-26.80
18100	0.38	-28.40	0.87	-117.80	0.87	-117.80	0.38	-28.40
18150	0.37	-29.90	0.87	-119.00	0.87	-119.00	0.37	-29.90
18200	0.37	-30.50	0.87	-120.10	0.87	-120.10	0.37	-30.50
18250	0.38	-31.10	0.88	-121.10	0.88	-121.10	0.38	-31.10
18300	0.38	-32.50	0.88	-122.20	0.88	-122.20	0.38	-32.50
18350	0.38	-33.90	0.89	-123.40	0.89	-123.40	0.38	-33.90
18400	0.38	-33.30	0.88	-124.20	0.88	-124.20	0.38	-33.30
18450	0.38	-32.70	0.88	-125.00	0.88	-125.00	0.38	-32.70
18500	0.38	-32.90	0.89	-126.00	0.89	-126.00	0.38	-32.90
18550	0.39	-33.10	0.90	-126.90	0.90	-126.90	0.39	-33.10
18600	0.39	-32.40	0.90	-127.90	0.90	-127.90	0.39	-32.40
