#	mhz	s	ma	r	50			
50	0.10	72.30	0.98	-4.30	0.98	-4.30	0.10	72.30
100	0.19	69.90	0.95	-9.50	0.95	-9.50	0.19	69.90
150	0.28	67.40	0.93	-14.70	0.93	-14.70	0.28	67.40
200	0.36	63.50	0.90	-19.40	0.90	-19.40	0.36	63.50
250	0.44	59.50	0.87	-24.10	0.87	-24.10	0.44	59.50
300	0.49	55.50	0.83	-28.40	0.83	-28.40	0.49	55.50
350	0.55	51.40	0.79	-32.70	0.79	-32.70	0.55	51.40
400	0.61	47.70	0.75	-36.40	0.75	-36.40	0.61	47.70
450	0.66	44.00	0.71	-40.10	0.71	-40.10	0.66	44.00
500	0.73	42.60	0.66	-45.20	0.66	-45.20	0.73	42.60
550	0.80	41.30	0.60	-50.30	0.60	-50.30	0.80	41.30
600	0.82	38.60	0.56	-52.90	0.56	-52.90	0.82	38.60
650	0.84	36.00	0.52	-55.50	0.52	-55.50	0.84	36.00
700	0.87	34.20	0.49	-58.10	0.49	-58.10	0.87	34.20
750	0.89	32.30	0.45	-60.70	0.45	-60.70	0.89	32.30
800	0.90	29.70	0.42	-62.60	0.42	-62.60	0.90	29.70
850	0.90	27.20	0.39	-64.50	0.39	-64.50	0.90	27.20
900	0.92	25.30	0.36	-66.30	0.36	-66.30	0.92	25.30
950	0.95	23.50	0.33	-68.00	0.33	-68.00	0.95	23.50
1000	0.95	21.60	0.30	-69.70	0.30	-69.70	0.95	21.60
1050	0.96	19.80	0.27	-71.30	0.27	-71.30	0.96	19.80
1100	0.97	18.10	0.24	-72.90	0.24	-72.90	0.97	18.10
1150	0.98	16.50	0.22	-74.50	0.22	-74.50	0.98	16.50
1200	0.98	15.20	0.19	-75.30	0.19	-75.30	0.98	15.20
1250	0.99	14.00	0.17	-76.20	0.17	-76.20	0.99	14.00
1300	0.99	12.10	0.15	-77.30	0.15	-77.30	0.99	12.10
1350	1.00	10.30	0.13	-78.50	0.13	-78.50	1.00	10.30
1400	1.00	9.20	0.10	-78.20	0.10	-78.20	1.00	9.20
1450	1.00	8.10	0.08	-78.00	0.08	-78.00	1.00	8.10
1500	1.00	6.40	0.06	-76.30	0.06	-76.30	1.00	6.40
1550	1.00	4.70	0.04	-74.60	0.04	-74.60	1.00	4.70
1600	1.00	3.30	0.03	-50.40	0.03	-50.40	1.00	3.30
1650	1.00	1.80	0.01	-26.10	0.01	-26.10	1.00	1.80
1700	0.99	0.70	0.02	21.50	0.02	21.50	0.99	0.70
1750	0.99	-0.50	0.03	69.10	0.03	69.10	0.99	-0.50
1800	0.99	-2.00	0.05	72.50	0.05	72.50	0.99	-2.00
1850	1.00	-3.50	0.07	76.00	0.07	76.00	1.00	-3.50
1900	0.99	-4.70	0.08	76.60	0.08	76.60	0.99	-4.70
1950	0.98	-6.00	0.10	77.20	0.10	77.20	0.98	-6.00
2000	0.98	-7.30	0.12	76.90	0.12	76.90	0.98	-7.30
2050	0.98	-8.50	0.13	76.60	0.13	76.60	0.98	-8.50
2100	0.98	-9.50	0.15	76.10	0.15	76.10	0.98	-9.50
2150	0.98	-10.50	0.16	75.70	0.16	75.70	0.98	-10.50
2200	0.97	-11.90	0.18	74.90	0.18	74.90	0.97	-11.90
2250	0.97	-13.40	0.19	74.10	0.19	74.10	0.97	-13.40
2300	0.96	-14.20	0.21	73.60	0.21	73.60	0.96	-14.20
2350	0.96	-15.00	0.22	73.10	0.22	73.10	0.96	-15.00
2400	0.96	-16.40	0.24	72.10	0.24	72.10	0.96	-16.40
2450	0.96	-17.80	0.25	71.10	0.25	71.10	0.96	-17.80
2500	0.95	-18.80	0.26	70.30	0.26	70.30	0.95	-18.80
2550	0.95	-19.70	0.28	69.50	0.28	69.50	0.95	-19.70
2600	0.95	-20.50	0.29	68.90	0.29	68.90	0.95	-20.50
2650	0.94	-21.40	0.30	68.30	0.30	68.30	0.94	-21.40
2700	0.94	-22.30	0.31	67.40	0.31	67.40	0.94	-22.30
2750	0.93	-23.30	0.33	66.60	0.33	66.60	0.93	-23.30
2800	0.93	-24.20	0.34	66.00	0.34	66.00	0.93	-24.20
2850	0.93	-25.00	0.35	65.40	0.35	65.40	0.93	-25.00
2900	0.92	-25.90	0.36	64.40	0.36	64.40	0.92	-25.90
2950	0.92	-26.70	0.37	63.50	0.37	63.50	0.92	-26.70
3000	0.91	-27.40	0.38	62.80	0.38	62.80	0.91	-27.40
3050	0.90	-28.10	0.40	62.10	0.40	62.10	0.90	-28.10
3100	0.90	-29.00	0.40	61.50	0.40	61.50	0.90	-29.00
3150	0.89	-30.00	0.41	60.90	0.41	60.90	0.89	-30.00
3200	0.89	-30.40	0.43	60.30	0.43	60.30	0.89	-30.40
3250	0.88	-30.90	0.44	59.70	0.44	59.70	0.88	-30.90
3300	0.88	-31.50	0.45	59.00	0.45	59.00	0.88	-31.50
3350	0.88	-32.10	0.46	58.20	0.46	58.20	0.88	-32.10
3400	0.87	-32.90	0.47	57.70	0.47	57.70	0.87	-32.90
3450	0.87	-33.60	0.48	57.30	0.48	57.30	0.87	-33.60
3500	0.86	-34.40	0.49	56.60	0.49	56.60	0.86	-34.40
3550	0.85	-35.10	0.50	55.80	0.50	55.80	0.85	-35.10
3600	0.84	-35.60	0.50	55.30	0.50	55.30	0.84	-35.60
3650	0.84	-36.10	0.51	54.80	0.51	54.80	0.84	-36.10
3700	0.83	-37.10	0.52	54.10	0.52	54.10	0.83	-37.10
3750	0.83	-38.00	0.53	53.40	0.53	53.40	0.83	-38.00
3800	0.83	-38.60	0.54	52.90	0.54	52.90	0.83	-38.60
3850	0.82	-39.10	0.55	52.40	0.55	52.40	0.82	-39.10
3900	0.81	-40.10	0.56	51.40	0.56	51.40	0.81	-40.10
3950	0.80	-41.00	0.56	50.40	0.56	50.40	0.80	-41.00
4000	0.80	-41.60	0.57	49.70	0.57	49.70	0.80	-41.60
4050	0.79	-42.30	0.58	49.10	0.58	49.10	0.79	-42.30
4100	0.78	-42.50	0.58	48.50	0.58	48.50	0.78	-42.50
4150	0.78	-42.80	0.57	47.80	0.57	47.80	0.78	-42.80
4200	0.78	-43.80	0.58	48.00	0.58	48.00	0.78	-43.80
4250	0.79	-44.90	0.60	48.10	0.60	48.10	0.79	-44.90
4300	0.78	-45.70	0.60	47.70	0.60	47.70	0.78	-45.70
4350	0.76	-46.40	0.61	47.30	0.61	47.30	0.76	-46.40
4400	0.76	-47.30	0.62	46.60	0.62	46.60	0.76	-47.30
4450	0.76	-48.20	0.63	46.00	0.63	46.00	0.76	-48.20
4500	0.75	-48.50	0.63	45.60	0.63	45.60	0.75	-48.50
4550	0.75	-48.80	0.63	45.20	0.63	45.20	0.75	-48.80
4600	0.75	-49.90	0.64	44.40	0.64	44.40	0.75	-49.90
4650	0.75	-51.00	0.65	43.70	0.65	43.70	0.75	-51.00
4700	0.74	-51.80	0.66	43.20	0.66	43.20	0.74	-51.80
4750	0.72	-52.50	0.66	42.70	0.66	42.70	0.72	-52.50
4800	0.72	-53.30	0.67	42.10	0.67	42.10	0.72	-53.30
4850	0.71	-54.10	0.67	41.50	0.67	41.50	0.71	-54.10
4900	0.71	-54.70	0.68	41.10	0.68	41.10	0.71	-54.70
4950	0.71	-55.20	0.69	40.70	0.69	40.70	0.71	-55.20
5000	0.70	-56.40	0.69	39.70	0.69	39.70	0.70	-56.40
5050	0.69	-57.50	0.69	38.80	0.69	38.80	0.69	-57.50
5100	0.68	-58.00	0.70	38.40	0.70	38.40	0.68	-58.00
5150	0.67	-58.40	0.70	38.00	0.70	38.00	0.67	-58.40
5200	0.66	-58.40	0.71	37.80	0.71	37.80	0.66	-58.40
5250	0.66	-58.50	0.71	37.60	0.71	37.60	0.66	-58.50
5300	0.66	-59.70	0.72	36.50	0.72	36.50	0.66	-59.70
5350	0.66	-60.90	0.73	35.40	0.73	35.40	0.66	-60.90
5400	0.64	-61.10	0.74	34.80	0.74	34.80	0.64	-61.10
5450	0.63	-61.30	0.74	34.20	0.74	34.20	0.63	-61.30
5500	0.63	-61.80	0.75	33.50	0.75	33.50	0.63	-61.80
5550	0.62	-62.30	0.75	32.80	0.75	32.80	0.62	-62.30
5600	0.61	-62.80	0.76	32.00	0.76	32.00	0.61	-62.80
5650	0.60	-63.20	0.76	31.30	0.76	31.30	0.60	-63.20
5700	0.59	-63.60	0.77	30.60	0.77	30.60	0.59	-63.60
5750	0.58	-63.90	0.77	29.80	0.77	29.80	0.58	-63.90
5800	0.57	-64.00	0.77	29.00	0.77	29.00	0.57	-64.00
5850	0.56	-64.10	0.78	28.20	0.78	28.20	0.56	-64.10
5900	0.55	-64.10	0.79	27.40	0.79	27.40	0.55	-64.10
5950	0.53	-64.10	0.79	26.60	0.79	26.60	0.53	-64.10
6000	0.51	-65.40	0.80	24.90	0.80	24.90	0.51	-65.40
6050	0.50	-66.70	0.81	23.10	0.81	23.10	0.50	-66.70
6100	0.48	-66.60	0.82	22.10	0.82	22.10	0.48	-66.60
6150	0.46	-66.50	0.82	21.00	0.82	21.00	0.46	-66.50
6200	0.43	-65.80	0.82	19.10	0.82	19.10	0.43	-65.80
6250	0.41	-65.00	0.83	17.20	0.83	17.20	0.41	-65.00
6300	0.38	-63.40	0.83	14.90	0.83	14.90	0.38	-63.40
6350	0.35	-61.70	0.82	12.60	0.82	12.60	0.35	-61.70
6400	0.31	-54.90	0.81	9.30	0.81	9.30	0.31	-54.90
6450	0.28	-48.10	0.80	6.10	0.80	6.10	0.28	-48.10
6500	0.28	-33.30	0.75	1.90	0.75	1.90	0.28	-33.30
6550	0.28	-18.40	0.71	-2.30	0.71	-2.30	0.28	-18.40
6600	0.36	-11.10	0.63	-5.10	0.63	-5.10	0.36	-11.10
6650	0.45	-3.70	0.54	-7.90	0.54	-7.90	0.45	-3.70
6700	0.54	-7.30	0.46	-1.30	0.46	-1.30	0.54	-7.30
6750	0.63	-10.80	0.38	5.30	0.38	5.30	0.63	-10.80
6800	0.67	-16.00	0.39	16.80	0.39	16.80	0.67	-16.00
6850	0.72	-21.30	0.40	28.30	0.40	28.30	0.72	-21.30
6900	0.73	-25.30	0.44	32.20	0.44	32.20	0.73	-25.30
6950	0.73	-29.40	0.48	36.00	0.48	36.00	0.73	-29.40
7000	0.73	-31.70	0.52	36.60	0.52	36.60	0.73	-31.70
7050	0.72	-33.90	0.56	37.20	0.56	37.20	0.72	-33.90
7100	0.71	-35.80	0.58	36.90	0.58	36.90	0.71	-35.80
7150	0.70	-37.60	0.60	36.50	0.60	36.50	0.70	-37.60
7200	0.69	-38.50	0.63	36.10	0.63	36.10	0.69	-38.50
7250	0.68	-39.50	0.64	35.60	0.64	35.60	0.68	-39.50
7300	0.68	-40.80	0.66	34.90	0.66	34.90	0.68	-40.80
7350	0.68	-42.10	0.68	34.20	0.68	34.20	0.68	-42.10
7400	0.66	-42.90	0.69	33.60	0.69	33.60	0.66	-42.90
7450	0.65	-43.80	0.70	32.90	0.70	32.90	0.65	-43.80
7500	0.65	-44.90	0.71	32.30	0.71	32.30	0.65	-44.90
7550	0.65	-46.10	0.72	31.70	0.72	31.70	0.65	-46.10
7600	0.63	-47.10	0.73	31.00	0.73	31.00	0.63	-47.10
7650	0.62	-48.10	0.74	30.30	0.74	30.30	0.62	-48.10
7700	0.62	-48.90	0.74	29.90	0.74	29.90	0.62	-48.90
7750	0.61	-49.80	0.75	29.50	0.75	29.50	0.61	-49.80
7800	0.60	-50.80	0.75	29.00	0.75	29.00	0.60	-50.80
7850	0.59	-51.80	0.76	28.50	0.76	28.50	0.59	-51.80
7900	0.59	-53.10	0.77	27.90	0.77	27.90	0.59	-53.10
7950	0.58	-54.40	0.77	27.30	0.77	27.30	0.58	-54.40
8000	0.57	-55.60	0.78	26.70	0.78	26.70	0.57	-55.60
8050	0.56	-56.80	0.79	26.10	0.79	26.10	0.56	-56.80
8100	0.56	-57.50	0.79	26.00	0.79	26.00	0.56	-57.50
8150	0.55	-58.20	0.79	25.80	0.79	25.80	0.55	-58.20
8200	0.54	-59.20	0.80	25.20	0.80	25.20	0.54	-59.20
8250	0.53	-60.20	0.80	24.50	0.80	24.50	0.53	-60.20
8300	0.53	-61.00	0.81	24.30	0.81	24.30	0.53	-61.00
8350	0.52	-61.70	0.81	24.00	0.81	24.00	0.52	-61.70
8400	0.52	-62.50	0.82	23.40	0.82	23.40	0.52	-62.50
8450	0.51	-63.20	0.82	22.70	0.82	22.70	0.51	-63.20
8500	0.50	-63.90	0.83	22.40	0.83	22.40	0.50	-63.90
8550	0.50	-64.50	0.83	22.00	0.83	22.00	0.50	-64.50
8600	0.49	-64.90	0.84	21.40	0.84	21.40	0.49	-64.90
8650	0.49	-65.40	0.84	20.80	0.84	20.80	0.49	-65.40
8700	0.48	-65.80	0.85	20.20	0.85	20.20	0.48	-65.80
8750	0.47	-66.20	0.85	19.70	0.85	19.70	0.47	-66.20
8800	0.47	-66.40	0.85	19.50	0.85	19.50	0.47	-66.40
8850	0.46	-66.60	0.85	19.40	0.85	19.40	0.46	-66.60
8900	0.45	-66.50	0.85	18.70	0.85	18.70	0.45	-66.50
8950	0.44	-66.40	0.85	18.10	0.85	18.10	0.44	-66.40
9000	0.44	-66.30	0.85	17.80	0.85	17.80	0.44	-66.30
9050	0.44	-66.30	0.85	17.40	0.85	17.40	0.44	-66.30
9100	0.44	-66.60	0.85	17.30	0.85	17.30	0.44	-66.60
9150	0.43	-66.90	0.85	17.30	0.85	17.30	0.43	-66.90
9200	0.43	-68.10	0.86	17.30	0.86	17.30	0.43	-68.10
9250	0.42	-69.30	0.86	17.40	0.86	17.40	0.42	-69.30
9300	0.41	-69.30	0.87	17.00	0.87	17.00	0.41	-69.30
9350	0.41	-69.30	0.88	16.50	0.88	16.50	0.41	-69.30
9400	0.40	-69.90	0.88	16.30	0.88	16.30	0.40	-69.90
9450	0.40	-70.60	0.88	16.20	0.88	16.20	0.40	-70.60
9500	0.39	-70.50	0.88	15.60	0.88	15.60	0.39	-70.50
9550	0.38	-70.50	0.89	15.00	0.89	15.00	0.38	-70.50
9600	0.37	-70.60	0.89	14.50	0.89	14.50	0.37	-70.60
9650	0.37	-70.70	0.90	14.00	0.90	14.00	0.37	-70.70
9700	0.36	-71.10	0.90	13.70	0.90	13.70	0.36	-71.10
9750	0.35	-71.60	0.90	13.40	0.90	13.40	0.35	-71.60
9800	0.35	-71.10	0.91	12.90	0.91	12.90	0.35	-71.10
9850	0.34	-70.70	0.91	12.30	0.91	12.30	0.34	-70.70
9900	0.34	-70.60	0.91	12.10	0.91	12.10	0.34	-70.60
9950	0.33	-70.60	0.91	11.80	0.91	11.80	0.33	-70.60
10000	0.32	-70.70	0.91	11.40	0.91	11.40	0.32	-70.70
10050	0.32	-70.90	0.92	11.00	0.92	11.00	0.32	-70.90
10100	0.31	-70.40	0.92	10.70	0.92	10.70	0.31	-70.40
10150	0.30	-69.90	0.92	10.30	0.92	10.30	0.30	-69.90
10200	0.29	-69.90	0.92	9.90	0.92	9.90	0.29	-69.90
10250	0.28	-69.90	0.92	9.60	0.92	9.60	0.28	-69.90
10300	0.28	-70.10	0.92	9.20	0.92	9.20	0.28	-70.10
10350	0.28	-70.30	0.92	8.90	0.92	8.90	0.28	-70.30
10400	0.26	-71.30	0.93	8.30	0.93	8.30	0.26	-71.30
10450	0.25	-72.20	0.93	7.70	0.93	7.70	0.25	-72.20
10500	0.25	-72.00	0.93	7.30	0.93	7.30	0.25	-72.00
10550	0.25	-71.80	0.93	6.90	0.93	6.90	0.25	-71.80
10600	0.23	-72.80	0.93	6.30	0.93	6.30	0.23	-72.80
10650	0.22	-73.70	0.93	5.70	0.93	5.70	0.22	-73.70
10700	0.22	-73.10	0.93	5.20	0.93	5.20	0.22	-73.10
10750	0.21	-72.50	0.94	4.70	0.94	4.70	0.21	-72.50
10800	0.20	-73.30	0.93	4.30	0.93	4.30	0.20	-73.30
10850	0.20	-74.20	0.93	3.90	0.93	3.90	0.20	-74.20
10900	0.19	-73.40	0.93	3.00	0.93	3.00	0.19	-73.40
10950	0.18	-72.50	0.93	2.10	0.93	2.10	0.18	-72.50
11000	0.17	-71.70	0.93	1.50	0.93	1.50	0.17	-71.70
11050	0.16	-70.80	0.92	0.80	0.92	0.80	0.16	-70.80
11100	0.16	-68.00	0.92	0.00	0.92	0.00	0.16	-68.00
11150	0.15	-65.20	0.91	-0.80	0.91	-0.80	0.15	-65.20
11200	0.15	-59.20	0.90	-1.80	0.90	-1.80	0.15	-59.20
11250	0.15	-53.30	0.89	-2.80	0.89	-2.80	0.15	-53.30
11300	0.15	-46.60	0.88	-3.90	0.88	-3.90	0.15	-46.60
11350	0.16	-39.80	0.86	-5.10	0.86	-5.10	0.16	-39.80
11400	0.18	-32.50	0.84	-5.80	0.84	-5.80	0.18	-32.50
11450	0.20	-25.20	0.81	-6.60	0.81	-6.60	0.20	-25.20
11500	0.23	-23.80	0.77	-6.90	0.77	-6.90	0.23	-23.80
11550	0.26	-22.30	0.74	-7.20	0.74	-7.20	0.26	-22.30
11600	0.31	-25.00	0.70	-5.10	0.70	-5.10	0.31	-25.00
11650	0.35	-27.80	0.66	-3.00	0.66	-3.00	0.35	-27.80
11700	0.38	-33.10	0.65	0.80	0.65	0.80	0.38	-33.10
11750	0.40	-38.40	0.64	4.60	0.64	4.60	0.40	-38.40
11800	0.41	-43.50	0.67	7.70	0.67	7.70	0.41	-43.50
11850	0.42	-48.60	0.69	10.70	0.69	10.70	0.42	-48.60
11900	0.41	-53.30	0.71	11.80	0.71	11.80	0.41	-53.30
11950	0.40	-58.00	0.74	12.90	0.74	12.90	0.40	-58.00
12000	0.40	-62.10	0.77	12.60	0.77	12.60	0.40	-62.10
12050	0.39	-66.10	0.79	12.20	0.79	12.20	0.39	-66.10
12100	0.38	-69.00	0.81	11.80	0.81	11.80	0.38	-69.00
12150	0.37	-71.90	0.82	11.50	0.82	11.50	0.37	-71.90
12200	0.37	-74.00	0.83	11.00	0.83	11.00	0.37	-74.00
12250	0.36	-76.10	0.85	10.50	0.85	10.50	0.36	-76.10
12300	0.35	-76.90	0.86	9.90	0.86	9.90	0.35	-76.90
12350	0.34	-77.80	0.87	9.40	0.87	9.40	0.34	-77.80
12400	0.34	-79.20	0.87	9.00	0.87	9.00	0.34	-79.20
12450	0.34	-80.70	0.87	8.60	0.87	8.60	0.34	-80.70
12500	0.34	-80.30	0.88	8.20	0.88	8.20	0.34	-80.30
12550	0.33	-79.90	0.89	7.70	0.89	7.70	0.33	-79.90
12600	0.33	-80.20	0.89	7.40	0.89	7.40	0.33	-80.20
12650	0.34	-80.40	0.89	7.10	0.89	7.10	0.34	-80.40
12700	0.33	-79.40	0.89	6.80	0.89	6.80	0.33	-79.40
12750	0.33	-78.30	0.90	6.40	0.90	6.40	0.33	-78.30
12800	0.33	-77.90	0.90	6.20	0.90	6.20	0.33	-77.90
12850	0.33	-77.50	0.91	6.00	0.91	6.00	0.33	-77.50
12900	0.33	-76.70	0.91	5.60	0.91	5.60	0.33	-76.70
12950	0.32	-76.00	0.91	5.20	0.91	5.20	0.32	-76.00
13000	0.32	-75.80	0.92	5.00	0.92	5.00	0.32	-75.80
13050	0.32	-75.70	0.92	4.90	0.92	4.90	0.32	-75.70
13100	0.31	-75.10	0.92	4.50	0.92	4.50	0.31	-75.10
13150	0.31	-74.60	0.92	4.10	0.92	4.10	0.31	-74.60
13200	0.30	-74.70	0.92	4.10	0.92	4.10	0.30	-74.70
13250	0.29	-74.90	0.93	4.00	0.93	4.00	0.29	-74.90
13300	0.28	-73.20	0.92	3.50	0.92	3.50	0.28	-73.20
13350	0.27	-71.50	0.92	3.00	0.92	3.00	0.27	-71.50
13400	0.27	-72.80	0.92	2.50	0.92	2.50	0.27	-72.80
13450	0.27	-74.20	0.93	2.00	0.93	2.00	0.27	-74.20
13500	0.26	-74.10	0.93	1.80	0.93	1.80	0.26	-74.10
13550	0.26	-74.10	0.93	1.50	0.93	1.50	0.26	-74.10
13600	0.25	-74.40	0.92	1.20	0.92	1.20	0.25	-74.40
13650	0.25	-74.70	0.92	0.80	0.92	0.80	0.25	-74.70
13700	0.25	-74.40	0.92	0.50	0.92	0.50	0.25	-74.40
13750	0.25	-74.20	0.93	0.10	0.93	0.10	0.25	-74.20
13800	0.25	-73.70	0.92	-0.10	0.92	-0.10	0.25	-73.70
13850	0.25	-73.10	0.91	-0.30	0.91	-0.30	0.25	-73.10
13900	0.25	-72.60	0.92	-0.50	0.92	-0.50	0.25	-72.60
13950	0.26	-72.10	0.92	-0.70	0.92	-0.70	0.26	-72.10
14000	0.26	-71.10	0.91	-0.80	0.91	-0.80	0.26	-71.10
14050	0.26	-70.20	0.91	-0.90	0.91	-0.90	0.26	-70.20
14100	0.27	-70.80	0.91	-0.90	0.91	-0.90	0.27	-70.80
14150	0.27	-71.50	0.91	-0.80	0.91	-0.80	0.27	-71.50
14200	0.27	-71.10	0.91	-1.00	0.91	-1.00	0.27	-71.10
14250	0.27	-70.80	0.91	-1.10	0.91	-1.10	0.27	-70.80
14300	0.26	-71.00	0.92	-1.20	0.92	-1.20	0.26	-71.00
14350	0.26	-71.20	0.92	-1.30	0.92	-1.30	0.26	-71.20
14400	0.26	-70.90	0.93	-1.80	0.93	-1.80	0.26	-70.90
14450	0.26	-70.50	0.93	-2.20	0.93	-2.20	0.26	-70.50
14500	0.25	-69.70	0.93	-2.30	0.93	-2.30	0.25	-69.70
14550	0.25	-68.90	0.93	-2.40	0.93	-2.40	0.25	-68.90
14600	0.24	-67.90	0.93	-2.70	0.93	-2.70	0.24	-67.90
14650	0.24	-67.00	0.93	-3.10	0.93	-3.10	0.24	-67.00
14700	0.23	-67.00	0.94	-3.50	0.94	-3.50	0.23	-67.00
14750	0.22	-67.00	0.94	-3.80	0.94	-3.80	0.22	-67.00
14800	0.22	-65.50	0.94	-4.20	0.94	-4.20	0.22	-65.50
14850	0.21	-63.90	0.94	-4.50	0.94	-4.50	0.21	-63.90
14900	0.21	-63.70	0.94	-4.80	0.94	-4.80	0.21	-63.70
14950	0.20	-63.50	0.95	-5.10	0.95	-5.10	0.20	-63.50
15000	0.20	-62.70	0.94	-5.50	0.94	-5.50	0.20	-62.70
15050	0.20	-61.90	0.94	-5.80	0.94	-5.80	0.20	-61.90
15100	0.19	-60.40	0.95	-6.00	0.95	-6.00	0.19	-60.40
15150	0.19	-59.00	0.95	-6.20	0.95	-6.20	0.19	-59.00
15200	0.19	-58.50	0.95	-6.40	0.95	-6.40	0.19	-58.50
15250	0.19	-57.90	0.95	-6.60	0.95	-6.60	0.19	-57.90
15300	0.19	-56.20	0.95	-7.10	0.95	-7.10	0.19	-56.20
15350	0.19	-54.50	0.95	-7.70	0.95	-7.70	0.19	-54.50
15400	0.19	-52.70	0.95	-7.90	0.95	-7.90	0.19	-52.70
15450	0.19	-50.80	0.95	-8.00	0.95	-8.00	0.19	-50.80
15500	0.18	-48.00	0.95	-8.50	0.95	-8.50	0.18	-48.00
15550	0.18	-45.20	0.95	-8.90	0.95	-8.90	0.18	-45.20
15600	0.19	-43.00	0.95	-9.10	0.95	-9.10	0.19	-43.00
15650	0.19	-40.80	0.95	-9.30	0.95	-9.30	0.19	-40.80
15700	0.19	-37.50	0.94	-9.80	0.94	-9.80	0.19	-37.50
15750	0.19	-34.20	0.94	-10.30	0.94	-10.30	0.19	-34.20
15800	0.19	-31.10	0.94	-10.40	0.94	-10.40	0.19	-31.10
15850	0.19	-27.90	0.94	-10.60	0.94	-10.60	0.19	-27.90
15900	0.19	-25.10	0.94	-11.00	0.94	-11.00	0.19	-25.10
15950	0.19	-22.20	0.93	-11.40	0.93	-11.40	0.19	-22.20
16000	0.19	-17.80	0.93	-11.60	0.93	-11.60	0.19	-17.80
16050	0.19	-13.50	0.93	-11.80	0.93	-11.80	0.19	-13.50
16100	0.19	-10.70	0.93	-12.30	0.93	-12.30	0.19	-10.70
16150	0.19	-7.90	0.92	-12.80	0.92	-12.80	0.19	-7.90
16200	0.19	-5.10	0.92	-13.10	0.92	-13.10	0.19	-5.10
16250	0.20	-2.40	0.91	-13.40	0.91	-13.40	0.20	-2.40
16300	0.20	-1.10	0.91	-13.70	0.91	-13.70	0.20	-1.10
16350	0.19	0.30	0.90	-14.10	0.90	-14.10	0.19	0.30
16400	0.20	2.10	0.89	-14.40	0.89	-14.40	0.20	2.10
16450	0.20	4.00	0.89	-14.70	0.89	-14.70	0.20	4.00
16500	0.20	1.60	0.87	-14.70	0.87	-14.70	0.20	1.60
16550	0.21	-0.70	0.86	-14.70	0.86	-14.70	0.21	-0.70
16600	0.22	-1.50	0.85	-14.60	0.85	-14.60	0.22	-1.50
16650	0.22	-2.20	0.84	-14.50	0.84	-14.50	0.22	-2.20
16700	0.23	-6.70	0.83	-13.70	0.83	-13.70	0.23	-6.70
16750	0.24	-11.20	0.81	-13.00	0.81	-13.00	0.24	-11.20
16800	0.24	-16.10	0.81	-11.50	0.81	-11.50	0.24	-16.10
16850	0.24	-21.00	0.80	-10.10	0.80	-10.10	0.24	-21.00
16900	0.24	-25.70	0.81	-8.70	0.81	-8.70	0.24	-25.70
16950	0.24	-30.40	0.81	-7.30	0.81	-7.30	0.24	-30.40
17000	0.23	-35.00	0.83	-6.70	0.83	-6.70	0.23	-35.00
17050	0.22	-39.60	0.85	-6.00	0.85	-6.00	0.22	-39.60
17100	0.21	-40.90	0.86	-5.90	0.86	-5.90	0.21	-40.90
17150	0.20	-42.20	0.87	-5.90	0.87	-5.90	0.20	-42.20
17200	0.19	-42.90	0.89	-6.00	0.89	-6.00	0.19	-42.90
17250	0.17	-43.60	0.90	-6.10	0.90	-6.10	0.17	-43.60
17300	0.16	-42.70	0.91	-6.40	0.91	-6.40	0.16	-42.70
17350	0.15	-41.80	0.92	-6.70	0.92	-6.70	0.15	-41.80
17400	0.13	-42.60	0.92	-7.10	0.92	-7.10	0.13	-42.60
17450	0.12	-43.40	0.93	-7.50	0.93	-7.50	0.12	-43.40
17500	0.11	-40.30	0.93	-8.00	0.93	-8.00	0.11	-40.30
17550	0.10	-37.10	0.94	-8.50	0.94	-8.50	0.10	-37.10
17600	0.09	-34.70	0.94	-8.90	0.94	-8.90	0.09	-34.70
17650	0.08	-32.20	0.94	-9.40	0.94	-9.40	0.08	-32.20
17700	0.07	-30.80	0.95	-9.80	0.95	-9.80	0.07	-30.80
17750	0.05	-29.30	0.95	-10.10	0.95	-10.10	0.05	-29.30
17800	0.05	-29.00	0.95	-10.60	0.95	-10.60	0.05	-29.00
17850	0.04	-28.60	0.95	-11.00	0.95	-11.00	0.04	-28.60
17900	0.03	-31.00	0.95	-11.30	0.95	-11.30	0.03	-31.00
17950	0.02	-33.30	0.95	-11.60	0.95	-11.60	0.02	-33.30
18000	0.02	-36.60	0.95	-12.10	0.95	-12.10	0.02	-36.60
18050	0.02	-39.90	0.95	-12.50	0.95	-12.50	0.02	-39.90
18100	0.02	-59.00	0.95	-12.80	0.95	-12.80	0.02	-59.00
18150	0.02	-78.10	0.95	-13.10	0.95	-13.10	0.02	-78.10
18200	0.02	-75.30	0.96	-13.50	0.96	-13.50	0.02	-75.30
18250	0.02	-72.50	0.96	-13.90	0.96	-13.90	0.02	-72.50
18300	0.03	-75.80	0.96	-14.20	0.96	-14.20	0.03	-75.80
18350	0.03	-79.10	0.96	-14.50	0.96	-14.50	0.03	-79.10
18400	0.04	-63.80	0.96	-14.70	0.96	-14.70	0.04	-63.80
18450	0.04	-48.60	0.96	-15.00	0.96	-15.00	0.04	-48.60
18500	0.04	-49.10	0.96	-15.20	0.96	-15.20	0.04	-49.10
18550	0.04	-49.60	0.96	-15.50	0.96	-15.50	0.04	-49.60
18600	0.04	-35.00	0.96	-15.60	0.96	-15.60	0.04	-35.00
18650	0.04	-20.50	0.96	-15.80	0.96	-15.80	0.04	-20.50
18700	0.05	-27.70	0.96	-16.20	0.96	-16.20	0.05	-27.70
18750	0.05	-35.00	0.95	-16.70	0.95	-16.70	0.05	-35.00
18800	0.05	-27.50	0.95	-16.80	0.95	-16.80	0.05	-27.50
18850	0.05	-20.10	0.95	-16.90	0.95	-16.90	0.05	-20.10
18900	0.05	-17.90	0.95	-17.30	0.95	-17.30	0.05	-17.90
18950	0.04	-15.70	0.94	-17.70	0.94	-17.70	0.04	-15.70
19000	0.04	-21.60	0.94	-17.60	0.94	-17.60	0.04	-21.60
19050	0.03	-27.40	0.93	-17.50	0.93	-17.50	0.03	-27.40
19100	0.03	-21.20	0.93	-17.40	0.93	-17.40	0.03	-21.20
19150	0.04	-15.00	0.93	-17.40	0.93	-17.40	0.04	-15.00
19200	0.05	-28.80	0.93	-17.40	0.93	-17.40	0.05	-28.80
19250	0.05	-42.70	0.93	-17.30	0.93	-17.30	0.05	-42.70
19300	0.06	-41.70	0.94	-17.50	0.94	-17.50	0.06	-41.70
19350	0.06	-40.70	0.94	-17.60	0.94	-17.60	0.06	-40.70
19400	0.07	-45.30	0.95	-18.10	0.95	-18.10	0.07	-45.30
19450	0.07	-49.80	0.95	-18.60	0.95	-18.60	0.07	-49.80
