#	mhz	s	ma	r	50

50	0.87	161.00	0.31	64.30	0.31	64.30	0.87	161.00
100	0.77	148.00	0.50	53.20	0.50	53.20	0.77	148.00
150	0.67	135.00	0.68	42.10	0.68	42.10	0.67	135.00
200	0.58	127.90	0.76	35.70	0.76	35.70	0.58	127.90
250	0.49	120.70	0.83	29.30	0.83	29.30	0.49	120.70
300	0.44	116.00	0.86	25.10	0.86	25.10	0.44	116.00
350	0.38	111.30	0.90	20.80	0.90	20.80	0.38	111.30
400	0.34	107.90	0.92	18.10	0.92	18.10	0.34	107.90
450	0.30	104.50	0.93	15.50	0.93	15.50	0.30	104.50
500	0.26	100.60	0.95	12.70	0.95	12.70	0.26	100.60
550	0.23	96.70	0.96	9.90	0.96	9.90	0.23	96.70
600	0.21	95.30	0.97	8.40	0.97	8.40	0.21	95.30
650	0.19	93.80	0.97	6.80	0.97	6.80	0.19	93.80
700	0.17	91.40	0.97	5.60	0.97	5.60	0.17	91.40
750	0.16	89.00	0.98	4.30	0.98	4.30	0.16	89.00
800	0.15	87.80	0.98	3.10	0.98	3.10	0.15	87.80
850	0.14	86.60	0.98	2.00	0.98	2.00	0.14	86.60
900	0.13	85.00	0.98	0.90	0.98	0.90	0.13	85.00
950	0.12	83.50	0.98	-0.10	0.98	-0.10	0.12	83.50
1000	0.11	82.40	0.99	-1.00	0.99	-1.00	0.11	82.40
1050	0.10	81.30	0.99	-2.00	0.99	-2.00	0.10	81.30
1100	0.09	79.60	0.99	-2.90	0.99	-2.90	0.09	79.60
1150	0.08	78.00	0.99	-3.80	0.99	-3.80	0.08	78.00
1200	0.07	75.70	0.99	-4.60	0.99	-4.60	0.07	75.70
1250	0.07	73.50	0.99	-5.40	0.99	-5.40	0.07	73.50
1300	0.06	71.40	0.99	-6.10	0.99	-6.10	0.06	71.40
1350	0.05	69.30	0.99	-6.90	0.99	-6.90	0.05	69.30
1400	0.05	66.90	0.99	-7.70	0.99	-7.70	0.05	66.90
1450	0.04	64.40	0.99	-8.40	0.99	-8.40	0.04	64.40
1500	0.04	61.70	0.99	-9.20	0.99	-9.20	0.04	61.70
1550	0.03	59.00	0.99	-10.00	0.99	-10.00	0.03	59.00
1600	0.03	53.10	0.99	-10.70	0.99	-10.70	0.03	53.10
1650	0.02	47.20	0.99	-11.50	0.99	-11.50	0.02	47.20
1700	0.01	30.10	0.99	-12.20	0.99	-12.20	0.01	30.10
1750	0.01	13.00	0.99	-12.90	0.99	-12.90	0.01	13.00
1800	0.01	-21.00	0.99	-13.60	0.99	-13.60	0.01	-21.00
1850	0.01	-54.90	0.99	-14.30	0.99	-14.30	0.01	-54.90
1900	0.02	-68.60	0.99	-15.00	0.99	-15.00	0.02	-68.60
1950	0.02	-82.30	0.99	-15.60	0.99	-15.60	0.02	-82.30
2000	0.03	-87.90	0.99	-16.30	0.99	-16.30	0.03	-87.90
2050	0.03	-93.50	0.99	-17.10	0.99	-17.10	0.03	-93.50
2100	0.04	-96.20	0.99	-17.70	0.99	-17.70	0.04	-96.20
2150	0.04	-98.90	0.99	-18.40	0.99	-18.40	0.04	-98.90
2200	0.05	-102.60	0.99	-19.10	0.99	-19.10	0.05	-102.60
2250	0.05	-106.40	0.99	-19.80	0.99	-19.80	0.05	-106.40
2300	0.06	-107.20	0.99	-20.40	0.99	-20.40	0.06	-107.20
2350	0.06	-108.00	0.99	-21.00	0.99	-21.00	0.06	-108.00
2400	0.07	-109.60	0.99	-21.80	0.99	-21.80	0.07	-109.60
2450	0.07	-111.20	0.99	-22.50	0.99	-22.50	0.07	-111.20
2500	0.08	-111.70	0.99	-23.20	0.99	-23.20	0.08	-111.70
2550	0.09	-112.30	0.99	-23.80	0.99	-23.80	0.09	-112.30
2600	0.09	-113.00	0.99	-24.40	0.99	-24.40	0.09	-113.00
2650	0.10	-113.80	0.99	-25.00	0.99	-25.00	0.10	-113.80
2700	0.10	-114.30	0.98	-25.60	0.98	-25.60	0.10	-114.30
2750	0.11	-114.80	0.98	-26.30	0.98	-26.30	0.11	-114.80
2800	0.11	-115.20	0.98	-26.80	0.98	-26.80	0.11	-115.20
2850	0.12	-115.60	0.99	-27.40	0.99	-27.40	0.12	-115.60
2900	0.12	-116.20	0.98	-28.20	0.98	-28.20	0.12	-116.20
2950	0.13	-116.80	0.98	-29.10	0.98	-29.10	0.13	-116.80
3000	0.13	-117.00	0.98	-29.60	0.98	-29.60	0.13	-117.00
3050	0.14	-117.30	0.98	-30.20	0.98	-30.20	0.14	-117.30
3100	0.14	-117.80	0.98	-30.90	0.98	-30.90	0.14	-117.80
3150	0.14	-118.30	0.98	-31.70	0.98	-31.70	0.14	-118.30
3200	0.15	-118.30	0.98	-32.20	0.98	-32.20	0.15	-118.30
3250	0.15	-118.30	0.98	-32.70	0.98	-32.70	0.15	-118.30
3300	0.16	-119.00	0.98	-33.40	0.98	-33.40	0.16	-119.00
3350	0.16	-119.70	0.98	-34.10	0.98	-34.10	0.16	-119.70
3400	0.17	-120.30	0.98	-34.70	0.98	-34.70	0.17	-120.30
3450	0.17	-121.00	0.98	-35.30	0.98	-35.30	0.17	-121.00
3500	0.17	-121.30	0.97	-36.00	0.97	-36.00	0.17	-121.30
3550	0.18	-121.60	0.97	-36.60	0.97	-36.60	0.18	-121.60
3600	0.18	-121.90	0.97	-37.20	0.97	-37.20	0.18	-121.90
3650	0.19	-122.10	0.98	-37.80	0.98	-37.80	0.19	-122.10
3700	0.19	-122.40	0.97	-38.50	0.97	-38.50	0.19	-122.40
3750	0.20	-122.80	0.97	-39.30	0.97	-39.30	0.20	-122.80
3800	0.20	-122.70	0.97	-39.80	0.97	-39.80	0.20	-122.70
3850	0.21	-122.60	0.97	-40.30	0.97	-40.30	0.21	-122.60
3900	0.21	-123.10	0.97	-41.20	0.97	-41.20	0.21	-123.10
3950	0.21	-123.60	0.97	-42.00	0.97	-42.00	0.21	-123.60
4000	0.22	-123.60	0.97	-42.60	0.97	-42.60	0.22	-123.60
4050	0.22	-123.50	0.97	-43.10	0.97	-43.10	0.22	-123.50
4100	0.22	-123.90	0.96	-43.70	0.96	-43.70	0.22	-123.90
4150	0.22	-124.30	0.96	-44.40	0.96	-44.40	0.22	-124.30
4200	0.23	-125.10	0.96	-45.10	0.96	-45.10	0.23	-125.10
4250	0.24	-125.90	0.96	-45.90	0.96	-45.90	0.24	-125.90
4300	0.24	-126.90	0.96	-46.40	0.96	-46.40	0.24	-126.90
4350	0.24	-127.90	0.95	-46.90	0.95	-46.90	0.24	-127.90
4400	0.24	-129.40	0.95	-47.50	0.95	-47.50	0.24	-129.40
4450	0.23	-130.90	0.94	-48.10	0.94	-48.10	0.23	-130.90
4500	0.23	-129.00	0.95	-48.40	0.95	-48.40	0.23	-129.00
4550	0.23	-127.20	0.95	-48.70	0.95	-48.70	0.23	-127.20
4600	0.24	-127.90	0.96	-49.70	0.96	-49.70	0.24	-127.90
4650	0.25	-128.70	0.96	-50.60	0.96	-50.60	0.25	-128.70
4700	0.25	-129.80	0.96	-51.30	0.96	-51.30	0.25	-129.80
4750	0.26	-131.00	0.95	-51.90	0.95	-51.90	0.26	-131.00
4800	0.26	-132.00	0.95	-52.60	0.95	-52.60	0.26	-132.00
4850	0.26	-133.00	0.95	-53.20	0.95	-53.20	0.26	-133.00
4900	0.27	-134.60	0.95	-54.00	0.95	-54.00	0.27	-134.60
4950	0.28	-136.10	0.95	-54.80	0.95	-54.80	0.28	-136.10
5000	0.28	-137.30	0.95	-55.50	0.95	-55.50	0.28	-137.30
5050	0.28	-138.60	0.94	-56.20	0.94	-56.20	0.28	-138.60
5100	0.28	-139.70	0.94	-56.80	0.94	-56.80	0.28	-139.70
5150	0.29	-140.90	0.94	-57.40	0.94	-57.40	0.29	-140.90
5200	0.29	-142.00	0.94	-58.00	0.94	-58.00	0.29	-142.00
5250	0.30	-143.10	0.94	-58.60	0.94	-58.60	0.30	-143.10
5300	0.31	-144.50	0.94	-59.50	0.94	-59.50	0.31	-144.50
5350	0.31	-145.90	0.93	-60.40	0.93	-60.40	0.31	-145.90
5400	0.32	-147.10	0.93	-61.10	0.93	-61.10	0.32	-147.10
5450	0.32	-148.30	0.93	-61.80	0.93	-61.80	0.32	-148.30
5500	0.33	-149.30	0.93	-62.50	0.93	-62.50	0.33	-149.30
5550	0.33	-150.30	0.93	-63.30	0.93	-63.30	0.33	-150.30
5600	0.34	-151.70	0.93	-64.00	0.93	-64.00	0.34	-151.70
5650	0.34	-153.20	0.92	-64.70	0.92	-64.70	0.34	-153.20
5700	0.35	-154.20	0.92	-65.50	0.92	-65.50	0.35	-154.20
5750	0.35	-155.20	0.92	-66.30	0.92	-66.30	0.35	-155.20
5800	0.36	-156.60	0.92	-67.00	0.92	-67.00	0.36	-156.60
5850	0.36	-158.10	0.91	-67.80	0.91	-67.80	0.36	-158.10
5900	0.37	-159.40	0.91	-68.50	0.91	-68.50	0.37	-159.40
5950	0.38	-160.70	0.91	-69.20	0.91	-69.20	0.38	-160.70
6000	0.39	-161.60	0.90	-70.30	0.90	-70.30	0.39	-161.60
6050	0.41	-162.50	0.89	-71.30	0.89	-71.30	0.41	-162.50
6100	0.42	-164.00	0.89	-72.00	0.89	-72.00	0.42	-164.00
6150	0.43	-165.50	0.88	-72.70	0.88	-72.70	0.43	-165.50
6200	0.43	-167.30	0.88	-73.60	0.88	-73.60	0.43	-167.30
6250	0.44	-169.10	0.87	-74.60	0.87	-74.60	0.44	-169.10
6300	0.45	-170.80	0.86	-75.50	0.86	-75.50	0.45	-170.80
6350	0.46	-172.40	0.85	-76.30	0.85	-76.30	0.46	-172.40
6400	0.47	-174.00	0.84	-77.30	0.84	-77.30	0.47	-174.00
6450	0.48	-175.50	0.83	-78.30	0.83	-78.30	0.48	-175.50
6500	0.49	-177.30	0.82	-79.40	0.82	-79.40	0.49	-177.30
6550	0.50	-179.00	0.81	-80.50	0.81	-80.50	0.50	-179.00
6600	0.51	-1.50	0.80	-81.60	0.80	-81.60	0.51	-1.50
6650	0.53	176.00	0.78	-82.80	0.78	-82.80	0.53	176.00
6700	0.54	173.40	0.76	-83.80	0.76	-83.80	0.54	173.40
6750	0.56	170.90	0.74	-84.90	0.74	-84.90	0.56	170.90
6800	0.57	166.90	0.70	-86.10	0.70	-86.10	0.57	166.90
6850	0.59	162.80	0.67	-87.40	0.67	-87.40	0.59	162.80
6900	0.60	157.50	0.62	-87.30	0.62	-87.30	0.60	157.50
6950	0.61	152.30	0.57	-87.20	0.57	-87.20	0.61	152.30
7000	0.60	144.30	0.52	-82.50	0.52	-82.50	0.60	144.30
7050	0.60	136.30	0.47	-77.80	0.47	-77.80	0.60	136.30
7100	0.54	127.30	0.48	-67.00	0.48	-67.00	0.54	127.30
7150	0.49	118.20	0.50	-56.20	0.50	-56.20	0.49	118.20
7200	0.41	111.80	0.59	-53.70	0.59	-53.70	0.41	111.80
7250	0.32	105.30	0.68	-51.30	0.68	-51.30	0.32	105.30
7300	0.26	108.50	0.74	-53.90	0.74	-53.90	0.26	108.50
7350	0.19	111.70	0.81	-56.50	0.81	-56.50	0.19	111.70
7400	0.17	125.00	0.84	-59.50	0.84	-59.50	0.17	125.00
7450	0.15	138.30	0.87	-62.50	0.87	-62.50	0.15	138.30
7500	0.16	149.30	0.89	-65.00	0.89	-65.00	0.16	149.30
7550	0.17	160.30	0.90	-67.50	0.90	-67.50	0.17	160.30
7600	0.19	163.70	0.91	-69.40	0.91	-69.40	0.19	163.70
7650	0.20	167.00	0.91	-71.40	0.91	-71.40	0.20	167.00
7700	0.22	168.30	0.92	-73.00	0.92	-73.00	0.22	168.30
7750	0.23	169.60	0.92	-74.60	0.92	-74.60	0.23	169.60
7800	0.25	169.20	0.92	-76.10	0.92	-76.10	0.25	169.20
7850	0.26	168.70	0.92	-77.60	0.92	-77.60	0.26	168.70
7900	0.27	168.80	0.92	-78.80	0.92	-78.80	0.27	168.80
7950	0.28	168.90	0.92	-80.10	0.92	-80.10	0.28	168.90
8000	0.29	168.40	0.92	-81.30	0.92	-81.30	0.29	168.40
8050	0.31	167.80	0.92	-82.40	0.92	-82.40	0.31	167.80
8100	0.31	167.20	0.92	-83.60	0.92	-83.60	0.31	167.20
8150	0.32	166.50	0.92	-84.70	0.92	-84.70	0.32	166.50
8200	0.33	166.10	0.91	-85.80	0.91	-85.80	0.33	166.10
8250	0.34	165.60	0.91	-86.80	0.91	-86.80	0.34	165.60
8300	0.34	165.20	0.91	-87.90	0.91	-87.90	0.34	165.20
8350	0.35	164.70	0.91	-89.00	0.91	-89.00	0.35	164.70
8400	0.36	164.10	0.90	-90.10	0.90	-90.10	0.36	164.10
8450	0.37	163.50	0.90	-91.10	0.90	-91.10	0.37	163.50
8500	0.37	163.30	0.90	-92.30	0.90	-92.30	0.37	163.30
8550	0.37	163.00	0.89	-93.40	0.89	-93.40	0.37	163.00
8600	0.38	162.20	0.89	-94.50	0.89	-94.50	0.38	162.20
8650	0.39	161.40	0.89	-95.50	0.89	-95.50	0.39	161.40
8700	0.40	161.10	0.88	-96.60	0.88	-96.60	0.40	161.10
8750	0.41	160.80	0.88	-97.70	0.88	-97.70	0.41	160.80
8800	0.41	159.80	0.88	-98.50	0.88	-98.50	0.41	159.80
8850	0.42	158.70	0.87	-99.20	0.87	-99.20	0.42	158.70
8900	0.43	158.30	0.87	-100.50	0.87	-100.50	0.43	158.30
8950	0.44	157.90	0.86	-101.70	0.86	-101.70	0.44	157.90
9000	0.45	157.40	0.85	-102.70	0.85	-102.70	0.45	157.40
9050	0.46	156.90	0.85	-103.70	0.85	-103.70	0.46	156.90
9100	0.48	156.50	0.85	-104.70	0.85	-104.70	0.48	156.50
9150	0.49	156.10	0.84	-105.70	0.84	-105.70	0.49	156.10
9200	0.50	154.70	0.84	-107.10	0.84	-107.10	0.50	154.70
9250	0.51	153.40	0.83	-108.50	0.83	-108.50	0.51	153.40
9300	0.51	153.60	0.82	-109.30	0.82	-109.30	0.51	153.60
9350	0.52	153.80	0.81	-110.00	0.81	-110.00	0.52	153.80
9400	0.54	153.10	0.81	-111.10	0.81	-111.10	0.54	153.10
9450	0.55	152.40	0.80	-112.20	0.80	-112.20	0.55	152.40
9500	0.55	151.80	0.79	-113.30	0.79	-113.30	0.55	151.80
9550	0.56	151.30	0.77	-114.30	0.77	-114.30	0.56	151.30
9600	0.57	151.00	0.77	-115.30	0.77	-115.30	0.57	151.00
9650	0.59	150.80	0.76	-116.30	0.76	-116.30	0.59	150.80
9700	0.60	150.00	0.75	-117.30	0.75	-117.30	0.60	150.00
9750	0.61	149.10	0.74	-118.30	0.74	-118.30	0.61	149.10
9800	0.60	149.10	0.73	-119.00	0.73	-119.00	0.60	149.10
9850	0.60	149.00	0.71	-119.80	0.71	-119.80	0.60	149.00
9900	0.62	148.30	0.71	-120.50	0.71	-120.50	0.62	148.30
9950	0.64	147.60	0.70	-121.30	0.70	-121.30	0.64	147.60
10000	0.64	145.70	0.68	-122.20	0.68	-122.20	0.64	145.70
10050	0.63	143.90	0.67	-123.00	0.67	-123.00	0.63	143.90
10100	0.64	144.50	0.66	-123.00	0.66	-123.00	0.64	144.50
10150	0.64	145.00	0.66	-122.90	0.66	-122.90	0.64	145.00
10200	0.65	144.00	0.65	-123.90	0.65	-123.90	0.65	144.00
10250	0.66	142.90	0.65	-125.00	0.65	-125.00	0.66	142.90
10300	0.68	142.00	0.64	-126.30	0.64	-126.30	0.68	142.00
10350	0.69	141.00	0.63	-127.70	0.63	-127.70	0.69	141.00
10400	0.69	139.90	0.62	-128.70	0.62	-128.70	0.69	139.90
10450	0.70	138.80	0.61	-129.60	0.61	-129.60	0.70	138.80
10500	0.71	137.10	0.60	-130.90	0.60	-130.90	0.71	137.10
10550	0.73	135.40	0.59	-132.10	0.59	-132.10	0.73	135.40
10600	0.73	134.20	0.58	-132.40	0.58	-132.40	0.73	134.20
10650	0.72	133.00	0.56	-132.70	0.56	-132.70	0.72	133.00
10700	0.74	131.70	0.56	-133.90	0.56	-133.90	0.74	131.70
10750	0.75	130.40	0.55	-135.10	0.55	-135.10	0.75	130.40
10800	0.76	129.90	0.54	-135.80	0.54	-135.80	0.76	129.90
10850	0.77	129.30	0.53	-136.60	0.53	-136.60	0.77	129.30
10900	0.77	127.10	0.52	-137.80	0.52	-137.80	0.77	127.10
10950	0.78	124.90	0.50	-139.00	0.50	-139.00	0.78	124.90
11000	0.79	123.60	0.50	-140.30	0.50	-140.30	0.79	123.60
11050	0.80	122.40	0.49	-141.60	0.49	-141.60	0.80	122.40
11100	0.81	120.20	0.47	-142.60	0.47	-142.60	0.81	120.20
11150	0.82	118.00	0.45	-143.60	0.45	-143.60	0.82	118.00
11200	0.82	115.90	0.44	-144.70	0.44	-144.70	0.82	115.90
11250	0.83	113.80	0.43	-145.80	0.43	-145.80	0.83	113.80
11300	0.84	112.00	0.41	-146.50	0.41	-146.50	0.84	112.00
11350	0.85	110.10	0.39	-147.30	0.39	-147.30	0.85	110.10
11400	0.85	107.60	0.37	-148.40	0.37	-148.40	0.85	107.60
11450	0.85	105.00	0.36	-149.50	0.36	-149.50	0.85	105.00
11500	0.86	103.20	0.34	-149.70	0.34	-149.70	0.86	103.20
11550	0.86	101.30	0.32	-149.90	0.32	-149.90	0.86	101.30
11600	0.86	98.90	0.30	-150.20	0.30	-150.20	0.86	98.90
11650	0.87	96.60	0.28	-150.60	0.28	-150.60	0.87	96.60
11700	0.87	94.50	0.26	-149.90	0.26	-149.90	0.87	94.50
11750	0.88	92.50	0.24	-149.20	0.24	-149.20	0.88	92.50
11800	0.88	90.70	0.22	-147.00	0.22	-147.00	0.88	90.70
11850	0.88	88.90	0.20	-144.80	0.20	-144.80	0.88	88.90
11900	0.88	87.10	0.18	-141.10	0.18	-141.10	0.88	87.10
11950	0.87	85.30	0.16	-137.30	0.16	-137.30	0.87	85.30
12000	0.88	83.70	0.14	-128.30	0.14	-128.30	0.88	83.70
12050	0.88	82.00	0.13	-119.20	0.13	-119.20	0.88	82.00
12100	0.87	79.20	0.13	-107.90	0.13	-107.90	0.87	79.20
12150	0.86	76.40	0.13	-96.60	0.13	-96.60	0.86	76.40
12200	0.86	74.50	0.14	-86.30	0.14	-86.30	0.86	74.50
12250	0.85	72.60	0.16	-75.90	0.16	-75.90	0.85	72.60
12300	0.83	70.40	0.19	-70.90	0.19	-70.90	0.83	70.40
12350	0.81	68.20	0.22	-65.80	0.22	-65.80	0.81	68.20
12400	0.79	65.00	0.25	-65.00	0.25	-65.00	0.79	65.00
12450	0.77	61.80	0.29	-64.30	0.29	-64.30	0.77	61.80
12500	0.74	59.40	0.33	-65.00	0.33	-65.00	0.74	59.40
12550	0.71	57.00	0.37	-65.80	0.37	-65.80	0.71	57.00
12600	0.67	54.80	0.41	-68.40	0.41	-68.40	0.67	54.80
12650	0.63	52.60	0.45	-71.00	0.45	-71.00	0.63	52.60
12700	0.59	50.60	0.48	-74.20	0.48	-74.20	0.59	50.60
12750	0.55	48.60	0.52	-77.40	0.52	-77.40	0.55	48.60
12800	0.51	48.30	0.55	-81.40	0.55	-81.40	0.51	48.30
12850	0.46	47.90	0.58	-85.50	0.58	-85.50	0.46	47.90
12900	0.42	50.40	0.60	-89.70	0.60	-89.70	0.42	50.40
12950	0.39	52.90	0.63	-93.80	0.63	-93.80	0.39	52.90
13000	0.36	58.80	0.64	-98.30	0.64	-98.30	0.36	58.80
13050	0.33	64.70	0.65	-102.80	0.65	-102.80	0.33	64.70
13100	0.33	71.80	0.65	-107.10	0.65	-107.10	0.33	71.80
13150	0.34	79.00	0.65	-111.30	0.65	-111.30	0.34	79.00
13200	0.36	83.80	0.64	-115.30	0.64	-115.30	0.36	83.80
13250	0.39	88.50	0.63	-119.40	0.63	-119.40	0.39	88.50
13300	0.42	92.00	0.62	-123.70	0.62	-123.70	0.42	92.00
13350	0.45	95.50	0.60	-127.90	0.60	-127.90	0.45	95.50
13400	0.50	93.10	0.57	-131.40	0.57	-131.40	0.50	93.10
13450	0.55	90.70	0.55	-134.80	0.55	-134.80	0.55	90.70
13500	0.58	89.50	0.52	-137.90	0.52	-137.90	0.58	89.50
13550	0.62	88.20	0.49	-140.90	0.49	-140.90	0.62	88.20
13600	0.65	85.70	0.46	-143.50	0.46	-143.50	0.65	85.70
13650	0.68	83.10	0.44	-146.10	0.44	-146.10	0.68	83.10
13700	0.70	80.70	0.40	-148.10	0.40	-148.10	0.70	80.70
13750	0.72	78.30	0.37	-150.00	0.37	-150.00	0.72	78.30
13800	0.74	75.30	0.34	-151.00	0.34	-151.00	0.74	75.30
13850	0.76	72.20	0.31	-152.00	0.31	-152.00	0.76	72.20
13900	0.78	69.20	0.28	-151.70	0.28	-151.70	0.78	69.20
13950	0.80	66.20	0.25	-151.30	0.25	-151.30	0.80	66.20
14000	0.81	62.90	0.22	-149.00	0.22	-149.00	0.81	62.90
14050	0.82	59.60	0.19	-146.70	0.19	-146.70	0.82	59.60
14100	0.83	56.60	0.17	-140.10	0.17	-140.10	0.83	56.60
14150	0.84	53.50	0.15	-133.50	0.15	-133.50	0.84	53.50
14200	0.85	50.70	0.14	-123.20	0.14	-123.20	0.85	50.70
14250	0.86	47.90	0.13	-112.90	0.13	-112.90	0.86	47.90
14300	0.86	44.60	0.14	-102.50	0.14	-102.50	0.86	44.60
14350	0.86	41.20	0.14	-92.10	0.14	-92.10	0.86	41.20
14400	0.87	39.10	0.16	-85.30	0.16	-85.30	0.87	39.10
14450	0.87	37.00	0.17	-78.60	0.17	-78.60	0.87	37.00
14500	0.87	34.40	0.19	-75.50	0.19	-75.50	0.87	34.40
14550	0.86	31.70	0.21	-72.40	0.21	-72.40	0.86	31.70
14600	0.87	29.90	0.24	-71.00	0.24	-71.00	0.87	29.90
14650	0.87	28.00	0.26	-69.60	0.26	-69.60	0.87	28.00
14700	0.86	25.90	0.28	-69.60	0.28	-69.60	0.86	25.90
14750	0.85	23.80	0.30	-69.50	0.30	-69.50	0.85	23.80
14800	0.85	21.80	0.32	-70.10	0.32	-70.10	0.85	21.80
14850	0.86	19.80	0.34	-70.60	0.34	-70.60	0.86	19.80
14900	0.84	18.90	0.36	-70.90	0.36	-70.90	0.84	18.90
14950	0.83	18.10	0.38	-71.20	0.38	-71.20	0.83	18.10
15000	0.83	15.60	0.39	-72.70	0.39	-72.70	0.83	15.60
15050	0.82	13.10	0.41	-74.30	0.41	-74.30	0.82	13.10
15100	0.81	12.50	0.43	-75.00	0.43	-75.00	0.81	12.50
15150	0.79	11.80	0.44	-75.80	0.44	-75.80	0.79	11.80
15200	0.78	10.40	0.46	-77.10	0.46	-77.10	0.78	10.40
15250	0.77	9.10	0.47	-78.50	0.47	-78.50	0.77	9.10
15300	0.76	7.60	0.48	-80.40	0.48	-80.40	0.76	7.60
15350	0.75	6.10	0.49	-82.30	0.49	-82.30	0.75	6.10
15400	0.73	5.70	0.49	-83.20	0.49	-83.20	0.73	5.70
15450	0.71	5.30	0.49	-84.10	0.49	-84.10	0.71	5.30
15500	0.72	5.80	0.49	-85.00	0.49	-85.00	0.72	5.80
15550	0.73	6.40	0.50	-86.00	0.50	-86.00	0.73	6.40
15600	0.73	5.70	0.50	-85.80	0.50	-85.80	0.73	5.70
15650	0.73	5.00	0.50	-85.60	0.50	-85.60	0.73	5.00
15700	0.74	4.30	0.51	-85.80	0.51	-85.80	0.74	4.30
15750	0.74	3.60	0.52	-86.00	0.52	-86.00	0.74	3.60
15800	0.74	3.00	0.53	-85.80	0.53	-85.80	0.74	3.00
15850	0.73	2.40	0.54	-85.60	0.54	-85.60	0.73	2.40
15900	0.73	1.50	0.55	-86.10	0.55	-86.10	0.73	1.50
15950	0.73	0.60	0.56	-86.50	0.56	-86.50	0.73	0.60
16000	0.72	0.40	0.57	-86.80	0.57	-86.80	0.72	0.40
16050	0.71	0.30	0.59	-87.00	0.59	-87.00	0.71	0.30
16100	0.69	-0.40	0.60	-88.20	0.60	-88.20	0.69	-0.40
16150	0.68	-1.00	0.61	-89.40	0.61	-89.40	0.68	-1.00
16200	0.66	-1.20	0.62	-90.50	0.62	-90.50	0.66	-1.20
16250	0.64	-1.50	0.63	-91.60	0.63	-91.60	0.64	-1.50
16300	0.62	-1.00	0.63	-92.90	0.63	-92.90	0.62	-1.00
16350	0.60	-0.40	0.64	-94.30	0.64	-94.30	0.60	-0.40
16400	0.60	0.80	0.63	-94.80	0.63	-94.80	0.60	0.80
16450	0.60	2.10	0.62	-95.30	0.62	-95.30	0.60	2.10
16500	0.61	0.40	0.63	-94.30	0.63	-94.30	0.61	0.40
16550	0.61	-1.20	0.63	-93.30	0.63	-93.30	0.61	-1.20
16600	0.61	-3.10	0.65	-93.30	0.65	-93.30	0.61	-3.10
16650	0.61	-5.00	0.68	-93.40	0.68	-93.40	0.61	-5.00
16700	0.61	-7.40	0.69	-94.20	0.69	-94.20	0.61	-7.40
16750	0.60	-9.90	0.71	-95.00	0.71	-95.00	0.60	-9.90
16800	0.58	-11.90	0.73	-96.00	0.73	-96.00	0.58	-11.90
16850	0.57	-14.00	0.74	-97.00	0.74	-97.00	0.57	-14.00
16900	0.56	-15.80	0.75	-98.00	0.75	-98.00	0.56	-15.80
16950	0.56	-17.70	0.76	-99.00	0.76	-99.00	0.56	-17.70
17000	0.54	-19.20	0.77	-100.00	0.77	-100.00	0.54	-19.20
17050	0.53	-20.70	0.79	-101.10	0.79	-101.10	0.53	-20.70
17100	0.52	-21.40	0.79	-102.30	0.79	-102.30	0.52	-21.40
17150	0.51	-22.00	0.80	-103.50	0.80	-103.50	0.51	-22.00
17200	0.50	-22.70	0.81	-104.40	0.81	-104.40	0.50	-22.70
17250	0.48	-23.40	0.82	-105.30	0.82	-105.30	0.48	-23.40
17300	0.47	-23.50	0.83	-106.40	0.83	-106.40	0.47	-23.50
17350	0.46	-23.60	0.84	-107.40	0.84	-107.40	0.46	-23.60
17400	0.45	-24.40	0.85	-108.40	0.85	-108.40	0.45	-24.40
17450	0.44	-25.30	0.86	-109.40	0.86	-109.40	0.44	-25.30
17500	0.42	-25.00	0.87	-110.70	0.87	-110.70	0.42	-25.00
17550	0.41	-24.60	0.87	-112.10	0.87	-112.10	0.41	-24.60
17600	0.39	-25.20	0.88	-113.40	0.88	-113.40	0.39	-25.20
17650	0.38	-25.70	0.88	-114.80	0.88	-114.80	0.38	-25.70
17700	0.36	-25.40	0.89	-116.00	0.89	-116.00	0.36	-25.40
17750	0.34	-25.20	0.90	-117.10	0.90	-117.10	0.34	-25.20
17800	0.33	-27.00	0.90	-118.60	0.90	-118.60	0.33	-27.00
17850	0.32	-28.70	0.90	-120.00	0.90	-120.00	0.32	-28.70
17900	0.30	-27.80	0.90	-121.00	0.90	-121.00	0.30	-27.80
17950	0.28	-26.90	0.90	-122.10	0.90	-122.10	0.28	-26.90
18000	0.27	-28.70	0.90	-123.30	0.90	-123.30	0.27	-28.70
18050	0.27	-30.50	0.90	-124.60	0.90	-124.60	0.27	-30.50
18100	0.26	-31.80	0.90	-125.80	0.90	-125.80	0.26	-31.80
18150	0.25	-33.20	0.90	-126.90	0.90	-126.90	0.25	-33.20
18200	0.25	-32.90	0.90	-128.00	0.90	-128.00	0.25	-32.90
18250	0.25	-32.60	0.90	-129.10	0.90	-129.10	0.25	-32.60
18300	0.25	-33.50	0.90	-130.30	0.90	-130.30	0.25	-33.50
18350	0.25	-34.40	0.90	-131.50	0.90	-131.50	0.25	-34.40
18400	0.25	-32.00	0.89	-132.50	0.89	-132.50	0.25	-32.00
18450	0.26	-29.60	0.89	-133.50	0.89	-133.50	0.26	-29.60
18500	0.26	-28.70	0.89	-134.60	0.89	-134.60	0.26	-28.70
18550	0.26	-27.70	0.88	-135.70	0.88	-135.70	0.26	-27.70
18600	0.26	-23.90	0.88	-136.70	0.88	-136.70	0.26	-23.90
18650	0.26	-20.10	0.87	-137.70	0.87	-137.70	0.26	-20.10
