#	mhz	s	ma	r	50			
50	0.09	57.80	0.96	-3.40	0.96	-3.40	0.09	57.80
100	0.17	61.10	0.94	-7.70	0.94	-7.70	0.17	61.10
150	0.24	64.30	0.92	-12.00	0.92	-12.00	0.24	64.30
200	0.31	62.20	0.90	-16.10	0.90	-16.10	0.31	62.20
250	0.37	60.00	0.88	-20.20	0.88	-20.20	0.37	60.00
300	0.43	56.90	0.85	-24.10	0.85	-24.10	0.43	56.90
350	0.48	53.80	0.82	-28.00	0.82	-28.00	0.48	53.80
400	0.54	50.60	0.79	-31.40	0.79	-31.40	0.54	50.60
450	0.59	47.50	0.75	-34.80	0.75	-34.80	0.59	47.50
500	0.66	46.50	0.71	-39.70	0.71	-39.70	0.66	46.50
550	0.74	45.60	0.66	-44.70	0.66	-44.70	0.74	45.60
600	0.76	43.00	0.62	-47.30	0.62	-47.30	0.76	43.00
650	0.78	40.50	0.59	-50.00	0.59	-50.00	0.78	40.50
700	0.81	38.70	0.56	-52.70	0.56	-52.70	0.81	38.70
750	0.84	36.80	0.52	-55.40	0.52	-55.40	0.84	36.80
800	0.85	34.20	0.49	-57.50	0.49	-57.50	0.85	34.20
850	0.86	31.60	0.46	-59.60	0.46	-59.60	0.86	31.60
900	0.89	29.70	0.43	-61.50	0.43	-61.50	0.89	29.70
950	0.92	27.80	0.40	-63.50	0.40	-63.50	0.92	27.80
1000	0.92	25.80	0.37	-65.30	0.37	-65.30	0.92	25.80
1050	0.93	23.90	0.34	-67.10	0.34	-67.10	0.93	23.90
1100	0.94	22.20	0.31	-69.00	0.31	-69.00	0.94	22.20
1150	0.96	20.40	0.28	-70.90	0.28	-70.90	0.96	20.40
1200	0.96	19.10	0.26	-72.00	0.26	-72.00	0.96	19.10
1250	0.97	17.70	0.23	-73.10	0.23	-73.10	0.97	17.70
1300	0.98	15.80	0.21	-74.70	0.21	-74.70	0.98	15.80
1350	0.98	13.80	0.19	-76.20	0.19	-76.20	0.98	13.80
1400	0.99	12.60	0.16	-76.80	0.16	-76.80	0.99	12.60
1450	0.99	11.50	0.14	-77.40	0.14	-77.40	0.99	11.50
1500	0.99	9.70	0.12	-78.10	0.12	-78.10	0.99	9.70
1550	0.99	7.90	0.10	-78.90	0.10	-78.90	0.99	7.90
1600	0.99	6.40	0.08	-78.10	0.08	-78.10	0.99	6.40
1650	1.00	4.90	0.06	-77.30	0.06	-77.30	1.00	4.90
1700	0.99	3.60	0.04	-69.10	0.04	-69.10	0.99	3.60
1750	0.99	2.30	0.02	-60.90	0.02	-60.90	0.99	2.30
1800	1.00	0.80	0.02	-1.20	0.02	-1.20	1.00	0.80
1850	1.00	-0.70	0.02	58.60	0.02	58.60	1.00	-0.70
1900	0.99	-2.00	0.04	66.80	0.04	66.80	0.99	-2.00
1950	0.99	-3.30	0.05	74.90	0.05	74.90	0.99	-3.30
2000	0.99	-4.70	0.07	75.90	0.07	75.90	0.99	-4.70
2050	0.98	-6.00	0.09	76.80	0.09	76.80	0.98	-6.00
2100	0.98	-7.10	0.11	76.70	0.11	76.70	0.98	-7.10
2150	0.98	-8.10	0.12	76.60	0.12	76.60	0.98	-8.10
2200	0.98	-9.60	0.14	76.00	0.14	76.00	0.98	-9.60
2250	0.97	-11.10	0.15	75.30	0.15	75.30	0.97	-11.10
2300	0.97	-12.00	0.17	74.90	0.17	74.90	0.97	-12.00
2350	0.97	-12.80	0.19	74.50	0.19	74.50	0.97	-12.80
2400	0.97	-14.30	0.20	73.50	0.20	73.50	0.97	-14.30
2450	0.96	-15.70	0.22	72.50	0.22	72.50	0.96	-15.70
2500	0.96	-16.70	0.23	71.70	0.23	71.70	0.96	-16.70
2550	0.96	-17.70	0.24	70.90	0.24	70.90	0.96	-17.70
2600	0.95	-18.60	0.26	70.30	0.26	70.30	0.95	-18.60
2650	0.95	-19.40	0.27	69.60	0.27	69.60	0.95	-19.40
2700	0.95	-20.40	0.28	68.80	0.28	68.80	0.95	-20.40
2750	0.94	-21.40	0.30	67.90	0.30	67.90	0.94	-21.40
2800	0.94	-22.30	0.31	67.20	0.31	67.20	0.94	-22.30
2850	0.93	-23.30	0.32	66.60	0.32	66.60	0.93	-23.30
2900	0.93	-24.10	0.34	65.60	0.34	65.60	0.93	-24.10
2950	0.93	-25.00	0.35	64.60	0.35	64.60	0.93	-25.00
3000	0.92	-25.70	0.36	63.90	0.36	63.90	0.92	-25.70
3050	0.91	-26.40	0.37	63.20	0.37	63.20	0.91	-26.40
3100	0.91	-27.40	0.38	62.50	0.38	62.50	0.91	-27.40
3150	0.90	-28.30	0.39	61.90	0.39	61.90	0.90	-28.30
3200	0.90	-28.80	0.40	61.30	0.40	61.30	0.90	-28.80
3250	0.89	-29.30	0.41	60.70	0.41	60.70	0.89	-29.30
3300	0.89	-29.90	0.42	59.90	0.42	59.90	0.89	-29.90
3350	0.89	-30.50	0.43	59.10	0.43	59.10	0.89	-30.50
3400	0.88	-31.30	0.44	58.60	0.44	58.60	0.88	-31.30
3450	0.88	-32.20	0.45	58.10	0.45	58.10	0.88	-32.20
3500	0.87	-32.90	0.46	57.40	0.46	57.40	0.87	-32.90
3550	0.86	-33.60	0.47	56.70	0.47	56.70	0.86	-33.60
3600	0.85	-34.20	0.48	56.10	0.48	56.10	0.85	-34.20
3650	0.85	-34.70	0.49	55.50	0.49	55.50	0.85	-34.70
3700	0.84	-35.60	0.50	54.90	0.50	54.90	0.84	-35.60
3750	0.84	-36.60	0.51	54.20	0.51	54.20	0.84	-36.60
3800	0.83	-37.10	0.52	53.70	0.52	53.70	0.83	-37.10
3850	0.83	-37.70	0.53	53.20	0.53	53.20	0.83	-37.70
3900	0.82	-38.60	0.54	52.20	0.54	52.20	0.82	-38.60
3950	0.81	-39.60	0.54	51.30	0.54	51.30	0.81	-39.60
4000	0.81	-40.30	0.55	50.80	0.55	50.80	0.81	-40.30
4050	0.80	-40.90	0.56	50.30	0.56	50.30	0.80	-40.90
4100	0.79	-41.60	0.56	49.70	0.56	49.70	0.79	-41.60
4150	0.78	-42.20	0.57	49.10	0.57	49.10	0.78	-42.20
4200	0.79	-43.10	0.58	48.40	0.58	48.40	0.79	-43.10
4250	0.79	-44.00	0.59	47.80	0.59	47.80	0.79	-44.00
4300	0.77	-44.60	0.59	46.90	0.59	46.90	0.77	-44.60
4350	0.76	-45.30	0.60	46.10	0.60	46.10	0.76	-45.30
4400	0.75	-45.30	0.60	44.60	0.60	44.60	0.75	-45.30
4450	0.74	-45.20	0.59	43.00	0.59	43.00	0.74	-45.20
4500	0.75	-45.30	0.59	44.40	0.59	44.40	0.75	-45.30
4550	0.76	-45.50	0.58	45.70	0.58	45.70	0.76	-45.50
4600	0.76	-47.00	0.60	45.30	0.60	45.30	0.76	-47.00
4650	0.76	-48.50	0.62	45.00	0.62	45.00	0.76	-48.50
4700	0.75	-49.30	0.63	44.50	0.63	44.50	0.75	-49.30
4750	0.74	-50.20	0.63	44.00	0.63	44.00	0.74	-50.20
4800	0.73	-51.10	0.64	43.40	0.64	43.40	0.73	-51.10
4850	0.73	-52.00	0.64	42.80	0.64	42.80	0.73	-52.00
4900	0.73	-52.50	0.65	42.40	0.65	42.40	0.73	-52.50
4950	0.73	-53.00	0.66	42.00	0.66	42.00	0.73	-53.00
5000	0.72	-54.10	0.66	41.10	0.66	41.10	0.72	-54.10
5050	0.71	-55.30	0.67	40.20	0.67	40.20	0.71	-55.30
5100	0.70	-55.70	0.67	39.80	0.67	39.80	0.70	-55.70
5150	0.69	-56.10	0.68	39.50	0.68	39.50	0.69	-56.10
5200	0.68	-56.10	0.68	39.30	0.68	39.30	0.68	-56.10
5250	0.68	-56.10	0.69	39.20	0.69	39.20	0.68	-56.10
5300	0.68	-57.30	0.70	38.20	0.70	38.20	0.68	-57.30
5350	0.69	-58.50	0.71	37.10	0.71	37.10	0.69	-58.50
5400	0.67	-58.60	0.71	36.70	0.71	36.70	0.67	-58.60
5450	0.66	-58.80	0.71	36.20	0.71	36.20	0.66	-58.80
5500	0.66	-59.20	0.71	35.60	0.71	35.60	0.66	-59.20
5550	0.66	-59.60	0.72	35.00	0.72	35.00	0.66	-59.60
5600	0.65	-60.00	0.73	34.40	0.73	34.40	0.65	-60.00
5650	0.63	-60.40	0.73	33.80	0.73	33.80	0.63	-60.40
5700	0.63	-60.50	0.73	33.40	0.73	33.40	0.63	-60.50
5750	0.63	-60.70	0.74	33.00	0.74	33.00	0.63	-60.70
5800	0.62	-60.70	0.74	32.40	0.74	32.40	0.62	-60.70
5850	0.61	-60.80	0.74	31.80	0.74	31.80	0.61	-60.80
5900	0.61	-60.60	0.75	31.40	0.75	31.40	0.61	-60.60
5950	0.60	-60.40	0.75	31.00	0.75	31.00	0.60	-60.40
6000	0.59	-61.70	0.76	29.80	0.76	29.80	0.59	-61.70
6050	0.58	-63.00	0.77	28.50	0.77	28.50	0.58	-63.00
6100	0.57	-62.90	0.78	28.20	0.78	28.20	0.57	-62.90
6150	0.56	-62.80	0.78	27.90	0.78	27.90	0.56	-62.80
6200	0.55	-62.60	0.79	27.10	0.79	27.10	0.55	-62.60
6250	0.55	-62.40	0.79	26.20	0.79	26.20	0.55	-62.40
6300	0.54	-62.50	0.80	25.60	0.80	25.60	0.54	-62.50
6350	0.53	-62.50	0.80	24.90	0.80	24.90	0.53	-62.50
6400	0.52	-62.10	0.80	24.00	0.80	24.00	0.52	-62.10
6450	0.51	-61.70	0.81	23.20	0.81	23.20	0.51	-61.70
6500	0.50	-61.70	0.81	22.30	0.81	22.30	0.50	-61.70
6550	0.48	-61.60	0.81	21.40	0.81	21.40	0.48	-61.60
6600	0.47	-61.30	0.82	20.30	0.82	20.30	0.47	-61.30
6650	0.46	-60.90	0.82	19.20	0.82	19.20	0.46	-60.90
6700	0.44	-60.30	0.83	18.20	0.83	18.20	0.44	-60.30
6750	0.42	-59.70	0.83	17.20	0.83	17.20	0.42	-59.70
6800	0.40	-59.00	0.83	15.70	0.83	15.70	0.40	-59.00
6850	0.38	-58.40	0.84	14.10	0.84	14.10	0.38	-58.40
6900	0.35	-56.60	0.84	12.10	0.84	12.10	0.35	-56.60
6950	0.33	-54.90	0.83	10.10	0.83	10.10	0.33	-54.90
7000	0.30	-49.70	0.83	7.50	0.83	7.50	0.30	-49.70
7050	0.26	-44.40	0.82	4.90	0.82	4.90	0.26	-44.40
7100	0.25	-32.40	0.80	1.40	0.80	1.40	0.25	-32.40
7150	0.24	-20.40	0.77	-2.00	0.77	-2.00	0.24	-20.40
7200	0.28	-8.10	0.72	-5.80	0.72	-5.80	0.28	-8.10
7250	0.33	4.20	0.66	-9.70	0.66	-9.70	0.33	4.20
7300	0.43	4.30	0.57	-10.70	0.57	-10.70	0.43	4.30
7350	0.52	4.30	0.49	-11.80	0.49	-11.80	0.52	4.30
7400	0.59	-1.00	0.42	-3.40	0.42	-3.40	0.59	-1.00
7450	0.66	-6.30	0.35	5.10	0.35	5.10	0.66	-6.30
7500	0.69	-12.20	0.37	16.30	0.37	16.30	0.69	-12.20
7550	0.73	-18.00	0.39	27.60	0.39	27.60	0.73	-18.00
7600	0.73	-22.70	0.43	31.20	0.43	31.20	0.73	-22.70
7650	0.73	-27.30	0.48	34.80	0.48	34.80	0.73	-27.30
7700	0.72	-30.50	0.51	35.40	0.51	35.40	0.72	-30.50
7750	0.71	-33.80	0.55	36.00	0.55	36.00	0.71	-33.80
7800	0.70	-36.30	0.58	35.50	0.58	35.50	0.70	-36.30
7850	0.69	-38.90	0.61	35.10	0.61	35.10	0.69	-38.90
7900	0.68	-41.40	0.63	34.30	0.63	34.30	0.68	-41.40
7950	0.68	-43.90	0.65	33.50	0.65	33.50	0.68	-43.90
8000	0.66	-45.90	0.67	32.60	0.67	32.60	0.66	-45.90
8050	0.65	-47.90	0.68	31.80	0.68	31.80	0.65	-47.90
8100	0.64	-49.30	0.69	31.40	0.69	31.40	0.64	-49.30
8150	0.62	-50.60	0.70	31.00	0.70	31.00	0.62	-50.60
8200	0.62	-52.10	0.72	30.20	0.72	30.20	0.62	-52.10
8250	0.61	-53.60	0.73	29.30	0.73	29.30	0.61	-53.60
8300	0.60	-54.70	0.74	28.90	0.74	28.90	0.60	-54.70
8350	0.59	-55.80	0.75	28.50	0.75	28.50	0.59	-55.80
8400	0.58	-56.90	0.76	27.70	0.76	27.70	0.58	-56.90
8450	0.57	-57.90	0.76	26.90	0.76	26.90	0.57	-57.90
8500	0.57	-58.80	0.77	26.50	0.77	26.50	0.57	-58.80
8550	0.56	-59.70	0.78	26.00	0.78	26.00	0.56	-59.70
8600	0.55	-60.40	0.79	25.30	0.79	25.30	0.55	-60.40
8650	0.55	-61.10	0.80	24.60	0.80	24.60	0.55	-61.10
8700	0.54	-61.70	0.80	24.00	0.80	24.00	0.54	-61.70
8750	0.53	-62.30	0.81	23.50	0.81	23.50	0.53	-62.30
8800	0.52	-62.70	0.81	23.20	0.81	23.20	0.52	-62.70
8850	0.51	-63.10	0.81	23.00	0.81	23.00	0.51	-63.10
8900	0.51	-63.30	0.82	22.50	0.82	22.50	0.51	-63.30
8950	0.50	-63.50	0.82	21.90	0.82	21.90	0.50	-63.50
9000	0.50	-63.80	0.82	21.50	0.82	21.50	0.50	-63.80
9050	0.49	-64.00	0.82	21.10	0.82	21.10	0.49	-64.00
9100	0.48	-64.50	0.83	20.70	0.83	20.70	0.48	-64.50
9150	0.47	-65.00	0.83	20.30	0.83	20.30	0.47	-65.00
9200	0.47	-65.90	0.84	20.20	0.84	20.20	0.47	-65.90
9250	0.46	-66.70	0.85	20.00	0.85	20.00	0.46	-66.70
9300	0.45	-66.60	0.85	19.40	0.85	19.40	0.45	-66.60
9350	0.45	-66.40	0.86	18.90	0.86	18.90	0.45	-66.40
9400	0.44	-67.00	0.86	18.70	0.86	18.70	0.44	-67.00
9450	0.44	-67.60	0.86	18.60	0.86	18.60	0.44	-67.60
9500	0.43	-67.50	0.86	18.00	0.86	18.00	0.43	-67.50
9550	0.42	-67.50	0.87	17.40	0.87	17.40	0.42	-67.50
9600	0.42	-67.60	0.87	16.90	0.87	16.90	0.42	-67.60
9650	0.41	-67.80	0.88	16.40	0.88	16.40	0.41	-67.80
9700	0.40	-68.20	0.88	16.10	0.88	16.10	0.40	-68.20
9750	0.40	-68.60	0.88	15.70	0.88	15.70	0.40	-68.60
9800	0.39	-68.00	0.88	15.20	0.88	15.20	0.39	-68.00
9850	0.39	-67.50	0.89	14.60	0.89	14.60	0.39	-67.50
9900	0.38	-67.50	0.88	14.40	0.88	14.40	0.38	-67.50
9950	0.37	-67.40	0.88	14.10	0.88	14.10	0.37	-67.40
10000	0.37	-67.10	0.88	13.70	0.88	13.70	0.37	-67.10
10050	0.36	-66.90	0.89	13.40	0.89	13.40	0.36	-66.90
10100	0.36	-66.50	0.88	13.20	0.88	13.20	0.36	-66.50
10150	0.36	-66.10	0.88	13.00	0.88	13.00	0.36	-66.10
10200	0.35	-66.60	0.89	13.00	0.89	13.00	0.35	-66.60
10250	0.35	-67.10	0.89	13.10	0.89	13.10	0.35	-67.10
10300	0.35	-67.80	0.89	12.90	0.89	12.90	0.35	-67.80
10350	0.34	-68.60	0.89	12.80	0.89	12.80	0.34	-68.60
10400	0.33	-70.00	0.90	12.30	0.90	12.30	0.33	-70.00
10450	0.32	-71.50	0.91	11.80	0.91	11.80	0.32	-71.50
10500	0.32	-71.30	0.91	11.60	0.91	11.60	0.32	-71.30
10550	0.32	-71.00	0.92	11.30	0.92	11.30	0.32	-71.00
10600	0.31	-72.60	0.92	10.80	0.92	10.80	0.31	-72.60
10650	0.30	-74.10	0.92	10.30	0.92	10.30	0.30	-74.10
10700	0.30	-73.90	0.92	10.00	0.92	10.00	0.30	-73.90
10750	0.29	-73.80	0.93	9.80	0.93	9.80	0.29	-73.80
10800	0.29	-75.00	0.93	9.60	0.93	9.60	0.29	-75.00
10850	0.29	-76.30	0.93	9.40	0.93	9.40	0.29	-76.30
10900	0.28	-77.30	0.93	8.80	0.93	8.80	0.28	-77.30
10950	0.28	-78.40	0.93	8.20	0.93	8.20	0.28	-78.40
11000	0.27	-78.90	0.93	8.00	0.93	8.00	0.27	-78.90
11050	0.27	-79.50	0.93	7.80	0.93	7.80	0.27	-79.50
11100	0.27	-80.50	0.93	7.50	0.93	7.50	0.27	-80.50
11150	0.27	-81.60	0.93	7.10	0.93	7.10	0.27	-81.60
11200	0.27	-81.00	0.93	6.80	0.93	6.80	0.27	-81.00
11250	0.27	-80.50	0.93	6.50	0.93	6.50	0.27	-80.50
11300	0.26	-81.40	0.93	6.10	0.93	6.10	0.26	-81.40
11350	0.26	-82.40	0.93	5.60	0.93	5.60	0.26	-82.40
11400	0.26	-81.30	0.93	5.60	0.93	5.60	0.26	-81.30
11450	0.26	-80.30	0.93	5.50	0.93	5.50	0.26	-80.30
11500	0.25	-81.20	0.93	5.00	0.93	5.00	0.25	-81.20
11550	0.24	-82.10	0.93	4.40	0.93	4.40	0.24	-82.10
11600	0.24	-81.70	0.94	4.20	0.94	4.20	0.24	-81.70
11650	0.24	-81.20	0.94	3.90	0.94	3.90	0.24	-81.20
11700	0.23	-81.20	0.94	3.50	0.94	3.50	0.23	-81.20
11750	0.23	-81.20	0.94	3.00	0.94	3.00	0.23	-81.20
11800	0.22	-81.30	0.94	2.70	0.94	2.70	0.22	-81.30
11850	0.21	-81.40	0.94	2.40	0.94	2.40	0.21	-81.40
11900	0.20	-82.40	0.94	2.00	0.94	2.00	0.20	-82.40
11950	0.20	-83.50	0.94	1.60	0.94	1.60	0.20	-83.50
12000	0.19	-84.20	0.94	1.00	0.94	1.00	0.19	-84.20
12050	0.19	-84.90	0.94	0.40	0.94	0.40	0.19	-84.90
12100	0.18	-85.60	0.94	-0.10	0.94	-0.10	0.18	-85.60
12150	0.18	-86.30	0.93	-0.60	0.93	-0.60	0.18	-86.30
12200	0.17	-86.50	0.93	-1.10	0.93	-1.10	0.17	-86.50
12250	0.17	-86.70	0.93	-1.50	0.93	-1.50	0.17	-86.70
12300	0.16	-85.20	0.93	-2.20	0.93	-2.20	0.16	-85.20
12350	0.15	-83.70	0.92	-2.80	0.92	-2.80	0.15	-83.70
12400	0.15	-83.30	0.92	-3.30	0.92	-3.30	0.15	-83.30
12450	0.15	-82.80	0.91	-3.90	0.91	-3.90	0.15	-82.80
12500	0.14	-77.80	0.91	-4.60	0.91	-4.60	0.14	-77.80
12550	0.13	-72.80	0.91	-5.30	0.91	-5.30	0.13	-72.80
12600	0.13	-68.00	0.89	-6.10	0.89	-6.10	0.13	-68.00
12650	0.13	-63.10	0.88	-6.80	0.88	-6.80	0.13	-63.10
12700	0.14	-52.90	0.87	-7.70	0.87	-7.70	0.14	-52.90
12750	0.14	-42.70	0.86	-8.60	0.86	-8.60	0.14	-42.70
12800	0.16	-34.80	0.83	-9.30	0.83	-9.30	0.16	-34.80
12850	0.18	-26.80	0.81	-10.10	0.81	-10.10	0.18	-26.80
12900	0.22	-23.70	0.78	-10.20	0.78	-10.20	0.22	-23.70
12950	0.25	-20.60	0.75	-10.30	0.75	-10.30	0.25	-20.60
13000	0.29	-22.50	0.71	-8.40	0.71	-8.40	0.29	-22.50
13050	0.33	-24.50	0.68	-6.50	0.68	-6.50	0.33	-24.50
13100	0.37	-28.80	0.67	-3.10	0.67	-3.10	0.37	-28.80
13150	0.40	-33.10	0.65	0.40	0.65	0.40	0.40	-33.10
13200	0.41	-38.00	0.67	3.50	0.67	3.50	0.41	-38.00
13250	0.42	-42.90	0.69	6.60	0.69	6.60	0.42	-42.90
13300	0.41	-45.10	0.71	7.60	0.71	7.60	0.41	-45.10
13350	0.39	-47.30	0.74	8.50	0.74	8.50	0.39	-47.30
13400	0.40	-51.80	0.76	8.40	0.76	8.40	0.40	-51.80
13450	0.40	-56.40	0.79	8.30	0.79	8.30	0.40	-56.40
13500	0.38	-58.40	0.80	8.10	0.80	8.10	0.38	-58.40
13550	0.37	-60.50	0.82	7.80	0.82	7.80	0.37	-60.50
13600	0.36	-62.50	0.83	7.30	0.83	7.30	0.36	-62.50
13650	0.35	-64.50	0.84	6.80	0.84	6.80	0.35	-64.50
13700	0.35	-65.90	0.85	6.30	0.85	6.30	0.35	-65.90
13750	0.34	-67.30	0.86	5.80	0.86	5.80	0.34	-67.30
13800	0.34	-68.20	0.87	5.40	0.87	5.40	0.34	-68.20
13850	0.33	-69.10	0.87	5.00	0.87	5.00	0.33	-69.10
13900	0.33	-69.90	0.88	4.60	0.88	4.60	0.33	-69.90
13950	0.33	-70.70	0.88	4.30	0.88	4.30	0.33	-70.70
14000	0.32	-70.60	0.89	3.80	0.89	3.80	0.32	-70.60
14050	0.31	-70.40	0.89	3.40	0.89	3.40	0.31	-70.40
14100	0.31	-71.10	0.90	3.00	0.90	3.00	0.31	-71.10
14150	0.32	-71.70	0.90	2.60	0.90	2.60	0.32	-71.70
14200	0.31	-71.10	0.90	2.20	0.90	2.20	0.31	-71.10
14250	0.31	-70.50	0.90	1.80	0.90	1.80	0.31	-70.50
14300	0.30	-70.50	0.91	1.50	0.91	1.50	0.30	-70.50
14350	0.30	-70.50	0.91	1.20	0.91	1.20	0.30	-70.50
14400	0.30	-70.10	0.91	0.70	0.91	0.70	0.30	-70.10
14450	0.29	-69.60	0.92	0.10	0.92	0.10	0.29	-69.60
14500	0.29	-68.80	0.92	0.00	0.92	0.00	0.29	-68.80
14550	0.28	-68.00	0.92	-0.10	0.92	-0.10	0.28	-68.00
14600	0.28	-67.20	0.92	-0.50	0.92	-0.50	0.28	-67.20
14650	0.27	-66.50	0.92	-0.90	0.92	-0.90	0.27	-66.50
14700	0.27	-66.50	0.93	-1.30	0.93	-1.30	0.27	-66.50
14750	0.26	-66.60	0.93	-1.70	0.93	-1.70	0.26	-66.60
14800	0.25	-65.60	0.93	-2.00	0.93	-2.00	0.25	-65.60
14850	0.25	-64.70	0.93	-2.40	0.93	-2.40	0.25	-64.70
14900	0.24	-64.50	0.93	-2.70	0.93	-2.70	0.24	-64.50
14950	0.24	-64.30	0.94	-2.90	0.94	-2.90	0.24	-64.30
15000	0.23	-64.40	0.94	-3.30	0.94	-3.30	0.23	-64.40
15050	0.23	-64.40	0.93	-3.60	0.93	-3.60	0.23	-64.40
15100	0.23	-63.20	0.94	-3.80	0.94	-3.80	0.23	-63.20
15150	0.22	-62.00	0.94	-4.00	0.94	-4.00	0.22	-62.00
15200	0.22	-62.10	0.94	-4.10	0.94	-4.10	0.22	-62.10
15250	0.22	-62.20	0.95	-4.30	0.95	-4.30	0.22	-62.20
15300	0.22	-61.00	0.95	-4.80	0.95	-4.80	0.22	-61.00
15350	0.22	-59.70	0.94	-5.40	0.94	-5.40	0.22	-59.70
15400	0.22	-58.40	0.94	-5.50	0.94	-5.50	0.22	-58.40
15450	0.21	-57.10	0.94	-5.60	0.94	-5.60	0.21	-57.10
15500	0.21	-55.10	0.94	-6.00	0.94	-6.00	0.21	-55.10
15550	0.21	-53.00	0.95	-6.50	0.95	-6.50	0.21	-53.00
15600	0.21	-51.10	0.95	-6.60	0.95	-6.60	0.21	-51.10
15650	0.21	-49.30	0.95	-6.80	0.95	-6.80	0.21	-49.30
15700	0.21	-47.00	0.95	-7.20	0.95	-7.20	0.21	-47.00
15750	0.21	-44.70	0.94	-7.50	0.94	-7.50	0.21	-44.70
15800	0.20	-41.90	0.94	-7.60	0.94	-7.60	0.20	-41.90
15850	0.20	-39.20	0.94	-7.70	0.94	-7.70	0.20	-39.20
15900	0.20	-37.40	0.94	-7.90	0.94	-7.90	0.20	-37.40
15950	0.20	-35.60	0.94	-8.20	0.94	-8.20	0.20	-35.60
16000	0.19	-31.10	0.94	-8.40	0.94	-8.40	0.19	-31.10
16050	0.19	-26.70	0.95	-8.50	0.95	-8.50	0.19	-26.70
16100	0.18	-25.10	0.94	-8.90	0.94	-8.90	0.18	-25.10
16150	0.18	-23.60	0.94	-9.30	0.94	-9.30	0.18	-23.60
16200	0.17	-20.50	0.94	-9.40	0.94	-9.40	0.17	-20.50
16250	0.17	-17.50	0.94	-9.60	0.94	-9.60	0.17	-17.50
16300	0.17	-17.00	0.94	-9.80	0.94	-9.80	0.17	-17.00
16350	0.16	-16.50	0.94	-10.00	0.94	-10.00	0.16	-16.50
16400	0.15	-14.80	0.94	-10.10	0.94	-10.10	0.15	-14.80
16450	0.15	-13.10	0.94	-10.20	0.94	-10.20	0.15	-13.10
16500	0.14	-15.90	0.93	-10.10	0.93	-10.10	0.14	-15.90
16550	0.14	-18.70	0.93	-10.00	0.93	-10.00	0.14	-18.70
16600	0.13	-17.70	0.94	-10.20	0.94	-10.20	0.13	-17.70
16650	0.13	-16.60	0.94	-10.40	0.94	-10.40	0.13	-16.60
16700	0.12	-19.20	0.95	-10.50	0.95	-10.50	0.12	-19.20
16750	0.12	-21.70	0.95	-10.50	0.95	-10.50	0.12	-21.70
16800	0.12	-22.30	0.95	-10.70	0.95	-10.70	0.12	-22.30
16850	0.11	-22.90	0.95	-10.80	0.95	-10.80	0.11	-22.90
16900	0.11	-21.90	0.95	-10.90	0.95	-10.90	0.11	-21.90
16950	0.11	-20.90	0.95	-11.10	0.95	-11.10	0.11	-20.90
17000	0.10	-20.20	0.96	-11.40	0.96	-11.40	0.10	-20.20
17050	0.10	-19.50	0.96	-11.70	0.96	-11.70	0.10	-19.50
17100	0.10	-17.10	0.96	-12.00	0.96	-12.00	0.10	-17.10
17150	0.11	-14.80	0.96	-12.30	0.96	-12.30	0.11	-14.80
17200	0.10	-10.50	0.96	-12.40	0.96	-12.40	0.10	-10.50
17250	0.10	-6.10	0.95	-12.50	0.95	-12.50	0.10	-6.10
17300	0.10	-2.70	0.96	-12.80	0.96	-12.80	0.10	-2.70
17350	0.11	0.60	0.96	-13.10	0.96	-13.10	0.11	0.60
17400	0.10	4.90	0.96	-13.30	0.96	-13.30	0.10	4.90
17450	0.09	9.30	0.95	-13.50	0.95	-13.50	0.09	9.30
17500	0.10	12.30	0.95	-13.90	0.95	-13.90	0.10	12.30
17550	0.10	15.30	0.95	-14.30	0.95	-14.30	0.10	15.30
17600	0.10	21.10	0.95	-14.60	0.95	-14.60	0.10	21.10
17650	0.10	26.90	0.95	-15.00	0.95	-15.00	0.10	26.90
17700	0.10	31.10	0.95	-15.30	0.95	-15.30	0.10	31.10
17750	0.10	35.40	0.95	-15.60	0.95	-15.60	0.10	35.40
17800	0.10	36.70	0.95	-16.10	0.95	-16.10	0.10	36.70
17850	0.10	38.00	0.95	-16.50	0.95	-16.50	0.10	38.00
17900	0.10	42.10	0.94	-16.90	0.94	-16.90	0.10	42.10
17950	0.09	46.20	0.94	-17.20	0.94	-17.20	0.09	46.20
18000	0.10	45.60	0.94	-17.80	0.94	-17.80	0.10	45.60
18050	0.10	45.10	0.93	-18.30	0.93	-18.30	0.10	45.10
18100	0.09	43.40	0.93	-18.70	0.93	-18.70	0.09	43.40
18150	0.09	41.70	0.93	-19.20	0.93	-19.20	0.09	41.70
18200	0.10	38.50	0.92	-19.70	0.92	-19.70	0.10	38.50
18250	0.10	35.30	0.92	-20.30	0.92	-20.30	0.10	35.30
18300	0.11	29.60	0.91	-20.70	0.91	-20.70	0.11	29.60
18350	0.11	23.90	0.90	-21.10	0.90	-21.10	0.11	23.90
18400	0.13	20.50	0.89	-21.50	0.89	-21.50	0.13	20.50
18450	0.15	17.20	0.88	-21.80	0.88	-21.80	0.15	17.20
18500	0.16	13.40	0.87	-21.90	0.87	-21.90	0.16	13.40
18550	0.17	9.60	0.85	-21.90	0.85	-21.90	0.17	9.60
18600	0.19	7.50	0.84	-21.60	0.84	-21.60	0.19	7.50
18650	0.21	5.40	0.82	-21.30	0.82	-21.30	0.21	5.40
18700	0.22	-1.90	0.81	-20.60	0.81	-20.60	0.22	-1.90
18750	0.22	-9.10	0.79	-20.00	0.79	-20.00	0.22	-9.10
18800	0.22	-13.70	0.78	-18.40	0.78	-18.40	0.22	-13.70
18850	0.23	-18.30	0.78	-16.70	0.78	-16.70	0.23	-18.30
18900	0.22	-24.30	0.79	-15.60	0.79	-15.60	0.22	-24.30
18950	0.22	-30.40	0.79	-14.40	0.79	-14.40	0.22	-30.40
19000	0.19	-37.50	0.80	-13.30	0.80	-13.30	0.19	-37.50
19050	0.17	-44.70	0.81	-12.20	0.81	-12.20	0.17	-44.70
19100	0.17	-46.60	0.83	-11.90	0.83	-11.90	0.17	-46.60
19150	0.16	-48.60	0.85	-11.70	0.85	-11.70	0.16	-48.60
19200	0.16	-55.20	0.86	-11.80	0.86	-11.80	0.16	-55.20
19250	0.15	-61.80	0.87	-11.90	0.87	-11.90	0.15	-61.80
19300	0.15	-61.20	0.88	-12.30	0.88	-12.30	0.15	-61.20
19350	0.15	-60.60	0.90	-12.60	0.90	-12.60	0.15	-60.60
19400	0.15	-64.00	0.90	-13.30	0.90	-13.30	0.15	-64.00
19450	0.16	-67.40	0.91	-14.00	0.91	-14.00	0.16	-67.40
19500	0.16	-67.10	0.92	-14.20	0.92	-14.20	0.16	-67.10
