#	mhz	s	ma	r	50

50	0.91	166.40	0.22	69.40	0.22	69.40	0.91	166.40
100	0.85	155.90	0.38	60.70	0.38	60.70	0.85	155.90
150	0.79	145.30	0.54	52.10	0.54	52.10	0.79	145.30
200	0.71	138.30	0.63	45.80	0.63	45.80	0.71	138.30
250	0.64	131.30	0.72	39.50	0.72	39.50	0.64	131.30
300	0.58	126.00	0.77	34.60	0.77	34.60	0.58	126.00
350	0.52	120.80	0.82	29.70	0.82	29.70	0.52	120.80
400	0.47	116.90	0.85	26.50	0.85	26.50	0.47	116.90
450	0.43	113.10	0.87	23.30	0.87	23.30	0.43	113.10
500	0.38	108.50	0.90	19.90	0.90	19.90	0.38	108.50
550	0.34	103.90	0.93	16.40	0.93	16.40	0.34	103.90
600	0.31	102.00	0.94	14.50	0.94	14.50	0.31	102.00
650	0.29	100.20	0.94	12.60	0.94	12.60	0.29	100.20
700	0.27	97.80	0.95	11.00	0.95	11.00	0.27	97.80
750	0.25	95.40	0.96	9.50	0.96	9.50	0.25	95.40
800	0.23	94.00	0.96	8.10	0.96	8.10	0.23	94.00
850	0.22	92.60	0.96	6.70	0.96	6.70	0.22	92.60
900	0.20	90.90	0.97	5.50	0.97	5.50	0.20	90.90
950	0.19	89.20	0.97	4.30	0.97	4.30	0.19	89.20
1000	0.18	87.90	0.97	3.20	0.97	3.20	0.18	87.90
1050	0.17	86.60	0.98	2.10	0.98	2.10	0.17	86.60
1100	0.16	85.00	0.98	1.00	0.98	1.00	0.16	85.00
1150	0.15	83.40	0.98	0.00	0.98	0.00	0.15	83.40
1200	0.14	82.00	0.98	-0.90	0.98	-0.90	0.14	82.00
1250	0.13	80.50	0.98	-1.80	0.98	-1.80	0.13	80.50
1300	0.12	78.80	0.98	-2.70	0.98	-2.70	0.12	78.80
1350	0.11	77.20	0.99	-3.50	0.99	-3.50	0.11	77.20
1400	0.10	75.70	0.99	-4.30	0.99	-4.30	0.10	75.70
1450	0.10	74.20	0.99	-5.20	0.99	-5.20	0.10	74.20
1500	0.09	72.50	0.99	-6.00	0.99	-6.00	0.09	72.50
1550	0.08	70.80	0.99	-6.90	0.99	-6.90	0.08	70.80
1600	0.08	68.80	0.99	-7.70	0.99	-7.70	0.08	68.80
1650	0.07	66.70	0.99	-8.40	0.99	-8.40	0.07	66.70
1700	0.06	65.50	0.99	-9.20	0.99	-9.20	0.06	65.50
1750	0.06	64.40	0.99	-10.00	0.99	-10.00	0.06	64.40
1800	0.05	61.00	0.99	-10.70	0.99	-10.70	0.05	61.00
1850	0.05	57.60	0.99	-11.50	0.99	-11.50	0.05	57.60
1900	0.04	53.10	0.99	-12.10	0.99	-12.10	0.04	53.10
1950	0.03	48.50	0.99	-12.80	0.99	-12.80	0.03	48.50
2000	0.03	43.10	0.99	-13.60	0.99	-13.60	0.03	43.10
2050	0.02	37.60	0.99	-14.40	0.99	-14.40	0.02	37.60
2100	0.02	23.70	0.99	-15.00	0.99	-15.00	0.02	23.70
2150	0.02	9.80	0.99	-15.70	0.99	-15.70	0.02	9.80
2200	0.01	-16.10	0.99	-16.40	0.99	-16.40	0.01	-16.10
2250	0.01	-42.10	0.99	-17.20	0.99	-17.20	0.01	-42.10
2300	0.02	-58.10	0.99	-17.80	0.99	-17.80	0.02	-58.10
2350	0.02	-74.20	0.99	-18.40	0.99	-18.40	0.02	-74.20
2400	0.03	-83.00	0.99	-19.10	0.99	-19.10	0.03	-83.00
2450	0.03	-91.90	0.99	-19.90	0.99	-19.90	0.03	-91.90
2500	0.04	-95.20	0.99	-20.60	0.99	-20.60	0.04	-95.20
2550	0.04	-98.40	0.99	-21.20	0.99	-21.20	0.04	-98.40
2600	0.05	-100.60	0.99	-21.80	0.99	-21.80	0.05	-100.60
2650	0.05	-102.90	0.99	-22.50	0.99	-22.50	0.05	-102.90
2700	0.06	-104.10	0.99	-23.10	0.99	-23.10	0.06	-104.10
2750	0.06	-105.30	0.99	-23.70	0.99	-23.70	0.06	-105.30
2800	0.07	-105.90	0.99	-24.30	0.99	-24.30	0.07	-105.90
2850	0.07	-106.60	0.99	-24.90	0.99	-24.90	0.07	-106.60
2900	0.08	-107.80	0.99	-25.70	0.99	-25.70	0.08	-107.80
2950	0.08	-109.10	0.99	-26.60	0.99	-26.60	0.08	-109.10
3000	0.09	-109.70	0.99	-27.10	0.99	-27.10	0.09	-109.70
3050	0.09	-110.30	0.98	-27.70	0.98	-27.70	0.09	-110.30
3100	0.10	-111.10	0.98	-28.40	0.98	-28.40	0.10	-111.10
3150	0.10	-111.80	0.98	-29.20	0.98	-29.20	0.10	-111.80
3200	0.11	-111.90	0.98	-29.70	0.98	-29.70	0.11	-111.90
3250	0.11	-111.90	0.98	-30.20	0.98	-30.20	0.11	-111.90
3300	0.11	-112.80	0.98	-30.90	0.98	-30.90	0.11	-112.80
3350	0.12	-113.70	0.98	-31.60	0.98	-31.60	0.12	-113.70
3400	0.12	-114.50	0.98	-32.20	0.98	-32.20	0.12	-114.50
3450	0.13	-115.40	0.98	-32.80	0.98	-32.80	0.13	-115.40
3500	0.13	-115.80	0.98	-33.40	0.98	-33.40	0.13	-115.80
3550	0.13	-116.20	0.98	-34.10	0.98	-34.10	0.13	-116.20
3600	0.14	-116.60	0.98	-34.60	0.98	-34.60	0.14	-116.60
3650	0.14	-117.00	0.98	-35.20	0.98	-35.20	0.14	-117.00
3700	0.15	-117.20	0.98	-35.90	0.98	-35.90	0.15	-117.20
3750	0.15	-117.50	0.98	-36.70	0.98	-36.70	0.15	-117.50
3800	0.16	-117.40	0.98	-37.20	0.98	-37.20	0.16	-117.40
3850	0.16	-117.30	0.98	-37.70	0.98	-37.70	0.16	-117.30
3900	0.16	-117.70	0.98	-38.50	0.98	-38.50	0.16	-117.70
3950	0.16	-118.10	0.98	-39.30	0.98	-39.30	0.16	-118.10
4000	0.17	-118.10	0.98	-39.90	0.98	-39.90	0.17	-118.10
4050	0.17	-118.00	0.98	-40.40	0.98	-40.40	0.17	-118.00
4100	0.18	-118.10	0.98	-41.00	0.98	-41.00	0.18	-118.10
4150	0.18	-118.20	0.97	-41.60	0.97	-41.60	0.18	-118.20
4200	0.18	-118.70	0.98	-42.30	0.98	-42.30	0.18	-118.70
4250	0.19	-119.20	0.98	-42.90	0.98	-42.90	0.19	-119.20
4300	0.19	-119.50	0.97	-43.40	0.97	-43.40	0.19	-119.50
4350	0.19	-119.80	0.97	-43.80	0.97	-43.80	0.19	-119.80
4400	0.19	-120.10	0.97	-44.60	0.97	-44.60	0.19	-120.10
4450	0.20	-120.40	0.97	-45.30	0.97	-45.30	0.20	-120.40
4500	0.20	-120.90	0.97	-46.00	0.97	-46.00	0.20	-120.90
4550	0.20	-121.50	0.97	-46.70	0.97	-46.70	0.20	-121.50
4600	0.20	-122.70	0.97	-47.50	0.97	-47.50	0.20	-122.70
4650	0.21	-123.80	0.97	-48.30	0.97	-48.30	0.21	-123.80
4700	0.21	-124.80	0.97	-48.80	0.97	-48.80	0.21	-124.80
4750	0.22	-125.80	0.97	-49.30	0.97	-49.30	0.22	-125.80
4800	0.22	-126.80	0.96	-50.00	0.96	-50.00	0.22	-126.80
4850	0.22	-127.80	0.96	-50.60	0.96	-50.60	0.22	-127.80
4900	0.22	-129.20	0.96	-51.30	0.96	-51.30	0.22	-129.20
4950	0.23	-130.60	0.96	-52.00	0.96	-52.00	0.23	-130.60
5000	0.23	-131.80	0.96	-52.70	0.96	-52.70	0.23	-131.80
5050	0.23	-133.00	0.96	-53.30	0.96	-53.30	0.23	-133.00
5100	0.24	-134.20	0.96	-53.90	0.96	-53.90	0.24	-134.20
5150	0.24	-135.30	0.96	-54.40	0.96	-54.40	0.24	-135.30
5200	0.24	-136.40	0.96	-54.90	0.96	-54.90	0.24	-136.40
5250	0.25	-137.50	0.96	-55.50	0.96	-55.50	0.25	-137.50
5300	0.25	-138.70	0.95	-56.30	0.95	-56.30	0.25	-138.70
5350	0.26	-139.90	0.95	-57.20	0.95	-57.20	0.26	-139.90
5400	0.26	-141.10	0.95	-57.80	0.95	-57.80	0.26	-141.10
5450	0.26	-142.20	0.95	-58.40	0.95	-58.40	0.26	-142.20
5500	0.27	-143.00	0.95	-59.10	0.95	-59.10	0.27	-143.00
5550	0.27	-143.80	0.95	-59.70	0.95	-59.70	0.27	-143.80
5600	0.28	-145.20	0.95	-60.40	0.95	-60.40	0.28	-145.20
5650	0.28	-146.70	0.95	-61.10	0.95	-61.10	0.28	-146.70
5700	0.28	-147.60	0.95	-61.70	0.95	-61.70	0.28	-147.60
5750	0.29	-148.40	0.94	-62.40	0.94	-62.40	0.29	-148.40
5800	0.29	-149.60	0.94	-63.00	0.94	-63.00	0.29	-149.60
5850	0.29	-150.90	0.94	-63.60	0.94	-63.60	0.29	-150.90
5900	0.30	-152.00	0.94	-64.20	0.94	-64.20	0.30	-152.00
5950	0.30	-153.20	0.94	-64.80	0.94	-64.80	0.30	-153.20
6000	0.32	-153.80	0.93	-65.60	0.93	-65.60	0.32	-153.80
6050	0.34	-154.30	0.93	-66.50	0.93	-66.50	0.34	-154.30
6100	0.34	-155.60	0.93	-67.00	0.93	-67.00	0.34	-155.60
6150	0.34	-156.90	0.93	-67.50	0.93	-67.50	0.34	-156.90
6200	0.35	-158.40	0.92	-68.20	0.92	-68.20	0.35	-158.40
6250	0.35	-159.90	0.92	-69.00	0.92	-69.00	0.35	-159.90
6300	0.36	-161.30	0.92	-69.50	0.92	-69.50	0.36	-161.30
6350	0.37	-162.70	0.91	-70.10	0.91	-70.10	0.37	-162.70
6400	0.37	-163.60	0.91	-70.80	0.91	-70.80	0.37	-163.60
6450	0.38	-164.40	0.91	-71.50	0.91	-71.50	0.38	-164.40
6500	0.38	-165.30	0.90	-72.10	0.90	-72.10	0.38	-165.30
6550	0.38	-166.30	0.90	-72.80	0.90	-72.80	0.38	-166.30
6600	0.38	-167.60	0.90	-73.40	0.90	-73.40	0.38	-167.60
6650	0.39	-169.00	0.90	-74.10	0.90	-74.10	0.39	-169.00
6700	0.40	-169.80	0.90	-74.50	0.90	-74.50	0.40	-169.80
6750	0.40	-170.60	0.89	-75.00	0.89	-75.00	0.40	-170.60
6800	0.41	-171.80	0.89	-75.80	0.89	-75.80	0.41	-171.80
6850	0.41	-173.10	0.89	-76.60	0.89	-76.60	0.41	-173.10
6900	0.41	-174.00	0.89	-77.20	0.89	-77.20	0.41	-174.00
6950	0.41	-175.00	0.89	-77.80	0.89	-77.80	0.41	-175.00
7000	0.42	-176.50	0.88	-78.60	0.88	-78.60	0.42	-176.50
7050	0.42	-178.00	0.88	-79.50	0.88	-79.50	0.42	-178.00
7100	0.43	0.90	0.88	-80.10	0.88	-80.10	0.43	0.90
7150	0.43	179.90	0.88	-80.80	0.88	-80.80	0.43	179.90
7200	0.44	178.50	0.88	-81.70	0.88	-81.70	0.44	178.50
7250	0.44	177.20	0.88	-82.60	0.88	-82.60	0.44	177.20
7300	0.45	175.80	0.87	-83.40	0.87	-83.40	0.45	175.80
7350	0.45	174.50	0.87	-84.30	0.87	-84.30	0.45	174.50
7400	0.46	172.80	0.86	-85.10	0.86	-85.10	0.46	172.80
7450	0.46	171.20	0.86	-86.00	0.86	-86.00	0.46	171.20
7500	0.47	169.90	0.85	-87.00	0.85	-87.00	0.47	169.90
7550	0.48	168.60	0.85	-88.10	0.85	-88.10	0.48	168.60
7600	0.48	167.20	0.84	-88.90	0.84	-88.90	0.48	167.20
7650	0.49	165.70	0.83	-89.70	0.83	-89.70	0.49	165.70
7700	0.49	164.30	0.83	-90.70	0.83	-90.70	0.49	164.30
7750	0.50	162.90	0.83	-91.80	0.83	-91.80	0.50	162.90
7800	0.51	161.10	0.82	-93.00	0.82	-93.00	0.51	161.10
7850	0.52	159.30	0.81	-94.20	0.81	-94.20	0.52	159.30
7900	0.53	157.90	0.80	-95.20	0.80	-95.20	0.53	157.90
7950	0.54	156.40	0.79	-96.30	0.79	-96.30	0.54	156.40
8000	0.55	154.70	0.78	-97.50	0.78	-97.50	0.55	154.70
8050	0.56	153.00	0.77	-98.70	0.77	-98.70	0.56	153.00
8100	0.57	150.90	0.76	-100.20	0.76	-100.20	0.57	150.90
8150	0.58	148.70	0.75	-101.70	0.75	-101.70	0.58	148.70
8200	0.59	146.70	0.73	-103.00	0.73	-103.00	0.59	146.70
8250	0.60	144.70	0.71	-104.30	0.71	-104.30	0.60	144.70
8300	0.62	142.20	0.69	-106.00	0.69	-106.00	0.62	142.20
8350	0.63	139.70	0.67	-107.60	0.67	-107.60	0.63	139.70
8400	0.64	137.00	0.64	-108.90	0.64	-108.90	0.64	137.00
8450	0.66	134.30	0.61	-110.20	0.61	-110.20	0.66	134.30
8500	0.67	130.80	0.57	-111.40	0.57	-111.40	0.67	130.80
8550	0.68	127.40	0.53	-112.70	0.53	-112.70	0.68	127.40
8600	0.69	123.40	0.49	-112.50	0.49	-112.50	0.69	123.40
8650	0.70	119.40	0.44	-112.30	0.44	-112.30	0.70	119.40
8700	0.70	114.90	0.40	-109.20	0.40	-109.20	0.70	114.90
8750	0.71	110.40	0.35	-106.10	0.35	-106.10	0.71	110.40
8800	0.70	104.50	0.32	-96.90	0.32	-96.90	0.70	104.50
8850	0.70	98.60	0.30	-87.70	0.30	-87.70	0.70	98.60
8900	0.67	93.30	0.31	-76.50	0.31	-76.50	0.67	93.30
8950	0.65	88.00	0.33	-65.30	0.33	-65.30	0.65	88.00
9000	0.61	82.10	0.39	-60.70	0.39	-60.70	0.61	82.10
9050	0.57	76.20	0.45	-56.20	0.45	-56.20	0.57	76.20
9100	0.52	70.90	0.52	-56.70	0.52	-56.70	0.52	70.90
9150	0.47	65.70	0.58	-57.30	0.58	-57.30	0.47	65.70
9200	0.41	61.10	0.64	-59.80	0.64	-59.80	0.41	61.10
9250	0.35	56.50	0.69	-62.30	0.69	-62.30	0.35	56.50
9300	0.30	54.40	0.73	-64.80	0.73	-64.80	0.30	54.40
9350	0.24	52.40	0.77	-67.30	0.77	-67.30	0.24	52.40
9400	0.19	52.40	0.80	-70.10	0.80	-70.10	0.19	52.40
9450	0.14	52.40	0.82	-73.00	0.82	-73.00	0.14	52.40
9500	0.10	62.70	0.84	-75.60	0.84	-75.60	0.10	62.70
9550	0.07	73.00	0.86	-78.30	0.86	-78.30	0.07	73.00
9600	0.06	111.90	0.87	-80.70	0.87	-80.70	0.06	111.90
9650	0.06	150.80	0.88	-83.20	0.88	-83.20	0.06	150.80
9700	0.09	162.10	0.88	-85.30	0.88	-85.30	0.09	162.10
9750	0.12	173.40	0.89	-87.40	0.89	-87.40	0.12	173.40
9800	0.14	176.70	0.89	-89.40	0.89	-89.40	0.14	176.70
9850	0.17	180.00	0.89	-91.30	0.89	-91.30	0.17	180.00
9900	0.19	179.70	0.88	-93.00	0.88	-93.00	0.19	179.70
9950	0.22	179.50	0.88	-94.70	0.88	-94.70	0.22	179.50
10000	0.25	177.40	0.88	-96.50	0.88	-96.50	0.25	177.40
10050	0.27	175.40	0.88	-98.30	0.88	-98.30	0.27	175.40
10100	0.29	175.70	0.87	-99.60	0.87	-99.60	0.29	175.70
10150	0.32	175.90	0.87	-100.90	0.87	-100.90	0.32	175.90
10200	0.34	173.40	0.86	-102.50	0.86	-102.50	0.34	173.40
10250	0.36	170.80	0.86	-104.20	0.86	-104.20	0.36	170.80
10300	0.38	169.50	0.85	-105.70	0.85	-105.70	0.38	169.50
10350	0.40	168.10	0.84	-107.20	0.84	-107.20	0.40	168.10
10400	0.41	166.20	0.83	-108.50	0.83	-108.50	0.41	166.20
10450	0.43	164.40	0.82	-109.90	0.82	-109.90	0.43	164.40
10500	0.45	162.60	0.82	-111.30	0.82	-111.30	0.45	162.60
10550	0.47	160.80	0.81	-112.70	0.81	-112.70	0.47	160.80
10600	0.47	158.80	0.80	-113.60	0.80	-113.60	0.47	158.80
10650	0.48	156.90	0.79	-114.50	0.79	-114.50	0.48	156.90
10700	0.50	155.50	0.79	-115.90	0.79	-115.90	0.50	155.50
10750	0.52	154.20	0.78	-117.20	0.78	-117.20	0.52	154.20
10800	0.53	153.40	0.77	-118.00	0.77	-118.00	0.53	153.40
10850	0.54	152.60	0.77	-118.90	0.77	-118.90	0.54	152.60
10900	0.55	150.10	0.75	-120.20	0.75	-120.20	0.55	150.10
10950	0.56	147.50	0.74	-121.50	0.74	-121.50	0.56	147.50
11000	0.57	146.70	0.74	-122.60	0.74	-122.60	0.57	146.70
11050	0.59	145.80	0.74	-123.70	0.74	-123.70	0.59	145.80
11100	0.60	143.50	0.73	-124.90	0.73	-124.90	0.60	143.50
11150	0.61	141.30	0.71	-126.10	0.71	-126.10	0.61	141.30
11200	0.62	139.50	0.71	-127.20	0.71	-127.20	0.62	139.50
11250	0.63	137.80	0.70	-128.30	0.70	-128.30	0.63	137.80
11300	0.64	136.10	0.69	-129.30	0.69	-129.30	0.64	136.10
11350	0.65	134.40	0.68	-130.40	0.68	-130.40	0.65	134.40
11400	0.66	132.10	0.67	-131.80	0.67	-131.80	0.66	132.10
11450	0.67	129.80	0.66	-133.30	0.66	-133.30	0.67	129.80
11500	0.68	128.10	0.65	-134.20	0.65	-134.20	0.68	128.10
11550	0.69	126.50	0.64	-135.00	0.64	-135.00	0.69	126.50
11600	0.69	124.40	0.63	-136.40	0.63	-136.40	0.69	124.40
11650	0.70	122.30	0.62	-137.70	0.62	-137.70	0.70	122.30
11700	0.71	120.60	0.61	-138.70	0.61	-138.70	0.71	120.60
11750	0.72	118.80	0.60	-139.70	0.60	-139.70	0.72	118.80
11800	0.73	117.30	0.58	-140.50	0.58	-140.50	0.73	117.30
11850	0.74	115.70	0.56	-141.30	0.56	-141.30	0.74	115.70
11900	0.75	114.50	0.55	-142.60	0.55	-142.60	0.75	114.50
11950	0.76	113.30	0.54	-144.00	0.54	-144.00	0.76	113.30
12000	0.77	112.00	0.52	-144.40	0.52	-144.40	0.77	112.00
12050	0.78	110.80	0.51	-144.80	0.51	-144.80	0.78	110.80
12100	0.79	109.10	0.50	-146.00	0.50	-146.00	0.79	109.10
12150	0.80	107.40	0.48	-147.20	0.48	-147.20	0.80	107.40
12200	0.81	106.20	0.47	-147.90	0.47	-147.90	0.81	106.20
12250	0.81	105.00	0.45	-148.50	0.45	-148.50	0.81	105.00
12300	0.81	103.70	0.43	-149.40	0.43	-149.40	0.81	103.70
12350	0.81	102.40	0.41	-150.30	0.41	-150.30	0.81	102.40
12400	0.82	100.60	0.40	-151.00	0.40	-151.00	0.82	100.60
12450	0.83	98.70	0.39	-151.80	0.39	-151.80	0.83	98.70
12500	0.83	96.70	0.37	-152.10	0.37	-152.10	0.83	96.70
12550	0.83	94.70	0.34	-152.40	0.34	-152.40	0.83	94.70
12600	0.83	93.10	0.32	-152.00	0.32	-152.00	0.83	93.10
12650	0.83	91.50	0.30	-151.60	0.30	-151.60	0.83	91.50
12700	0.83	89.40	0.29	-149.40	0.29	-149.40	0.83	89.40
12750	0.83	87.30	0.27	-147.30	0.27	-147.30	0.83	87.30
12800	0.82	85.10	0.26	-144.30	0.26	-144.30	0.82	85.10
12850	0.80	83.00	0.25	-141.40	0.25	-141.40	0.80	83.00
12900	0.80	82.30	0.25	-138.70	0.25	-138.70	0.80	82.30
12950	0.79	81.50	0.26	-136.00	0.26	-136.00	0.79	81.50
13000	0.78	81.10	0.26	-137.20	0.26	-137.20	0.78	81.10
13050	0.77	80.60	0.26	-138.40	0.26	-138.40	0.77	80.60
13100	0.79	79.90	0.25	-140.10	0.25	-140.10	0.79	79.90
13150	0.80	79.10	0.24	-141.80	0.24	-141.80	0.80	79.10
13200	0.81	77.80	0.22	-142.00	0.22	-142.00	0.81	77.80
13250	0.83	76.40	0.20	-142.20	0.20	-142.20	0.83	76.40
13300	0.82	76.10	0.18	-140.40	0.18	-140.40	0.82	76.10
13350	0.81	75.70	0.16	-138.60	0.16	-138.60	0.81	75.70
13400	0.83	72.10	0.15	-132.40	0.15	-132.40	0.83	72.10
13450	0.85	68.50	0.13	-126.30	0.13	-126.30	0.85	68.50
13500	0.85	66.60	0.13	-116.80	0.13	-116.80	0.85	66.60
13550	0.85	64.70	0.12	-107.40	0.12	-107.40	0.85	64.70
13600	0.86	62.10	0.13	-98.40	0.13	-98.40	0.86	62.10
13650	0.86	59.50	0.13	-89.40	0.13	-89.40	0.86	59.50
13700	0.86	57.50	0.15	-83.00	0.15	-83.00	0.86	57.50
13750	0.85	55.40	0.16	-76.70	0.16	-76.70	0.85	55.40
13800	0.85	52.60	0.18	-73.40	0.18	-73.40	0.85	52.60
13850	0.85	49.80	0.20	-70.10	0.20	-70.10	0.85	49.80
13900	0.85	47.20	0.22	-68.30	0.22	-68.30	0.85	47.20
13950	0.84	44.50	0.24	-66.50	0.24	-66.50	0.84	44.50
14000	0.84	41.90	0.26	-66.10	0.26	-66.10	0.84	41.90
14050	0.83	39.20	0.28	-65.70	0.28	-65.70	0.83	39.20
14100	0.83	36.60	0.30	-65.60	0.30	-65.60	0.83	36.60
14150	0.83	33.90	0.32	-65.60	0.32	-65.60	0.83	33.90
14200	0.82	31.60	0.34	-66.30	0.34	-66.30	0.82	31.60
14250	0.82	29.40	0.36	-67.10	0.36	-67.10	0.82	29.40
14300	0.81	26.50	0.38	-68.00	0.38	-68.00	0.81	26.50
14350	0.80	23.70	0.40	-68.90	0.40	-68.90	0.80	23.70
14400	0.80	22.00	0.42	-69.80	0.42	-69.80	0.80	22.00
14450	0.80	20.30	0.43	-70.60	0.43	-70.60	0.80	20.30
14500	0.79	18.30	0.45	-71.70	0.45	-71.70	0.79	18.30
14550	0.78	16.30	0.46	-72.70	0.46	-72.70	0.78	16.30
14600	0.77	14.80	0.48	-73.70	0.48	-73.70	0.77	14.80
14650	0.77	13.20	0.50	-74.80	0.50	-74.80	0.77	13.20
14700	0.76	11.40	0.51	-76.00	0.51	-76.00	0.76	11.40
14750	0.74	9.60	0.53	-77.30	0.53	-77.30	0.74	9.60
14800	0.74	7.90	0.54	-78.60	0.54	-78.60	0.74	7.90
14850	0.74	6.20	0.55	-80.00	0.55	-80.00	0.74	6.20
14900	0.72	5.50	0.57	-80.80	0.57	-80.80	0.72	5.50
14950	0.71	4.70	0.58	-81.70	0.58	-81.70	0.71	4.70
15000	0.70	2.50	0.59	-83.30	0.59	-83.30	0.70	2.50
15050	0.69	0.30	0.60	-85.00	0.60	-85.00	0.69	0.30
15100	0.67	-0.20	0.62	-85.80	0.62	-85.80	0.67	-0.20
15150	0.66	-0.70	0.63	-86.70	0.63	-86.70	0.66	-0.70
15200	0.65	-2.20	0.64	-87.90	0.64	-87.90	0.65	-2.20
15250	0.63	-3.60	0.65	-89.10	0.65	-89.10	0.63	-3.60
15300	0.63	-5.10	0.66	-90.80	0.66	-90.80	0.63	-5.10
15350	0.62	-6.60	0.66	-92.40	0.66	-92.40	0.62	-6.60
15400	0.60	-7.10	0.66	-93.20	0.66	-93.20	0.60	-7.10
15450	0.58	-7.60	0.66	-93.90	0.66	-93.90	0.58	-7.60
15500	0.58	-7.30	0.67	-95.00	0.67	-95.00	0.58	-7.30
15550	0.59	-7.00	0.68	-96.10	0.68	-96.10	0.59	-7.00
15600	0.58	-8.10	0.68	-96.50	0.68	-96.50	0.58	-8.10
15650	0.58	-9.10	0.69	-96.90	0.69	-96.90	0.58	-9.10
15700	0.57	-9.90	0.69	-97.80	0.69	-97.80	0.57	-9.90
15750	0.57	-10.60	0.70	-98.70	0.70	-98.70	0.57	-10.60
15800	0.56	-11.40	0.71	-99.20	0.71	-99.20	0.56	-11.40
15850	0.55	-12.10	0.72	-99.70	0.72	-99.70	0.55	-12.10
15900	0.53	-13.10	0.73	-100.60	0.73	-100.60	0.53	-13.10
15950	0.52	-14.10	0.73	-101.60	0.73	-101.60	0.52	-14.10
16000	0.50	-14.30	0.75	-102.40	0.75	-102.40	0.50	-14.30
16050	0.49	-14.50	0.76	-103.30	0.76	-103.30	0.49	-14.50
16100	0.46	-15.20	0.77	-104.70	0.77	-104.70	0.46	-15.20
16150	0.44	-15.90	0.77	-106.20	0.77	-106.20	0.44	-15.90
16200	0.41	-16.00	0.78	-107.50	0.78	-107.50	0.41	-16.00
16250	0.39	-16.10	0.79	-108.80	0.79	-108.80	0.39	-16.10
16300	0.36	-16.20	0.80	-110.40	0.80	-110.40	0.36	-16.20
16350	0.33	-16.20	0.81	-111.90	0.81	-111.90	0.33	-16.20
16400	0.31	-15.00	0.81	-113.30	0.81	-113.30	0.31	-15.00
16450	0.29	-13.90	0.81	-114.60	0.81	-114.60	0.29	-13.90
16500	0.27	-15.60	0.81	-115.80	0.81	-115.80	0.27	-15.60
16550	0.25	-17.30	0.81	-116.90	0.81	-116.90	0.25	-17.30
16600	0.22	-16.30	0.82	-118.60	0.82	-118.60	0.22	-16.30
16650	0.20	-15.30	0.82	-120.20	0.82	-120.20	0.20	-15.30
16700	0.18	-13.50	0.83	-121.90	0.83	-121.90	0.18	-13.50
16750	0.16	-11.60	0.83	-123.60	0.83	-123.60	0.16	-11.60
16800	0.14	-3.20	0.82	-125.50	0.82	-125.50	0.14	-3.20
16850	0.12	5.20	0.82	-127.40	0.82	-127.40	0.12	5.20
16900	0.12	16.90	0.81	-129.30	0.81	-129.30	0.12	16.90
16950	0.12	28.50	0.80	-131.30	0.80	-131.30	0.12	28.50
17000	0.14	38.60	0.79	-133.30	0.79	-133.30	0.14	38.60
17050	0.16	48.80	0.78	-135.30	0.78	-135.30	0.16	48.80
17100	0.19	51.90	0.75	-137.30	0.75	-137.30	0.19	51.90
17150	0.23	55.00	0.73	-139.40	0.73	-139.40	0.23	55.00
17200	0.27	55.50	0.71	-140.90	0.71	-140.90	0.27	55.50
17250	0.31	56.10	0.68	-142.30	0.68	-142.30	0.31	56.10
17300	0.35	54.50	0.65	-143.50	0.65	-143.50	0.35	54.50
17350	0.39	52.90	0.61	-144.70	0.61	-144.70	0.39	52.90
17400	0.43	50.30	0.57	-144.50	0.57	-144.50	0.43	50.30
17450	0.47	47.80	0.54	-144.20	0.54	-144.20	0.47	47.80
17500	0.51	44.60	0.50	-142.40	0.50	-142.40	0.51	44.60
17550	0.54	41.50	0.47	-140.60	0.47	-140.60	0.54	41.50
17600	0.56	37.80	0.45	-136.80	0.45	-136.80	0.56	37.80
17650	0.58	34.10	0.43	-132.90	0.43	-132.90	0.58	34.10
17700	0.60	30.70	0.43	-127.60	0.43	-127.60	0.60	30.70
17750	0.61	27.20	0.43	-122.40	0.43	-122.40	0.61	27.20
17800	0.61	22.20	0.45	-118.80	0.45	-118.80	0.61	22.20
17850	0.61	17.20	0.47	-115.20	0.47	-115.20	0.61	17.20
17900	0.60	14.20	0.50	-113.20	0.50	-113.20	0.60	14.20
17950	0.58	11.20	0.53	-111.30	0.53	-111.30	0.58	11.20
18000	0.57	7.10	0.56	-111.00	0.56	-111.00	0.57	7.10
18050	0.56	2.90	0.59	-110.80	0.59	-110.80	0.56	2.90
18100	0.54	-1.00	0.62	-111.50	0.62	-111.50	0.54	-1.00
18150	0.52	-4.90	0.65	-112.30	0.65	-112.30	0.52	-4.90
18200	0.52	-7.70	0.68	-113.30	0.68	-113.30	0.52	-7.70
18250	0.51	-10.40	0.70	-114.30	0.70	-114.30	0.51	-10.40
18300	0.51	-13.50	0.72	-115.60	0.72	-115.60	0.51	-13.50
18350	0.50	-16.60	0.74	-116.90	0.74	-116.90	0.50	-16.60
18400	0.49	-18.10	0.75	-118.10	0.75	-118.10	0.49	-18.10
18450	0.49	-19.60	0.77	-119.20	0.77	-119.20	0.49	-19.60
18500	0.49	-20.90	0.79	-120.30	0.79	-120.30	0.49	-20.90
18550	0.49	-22.20	0.81	-121.50	0.81	-121.50	0.49	-22.20
18600	0.48	-22.90	0.81	-122.80	0.81	-122.80	0.48	-22.90
