! P/N: L-07CR12JV4								
! Measured by Marlon								
! Oct. 13, 2003						
! Measure with Series-through-Fixture								
#	mhz	s	ma	r	50
0	0.00000	90.0000	0.99999	0.00000	0.99999	0.00000	0.00000	90.0000			
50	0.33618	59.77707	0.86358	-18.09048	0.86358	-18.09048	0.33618	59.77707
70	0.43678	54.10216	0.82088	-25.22223	0.82088	-25.22223	0.43678	54.10216
90	0.5182	50.07287	0.77179	-30.59222	0.77179	-30.59222	0.5182	50.07287
110	0.59294	46.26832	0.72627	-35.57029	0.72627	-35.57029	0.59294	46.26832
130	0.66057	42.30163	0.68269	-40.49607	0.68269	-40.49607	0.66057	42.30163
150	0.70779	38.81992	0.62781	-44.67899	0.62781	-44.67899	0.70779	38.81992
170	0.75349	36.01768	0.59164	-47.80354	0.59164	-47.80354	0.75349	36.01768
190	0.78473	32.95043	0.55229	-51.1745	0.55229	-51.1745	0.78473	32.95043
210	0.81352	30.53536	0.51177	-54.02943	0.51177	-54.02943	0.81352	30.53536
230	0.84389	28.59521	0.47408	-56.35608	0.47408	-56.35608	0.84389	28.59521
250	0.87184	25.85826	0.4452	-58.89244	0.4452	-58.89244	0.87184	25.85826
270	0.87488	23.8719	0.41115	-61.20953	0.41115	-61.20953	0.87488	23.8719
290	0.89161	22.52079	0.38316	-62.94633	0.38316	-62.94633	0.89161	22.52079
310	0.90989	20.88891	0.35788	-64.81339	0.35788	-64.81339	0.90989	20.88891
330	0.92248	18.97556	0.33306	-66.72084	0.33306	-66.72084	0.92248	18.97556
350	0.9271	17.69538	0.30752	-67.77837	0.30752	-67.77837	0.9271	17.69538
370	0.94003	16.19476	0.28903	-69.3906	0.28903	-69.3906	0.94003	16.19476
390	0.94711	14.83908	0.26866	-71.07303	0.26866	-71.07303	0.94711	14.83908
410	0.95367	13.87154	0.24825	-72.22656	0.24825	-72.22656	0.95367	13.87154
430	0.96317	13.01475	0.2296	-72.97945	0.2296	-72.97945	0.96317	13.01475
450	0.97722	11.47065	0.21447	-74.18731	0.21447	-74.18731	0.97722	11.47065
470	0.97077	10.81557	0.19758	-75.11672	0.19758	-75.11672	0.97077	10.81557
490	0.97845	10.1928	0.17334	-77.11222	0.17334	-77.11222	0.97845	10.1928
510	0.98872	9.72048	0.15388	-78.78582	0.15388	-78.78582	0.98872	9.72048
530	0.99412	9.40697	0.14153	-79.65084	0.14153	-79.65084	0.99412	9.40697
550	0.99132	9.15089	0.12879	-80.12198	0.12879	-80.12198	0.99132	9.15089
570	0.98936	8.54791	0.11741	-80.77822	0.11741	-80.77822	0.98936	8.54791
590	0.99175	8.0485	0.10556	-81.19	0.10556	-81.19	0.99175	8.0485
610	0.99207	7.33574	0.09433	-81.26866	0.09433	-81.26866	0.99207	7.33574
630	0.98984	6.3324	0.08378	-81.21251	0.08378	-81.21251	0.98984	6.3324
650	0.99047	5.20082	0.07297	-81.50686	0.07297	-81.50686	0.99047	5.20082
670	0.99449	5.29265	0.06261	-81.20899	0.06261	-81.20899	0.99449	5.29265
690	1.00391	4.74761	0.05308	-80.72213	0.05308	-80.72213	1.00391	4.74761
710	1.00772	4.16329	0.04392	-79.83954	0.04392	-79.83954	1.00772	4.16329
730	1.00454	3.82379	0.035	-78.27973	0.035	-78.27973	1.00454	3.82379
750	1.00264	3.69969	0.02658	-75.68652	0.02658	-75.68652	1.00264	3.69969
770	1.00413	3.30636	0.01823	-68.68402	0.01823	-68.68402	1.00413	3.30636
790	1.00127	2.62131	0.01118	-48.14979	0.01118	-48.14979	1.00127	2.62131
810	1.00182	1.98483	0.0082	-5.69034	0.0082	-5.69034	1.00182	1.98483
830	1.00461	1.42432	0.01036	44.2462	0.01036	44.2462	1.00461	1.42432
850	0.99945	0.65432	0.01706	64.37008	0.01706	64.37008	0.99945	0.65432
870	1.00395	0.8574	0.02409	70.694	0.02409	70.694	1.00395	0.8574
890	1.00932	0.41717	0.0316	74.0583	0.0316	74.0583	1.00932	0.41717
910	1.00783	0.02875	0.03886	75.79959	0.03886	75.79959	1.00783	0.02875
930	1.001	-0.08247	0.04577	76.82248	0.04577	76.82248	1.001	-0.08247
950	0.99964	-0.16092	0.05283	77.59953	0.05283	77.59953	0.99964	-0.16092
970	1.00346	-1.20494	0.05996	78.07986	0.05996	78.07986	1.00346	-1.20494
990	0.99861	-1.65387	0.06689	78.51487	0.06689	78.51487	0.99861	-1.65387
1010	0.99355	-1.97889	0.07359	78.5908	0.07359	78.5908	0.99355	-1.97889
1030	0.9929	-2.3341	0.08012	78.37071	0.08012	78.37071	0.9929	-2.3341
1050	0.99751	-2.55656	0.08657	78.29443	0.08657	78.29443	0.99751	-2.55656
1070	0.99801	-3.01273	0.09259	78.65613	0.09259	78.65613	0.99801	-3.01273
1090	0.99444	-3.35666	0.09912	78.16651	0.09912	78.16651	0.99444	-3.35666
1110	0.9909	-3.58173	0.10568	77.66838	0.10568	77.66838	0.9909	-3.58173
1130	0.98783	-3.79634	0.11208	77.39924	0.11208	77.39924	0.98783	-3.79634
1150	0.98198	-4.2239	0.11846	76.99128	0.11846	76.99128	0.98198	-4.2239
1170	0.97744	-5.00266	0.12437	77.24771	0.12437	77.24771	0.97744	-5.00266
1190	0.9768	-5.80978	0.13087	77.11771	0.13087	77.11771	0.9768	-5.80978
1210	0.97727	-6.52831	0.13681	76.69995	0.13681	76.69995	0.97727	-6.52831
1230	0.97826	-7.05636	0.14196	76.29152	0.14196	76.29152	0.97826	-7.05636
1250	0.98136	-7.30712	0.14698	76.38789	0.14698	76.38789	0.98136	-7.30712
1270	0.9872	-7.91468	0.15312	75.74365	0.15312	75.74365	0.9872	-7.91468
1290	0.9868	-8.4672	0.15877	75.4336	0.15877	75.4336	0.9868	-8.4672
1310	0.98514	-8.53682	0.16406	75.21189	0.16406	75.21189	0.98514	-8.53682
1330	0.98644	-8.36339	0.16937	74.91786	0.16937	74.91786	0.98644	-8.36339
1350	0.99409	-8.85448	0.1754	74.47602	0.1754	74.47602	0.99409	-8.85448
1370	0.98353	-9.22212	0.17965	74.15696	0.17965	74.15696	0.98353	-9.22212
1390	0.98197	-9.63504	0.18567	74.03314	0.18567	74.03314	0.98197	-9.63504
1410	0.9818	-10.0551	0.19128	73.72291	0.19128	73.72291	0.9818	-10.0551
1430	0.98029	-10.43186	0.19587	73.27604	0.19587	73.27604	0.98029	-10.43186
1450	0.97956	-10.70255	0.20041	73.17373	0.20041	73.17373	0.97956	-10.70255
1470	0.98706	-11.08859	0.20725	72.97496	0.20725	72.97496	0.98706	-11.08859
1490	0.98509	-11.37978	0.21221	72.47436	0.21221	72.47436	0.98509	-11.37978
1510	0.98022	-11.42241	0.21628	72.18462	0.21628	72.18462	0.98022	-11.42241
1530	0.97678	-11.30719	0.2205	72.08647	0.2205	72.08647	0.97678	-11.30719
1550	0.97684	-11.36926	0.22595	71.62868	0.22595	71.62868	0.97684	-11.36926
1570	0.96876	-11.88821	0.23204	71.00675	0.23204	71.00675	0.96876	-11.88821
1590	0.96257	-12.44255	0.23672	70.68356	0.23672	70.68356	0.96257	-12.44255
1610	0.95946	-12.9525	0.2417	70.43275	0.2417	70.43275	0.95946	-12.9525
1630	0.9591	-13.42348	0.24734	70.17504	0.24734	70.17504	0.9591	-13.42348
1650	0.95969	-13.9461	0.25265	69.97816	0.25265	69.97816	0.95969	-13.9461
1670	0.95477	-14.5206	0.25703	69.50703	0.25703	69.50703	0.95477	-14.5206
1690	0.95346	-14.6747	0.262	69.2724	0.262	69.2724	0.95346	-14.6747
1710	0.95331	-14.92611	0.26748	68.96121	0.26748	68.96121	0.95331	-14.92611
1730	0.95248	-15.38627	0.27295	68.57685	0.27295	68.57685	0.95248	-15.38627
1750	0.94964	-15.76026	0.27741	68.43912	0.27741	68.43912	0.94964	-15.76026
1770	0.94531	-15.74985	0.28287	68.11418	0.28287	68.11418	0.94531	-15.74985
1790	0.9424	-16.34983	0.288	67.53917	0.288	67.53917	0.9424	-16.34983
1810	0.93812	-17.01123	0.2924	67.24534	0.2924	67.24534	0.93812	-17.01123
1830	0.9343	-17.55555	0.29696	67.27089	0.29696	67.27089	0.9343	-17.55555
1850	0.93739	-18.17482	0.30388	67.16104	0.30388	67.16104	0.93739	-18.17482
1870	0.93829	-18.78874	0.30807	66.55812	0.30807	66.55812	0.93829	-18.78874
1890	0.93558	-19.01595	0.31177	66.3905	0.31177	66.3905	0.93558	-19.01595
1910	0.93619	-19.05045	0.31628	66.29142	0.31628	66.29142	0.93619	-19.05045
1930	0.93849	-19.25381	0.32145	65.98533	0.32145	65.98533	0.93849	-19.25381
1950	0.93227	-20.1552	0.32564	65.28786	0.32564	65.28786	0.93227	-20.1552
1970	0.92837	-20.35	0.33096	65.02091	0.33096	65.02091	0.92837	-20.35
1990	0.92861	-20.73871	0.33612	64.68961	0.33612	64.68961	0.92861	-20.73871
2010	0.92768	-21.25838	0.34191	64.32593	0.34191	64.32593	0.92768	-21.25838
2030	0.92436	-21.79828	0.34832	63.77498	0.34832	63.77498	0.92436	-21.79828
2050	0.92149	-22.19993	0.35459	62.69506	0.35459	62.69506	0.92149	-22.19993
2070	0.91718	-22.2225	0.35756	62.52746	0.35756	62.52746	0.91718	-22.2225
2090	0.91319	-22.41146	0.36371	62.21206	0.36371	62.21206	0.91319	-22.41146
2110	0.90732	-22.90966	0.37046	61.41584	0.37046	61.41584	0.90732	-22.90966
2130	0.89804	-23.53329	0.37614	60.16821	0.37614	60.16821	0.89804	-23.53329
2150	0.88442	-23.77179	0.37994	58.86103	0.37994	58.86103	0.88442	-23.77179
2170	0.87201	-23.60283	0.38097	56.94024	0.38097	56.94024	0.87201	-23.60283
2190	0.85823	-23.05949	0.37377	55.24785	0.37377	55.24785	0.85823	-23.05949
2210	0.85456	-22.07468	0.36156	54.75689	0.36156	54.75689	0.85456	-22.07468
2230	0.86512	-21.12428	0.3502	55.80813	0.3502	55.80813	0.86512	-21.12428
2250	0.8867	-21.22723	0.34825	58.11011	0.34825	58.11011	0.8867	-21.22723
2270	0.89313	-21.50861	0.35256	59.75669	0.35256	59.75669	0.89313	-21.50861
2290	0.89811	-22.10365	0.36128	60.85124	0.36128	60.85124	0.89811	-22.10365
2310	0.90175	-22.9092	0.37181	61.08733	0.37181	61.08733	0.90175	-22.9092
2330	0.90143	-23.69077	0.3808	60.72979	0.3808	60.72979	0.90143	-23.69077
2350	0.8917	-24.08255	0.38418	60.61473	0.38418	60.61473	0.8917	-24.08255
2370	0.89466	-24.17605	0.39241	60.7594	0.39241	60.7594	0.89466	-24.17605
2390	0.895	-24.98112	0.39948	60.35953	0.39948	60.35953	0.895	-24.98112
2410	0.89093	-25.81041	0.4052	59.92518	0.4052	59.92518	0.89093	-25.81041
2430	0.88573	-26.34312	0.40982	59.76	0.40982	59.76	0.88573	-26.34312
2450	0.88771	-26.62495	0.414	59.96123	0.414	59.96123	0.88771	-26.62495
2470	0.89128	-27.22424	0.42175	59.5321	0.42175	59.5321	0.89128	-27.22424
2490	0.88716	-27.69669	0.42694	59.20425	0.42694	59.20425	0.88716	-27.69669
2510	0.88141	-28.03488	0.43118	58.75218	0.43118	58.75218	0.88141	-28.03488
2530	0.87794	-28.23851	0.43542	58.29463	0.43542	58.29463	0.87794	-28.23851
2550	0.87851	-28.31437	0.43992	58.29459	0.43992	58.29459	0.87851	-28.31437
2570	0.87338	-28.72303	0.44442	57.9165	0.44442	57.9165	0.87338	-28.72303
2590	0.86754	-29.08755	0.45058	57.65388	0.45058	57.65388	0.86754	-29.08755
2610	0.86289	-29.56128	0.45644	57.31968	0.45644	57.31968	0.86289	-29.56128
2630	0.85979	-30.11395	0.46077	56.92281	0.46077	56.92281	0.85979	-30.11395
2650	0.85705	-30.53164	0.46308	56.66809	0.46308	56.66809	0.85705	-30.53164
2670	0.85856	-30.7335	0.4706	56.82169	0.4706	56.82169	0.85856	-30.7335
2690	0.85428	-31.11675	0.47634	56.08766	0.47634	56.08766	0.85428	-31.11675
2710	0.85016	-31.51744	0.48033	55.54111	0.48033	55.54111	0.85016	-31.51744
2730	0.84799	-31.76673	0.48378	55.42926	0.48378	55.42926	0.84799	-31.76673
2750	0.84535	-31.69097	0.48903	55.17143	0.48903	55.17143	0.84535	-31.69097
2770	0.84409	-32.39957	0.49248	54.68457	0.49248	54.68457	0.84409	-32.39957
2790	0.84117	-32.97851	0.49802	54.2986	0.49802	54.2986	0.84117	-32.97851
2810	0.8377	-33.30771	0.5027	54.11607	0.5027	54.11607	0.8377	-33.30771
2830	0.83489	-33.38615	0.50546	54.01466	0.50546	54.01466	0.83489	-33.38615
2850	0.83396	-33.33186	0.50722	53.6472	0.50722	53.6472	0.83396	-33.33186
2870	0.8317	-33.91624	0.51697	53.36818	0.51697	53.36818	0.8317	-33.91624
2890	0.82438	-34.29538	0.52209	52.80972	0.52209	52.80972	0.82438	-34.29538
2910	0.81727	-34.70509	0.52525	52.36304	0.52525	52.36304	0.81727	-34.70509
2930	0.81272	-35.1726	0.52917	52.12345	0.52917	52.12345	0.81272	-35.1726
2950	0.81019	-35.5166	0.53656	51.89036	0.53656	51.89036	0.81019	-35.5166
2970	0.80368	-35.80879	0.54072	51.28409	0.54072	51.28409	0.80368	-35.80879
2990	0.79678	-36.60005	0.54435	50.79745	0.54435	50.79745	0.79678	-36.60005
3010	0.79191	-37.16688	0.5463	50.38273	0.5463	50.38273	0.79191	-37.16688
3030	0.79103	-37.35068	0.54918	50.08681	0.54918	50.08681	0.79103	-37.35068
3050	0.79568	-37.55774	0.5593	50.05113	0.5593	50.05113	0.79568	-37.55774
3070	0.78573	-38.08377	0.56566	48.92415	0.56566	48.92415	0.78573	-38.08377
3090	0.7762	-38.37964	0.56751	48.15516	0.56751	48.15516	0.7762	-38.37964
3110	0.76869	-38.72019	0.57317	47.84876	0.57317	47.84876	0.76869	-38.72019
3130	0.76371	-39.26455	0.58269	47.69407	0.58269	47.69407	0.76371	-39.26455
3150	0.76069	-40.05603	0.5879	46.96464	0.5879	46.96464	0.76069	-40.05603
3170	0.74667	-40.24705	0.58826	46.53625	0.58826	46.53625	0.74667	-40.24705
3190	0.74478	-40.5295	0.59716	46.11788	0.59716	46.11788	0.74478	-40.5295
3210	0.74138	-40.93763	0.60271	45.50926	0.60271	45.50926	0.74138	-40.93763
3230	0.73144	-41.36793	0.60313	44.78957	0.60313	44.78957	0.73144	-41.36793
3250	0.71859	-41.57918	0.60683	44.31743	0.60683	44.31743	0.71859	-41.57918
3270	0.71333	-41.75009	0.61622	43.55048	0.61622	43.55048	0.71333	-41.75009
3290	0.70236	-42.57632	0.6183	42.63019	0.6183	42.63019	0.70236	-42.57632
3310	0.69046	-43.29048	0.62286	41.88681	0.62286	41.88681	0.69046	-43.29048
3330	0.6802	-43.83257	0.63184	41.22102	0.63184	41.22102	0.6802	-43.83257
3350	0.67188	-44.85002	0.63942	40.10388	0.63942	40.10388	0.67188	-44.85002
3370	0.65971	-45.0536	0.64433	39.09143	0.64433	39.09143	0.65971	-45.0536
3390	0.64662	-45.21105	0.64667	38.03874	0.64667	38.03874	0.64662	-45.21105
3410	0.63061	-45.25988	0.65039	36.87541	0.65039	36.87541	0.63061	-45.25988
3430	0.61221	-45.367	0.65621	35.49199	0.65621	35.49199	0.61221	-45.367
3450	0.59444	-45.92872	0.66153	33.73992	0.66153	33.73992	0.59444	-45.92872
3470	0.56655	-45.61882	0.65732	32.20588	0.65732	32.20588	0.56655	-45.61882
3490	0.54227	-45.00407	0.65938	30.59476	0.65938	30.59476	0.54227	-45.00407
3510	0.51818	-44.22444	0.66146	28.57459	0.66146	28.57459	0.51818	-44.22444
3530	0.49282	-43.03194	0.65832	26.12268	0.65832	26.12268	0.49282	-43.03194
3550	0.46671	-40.79066	0.64581	23.52566	0.64581	23.52566	0.46671	-40.79066
3570	0.45065	-37.17173	0.63105	20.81201	0.63105	20.81201	0.45065	-37.17173
3590	0.43998	-32.42364	0.60682	17.99776	0.60682	17.99776	0.43998	-32.42364
3610	0.44167	-26.57922	0.57539	15.51091	0.57539	15.51091	0.44167	-26.57922
3630	0.45999	-20.5919	0.53851	13.44576	0.53851	13.44576	0.45999	-20.5919
3650	0.4965	-16.33578	0.4974	11.56295	0.4974	11.56295	0.4965	-16.33578
3670	0.5398	-14.23429	0.44788	11.8437	0.44788	11.8437	0.5398	-14.23429
3690	0.5851	-13.3609	0.40404	14.11403	0.40404	14.11403	0.5851	-13.3609
3710	0.63258	-13.8639	0.37065	18.05041	0.37065	18.05041	0.63258	-13.8639
3730	0.6771	-15.5068	0.34931	23.14678	0.34931	23.14678	0.6771	-15.5068
3750	0.70828	-17.6683	0.3384	28.71458	0.3384	28.71458	0.70828	-17.6683
3770	0.73144	-19.17389	0.34088	34.60351	0.34088	34.60351	0.73144	-19.17389
3790	0.75404	-21.37221	0.35273	39.10035	0.35273	39.10035	0.75404	-21.37221
3810	0.76895	-23.42683	0.3681	42.49822	0.3681	42.49822	0.76895	-23.42683
3830	0.77615	-25.09326	0.38394	45.08862	0.38394	45.08862	0.77615	-25.09326
3850	0.78267	-26.71891	0.39995	47.16137	0.39995	47.16137	0.78267	-26.71891
3870	0.78508	-28.47541	0.41501	48.24472	0.41501	48.24472	0.78508	-28.47541
3890	0.78513	-29.73344	0.43283	49.12007	0.43283	49.12007	0.78513	-29.73344
3910	0.78637	-31.11978	0.44918	49.59134	0.44918	49.59134	0.78637	-31.11978
3930	0.78692	-32.61645	0.46251	49.66009	0.46251	49.66009	0.78692	-32.61645
3950	0.77947	-33.56066	0.47395	49.52555	0.47395	49.52555	0.77947	-33.56066
3970	0.78016	-34.589	0.48733	50.23549	0.48733	50.23549	0.78016	-34.589
3990	0.78191	-35.92075	0.50013	49.79565	0.50013	49.79565	0.78191	-35.92075
4010	0.78022	-36.92222	0.50995	49.28481	0.50995	49.28481	0.78022	-36.92222
4030	0.77575	-37.56043	0.51745	49.07508	0.51745	49.07508	0.77575	-37.56043
4050	0.77425	-38.40305	0.52633	48.83189	0.52633	48.83189	0.77425	-38.40305
4070	0.77211	-38.97144	0.53496	48.85512	0.53496	48.85512	0.77211	-38.97144
4090	0.76714	-39.71209	0.54564	48.36039	0.54564	48.36039	0.76714	-39.71209
4110	0.7596	-40.48266	0.5528	47.98826	0.5528	47.98826	0.7596	-40.48266
4130	0.7524	-41.15005	0.55696	47.91836	0.55696	47.91836	0.7524	-41.15005
4150	0.75108	-41.59043	0.5647	47.8694	0.5647	47.8694	0.75108	-41.59043
4170	0.75154	-42.78739	0.57707	47.10518	0.57707	47.10518	0.75154	-42.78739
4190	0.74446	-43.52351	0.57892	46.68712	0.57892	46.68712	0.74446	-43.52351
4210	0.74163	-44.06701	0.58209	46.53547	0.58209	46.53547	0.74163	-44.06701
4230	0.74382	-44.67149	0.58941	46.37849	0.58941	46.37849	0.74382	-44.67149
4250	0.7407	-45.57589	0.59477	45.75254	0.59477	45.75254	0.7407	-45.57589
4270	0.73477	-45.65339	0.59989	45.886	0.59989	45.886	0.73477	-45.65339
4290	0.7322	-46.21647	0.60561	45.57376	0.60561	45.57376	0.7322	-46.21647
4310	0.72823	-46.85896	0.6096	45.12752	0.6096	45.12752	0.72823	-46.85896
4330	0.72239	-47.3996	0.61258	44.81341	0.61258	44.81341	0.72239	-47.3996
4350	0.71846	-47.882	0.61829	44.85202	0.61829	44.85202	0.71846	-47.882
4370	0.71706	-48.76004	0.62535	44.18017	0.62535	44.18017	0.71706	-48.76004
4390	0.71446	-49.36671	0.62701	43.75757	0.62701	43.75757	0.71446	-49.36671
4410	0.71443	-49.68808	0.63205	43.46609	0.63205	43.46609	0.71443	-49.68808
4430	0.71571	-49.88357	0.63987	43.24682	0.63987	43.24682	0.71571	-49.88357
4450	0.71208	-50.28592	0.64048	43.10011	0.64048	43.10011	0.71208	-50.28592
4470	0.70758	-50.48425	0.64631	42.89568	0.64631	42.89568	0.70758	-50.48425
4490	0.70273	-51.06187	0.6473	42.36897	0.6473	42.36897	0.70273	-51.06187
4510	0.69479	-51.40494	0.64632	42.19544	0.64632	42.19544	0.69479	-51.40494
4530	0.68774	-51.49563	0.64809	42.39829	0.64809	42.39829	0.68774	-51.49563
4550	0.69231	-51.91214	0.65911	42.34846	0.65911	42.34846	0.69231	-51.91214
4570	0.68632	-52.96086	0.66027	41.17261	0.66027	41.17261	0.68632	-52.96086
4590	0.68095	-53.24708	0.66139	40.97594	0.66139	40.97594	0.68095	-53.24708
4610	0.67986	-53.37827	0.66584	41.05938	0.66584	41.05938	0.67986	-53.37827
4630	0.68107	-53.81249	0.6719	40.90751	0.6719	40.90751	0.68107	-53.81249
4650	0.67694	-54.85837	0.67277	40.18859	0.67277	40.18859	0.67694	-54.85837
4670	0.66773	-54.66445	0.67259	40.02198	0.67259	40.02198	0.66773	-54.66445
4690	0.66687	-54.94564	0.67576	39.62066	0.67576	39.62066	0.66687	-54.94564
4710	0.66504	-55.37019	0.67781	39.28249	0.67781	39.28249	0.66504	-55.37019
4730	0.65952	-55.78207	0.67973	39.10062	0.67973	39.10062	0.65952	-55.78207
4750	0.6542	-56.20096	0.68803	38.96343	0.68803	38.96343	0.6542	-56.20096
4770	0.64857	-56.4494	0.68695	38.82934	0.68695	38.82934	0.64857	-56.4494
4790	0.64853	-56.82651	0.6904	38.71728	0.6904	38.71728	0.64853	-56.82651
4810	0.64742	-57.37362	0.69473	38.3683	0.69473	38.3683	0.64742	-57.37362
4830	0.64353	-57.90622	0.69727	37.8581	0.69727	37.8581	0.64353	-57.90622
4850	0.64012	-58.01402	0.69638	37.59707	0.69638	37.59707	0.64012	-58.01402
4870	0.63922	-58.07414	0.69975	37.30525	0.69975	37.30525	0.63922	-58.07414
4890	0.63404	-58.58468	0.69848	37.07325	0.69848	37.07325	0.63404	-58.58468
4910	0.62778	-58.7626	0.69837	36.88015	0.69837	36.88015	0.62778	-58.7626
4930	0.62326	-58.76298	0.70196	36.58291	0.70196	36.58291	0.62326	-58.76298
4950	0.62293	-59.67891	0.70857	35.91634	0.70857	35.91634	0.62293	-59.67891
4970	0.61634	-60.04645	0.70328	35.8673	0.70328	35.8673	0.61634	-60.04645
4990	0.61384	-60.05478	0.70582	35.65705	0.70582	35.65705	0.61384	-60.05478
5010	0.61407	-60.22966	0.71159	35.23842	0.71159	35.23842	0.61407	-60.22966
5030	0.61356	-60.54362	0.71499	34.75391	0.71499	34.75391	0.61356	-60.54362
5050	0.60664	-60.416	0.70943	34.53569	0.70943	34.53569	0.60664	-60.416
5070	0.60575	-60.01623	0.71181	34.43265	0.71181	34.43265	0.60575	-60.01623
5090	0.60575	-59.78262	0.71304	34.17501	0.71304	34.17501	0.60575	-59.78262
5110	0.60069	-59.61714	0.71292	33.74499	0.71292	33.74499	0.60069	-59.61714
5130	0.59175	-59.43568	0.71123	33.39801	0.71123	33.39801	0.59175	-59.43568
5150	0.58734	-59.16797	0.70769	33.66266	0.70769	33.66266	0.58734	-59.16797
5170	0.59355	-59.16619	0.71008	33.60052	0.71008	33.60052	0.59355	-59.16619
5190	0.59434	-59.5586	0.70834	33.38167	0.70834	33.38167	0.59434	-59.5586
5210	0.59209	-59.40974	0.70732	33.28016	0.70732	33.28016	0.59209	-59.40974
5230	0.5919	-58.72628	0.70948	33.39498	0.70948	33.39498	0.5919	-58.72628
5250	0.60162	-58.45704	0.71492	33.65005	0.71492	33.65005	0.60162	-58.45704
5270	0.59912	-59.46355	0.71373	33.24593	0.71373	33.24593	0.59912	-59.46355
5290	0.593	-59.49374	0.7146	33.31378	0.7146	33.31378	0.593	-59.49374
5310	0.5923	-59.33754	0.721	33.54248	0.721	33.54248	0.5923	-59.33754
5330	0.59653	-59.64774	0.72836	33.43267	0.72836	33.43267	0.59653	-59.64774
5350	0.59568	-60.93998	0.72401	32.29671	0.72401	32.29671	0.59568	-60.93998
5370	0.58876	-61.13132	0.72561	32.73805	0.72561	32.73805	0.58876	-61.13132
5390	0.58734	-60.84223	0.73329	32.75419	0.73329	32.75419	0.58734	-60.84223
5410	0.58823	-60.83449	0.73707	32.44299	0.73707	32.44299	0.58823	-60.83449
