! P/N: L-07C82NJVT								
! Measured by Marlon								
! Oct. 13, 2003								
! Measure with Series-through-Fixture								
#	mhz	s	ma	r	50
0	0.00000	90.0000	0.99999	0.00000	0.99999	0.00000	0.00000	90.0000			
50	0.24954	62.63585	0.90268	-12.75593	0.90268	-12.75593	0.24954	62.63585
70	0.32728	58.78152	0.87559	-18.59558	0.87559	-18.59558	0.32728	58.78152
90	0.39631	56.02868	0.84206	-22.904	0.84206	-22.904	0.39631	56.02868
110	0.4626	53.29646	0.81146	-26.91136	0.81146	-26.91136	0.4626	53.29646
130	0.52533	50.25295	0.78216	-31.04409	0.78216	-31.04409	0.52533	50.25295
150	0.57694	47.31511	0.74159	-34.9248	0.74159	-34.9248	0.57694	47.31511
170	0.6234	44.88513	0.70865	-37.78118	0.70865	-37.78118	0.6234	44.88513
190	0.66258	42.14636	0.67746	-41.09261	0.67746	-41.09261	0.66258	42.14636
210	0.69931	39.73603	0.64342	-44.1587	0.64342	-44.1587	0.69931	39.73603
230	0.73512	37.58948	0.60844	-46.73141	0.60844	-46.73141	0.73512	37.58948
250	0.76816	34.94018	0.58093	-49.01511	0.58093	-49.01511	0.76816	34.94018
270	0.7812	32.51749	0.54679	-51.61085	0.54679	-51.61085	0.7812	32.51749
290	0.80405	31.04484	0.51876	-53.46882	0.51876	-53.46882	0.80405	31.04484
310	0.8285	29.33229	0.4924	-55.51601	0.4924	-55.51601	0.8285	29.33229
330	0.8471	27.20253	0.4651	-57.78007	0.4651	-57.78007	0.8471	27.20253
350	0.8532	25.49084	0.43613	-59.38932	0.43613	-59.38932	0.8532	25.49084
370	0.87583	23.98877	0.41677	-61.04763	0.41677	-61.04763	0.87583	23.98877
390	0.88944	22.38636	0.39375	-63.02328	0.39375	-63.02328	0.88944	22.38636
410	0.9010	21.08435	0.37006	-64.48783	0.37006	-64.48783	0.9010	21.08435
430	0.9130	19.99536	0.34828	-65.43748	0.34828	-65.43748	0.9130	19.99536
450	0.9235	18.54392	0.33066	-66.69309	0.33066	-66.69309	0.9235	18.54392
470	0.93007	17.47486	0.30915	-68.27288	0.30915	-68.27288	0.93007	17.47486
490	0.94732	16.32568	0.27849	-70.5672	0.27849	-70.5672	0.94732	16.32568
510	0.96313	15.56718	0.25396	-72.64226	0.25396	-72.64226	0.96313	15.56718
530	0.97053	15.20234	0.23854	-74.0152	0.23854	-74.0152	0.97053	15.20234
550	0.96769	14.76637	0.22296	-74.65409	0.22296	-74.65409	0.96769	14.76637
570	0.96847	14.00015	0.2089	-75.4652	0.2089	-75.4652	0.96847	14.00015
590	0.97396	13.31988	0.19411	-76.25012	0.19411	-76.25012	0.97396	13.31988
610	0.97704	12.31424	0.18011	-76.83984	0.18011	-76.83984	0.97704	12.31424
630	0.97642	11.01847	0.16719	-77.37521	0.16719	-77.37521	0.97642	11.01847
650	0.97662	9.91443	0.15438	-78.3069	0.15438	-78.3069	0.97662	9.91443
670	0.98135	9.54853	0.14101	-78.65179	0.14101	-78.65179	0.98135	9.54853
690	0.99175	8.96657	0.12875	-79.09127	0.12875	-79.09127	0.99175	8.96657
710	0.99723	8.43818	0.11707	-79.50786	0.11707	-79.50786	0.99723	8.43818
730	0.99589	8.05152	0.10577	-79.85382	0.10577	-79.85382	0.99589	8.05152
750	0.99453	7.71338	0.09492	-80.15116	0.09492	-80.15116	0.99453	7.71338
770	0.99644	7.04219	0.08444	-80.33459	0.08444	-80.33459	0.99644	7.04219
790	0.99628	6.32329	0.07382	-80.1597	0.07382	-80.1597	0.99628	6.32329
810	0.9977	5.64004	0.06384	-79.53737	0.06384	-79.53737	0.9977	5.64004
830	0.99991	4.98275	0.05439	-78.53743	0.05439	-78.53743	0.99991	4.98275
850	0.99768	4.24869	0.04452	-77.38865	0.04452	-77.38865	0.99768	4.24869
870	0.99914	4.17228	0.03508	-74.50344	0.03508	-74.50344	0.99914	4.17228
890	1.00534	3.63536	0.02637	-69.52115	0.02637	-69.52115	1.00534	3.63536
910	1.00619	3.12115	0.01831	-58.69737	0.01831	-58.69737	1.00619	3.12115
930	1.00177	2.80993	0.01185	-35.08664	0.01185	-35.08664	1.00177	2.80993
950	1.00236	2.57912	0.00893	11.45754	0.00893	11.45754	1.00236	2.57912
970	1.00184	1.75322	0.0141	44.25811	0.0141	44.25811	1.00184	1.75322
990	0.99769	1.19441	0.02089	60.67279	0.02089	60.67279	0.99769	1.19441
1010	0.99606	0.65283	0.02845	68.31631	0.02845	68.31631	0.99606	0.65283
1030	0.9973	0.12896	0.0362	72.09368	0.0362	72.09368	0.9973	0.12896
1050	0.99597	-0.1264	0.04385	74.20011	0.04385	74.20011	0.99597	-0.1264
1070	1.00017	-0.51428	0.05131	75.59986	0.05131	75.59986	1.00017	-0.51428
1090	0.99704	-0.89242	0.05899	76.01838	0.05899	76.01838	0.99704	-0.89242
1110	0.99221	-1.27731	0.06658	76.30077	0.06658	76.30077	0.99221	-1.27731
1130	0.98841	-1.6634	0.07406	76.65306	0.07406	76.65306	0.98841	-1.6634
1150	0.98548	-2.02312	0.08165	76.64222	0.08165	76.64222	0.98548	-2.02312
1170	0.97989	-2.83604	0.08871	77.00503	0.08871	77.00503	0.97989	-2.83604
1190	0.97883	-3.57501	0.09589	77.08539	0.09589	77.08539	0.97883	-3.57501
1210	0.97706	-4.35217	0.10285	76.92193	0.10285	76.92193	0.97706	-4.35217
1230	0.97588	-5.04518	0.10949	76.74747	0.10949	76.74747	0.97588	-5.04518
1250	0.98308	-5.29717	0.11593	76.98899	0.11593	76.98899	0.98308	-5.29717
1270	0.99082	-6.02609	0.12279	76.70084	0.12279	76.70084	0.99082	-6.02609
1290	0.98968	-6.62342	0.12937	76.24177	0.12937	76.24177	0.98968	-6.62342
1310	0.98685	-6.82411	0.1355	75.96392	0.1355	75.96392	0.98685	-6.82411
1330	0.98797	-6.80705	0.14173	75.81359	0.14173	75.81359	0.98797	-6.80705
1350	0.99705	-7.19506	0.14935	75.33122	0.14935	75.33122	0.99705	-7.19506
1370	0.9869	-7.75419	0.15485	75.07929	0.15485	75.07929	0.9869	-7.75419
1390	0.98427	-8.1273	0.1615	74.94406	0.1615	74.94406	0.98427	-8.1273
1410	0.98504	-8.56555	0.16786	74.59413	0.16786	74.59413	0.98504	-8.56555
1430	0.98558	-9.06401	0.17336	74.15972	0.17336	74.15972	0.98558	-9.06401
1450	0.98269	-9.3617	0.17832	74.23273	0.17832	74.23273	0.98269	-9.3617
1470	0.98988	-9.65647	0.18515	73.95681	0.18515	73.95681	0.98988	-9.65647
1490	0.9862	-10.03009	0.19095	73.55634	0.19095	73.55634	0.9862	-10.03009
1510	0.98201	-10.16822	0.19643	73.13127	0.19643	73.13127	0.98201	-10.16822
1530	0.98117	-10.12213	0.20192	72.75015	0.20192	72.75015	0.98117	-10.12213
1550	0.98092	-10.30867	0.20742	72.4501	0.20742	72.4501	0.98092	-10.30867
1570	0.9724	-11.04013	0.21357	71.95388	0.21357	71.95388	0.9724	-11.04013
1590	0.96633	-11.41393	0.21932	71.61495	0.21932	71.61495	0.96633	-11.41393
1610	0.96318	-11.78807	0.22514	71.31547	0.22514	71.31547	0.96318	-11.78807
1630	0.96303	-12.30523	0.23107	71.04475	0.23107	71.04475	0.96303	-12.30523
1650	0.96547	-12.89281	0.23669	70.89926	0.23669	70.89926	0.96547	-12.89281
1670	0.96092	-13.6697	0.24154	70.36764	0.24154	70.36764	0.96092	-13.6697
1690	0.9583	-13.76505	0.24725	70.26127	0.24725	70.26127	0.9583	-13.76505
1710	0.95918	-13.91632	0.25311	69.99759	0.25311	69.99759	0.95918	-13.91632
1730	0.96039	-14.37644	0.25873	69.52891	0.25873	69.52891	0.96039	-14.37644
1750	0.95407	-14.91371	0.26401	69.34241	0.26401	69.34241	0.95407	-14.91371
1770	0.9496	-14.89567	0.27009	69.22834	0.27009	69.22834	0.9496	-14.89567
1790	0.94709	-15.44359	0.2749	68.80368	0.2749	68.80368	0.94709	-15.44359
1810	0.94335	-16.08165	0.27931	68.45626	0.27931	68.45626	0.94335	-16.08165
1830	0.93971	-16.64442	0.28433	68.32326	0.28433	68.32326	0.93971	-16.64442
1850	0.94207	-17.27685	0.29116	68.29115	0.29116	68.29115	0.94207	-17.27685
1870	0.94375	-17.91379	0.29529	67.67799	0.29529	67.67799	0.94375	-17.91379
1890	0.9404	-18.06096	0.29874	67.42762	0.29874	67.42762	0.9404	-18.06096
1910	0.93887	-18.14081	0.30395	67.28718	0.30395	67.28718	0.93887	-18.14081
1930	0.9403	-18.42839	0.3107	67.05087	0.3107	67.05087	0.9403	-18.42839
1950	0.94017	-19.05131	0.31608	66.55989	0.31608	66.55989	0.94017	-19.05131
1970	0.93507	-19.35456	0.31842	66.04315	0.31842	66.04315	0.93507	-19.35456
1990	0.93673	-19.76135	0.32351	65.95237	0.32351	65.95237	0.93673	-19.76135
2010	0.93693	-20.15352	0.32929	65.80703	0.32929	65.80703	0.93693	-20.15352
2030	0.93375	-20.5668	0.33454	65.40189	0.33454	65.40189	0.93375	-20.5668
2050	0.93155	-21.19073	0.33886	64.80698	0.33886	64.80698	0.93155	-21.19073
2070	0.92952	-21.12956	0.34329	64.59674	0.34329	64.59674	0.92952	-21.12956
2090	0.93203	-21.54094	0.34864	64.51676	0.34864	64.51676	0.93203	-21.54094
2110	0.93132	-21.92884	0.35404	64.25354	0.35404	64.25354	0.93132	-21.92884
2130	0.92594	-22.12735	0.35885	63.8498	0.35885	63.8498	0.92594	-22.12735
2150	0.92083	-22.30071	0.36263	63.7045	0.36263	63.7045	0.92083	-22.30071
2170	0.91912	-22.72551	0.36877	63.22025	0.36877	63.22025	0.91912	-22.72551
2190	0.91841	-23.1024	0.37313	62.93282	0.37313	62.93282	0.91841	-23.1024
2210	0.91581	-23.43178	0.37791	62.82	0.37791	62.82	0.91581	-23.43178
2230	0.91267	-23.79347	0.38361	62.6649	0.38361	62.6649	0.91267	-23.79347
2250	0.91459	-24.34665	0.38905	62.056	0.38905	62.056	0.91459	-24.34665
2270	0.90411	-24.59375	0.39068	61.91134	0.39068	61.91134	0.90411	-24.59375
2290	0.9049	-24.62027	0.39718	61.90704	0.39718	61.90704	0.9049	-24.62027
2310	0.9062	-25.05045	0.40321	61.44163	0.40321	61.44163	0.9062	-25.05045
2330	0.90178	-25.74331	0.40658	60.69026	0.40658	60.69026	0.90178	-25.74331
2350	0.8899	-25.79264	0.40824	60.60468	0.40824	60.60468	0.8899	-25.79264
2370	0.8906	-25.88946	0.41497	60.57072	0.41497	60.57072	0.8906	-25.88946
2390	0.89017	-26.55023	0.42154	60.16507	0.42154	60.16507	0.89017	-26.55023
2410	0.88676	-27.34226	0.42661	59.68879	0.42661	59.68879	0.88676	-27.34226
2430	0.88169	-28.00921	0.42976	59.39215	0.42976	59.39215	0.88169	-28.00921
2450	0.8794	-28.47097	0.43158	59.47468	0.43158	59.47468	0.8794	-28.47097
2470	0.88545	-28.28438	0.44047	59.08816	0.44047	59.08816	0.88545	-28.28438
2490	0.8818	-28.6789	0.44414	58.71519	0.44414	58.71519	0.8818	-28.6789
2510	0.87692	-29.06288	0.4468	58.35107	0.4468	58.35107	0.87692	-29.06288
2530	0.87429	-29.17776	0.45065	58.03277	0.45065	58.03277	0.87429	-29.17776
2550	0.87241	-29.09802	0.45584	57.83889	0.45584	57.83889	0.87241	-29.09802
2570	0.86843	-29.73572	0.45716	57.51555	0.45716	57.51555	0.86843	-29.73572
2590	0.8635	-30.00648	0.46299	57.39961	0.46299	57.39961	0.8635	-30.00648
2610	0.85915	-30.48392	0.46964	57.08513	0.46964	57.08513	0.85915	-30.48392
2630	0.85596	-31.1529	0.47456	56.57061	0.47456	56.57061	0.85596	-31.1529
2650	0.8536	-31.40956	0.47636	56.25903	0.47636	56.25903	0.8536	-31.40956
2670	0.85549	-31.62187	0.48327	56.36055	0.48327	56.36055	0.85549	-31.62187
2690	0.85283	-31.84001	0.48843	55.88493	0.48843	55.88493	0.85283	-31.84001
2710	0.8481	-32.30365	0.49197	55.36508	0.49197	55.36508	0.8481	-32.30365
2730	0.8435	-32.78125	0.49532	55.09761	0.49532	55.09761	0.8435	-32.78125
2750	0.84093	-32.57007	0.50118	55.14289	0.50118	55.14289	0.84093	-32.57007
2770	0.8424	-33.24004	0.50653	54.79759	0.50653	54.79759	0.8424	-33.24004
2790	0.83718	-33.62663	0.50954	54.36415	0.50954	54.36415	0.83718	-33.62663
2810	0.83427	-33.8887	0.51328	54.12655	0.51328	54.12655	0.83427	-33.8887
2830	0.83495	-34.04898	0.51783	54.03547	0.51783	54.03547	0.83495	-34.04898
2850	0.83282	-33.99403	0.52023	53.70822	0.52023	53.70822	0.83282	-33.99403
2870	0.82868	-34.50747	0.52711	53.27641	0.52711	53.27641	0.82868	-34.50747
2890	0.82344	-34.97334	0.53167	52.8159	0.53167	52.8159	0.82344	-34.97334
2910	0.81804	-35.41507	0.53449	52.44683	0.53449	52.44683	0.81804	-35.41507
2930	0.81373	-35.79478	0.53733	52.22926	0.53733	52.22926	0.81373	-35.79478
2950	0.81202	-36.01328	0.54322	52.16313	0.54322	52.16313	0.81202	-36.01328
2970	0.8098	-36.39158	0.54971	51.67913	0.54971	51.67913	0.8098	-36.39158
2990	0.80243	-37.02146	0.5538	51.25746	0.5538	51.25746	0.80243	-37.02146
3010	0.79636	-37.49487	0.55527	50.95045	0.55527	50.95045	0.79636	-37.49487
3030	0.795	-37.73575	0.5572	50.76039	0.5572	50.76039	0.795	-37.73575
3050	0.79875	-37.99997	0.56589	50.6395	0.56589	50.6395	0.79875	-37.99997
3070	0.79148	-38.56574	0.57021	49.80409	0.57021	49.80409	0.79148	-38.56574
3090	0.78399	-38.69283	0.57191	49.28605	0.57191	49.28605	0.78399	-38.69283
3110	0.77928	-38.856	0.57602	49.11704	0.57602	49.11704	0.77928	-38.856
3130	0.77749	-39.32084	0.58319	49.02422	0.58319	49.02422	0.77749	-39.32084
3150	0.77592	-40.14373	0.58967	48.43024	0.58967	48.43024	0.77592	-40.14373
3170	0.76528	-40.59235	0.5876	48.09982	0.5876	48.09982	0.76528	-40.59235
3190	0.7657	-40.66659	0.5956	47.92377	0.5956	47.92377	0.7657	-40.66659
3210	0.76595	-40.84467	0.60149	47.68687	0.60149	47.68687	0.76595	-40.84467
3230	0.76061	-41.17621	0.60232	47.34512	0.60232	47.34512	0.76061	-41.17621
3250	0.75012	-41.28219	0.60434	47.02584	0.60434	47.02584	0.75012	-41.28219
3270	0.7435	-41.52819	0.61145	46.72152	0.61145	46.72152	0.7435	-41.52819
3290	0.73829	-42.22017	0.61658	46.08497	0.61658	46.08497	0.73829	-42.22017
3310	0.73385	-42.79908	0.61996	45.68454	0.61996	45.68454	0.73385	-42.79908
3330	0.72967	-43.24342	0.62334	45.51393	0.62334	45.51393	0.72967	-43.24342
3350	0.72533	-44.06925	0.62994	44.99215	0.62994	44.99215	0.72533	-44.06925
3370	0.72362	-44.36797	0.6354	44.39261	0.6354	44.39261	0.72362	-44.36797
3390	0.71908	-44.54612	0.63674	43.99799	0.63674	43.99799	0.71908	-44.54612
3410	0.71563	-44.67217	0.6402	43.65869	0.6402	43.65869	0.71563	-44.67217
3430	0.71207	-44.90132	0.64745	43.25151	0.64745	43.25151	0.71207	-44.90132
3450	0.70204	-45.47552	0.65555	42.67954	0.65555	42.67954	0.70204	-45.47552
3470	0.68838	-46.00346	0.65174	42.1121	0.65174	42.1121	0.68838	-46.00346
3490	0.68078	-46.26394	0.65654	41.95055	0.65654	41.95055	0.68078	-46.26394
3510	0.67756	-46.80225	0.66571	41.57852	0.66571	41.57852	0.67756	-46.80225
3530	0.67388	-47.66321	0.6728	40.89429	0.6728	40.89429	0.67388	-47.66321
3550	0.66176	-48.39115	0.66914	40.31078	0.66914	40.31078	0.66176	-48.39115
3570	0.66007	-48.84459	0.67812	39.90003	0.67812	39.90003	0.66007	-48.84459
3590	0.65407	-49.53316	0.68297	39.17584	0.68297	39.17584	0.65407	-49.53316
3610	0.64478	-49.8997	0.68652	38.61116	0.68652	38.61116	0.64478	-49.8997
3630	0.63505	-50.03354	0.69086	38.17817	0.69086	38.17817	0.63505	-50.03354
3650	0.62954	-50.67043	0.69737	37.3483	0.69737	37.3483	0.62954	-50.67043
3670	0.61726	-51.35509	0.70017	36.56082	0.70017	36.56082	0.61726	-51.35509
3690	0.6058	-51.72309	0.70432	35.7258	0.70432	35.7258	0.6058	-51.72309
3710	0.59505	-52.19337	0.71019	34.81836	0.71019	34.81836	0.59505	-52.19337
3730	0.58355	-52.84148	0.71593	33.84286	0.71593	33.84286	0.58355	-52.84148
3750	0.56853	-53.39952	0.71742	32.8329	0.71742	32.8329	0.56853	-53.39952
3770	0.55593	-53.56433	0.72164	32.14093	0.72164	32.14093	0.55593	-53.56433
3790	0.54097	-54.1776	0.7264	30.86727	0.7264	30.86727	0.54097	-54.1776
3810	0.52193	-54.41152	0.72978	29.61757	0.72978	29.61757	0.52193	-54.41152
3830	0.50014	-54.18747	0.73192	28.48116	0.73192	28.48116	0.50014	-54.18747
3850	0.47998	-54.17605	0.73502	27.03103	0.73502	27.03103	0.47998	-54.17605
3870	0.45567	-53.77519	0.73046	25.56966	0.73046	25.56966	0.45567	-53.77519
3890	0.43147	-52.90351	0.73171	23.83369	0.73171	23.83369	0.43147	-52.90351
3910	0.40778	-51.60065	0.72943	21.78716	0.72943	21.78716	0.40778	-51.60065
3930	0.38428	-49.59568	0.72068	19.5268	0.72068	19.5268	0.38428	-49.59568
3950	0.35994	-46.30714	0.70892	17.28207	0.70892	17.28207	0.35994	-46.30714
3970	0.34232	-40.80218	0.69366	15.21607	0.69366	15.21607	0.34232	-40.80218
3990	0.33517	-34.35807	0.67023	12.446	0.67023	12.446	0.33517	-34.35807
4010	0.3409	-27.1427	0.63996	9.81918	0.63996	9.81918	0.3409	-27.1427
4030	0.36121	-19.95303	0.60309	7.66837	0.60309	7.66837	0.36121	-19.95303
4050	0.39712	-14.21511	0.55875	5.81179	0.55875	5.81179	0.39712	-14.21511
4070	0.44681	-11.16155	0.50893	5.42861	0.50893	5.42861	0.44681	-11.16155
4090	0.5005	-10.32795	0.46271	6.08489	0.46271	6.08489	0.5005	-10.32795
4110	0.55144	-11.09279	0.41948	8.50893	0.41948	8.50893	0.55144	-11.09279
4130	0.59646	-12.77387	0.38219	12.89013	0.38219	12.89013	0.59646	-12.77387
4150	0.63597	-14.62839	0.35741	18.87896	0.35741	18.87896	0.63597	-14.62839
4170	0.67226	-17.93982	0.3562	24.93819	0.3562	24.93819	0.67226	-17.93982
4190	0.6947	-21.07635	0.35849	30.47415	0.35849	30.47415	0.6947	-21.07635
4210	0.71314	-23.80786	0.36862	35.3881	0.36862	35.3881	0.71314	-23.80786
4230	0.73031	-26.25535	0.38618	39.3462	0.38618	39.3462	0.73031	-26.25535
4250	0.74187	-28.89092	0.40601	41.77946	0.40601	41.77946	0.74187	-28.89092
4270	0.74521	-30.52186	0.42587	43.85539	0.42587	43.85539	0.74521	-30.52186
4290	0.74875	-32.43585	0.4467	44.96714	0.4467	44.96714	0.74875	-32.43585
4310	0.74981	-34.36335	0.46543	45.56839	0.46543	45.56839	0.74981	-34.36335
4330	0.74796	-36.0549	0.48216	46.00709	0.48216	46.00709	0.74796	-36.0549
4350	0.745	-37.2811	0.50015	46.52545	0.50015	46.52545	0.745	-37.2811
4370	0.74589	-39.14537	0.51578	46.22634	0.51578	46.22634	0.74589	-39.14537
4390	0.74287	-40.53028	0.52768	45.99371	0.52768	45.99371	0.74287	-40.53028
4410	0.74292	-41.55597	0.54192	45.83501	0.54192	45.83501	0.74292	-41.55597
4430	0.74509	-42.44827	0.55678	45.7858	0.55678	45.7858	0.74509	-42.44827
4450	0.74043	-43.53873	0.56268	45.90973	0.56268	45.90973	0.74043	-43.53873
4470	0.73762	-44.16413	0.57492	45.3565	0.57492	45.3565	0.73762	-44.16413
4490	0.73181	-45.30873	0.58352	44.80808	0.58352	44.80808	0.73181	-45.30873
4510	0.72293	-46.07257	0.58921	44.6281	0.58921	44.6281	0.72293	-46.07257
4530	0.71532	-46.44963	0.59599	44.68755	0.59599	44.68755	0.71532	-46.44963
4550	0.71773	-47.32793	0.61116	44.36476	0.61116	44.36476	0.71773	-47.32793
4570	0.70932	-48.73268	0.6149	43.41112	0.6149	43.41112	0.70932	-48.73268
4590	0.70414	-49.26499	0.61916	43.17892	0.61916	43.17892	0.70414	-49.26499
4610	0.70377	-49.61691	0.62615	43.24673	0.62615	43.24673	0.70377	-49.61691
4630	0.70501	-50.24803	0.63413	43.10181	0.63413	43.10181	0.70501	-50.24803
4650	0.69986	-51.38545	0.63751	42.14011	0.63751	42.14011	0.69986	-51.38545
4670	0.68915	-51.68276	0.64092	41.98247	0.64092	41.98247	0.68915	-51.68276
4690	0.6881	-52.02524	0.64859	41.70879	0.64859	41.70879	0.6881	-52.02524
4710	0.68711	-52.5812	0.65513	41.39594	0.65513	41.39594	0.68711	-52.5812
4730	0.68331	-53.31464	0.65948	41.10868	0.65948	41.10868	0.68331	-53.31464
4750	0.68048	-53.98528	0.66485	40.89968	0.66485	40.89968	0.68048	-53.98528
4770	0.67123	-54.4853	0.66513	40.69564	0.66513	40.69564	0.67123	-54.4853
4790	0.67045	-54.91329	0.66953	40.313	0.66953	40.313	0.67045	-54.91329
4810	0.66886	-55.3831	0.67454	39.90219	0.67454	39.90219	0.66886	-55.3831
4830	0.66477	-55.84354	0.67848	39.54883	0.67848	39.54883	0.66477	-55.84354
4850	0.66404	-56.07843	0.68148	39.2737	0.68148	39.2737	0.66404	-56.07843
4870	0.66129	-56.43982	0.68516	38.96822	0.68516	38.96822	0.66129	-56.43982
4890	0.65513	-57.02647	0.68583	38.58153	0.68583	38.58153	0.65513	-57.02647
4910	0.64871	-57.27246	0.68794	38.37859	0.68794	38.37859	0.64871	-57.27246
4930	0.64484	-57.32375	0.69338	38.2516	0.69338	38.2516	0.64484	-57.32375
4950	0.64603	-58.03822	0.70143	37.71997	0.70143	37.71997	0.64603	-58.03822
4970	0.64004	-58.75549	0.69777	37.7144	0.69777	37.7144	0.64004	-58.75549
4990	0.63912	-59.03084	0.70096	37.57509	0.70096	37.57509	0.63912	-59.03084
5010	0.64124	-59.33205	0.70728	37.20723	0.70728	37.20723	0.64124	-59.33205
5030	0.64181	-59.74114	0.71169	36.7474	0.71169	36.7474	0.64181	-59.74114
5050	0.63371	-59.95429	0.70793	36.56362	0.70793	36.56362	0.63371	-59.95429
5070	0.63563	-59.60906	0.71236	36.66826	0.71236	36.66826	0.63563	-59.60906
5090	0.63919	-59.78501	0.71785	36.34149	0.71785	36.34149	0.63919	-59.78501
5110	0.63502	-60.02888	0.72087	35.83076	0.72087	35.83076	0.63502	-60.02888
5130	0.62417	-60.16236	0.72148	35.49938	0.72148	35.49938	0.62417	-60.16236
5150	0.61813	-60.28213	0.72335	35.82655	0.72335	35.82655	0.61813	-60.28213
5170	0.62094	-60.77799	0.72826	35.34178	0.72826	35.34178	0.62094	-60.77799
5190	0.61804	-61.5643	0.72866	34.86578	0.72866	34.86578	0.61804	-61.5643
5210	0.61304	-61.79068	0.72772	34.57798	0.72772	34.57798	0.61304	-61.79068
5230	0.61056	-61.34823	0.72913	34.5039	0.72913	34.5039	0.61056	-61.34823
5250	0.61625	-60.86961	0.73711	34.51512	0.73711	34.51512	0.61625	-60.86961
5270	0.61064	-61.96174	0.73636	33.86667	0.73636	33.86667	0.61064	-61.96174
5290	0.59961	-62.12272	0.73485	33.76643	0.73485	33.76643	0.59961	-62.12272
5310	0.59753	-61.90051	0.7386	33.79966	0.7386	33.79966	0.59753	-61.90051
5330	0.60307	-61.95626	0.74523	33.541	0.74523	33.541	0.60307	-61.95626
5350	0.59918	-63.06431	0.74397	32.55447	0.74397	32.55447	0.59918	-63.06431
5370	0.59326	-62.92952	0.74228	33.04666	0.74228	33.04666	0.59326	-62.92952
5390	0.58993	-62.75304	0.7468	32.99003	0.7468	32.99003	0.58993	-62.75304
5410	0.58953	-62.72674	0.75071	32.66752	0.75071	32.66752	0.58953	-62.72674
