#	mhz	s	ma	r	50			
50	0.01	12.50	0.99	1.20	0.99	1.20	0.01	12.50
100	0.01	30.00	0.99	1.00	0.99	1.00	0.01	30.00
150	0.01	47.40	0.99	0.80	0.99	0.80	0.01	47.40
200	0.02	54.10	0.99	0.50	0.99	0.50	0.02	54.10
250	0.02	60.70	0.99	0.20	0.99	0.20	0.02	60.70
300	0.02	62.40	0.99	-0.20	0.99	-0.20	0.02	62.40
350	0.03	64.20	0.99	-0.60	0.99	-0.60	0.03	64.20
400	0.03	65.10	0.99	-0.80	0.99	-0.80	0.03	65.10
450	0.03	66.10	0.99	-1.00	0.99	-1.00	0.03	66.10
500	0.04	71.10	0.99	-1.40	0.99	-1.40	0.04	71.10
550	0.04	76.10	0.99	-1.90	0.99	-1.90	0.04	76.10
600	0.05	77.50	0.99	-2.20	0.99	-2.20	0.05	77.50
650	0.05	78.90	0.99	-2.50	0.99	-2.50	0.05	78.90
700	0.05	79.40	0.99	-2.80	0.99	-2.80	0.05	79.40
750	0.06	79.90	0.99	-3.10	0.99	-3.10	0.06	79.90
800	0.06	80.30	0.99	-3.40	0.99	-3.40	0.06	80.30
850	0.06	80.70	0.99	-3.70	0.99	-3.70	0.06	80.70
900	0.07	81.20	0.98	-4.00	0.98	-4.00	0.07	81.20
950	0.07	81.60	0.98	-4.20	0.98	-4.20	0.07	81.60
1000	0.08	81.60	0.98	-4.50	0.98	-4.50	0.08	81.60
1050	0.08	81.60	0.98	-4.80	0.98	-4.80	0.08	81.60
1100	0.08	81.80	0.98	-5.20	0.98	-5.20	0.08	81.80
1150	0.09	82.00	0.98	-5.50	0.98	-5.50	0.09	82.00
1200	0.09	81.80	0.98	-5.70	0.98	-5.70	0.09	81.80
1250	0.09	81.60	0.98	-6.00	0.98	-6.00	0.09	81.60
1300	0.10	81.50	0.98	-6.30	0.98	-6.30	0.10	81.50
1350	0.10	81.40	0.98	-6.50	0.98	-6.50	0.10	81.40
1400	0.11	81.20	0.98	-6.80	0.98	-6.80	0.11	81.20
1450	0.11	81.10	0.98	-7.10	0.98	-7.10	0.11	81.10
1500	0.11	81.00	0.98	-7.40	0.98	-7.40	0.11	81.00
1550	0.12	80.90	0.98	-7.80	0.98	-7.80	0.12	80.90
1600	0.12	80.30	0.98	-8.10	0.98	-8.10	0.12	80.30
1650	0.13	79.70	0.98	-8.40	0.98	-8.40	0.13	79.70
1700	0.13	79.80	0.98	-8.70	0.98	-8.70	0.13	79.80
1750	0.13	79.80	0.98	-9.00	0.98	-9.00	0.13	79.80
1800	0.14	78.90	0.98	-9.20	0.98	-9.20	0.14	78.90
1850	0.14	78.10	0.98	-9.50	0.98	-9.50	0.14	78.10
1900	0.14	77.60	0.98	-9.70	0.98	-9.70	0.14	77.60
1950	0.15	77.00	0.97	-9.90	0.97	-9.90	0.15	77.00
2000	0.15	76.90	0.97	-10.30	0.97	-10.30	0.15	76.90
2050	0.16	76.70	0.97	-10.60	0.97	-10.60	0.16	76.70
2100	0.16	76.30	0.97	-10.80	0.97	-10.80	0.16	76.30
2150	0.16	76.00	0.97	-11.00	0.97	-11.00	0.16	76.00
2200	0.17	75.60	0.97	-11.40	0.97	-11.40	0.17	75.60
2250	0.17	75.30	0.97	-11.70	0.97	-11.70	0.17	75.30
2300	0.17	74.90	0.97	-11.90	0.97	-11.90	0.17	74.90
2350	0.18	74.50	0.97	-12.00	0.97	-12.00	0.18	74.50
2400	0.18	74.00	0.97	-12.40	0.97	-12.40	0.18	74.00
2450	0.18	73.60	0.96	-12.70	0.96	-12.70	0.18	73.60
2500	0.19	73.40	0.96	-13.00	0.96	-13.00	0.19	73.40
2550	0.19	73.20	0.96	-13.20	0.96	-13.20	0.19	73.20
2600	0.20	72.80	0.96	-13.40	0.96	-13.40	0.20	72.80
2650	0.20	72.40	0.96	-13.70	0.96	-13.70	0.20	72.40
2700	0.20	72.30	0.96	-13.90	0.96	-13.90	0.20	72.30
2750	0.21	72.30	0.96	-14.20	0.96	-14.20	0.21	72.30
2800	0.21	71.70	0.96	-14.30	0.96	-14.30	0.21	71.70
2850	0.22	71.20	0.96	-14.50	0.96	-14.50	0.22	71.20
2900	0.22	70.90	0.96	-15.00	0.96	-15.00	0.22	70.90
2950	0.22	70.70	0.96	-15.50	0.96	-15.50	0.22	70.70
3000	0.23	70.50	0.96	-15.60	0.96	-15.60	0.23	70.50
3050	0.23	70.40	0.96	-15.80	0.96	-15.80	0.23	70.40
3100	0.24	69.60	0.95	-16.30	0.95	-16.30	0.24	69.60
3150	0.24	68.80	0.95	-16.70	0.95	-16.70	0.24	68.80
3200	0.25	68.90	0.95	-16.70	0.95	-16.70	0.25	68.90
3250	0.25	69.10	0.95	-16.80	0.95	-16.80	0.25	69.10
3300	0.25	68.90	0.95	-17.20	0.95	-17.20	0.25	68.90
3350	0.26	68.80	0.95	-17.60	0.95	-17.60	0.26	68.80
3400	0.26	68.40	0.95	-17.80	0.95	-17.80	0.26	68.40
3450	0.27	68.00	0.94	-17.90	0.94	-17.90	0.27	68.00
3500	0.27	68.00	0.94	-18.10	0.94	-18.10	0.27	68.00
3550	0.27	68.00	0.94	-18.30	0.94	-18.30	0.27	68.00
3600	0.28	68.00	0.94	-18.60	0.94	-18.60	0.28	68.00
3650	0.28	68.00	0.94	-18.90	0.94	-18.90	0.28	68.00
3700	0.29	67.50	0.94	-19.30	0.94	-19.30	0.29	67.50
3750	0.29	67.10	0.94	-19.60	0.94	-19.60	0.29	67.10
3800	0.29	66.80	0.94	-19.80	0.94	-19.80	0.29	66.80
3850	0.30	66.60	0.94	-20.00	0.94	-20.00	0.30	66.60
3900	0.30	66.30	0.94	-20.40	0.94	-20.40	0.30	66.30
3950	0.31	65.90	0.94	-20.90	0.94	-20.90	0.31	65.90
4000	0.31	65.60	0.93	-21.10	0.93	-21.10	0.31	65.60
4050	0.31	65.40	0.93	-21.40	0.93	-21.40	0.31	65.40
4100	0.32	64.80	0.93	-21.70	0.93	-21.70	0.32	64.80
4150	0.32	64.30	0.93	-22.10	0.93	-22.10	0.32	64.30
4200	0.33	63.70	0.93	-22.40	0.93	-22.40	0.33	63.70
4250	0.33	63.10	0.93	-22.70	0.93	-22.70	0.33	63.10
4300	0.34	62.80	0.92	-22.90	0.92	-22.90	0.34	62.80
4350	0.34	62.40	0.92	-23.10	0.92	-23.10	0.34	62.40
4400	0.35	61.70	0.92	-23.50	0.92	-23.50	0.35	61.70
4450	0.35	61.10	0.92	-23.90	0.92	-23.90	0.35	61.10
4500	0.36	60.60	0.92	-24.40	0.92	-24.40	0.36	60.60
4550	0.36	60.10	0.91	-24.90	0.91	-24.90	0.36	60.10
4600	0.37	59.40	0.91	-25.20	0.91	-25.20	0.37	59.40
4650	0.37	58.60	0.91	-25.50	0.91	-25.50	0.37	58.60
4700	0.38	58.40	0.91	-25.80	0.91	-25.80	0.38	58.40
4750	0.38	58.20	0.91	-26.00	0.91	-26.00	0.38	58.20
4800	0.38	57.50	0.90	-26.40	0.90	-26.40	0.38	57.50
4850	0.39	56.90	0.90	-26.80	0.90	-26.80	0.39	56.90
4900	0.39	56.70	0.90	-27.10	0.90	-27.10	0.39	56.70
4950	0.40	56.50	0.90	-27.40	0.90	-27.40	0.40	56.50
5000	0.40	55.90	0.90	-27.70	0.90	-27.70	0.40	55.90
5050	0.41	55.30	0.90	-28.10	0.90	-28.10	0.41	55.30
5100	0.41	54.90	0.89	-28.60	0.89	-28.60	0.41	54.90
5150	0.41	54.40	0.89	-29.00	0.89	-29.00	0.41	54.40
5200	0.41	54.50	0.89	-29.20	0.89	-29.20	0.41	54.50
5250	0.42	54.70	0.88	-29.40	0.88	-29.40	0.42	54.70
5300	0.43	54.20	0.88	-29.70	0.88	-29.70	0.43	54.20
5350	0.43	53.70	0.89	-30.00	0.89	-30.00	0.43	53.70
5400	0.44	53.30	0.88	-30.60	0.88	-30.60	0.44	53.30
5450	0.44	52.80	0.88	-31.10	0.88	-31.10	0.44	52.80
5500	0.44	52.50	0.88	-31.40	0.88	-31.40	0.44	52.50
5550	0.45	52.20	0.88	-31.60	0.88	-31.60	0.45	52.20
5600	0.45	52.10	0.88	-32.10	0.88	-32.10	0.45	52.10
5650	0.46	51.90	0.88	-32.70	0.88	-32.70	0.46	51.90
5700	0.46	51.50	0.87	-33.10	0.87	-33.10	0.46	51.50
5750	0.46	51.10	0.87	-33.50	0.87	-33.50	0.46	51.10
5800	0.47	51.10	0.87	-33.90	0.87	-33.90	0.47	51.10
5850	0.47	51.10	0.86	-34.40	0.86	-34.40	0.47	51.10
5900	0.48	51.20	0.86	-34.70	0.86	-34.70	0.48	51.20
5950	0.48	51.40	0.85	-35.00	0.85	-35.00	0.48	51.40
6000	0.48	50.80	0.86	-35.10	0.86	-35.10	0.48	50.80
6050	0.48	50.20	0.86	-35.30	0.86	-35.30	0.48	50.20
6100	0.49	50.70	0.86	-35.50	0.86	-35.50	0.49	50.70
6150	0.49	51.20	0.85	-35.80	0.85	-35.80	0.49	51.20
6200	0.50	51.40	0.85	-36.20	0.85	-36.20	0.50	51.40
6250	0.50	51.70	0.85	-36.50	0.85	-36.50	0.50	51.70
6300	0.51	52.10	0.85	-36.90	0.85	-36.90	0.51	52.10
6350	0.51	52.50	0.84	-37.20	0.84	-37.20	0.51	52.50
6400	0.51	52.80	0.84	-37.60	0.84	-37.60	0.51	52.80
6450	0.52	53.00	0.84	-38.00	0.84	-38.00	0.52	53.00
6500	0.52	53.20	0.83	-38.50	0.83	-38.50	0.52	53.20
6550	0.52	53.40	0.83	-38.90	0.83	-38.90	0.52	53.40
6600	0.53	53.50	0.83	-39.40	0.83	-39.40	0.53	53.50
6650	0.54	53.60	0.83	-39.90	0.83	-39.90	0.54	53.60
6700	0.54	53.90	0.82	-40.20	0.82	-40.20	0.54	53.90
6750	0.54	54.10	0.82	-40.40	0.82	-40.40	0.54	54.10
6800	0.55	54.00	0.82	-40.70	0.82	-40.70	0.55	54.00
6850	0.56	54.00	0.81	-40.90	0.81	-40.90	0.56	54.00
6900	0.56	53.70	0.81	-41.60	0.81	-41.60	0.56	53.70
6950	0.56	53.40	0.81	-42.20	0.81	-42.20	0.56	53.40
7000	0.57	53.40	0.80	-42.60	0.80	-42.60	0.57	53.40
7050	0.57	53.40	0.80	-43.00	0.80	-43.00	0.57	53.40
7100	0.58	53.10	0.80	-43.50	0.80	-43.50	0.58	53.10
7150	0.58	52.90	0.79	-43.90	0.79	-43.90	0.58	52.90
7200	0.59	52.60	0.79	-44.20	0.79	-44.20	0.59	52.60
7250	0.59	52.30	0.78	-44.60	0.78	-44.60	0.59	52.30
7300	0.60	52.00	0.78	-44.80	0.78	-44.80	0.60	52.00
7350	0.61	51.70	0.78	-45.00	0.78	-45.00	0.61	51.70
7400	0.61	51.20	0.77	-45.50	0.77	-45.50	0.61	51.20
7450	0.61	50.80	0.77	-46.10	0.77	-46.10	0.61	50.80
7500	0.62	50.10	0.76	-46.30	0.76	-46.30	0.62	50.10
7550	0.63	49.50	0.76	-46.50	0.76	-46.50	0.63	49.50
7600	0.63	48.70	0.76	-46.90	0.76	-46.90	0.63	48.70
7650	0.63	47.90	0.76	-47.40	0.76	-47.40	0.63	47.90
7700	0.64	46.80	0.75	-47.80	0.75	-47.80	0.64	46.80
7750	0.64	45.70	0.75	-48.30	0.75	-48.30	0.64	45.70
7800	0.64	45.20	0.74	-48.50	0.74	-48.50	0.64	45.20
7850	0.65	44.80	0.74	-48.80	0.74	-48.80	0.65	44.80
7900	0.65	43.30	0.73	-49.20	0.73	-49.20	0.65	43.30
7950	0.66	41.90	0.73	-49.50	0.73	-49.50	0.66	41.90
8000	0.67	40.80	0.73	-49.90	0.73	-49.90	0.67	40.80
8050	0.67	39.70	0.73	-50.40	0.73	-50.40	0.67	39.70
8100	0.67	38.30	0.72	-50.90	0.72	-50.90	0.67	38.30
8150	0.67	36.90	0.71	-51.30	0.71	-51.30	0.67	36.90
8200	0.67	36.00	0.71	-51.40	0.71	-51.40	0.67	36.00
8250	0.68	35.00	0.70	-51.50	0.70	-51.50	0.68	35.00
8300	0.68	33.90	0.70	-51.90	0.70	-51.90	0.68	33.90
8350	0.68	32.70	0.69	-52.30	0.69	-52.30	0.68	32.70
8400	0.69	31.70	0.69	-52.50	0.69	-52.50	0.69	31.70
8450	0.69	30.70	0.69	-52.80	0.69	-52.80	0.69	30.70
8500	0.70	29.70	0.68	-52.90	0.68	-52.90	0.70	29.70
8550	0.70	28.80	0.67	-53.10	0.67	-53.10	0.70	28.80
8600	0.70	27.80	0.67	-53.30	0.67	-53.30	0.70	27.80
8650	0.71	26.90	0.66	-53.50	0.66	-53.50	0.71	26.90
8700	0.72	26.20	0.66	-53.60	0.66	-53.60	0.72	26.20
8750	0.72	25.50	0.65	-53.60	0.65	-53.60	0.72	25.50
8800	0.72	24.40	0.64	-53.70	0.64	-53.70	0.72	24.40
8850	0.72	23.20	0.64	-53.80	0.64	-53.80	0.72	23.20
8900	0.72	23.40	0.64	-53.70	0.64	-53.70	0.72	23.40
8950	0.72	23.60	0.64	-53.60	0.64	-53.60	0.72	23.60
9000	0.73	23.20	0.63	-53.90	0.63	-53.90	0.73	23.20
9050	0.74	22.80	0.63	-54.30	0.63	-54.30	0.74	22.80
9100	0.74	22.50	0.63	-54.80	0.63	-54.80	0.74	22.50
9150	0.75	22.10	0.63	-55.30	0.63	-55.30	0.75	22.10
9200	0.74	21.60	0.62	-55.60	0.62	-55.60	0.74	21.60
9250	0.74	21.10	0.61	-55.90	0.61	-55.90	0.74	21.10
9300	0.74	21.50	0.62	-55.90	0.62	-55.90	0.74	21.50
9350	0.75	21.90	0.62	-55.90	0.62	-55.90	0.75	21.90
9400	0.75	21.30	0.61	-56.40	0.61	-56.40	0.75	21.30
9450	0.75	20.60	0.60	-56.80	0.60	-56.80	0.75	20.60
9500	0.76	20.90	0.60	-57.00	0.60	-57.00	0.76	20.90
9550	0.76	21.20	0.60	-57.20	0.60	-57.20	0.76	21.20
9600	0.77	20.80	0.60	-57.80	0.60	-57.80	0.77	20.80
9650	0.78	20.40	0.59	-58.40	0.59	-58.40	0.78	20.40
9700	0.78	20.40	0.59	-58.50	0.59	-58.50	0.78	20.40
9750	0.78	20.40	0.58	-58.70	0.58	-58.70	0.78	20.40
9800	0.79	20.50	0.58	-59.00	0.58	-59.00	0.79	20.50
9850	0.79	20.60	0.58	-59.30	0.58	-59.30	0.79	20.60
9900	0.80	20.20	0.57	-60.10	0.57	-60.10	0.80	20.20
9950	0.80	19.70	0.57	-60.90	0.57	-60.90	0.80	19.70
10000	0.80	19.70	0.56	-60.80	0.56	-60.80	0.80	19.70
10050	0.80	19.60	0.56	-60.70	0.56	-60.70	0.80	19.60
10100	0.81	19.50	0.55	-61.40	0.55	-61.40	0.81	19.50
10150	0.82	19.30	0.55	-62.00	0.55	-62.00	0.82	19.30
10200	0.82	19.40	0.54	-62.30	0.54	-62.30	0.82	19.40
10250	0.82	19.40	0.54	-62.50	0.54	-62.50	0.82	19.40
10300	0.83	18.80	0.53	-62.80	0.53	-62.80	0.83	18.80
10350	0.83	18.20	0.52	-63.20	0.52	-63.20	0.83	18.20
10400	0.83	18.40	0.52	-63.30	0.52	-63.30	0.83	18.40
10450	0.82	18.50	0.52	-63.40	0.52	-63.40	0.82	18.50
10500	0.83	17.90	0.51	-63.90	0.51	-63.90	0.83	17.90
10550	0.84	17.30	0.50	-64.50	0.50	-64.50	0.84	17.30
10600	0.84	16.80	0.50	-64.70	0.50	-64.70	0.84	16.80
10650	0.84	16.40	0.50	-64.90	0.50	-64.90	0.84	16.40
10700	0.85	16.30	0.49	-65.40	0.49	-65.40	0.85	16.30
10750	0.85	16.20	0.48	-65.90	0.48	-65.90	0.85	16.20
10800	0.85	15.70	0.48	-66.20	0.48	-66.20	0.85	15.70
10850	0.85	15.10	0.47	-66.40	0.47	-66.40	0.85	15.10
10900	0.86	14.60	0.47	-66.80	0.47	-66.80	0.86	14.60
10950	0.87	14.10	0.47	-67.20	0.47	-67.20	0.87	14.10
11000	0.86	13.00	0.46	-68.50	0.46	-68.50	0.86	13.00
11050	0.85	12.00	0.45	-69.80	0.45	-69.80	0.85	12.00
11100	0.86	11.70	0.45	-69.60	0.45	-69.60	0.86	11.70
11150	0.87	11.50	0.44	-69.50	0.44	-69.50	0.87	11.50
11200	0.87	10.60	0.43	-70.70	0.43	-70.70	0.87	10.60
11250	0.87	9.80	0.43	-71.80	0.43	-71.80	0.87	9.80
11300	0.87	8.90	0.42	-72.30	0.42	-72.30	0.87	8.90
11350	0.88	8.10	0.42	-72.90	0.42	-72.90	0.88	8.10
11400	0.88	8.30	0.41	-73.10	0.41	-73.10	0.88	8.30
11450	0.88	8.50	0.39	-73.40	0.39	-73.40	0.88	8.50
11500	0.88	7.60	0.39	-74.10	0.39	-74.10	0.88	7.60
11550	0.89	6.70	0.39	-74.80	0.39	-74.80	0.89	6.70
11600	0.90	6.70	0.38	-75.10	0.38	-75.10	0.90	6.70
11650	0.90	6.70	0.37	-75.30	0.37	-75.30	0.90	6.70
11700	0.90	6.10	0.36	-76.00	0.36	-76.00	0.90	6.10
11750	0.90	5.50	0.36	-76.70	0.36	-76.70	0.90	5.50
11800	0.92	5.80	0.35	-76.90	0.35	-76.90	0.92	5.80
11850	0.93	6.10	0.34	-77.10	0.34	-77.10	0.93	6.10
11900	0.91	5.80	0.34	-77.70	0.34	-77.70	0.91	5.80
11950	0.89	5.40	0.33	-78.40	0.33	-78.40	0.89	5.40
12000	0.92	5.00	0.32	-78.80	0.32	-78.80	0.92	5.00
12050	0.94	4.60	0.32	-79.30	0.32	-79.30	0.94	4.60
12100	0.93	3.50	0.31	-80.40	0.31	-80.40	0.93	3.50
12150	0.92	2.50	0.30	-81.40	0.30	-81.40	0.92	2.50
12200	0.92	2.10	0.30	-82.00	0.30	-82.00	0.92	2.10
12250	0.93	1.80	0.29	-82.70	0.29	-82.70	0.93	1.80
12300	0.93	2.00	0.28	-83.10	0.28	-83.10	0.93	2.00
12350	0.93	2.20	0.27	-83.50	0.27	-83.50	0.93	2.20
12400	0.93	0.70	0.26	-84.90	0.26	-84.90	0.93	0.70
12450	0.92	-0.80	0.25	-86.20	0.25	-86.20	0.92	-0.80
12500	0.93	-0.30	0.25	-86.40	0.25	-86.40	0.93	-0.30
12550	0.94	0.20	0.24	-86.60	0.24	-86.60	0.94	0.20
12600	0.94	-0.40	0.23	-87.30	0.23	-87.30	0.94	-0.40
12650	0.93	-1.00	0.22	-88.00	0.22	-88.00	0.93	-1.00
12700	0.95	-1.10	0.21	-88.50	0.21	-88.50	0.95	-1.10
12750	0.96	-1.30	0.20	-89.00	0.20	-89.00	0.96	-1.30
12800	0.95	-1.30	0.19	-89.10	0.19	-89.10	0.95	-1.30
12850	0.95	-1.30	0.18	-89.20	0.18	-89.20	0.95	-1.30
12900	0.96	-1.70	0.17	-89.80	0.17	-89.80	0.96	-1.70
12950	0.97	-2.10	0.16	-90.30	0.16	-90.30	0.97	-2.10
13000	0.96	-2.10	0.15	-89.90	0.15	-89.90	0.96	-2.10
13050	0.96	-2.10	0.14	-89.50	0.14	-89.50	0.96	-2.10
13100	0.96	-2.60	0.14	-89.80	0.14	-89.80	0.96	-2.60
13150	0.96	-3.20	0.13	-90.10	0.13	-90.10	0.96	-3.20
13200	0.96	-3.60	0.12	-89.70	0.12	-89.70	0.96	-3.60
13250	0.97	-4.10	0.11	-89.40	0.11	-89.40	0.97	-4.10
13300	0.94	-3.00	0.10	-89.60	0.10	-89.60	0.94	-3.00
13350	0.91	-1.90	0.09	-89.90	0.09	-89.90	0.91	-1.90
13400	0.93	-4.30	0.09	-89.40	0.09	-89.40	0.93	-4.30
13450	0.95	-6.70	0.08	-88.80	0.08	-88.80	0.95	-6.70
13500	0.94	-7.30	0.07	-87.60	0.07	-87.60	0.94	-7.30
13550	0.94	-7.80	0.06	-86.40	0.06	-86.40	0.94	-7.80
13600	0.94	-9.10	0.05	-84.10	0.05	-84.10	0.94	-9.10
13650	0.94	-10.40	0.05	-81.80	0.05	-81.80	0.94	-10.40
13700	0.94	-11.10	0.04	-75.80	0.04	-75.80	0.94	-11.10
13750	0.94	-11.80	0.03	-69.70	0.03	-69.70	0.94	-11.80
13800	0.94	-13.30	0.03	-56.90	0.03	-56.90	0.94	-13.30
13850	0.93	-14.70	0.02	-44.00	0.02	-44.00	0.93	-14.70
13900	0.94	-15.90	0.02	-27.40	0.02	-27.40	0.94	-15.90
13950	0.94	-17.10	0.02	-10.70	0.02	-10.70	0.94	-17.10
14000	0.94	-17.60	0.03	2.10	0.03	2.10	0.94	-17.60
14050	0.94	-18.20	0.03	14.80	0.03	14.80	0.94	-18.20
14100	0.95	-19.80	0.03	24.90	0.03	24.90	0.95	-19.80
14150	0.96	-21.50	0.04	34.90	0.04	34.90	0.96	-21.50
14200	0.96	-22.00	0.04	40.40	0.04	40.40	0.96	-22.00
14250	0.96	-22.50	0.05	45.90	0.05	45.90	0.96	-22.50
14300	0.95	-23.80	0.06	48.70	0.06	48.70	0.95	-23.80
14350	0.95	-25.10	0.06	51.40	0.06	51.40	0.95	-25.10
14400	0.96	-25.60	0.07	52.80	0.07	52.80	0.96	-25.60
14450	0.97	-26.20	0.08	54.30	0.08	54.30	0.97	-26.20
14500	0.97	-26.70	0.09	55.40	0.09	55.40	0.97	-26.70
14550	0.96	-27.30	0.09	56.40	0.09	56.40	0.96	-27.30
14600	0.96	-27.90	0.10	56.70	0.10	56.70	0.96	-27.90
14650	0.97	-28.50	0.11	57.00	0.11	57.00	0.97	-28.50
14700	0.96	-29.20	0.12	57.40	0.12	57.40	0.96	-29.20
14750	0.95	-29.90	0.13	57.80	0.13	57.80	0.95	-29.90
14800	0.95	-30.60	0.13	57.70	0.13	57.70	0.95	-30.60
14850	0.95	-31.20	0.14	57.60	0.14	57.60	0.95	-31.20
14900	0.96	-31.20	0.15	57.80	0.15	57.80	0.96	-31.20
14950	0.96	-31.20	0.16	58.00	0.16	58.00	0.96	-31.20
15000	0.95	-32.60	0.17	57.60	0.17	57.60	0.95	-32.60
15050	0.94	-34.00	0.17	57.10	0.17	57.10	0.94	-34.00
15100	0.94	-33.60	0.18	57.30	0.18	57.30	0.94	-33.60
15150	0.94	-33.20	0.19	57.60	0.19	57.60	0.94	-33.20
15200	0.94	-33.90	0.20	57.40	0.20	57.40	0.94	-33.90
15250	0.94	-34.70	0.21	57.30	0.21	57.30	0.94	-34.70
15300	0.94	-35.40	0.22	56.50	0.22	56.50	0.94	-35.40
15350	0.94	-36.20	0.22	55.70	0.22	55.70	0.94	-36.20
15400	0.93	-35.90	0.23	56.10	0.23	56.10	0.93	-35.90
15450	0.93	-35.50	0.24	56.60	0.24	56.60	0.93	-35.50
15500	0.93	-35.60	0.25	55.60	0.25	55.60	0.93	-35.60
15550	0.94	-35.70	0.26	54.50	0.26	54.50	0.94	-35.70
15600	0.94	-35.70	0.27	54.50	0.27	54.50	0.94	-35.70
15650	0.94	-35.70	0.27	54.40	0.27	54.40	0.94	-35.70
15700	0.94	-35.70	0.28	53.80	0.28	53.80	0.94	-35.70
15750	0.93	-35.70	0.29	53.10	0.29	53.10	0.93	-35.70
15800	0.93	-35.40	0.30	52.90	0.30	52.90	0.93	-35.40
15850	0.92	-35.10	0.31	52.80	0.31	52.80	0.92	-35.10
15900	0.92	-35.00	0.31	52.50	0.31	52.50	0.92	-35.00
15950	0.92	-34.90	0.32	52.20	0.32	52.20	0.92	-34.90
16000	0.91	-34.40	0.33	51.70	0.33	51.70	0.91	-34.40
16050	0.91	-33.80	0.35	51.20	0.35	51.20	0.91	-33.80
16100	0.90	-34.20	0.35	50.10	0.35	50.10	0.90	-34.20
16150	0.89	-34.50	0.36	48.90	0.36	48.90	0.89	-34.50
16200	0.88	-34.10	0.37	48.00	0.37	48.00	0.88	-34.10
16250	0.87	-33.80	0.38	47.10	0.38	47.10	0.87	-33.80
16300	0.86	-34.10	0.38	45.70	0.38	45.70	0.86	-34.10
16350	0.85	-34.30	0.39	44.40	0.39	44.40	0.85	-34.30
16400	0.84	-33.90	0.39	43.40	0.39	43.40	0.84	-33.90
16450	0.83	-33.50	0.39	42.40	0.39	42.40	0.83	-33.50
16500	0.82	-34.20	0.39	42.40	0.39	42.40	0.82	-34.20
16550	0.82	-34.90	0.39	42.40	0.39	42.40	0.82	-34.90
16600	0.82	-35.00	0.39	42.50	0.39	42.50	0.82	-35.00
16650	0.82	-35.10	0.40	42.60	0.40	42.60	0.82	-35.10
16700	0.83	-35.80	0.40	42.90	0.40	42.90	0.83	-35.80
16750	0.83	-36.50	0.40	43.20	0.40	43.20	0.83	-36.50
16800	0.83	-37.00	0.41	43.70	0.41	43.70	0.83	-37.00
16850	0.83	-37.50	0.41	44.30	0.41	44.30	0.83	-37.50
16900	0.83	-38.00	0.42	44.60	0.42	44.60	0.83	-38.00
16950	0.84	-38.50	0.43	45.00	0.43	45.00	0.84	-38.50
17000	0.84	-39.40	0.44	44.90	0.44	44.90	0.84	-39.40
17050	0.84	-40.30	0.44	44.90	0.44	44.90	0.84	-40.30
17100	0.84	-40.30	0.45	44.70	0.45	44.70	0.84	-40.30
17150	0.84	-40.30	0.46	44.60	0.46	44.60	0.84	-40.30
17200	0.83	-40.80	0.47	44.30	0.47	44.30	0.83	-40.80
17250	0.83	-41.20	0.48	44.10	0.48	44.10	0.83	-41.20
17300	0.83	-41.10	0.49	43.90	0.49	43.90	0.83	-41.10
17350	0.83	-41.00	0.50	43.70	0.50	43.70	0.83	-41.00
17400	0.83	-42.00	0.51	43.30	0.51	43.30	0.83	-42.00
17450	0.83	-43.00	0.52	43.00	0.52	43.00	0.83	-43.00
17500	0.82	-43.30	0.52	42.10	0.52	42.10	0.82	-43.30
17550	0.82	-43.60	0.53	41.30	0.53	41.30	0.82	-43.60
17600	0.80	-44.50	0.54	40.60	0.54	40.60	0.80	-44.50
17650	0.79	-45.40	0.55	39.90	0.55	39.90	0.79	-45.40
17700	0.78	-46.40	0.56	39.10	0.56	39.10	0.78	-46.40
17750	0.77	-47.30	0.56	38.40	0.56	38.40	0.77	-47.30
17800	0.76	-48.90	0.57	37.40	0.57	37.40	0.76	-48.90
17850	0.75	-50.40	0.57	36.50	0.57	36.50	0.75	-50.40
17900	0.74	-50.70	0.57	36.20	0.57	36.20	0.74	-50.70
17950	0.73	-50.90	0.58	35.80	0.58	35.80	0.73	-50.90
18000	0.72	-52.10	0.58	35.10	0.58	35.10	0.72	-52.10
18050	0.72	-53.20	0.59	34.40	0.59	34.40	0.72	-53.20
18100	0.71	-54.40	0.59	33.80	0.59	33.80	0.71	-54.40
18150	0.71	-55.50	0.59	33.30	0.59	33.30	0.71	-55.50
18200	0.71	-55.50	0.60	33.00	0.60	33.00	0.71	-55.50
18250	0.71	-55.50	0.61	32.70	0.61	32.70	0.71	-55.50
18300	0.72	-57.00	0.61	31.90	0.61	31.90	0.72	-57.00
18350	0.73	-58.60	0.62	31.10	0.62	31.10	0.73	-58.60
18400	0.73	-57.70	0.62	31.10	0.62	31.10	0.73	-57.70
18450	0.72	-56.80	0.62	31.10	0.62	31.10	0.72	-56.80
18500	0.73	-57.20	0.63	30.50	0.63	30.50	0.73	-57.20
18550	0.75	-57.60	0.64	29.90	0.64	29.90	0.75	-57.60
18600	0.74	-57.50	0.65	29.40	0.65	29.40	0.74	-57.50
18650	0.72	-57.40	0.65	28.90	0.65	28.90	0.72	-57.40
18700	0.72	-58.80	0.65	28.00	0.65	28.00	0.72	-58.80
18750	0.71	-60.20	0.65	27.10	0.65	27.10	0.71	-60.20
18800	0.70	-60.40	0.66	26.70	0.66	26.70	0.70	-60.40
18850	0.70	-60.60	0.67	26.20	0.67	26.20	0.70	-60.60
18900	0.69	-61.50	0.67	25.40	0.67	25.40	0.69	-61.50
18950	0.69	-62.40	0.67	24.50	0.67	24.50	0.69	-62.40
19000	0.66	-64.00	0.67	24.50	0.67	24.50	0.66	-64.00
19050	0.64	-65.70	0.67	24.40	0.67	24.40	0.64	-65.70
19100	0.63	-65.40	0.67	24.30	0.67	24.30	0.63	-65.40
19150	0.63	-65.00	0.68	24.20	0.68	24.20	0.63	-65.00
19200	0.62	-66.60	0.69	23.60	0.69	23.60	0.62	-66.60
19250	0.62	-68.10	0.69	23.00	0.69	23.00	0.62	-68.10
19300	0.62	-67.90	0.70	22.50	0.70	22.50	0.62	-67.90
19350	0.62	-67.70	0.71	22.00	0.71	22.00	0.62	-67.70
19400	0.63	-69.10	0.71	21.00	0.71	21.00	0.63	-69.10
19450	0.63	-70.60	0.71	20.00	0.71	20.00	0.63	-70.60
19500	0.63	-70.90	0.71	20.00	0.71	20.00	0.63	-70.90
