#	mhz	s	ma	r	50

50	0.93	178.10	0.04	34.00	0.04	34.00	0.93	178.10
100	0.95	176.30	0.06	46.20	0.06	46.20	0.95	176.30
150	0.96	174.50	0.08	58.40	0.08	58.40	0.96	174.50
200	0.95	173.00	0.11	61.50	0.11	61.50	0.95	173.00
250	0.95	171.60	0.13	64.50	0.13	64.50	0.95	171.60
300	0.94	169.60	0.15	64.60	0.15	64.60	0.94	169.60
350	0.94	167.60	0.17	64.70	0.17	64.70	0.94	167.60
400	0.94	166.10	0.19	64.60	0.19	64.60	0.94	166.10
450	0.93	164.70	0.21	64.40	0.21	64.40	0.93	164.70
500	0.92	161.80	0.25	63.20	0.25	63.20	0.92	161.80
550	0.91	158.80	0.28	62.10	0.28	62.10	0.91	158.80
600	0.91	157.20	0.30	60.80	0.30	60.80	0.91	157.20
650	0.90	155.60	0.32	59.50	0.32	59.50	0.90	155.60
700	0.89	153.60	0.34	58.50	0.34	58.50	0.89	153.60
750	0.88	151.70	0.36	57.60	0.36	57.60	0.88	151.70
800	0.88	150.20	0.38	56.00	0.38	56.00	0.88	150.20
850	0.87	148.70	0.40	54.50	0.40	54.50	0.87	148.70
900	0.86	147.00	0.42	53.20	0.42	53.20	0.86	147.00
950	0.85	145.30	0.44	51.90	0.44	51.90	0.85	145.30
1000	0.84	143.60	0.45	50.50	0.45	50.50	0.84	143.60
1050	0.83	142.00	0.47	49.10	0.47	49.10	0.83	142.00
1100	0.82	140.30	0.49	48.00	0.49	48.00	0.82	140.30
1150	0.81	138.60	0.50	46.80	0.50	46.80	0.81	138.60
1200	0.80	137.00	0.52	45.40	0.52	45.40	0.80	137.00
1250	0.79	135.50	0.53	44.00	0.53	44.00	0.79	135.50
1300	0.79	133.80	0.55	43.00	0.55	43.00	0.79	133.80
1350	0.78	132.10	0.56	42.00	0.56	42.00	0.78	132.10
1400	0.77	130.70	0.57	40.70	0.57	40.70	0.77	130.70
1450	0.76	129.40	0.58	39.30	0.58	39.30	0.76	129.40
1500	0.75	127.80	0.60	38.20	0.60	38.20	0.75	127.80
1550	0.75	126.20	0.61	37.10	0.61	37.10	0.75	126.20
1600	0.74	124.70	0.62	35.90	0.62	35.90	0.74	124.70
1650	0.73	123.30	0.63	34.70	0.63	34.70	0.73	123.30
1700	0.72	121.90	0.64	33.50	0.64	33.50	0.72	121.90
1750	0.71	120.50	0.65	32.30	0.65	32.30	0.71	120.50
1800	0.70	119.50	0.66	31.50	0.66	31.50	0.70	119.50
1850	0.70	118.40	0.67	30.60	0.67	30.60	0.70	118.40
1900	0.69	117.00	0.68	29.50	0.68	29.50	0.69	117.00
1950	0.68	115.50	0.69	28.50	0.69	28.50	0.68	115.50
2000	0.67	114.40	0.70	27.30	0.70	27.30	0.67	114.40
2050	0.66	113.30	0.71	26.10	0.71	26.10	0.66	113.30
2100	0.65	112.30	0.72	25.20	0.72	25.20	0.65	112.30
2150	0.64	111.40	0.72	24.40	0.72	24.40	0.64	111.40
2200	0.64	110.30	0.73	23.30	0.73	23.30	0.64	110.30
2250	0.63	109.30	0.74	22.20	0.74	22.20	0.63	109.30
2300	0.62	108.50	0.75	21.40	0.75	21.40	0.62	108.50
2350	0.61	107.70	0.75	20.50	0.75	20.50	0.61	107.70
2400	0.60	106.90	0.76	19.50	0.76	19.50	0.60	106.90
2450	0.60	106.20	0.77	18.60	0.77	18.60	0.60	106.20
2500	0.59	105.50	0.77	17.60	0.77	17.60	0.59	105.50
2550	0.58	104.80	0.78	16.60	0.78	16.60	0.58	104.80
2600	0.57	104.00	0.79	15.80	0.79	15.80	0.57	104.00
2650	0.56	103.30	0.79	14.90	0.79	14.90	0.56	103.30
2700	0.56	102.90	0.80	14.00	0.80	14.00	0.56	102.90
2750	0.55	102.40	0.81	13.10	0.81	13.10	0.55	102.40
2800	0.54	101.70	0.81	12.30	0.81	12.30	0.54	101.70
2850	0.53	101.10	0.82	11.40	0.82	11.40	0.53	101.10
2900	0.52	100.60	0.82	10.30	0.82	10.30	0.52	100.60
2950	0.51	100.10	0.83	9.20	0.83	9.20	0.51	100.10
3000	0.51	99.80	0.83	8.40	0.83	8.40	0.51	99.80
3050	0.50	99.40	0.84	7.60	0.84	7.60	0.50	99.40
3100	0.49	98.40	0.84	6.50	0.84	6.50	0.49	98.40
3150	0.48	97.30	0.85	5.40	0.85	5.40	0.48	97.30
3200	0.48	97.20	0.85	4.80	0.85	4.80	0.48	97.20
3250	0.47	97.10	0.86	4.20	0.86	4.20	0.47	97.10
3300	0.46	96.70	0.86	3.10	0.86	3.10	0.46	96.70
3350	0.46	96.20	0.87	2.10	0.87	2.10	0.46	96.20
3400	0.45	95.70	0.87	1.30	0.87	1.30	0.45	95.70
3450	0.44	95.10	0.87	0.60	0.87	0.60	0.44	95.10
3500	0.44	95.00	0.88	-0.10	0.88	-0.10	0.44	95.00
3550	0.43	94.90	0.88	-0.90	0.88	-0.90	0.43	94.90
3600	0.42	94.70	0.88	-1.70	0.88	-1.70	0.42	94.70
3650	0.41	94.50	0.89	-2.60	0.89	-2.60	0.41	94.50
3700	0.41	93.90	0.89	-3.40	0.89	-3.40	0.41	93.90
3750	0.40	93.40	0.89	-4.30	0.89	-4.30	0.40	93.40
3800	0.39	92.90	0.90	-5.10	0.90	-5.10	0.39	92.90
3850	0.38	92.40	0.90	-5.80	0.90	-5.80	0.38	92.40
3900	0.38	91.80	0.90	-6.70	0.90	-6.70	0.38	91.80
3950	0.37	91.30	0.91	-7.70	0.91	-7.70	0.37	91.30
4000	0.37	90.70	0.91	-8.40	0.91	-8.40	0.37	90.70
4050	0.36	90.20	0.91	-9.10	0.91	-9.10	0.36	90.20
4100	0.35	89.30	0.92	-10.00	0.92	-10.00	0.35	89.30
4150	0.35	88.50	0.92	-10.90	0.92	-10.90	0.35	88.50
4200	0.34	87.60	0.92	-11.60	0.92	-11.60	0.34	87.60
4250	0.34	86.80	0.92	-12.40	0.92	-12.40	0.34	86.80
4300	0.33	85.80	0.93	-13.10	0.93	-13.10	0.33	85.80
4350	0.33	84.90	0.93	-13.70	0.93	-13.70	0.33	84.90
4400	0.32	83.90	0.93	-14.60	0.93	-14.60	0.32	83.90
4450	0.31	82.90	0.93	-15.40	0.93	-15.40	0.31	82.90
4500	0.31	81.50	0.93	-16.40	0.93	-16.40	0.31	81.50
4550	0.31	80.00	0.94	-17.40	0.94	-17.40	0.31	80.00
4600	0.30	78.90	0.94	-18.10	0.94	-18.10	0.30	78.90
4650	0.29	77.80	0.94	-18.80	0.94	-18.80	0.29	77.80
4700	0.29	76.70	0.94	-19.50	0.94	-19.50	0.29	76.70
4750	0.28	75.60	0.94	-20.20	0.94	-20.20	0.28	75.60
4800	0.28	74.40	0.94	-21.00	0.94	-21.00	0.28	74.40
4850	0.27	73.20	0.94	-21.70	0.94	-21.70	0.27	73.20
4900	0.27	72.10	0.94	-22.50	0.94	-22.50	0.27	72.10
4950	0.27	71.00	0.95	-23.20	0.95	-23.20	0.27	71.00
5000	0.26	70.00	0.95	-23.90	0.95	-23.90	0.26	70.00
5050	0.25	68.90	0.95	-24.70	0.95	-24.70	0.25	68.90
5100	0.25	67.60	0.95	-25.50	0.95	-25.50	0.25	67.60
5150	0.24	66.30	0.95	-26.30	0.95	-26.30	0.24	66.30
5200	0.24	66.00	0.95	-26.90	0.95	-26.90	0.24	66.00
5250	0.23	65.60	0.95	-27.40	0.95	-27.40	0.23	65.60
5300	0.23	64.30	0.96	-28.20	0.96	-28.20	0.23	64.30
5350	0.22	63.00	0.96	-28.90	0.96	-28.90	0.22	63.00
5400	0.22	61.90	0.96	-29.70	0.96	-29.70	0.22	61.90
5450	0.21	60.90	0.96	-30.60	0.96	-30.60	0.21	60.90
5500	0.21	60.00	0.96	-31.20	0.96	-31.20	0.21	60.00
5550	0.20	59.10	0.97	-31.80	0.97	-31.80	0.20	59.10
5600	0.20	58.30	0.97	-32.70	0.97	-32.70	0.20	58.30
5650	0.19	57.40	0.97	-33.50	0.97	-33.50	0.19	57.40
5700	0.19	57.00	0.97	-34.20	0.97	-34.20	0.19	57.00
5750	0.18	56.50	0.97	-35.00	0.97	-35.00	0.18	56.50
5800	0.17	55.60	0.97	-35.70	0.97	-35.70	0.17	55.60
5850	0.17	54.60	0.97	-36.40	0.97	-36.40	0.17	54.60
5900	0.17	55.10	0.97	-37.00	0.97	-37.00	0.17	55.10
5950	0.16	55.60	0.97	-37.60	0.97	-37.60	0.16	55.60
6000	0.15	53.40	0.98	-38.20	0.98	-38.20	0.15	53.40
6050	0.13	51.20	0.98	-38.90	0.98	-38.90	0.13	51.20
6100	0.13	52.30	0.98	-39.50	0.98	-39.50	0.13	52.30
6150	0.13	53.50	0.98	-40.00	0.98	-40.00	0.13	53.50
6200	0.12	55.20	0.98	-40.70	0.98	-40.70	0.12	55.20
6250	0.12	56.80	0.98	-41.50	0.98	-41.50	0.12	56.80
6300	0.11	59.10	0.98	-42.10	0.98	-42.10	0.11	59.10
6350	0.11	61.50	0.98	-42.70	0.98	-42.70	0.11	61.50
6400	0.10	63.70	0.98	-43.40	0.98	-43.40	0.10	63.70
6450	0.09	65.90	0.98	-44.10	0.98	-44.10	0.09	65.90
6500	0.09	67.20	0.98	-44.80	0.98	-44.80	0.09	67.20
6550	0.09	68.50	0.98	-45.50	0.98	-45.50	0.09	68.50
6600	0.09	72.00	0.98	-46.20	0.98	-46.20	0.09	72.00
6650	0.09	75.40	0.98	-46.90	0.98	-46.90	0.09	75.40
6700	0.08	78.50	0.98	-47.40	0.98	-47.40	0.08	78.50
6750	0.08	81.60	0.98	-47.80	0.98	-47.80	0.08	81.60
6800	0.08	83.60	0.98	-48.40	0.98	-48.40	0.08	83.60
6850	0.08	85.70	0.98	-49.10	0.98	-49.10	0.08	85.70
6900	0.08	87.20	0.98	-49.80	0.98	-49.80	0.08	87.20
6950	0.08	88.70	0.98	-50.50	0.98	-50.50	0.08	88.70
7000	0.08	91.00	0.98	-51.10	0.98	-51.10	0.08	91.00
7050	0.08	93.30	0.98	-51.80	0.98	-51.80	0.08	93.30
7100	0.08	95.60	0.98	-52.40	0.98	-52.40	0.08	95.60
7150	0.09	97.80	0.98	-53.00	0.98	-53.00	0.09	97.80
7200	0.09	99.20	0.98	-53.70	0.98	-53.70	0.09	99.20
7250	0.09	100.70	0.99	-54.30	0.99	-54.30	0.09	100.70
7300	0.09	101.00	0.99	-54.90	0.99	-54.90	0.09	101.00
7350	0.09	101.30	0.99	-55.50	0.99	-55.50	0.09	101.30
7400	0.09	102.40	0.99	-56.20	0.99	-56.20	0.09	102.40
7450	0.09	103.50	0.99	-56.80	0.99	-56.80	0.09	103.50
7500	0.09	103.70	0.99	-57.50	0.99	-57.50	0.09	103.70
7550	0.09	104.00	0.99	-58.10	0.99	-58.10	0.09	104.00
7600	0.09	103.10	0.98	-58.70	0.98	-58.70	0.09	103.10
7650	0.09	102.20	0.98	-59.30	0.98	-59.30	0.09	102.20
7700	0.09	100.90	0.98	-60.00	0.98	-60.00	0.09	100.90
7750	0.09	99.60	0.98	-60.60	0.98	-60.60	0.09	99.60
7800	0.09	99.80	0.98	-61.20	0.98	-61.20	0.09	99.80
7850	0.09	99.90	0.98	-61.80	0.98	-61.80	0.09	99.90
7900	0.09	98.60	0.98	-62.50	0.98	-62.50	0.09	98.60
7950	0.09	97.30	0.99	-63.10	0.99	-63.10	0.09	97.30
8000	0.09	97.00	0.99	-63.70	0.99	-63.70	0.09	97.00
8050	0.09	96.70	0.99	-64.40	0.99	-64.40	0.09	96.70
8100	0.09	94.90	0.99	-65.00	0.99	-65.00	0.09	94.90
8150	0.08	93.20	0.99	-65.60	0.99	-65.60	0.08	93.20
8200	0.08	93.70	0.98	-66.20	0.98	-66.20	0.08	93.70
8250	0.08	94.20	0.98	-66.80	0.98	-66.80	0.08	94.20
8300	0.07	92.30	0.98	-67.40	0.98	-67.40	0.07	92.30
8350	0.07	90.50	0.99	-68.00	0.99	-68.00	0.07	90.50
8400	0.06	91.20	0.99	-68.60	0.99	-68.60	0.06	91.20
8450	0.06	92.00	0.99	-69.30	0.99	-69.30	0.06	92.00
8500	0.05	89.20	0.99	-69.90	0.99	-69.90	0.05	89.20
8550	0.05	86.30	0.99	-70.50	0.99	-70.50	0.05	86.30
8600	0.04	86.30	0.99	-71.20	0.99	-71.20	0.04	86.30
8650	0.04	86.20	0.99	-71.90	0.99	-71.90	0.04	86.20
8700	0.04	84.40	0.99	-72.50	0.99	-72.50	0.04	84.40
8750	0.03	82.60	0.98	-73.10	0.98	-73.10	0.03	82.60
8800	0.03	83.90	0.99	-73.50	0.99	-73.50	0.03	83.90
8850	0.03	85.20	0.99	-74.00	0.99	-74.00	0.03	85.20
8900	0.03	91.40	0.99	-74.70	0.99	-74.70	0.03	91.40
8950	0.02	97.70	0.99	-75.50	0.99	-75.50	0.02	97.70
9000	0.02	105.70	0.98	-76.10	0.98	-76.10	0.02	105.70
9050	0.02	113.70	0.98	-76.70	0.98	-76.70	0.02	113.70
9100	0.02	126.10	0.99	-77.40	0.99	-77.40	0.02	126.10
9150	0.02	138.60	0.99	-78.00	0.99	-78.00	0.02	138.60
9200	0.03	150.00	0.99	-78.80	0.99	-78.80	0.03	150.00
9250	0.03	161.30	0.99	-79.60	0.99	-79.60	0.03	161.30
9300	0.03	168.40	0.99	-80.00	0.99	-80.00	0.03	168.40
9350	0.04	175.40	0.99	-80.40	0.99	-80.40	0.04	175.40
9400	0.04	1.40	0.99	-81.10	0.99	-81.10	0.04	1.40
9450	0.05	-172.50	0.98	-81.70	0.98	-81.70	0.05	-172.50
9500	0.05	-171.40	0.98	-82.40	0.98	-82.40	0.05	-171.40
9550	0.06	-170.40	0.98	-83.20	0.98	-83.20	0.06	-170.40
9600	0.07	-167.60	0.98	-83.90	0.98	-83.90	0.07	-167.60
9650	0.07	-164.90	0.99	-84.60	0.99	-84.60	0.07	-164.90
9700	0.08	-165.20	0.98	-85.20	0.98	-85.20	0.08	-165.20
9750	0.09	-165.60	0.98	-85.90	0.98	-85.90	0.09	-165.60
9800	0.09	-162.80	0.98	-86.50	0.98	-86.50	0.09	-162.80
9850	0.10	-160.00	0.98	-87.10	0.98	-87.10	0.10	-160.00
9900	0.11	-161.20	0.98	-87.80	0.98	-87.80	0.11	-161.20
9950	0.12	-162.50	0.98	-88.40	0.98	-88.40	0.12	-162.50
10000	0.12	-164.00	0.98	-89.10	0.98	-89.10	0.12	-164.00
10050	0.13	-165.50	0.97	-89.80	0.97	-89.80	0.13	-165.50
10100	0.14	-165.10	0.97	-90.40	0.97	-90.40	0.14	-165.10
10150	0.15	-164.60	0.97	-90.90	0.97	-90.90	0.15	-164.60
10200	0.16	-166.70	0.97	-91.70	0.97	-91.70	0.16	-166.70
10250	0.16	-168.80	0.97	-92.40	0.97	-92.40	0.16	-168.80
10300	0.17	-169.40	0.97	-93.20	0.97	-93.20	0.17	-169.40
10350	0.18	-170.10	0.96	-94.00	0.96	-94.00	0.18	-170.10
10400	0.19	-171.80	0.96	-94.70	0.96	-94.70	0.19	-171.80
10450	0.19	-173.40	0.96	-95.40	0.96	-95.40	0.19	-173.40
10500	0.20	-174.80	0.96	-96.20	0.96	-96.20	0.20	-174.80
10550	0.21	-176.10	0.96	-97.00	0.96	-97.00	0.21	-176.10
10600	0.21	1.10	0.96	-97.60	0.96	-97.60	0.21	1.10
10650	0.22	178.30	0.95	-98.20	0.95	-98.20	0.22	178.30
10700	0.23	177.20	0.95	-99.00	0.95	-99.00	0.23	177.20
10750	0.24	176.10	0.96	-99.90	0.96	-99.90	0.24	176.10
10800	0.24	175.00	0.95	-100.30	0.95	-100.30	0.24	175.00
10850	0.25	173.90	0.95	-100.80	0.95	-100.80	0.25	173.90
10900	0.26	171.00	0.94	-101.60	0.94	-101.60	0.26	171.00
10950	0.26	168.00	0.94	-102.40	0.94	-102.40	0.26	168.00
11000	0.27	167.70	0.94	-103.00	0.94	-103.00	0.27	167.70
11050	0.28	167.40	0.95	-103.50	0.95	-103.50	0.28	167.40
11100	0.28	165.50	0.94	-104.30	0.94	-104.30	0.28	165.50
11150	0.29	163.60	0.93	-105.10	0.93	-105.10	0.29	163.60
11200	0.29	162.20	0.94	-105.80	0.94	-105.80	0.29	162.20
11250	0.30	160.70	0.94	-106.40	0.94	-106.40	0.30	160.70
11300	0.30	159.60	0.93	-107.10	0.93	-107.10	0.30	159.60
11350	0.31	158.60	0.93	-107.80	0.93	-107.80	0.31	158.60
11400	0.31	156.60	0.93	-108.60	0.93	-108.60	0.31	156.60
11450	0.31	154.60	0.93	-109.50	0.93	-109.50	0.31	154.60
11500	0.32	152.70	0.93	-110.10	0.93	-110.10	0.32	152.70
11550	0.32	150.90	0.92	-110.70	0.92	-110.70	0.32	150.90
11600	0.33	149.10	0.92	-111.60	0.92	-111.60	0.33	149.10
11650	0.33	147.20	0.92	-112.40	0.92	-112.40	0.33	147.20
11700	0.34	145.30	0.92	-113.10	0.92	-113.10	0.34	145.30
11750	0.34	143.40	0.92	-113.80	0.92	-113.80	0.34	143.40
11800	0.35	141.60	0.91	-114.40	0.91	-114.40	0.35	141.60
11850	0.36	139.90	0.90	-114.90	0.90	-114.90	0.36	139.90
11900	0.37	139.10	0.90	-115.80	0.90	-115.80	0.37	139.10
11950	0.38	138.40	0.90	-116.60	0.90	-116.60	0.38	138.40
12000	0.38	137.30	0.89	-117.10	0.89	-117.10	0.38	137.30
12050	0.39	136.10	0.89	-117.60	0.89	-117.60	0.39	136.10
12100	0.40	135.10	0.89	-118.40	0.89	-118.40	0.40	135.10
12150	0.40	134.00	0.89	-119.20	0.89	-119.20	0.40	134.00
12200	0.41	133.30	0.88	-119.70	0.88	-119.70	0.41	133.30
12250	0.41	132.60	0.88	-120.30	0.88	-120.30	0.41	132.60
12300	0.42	132.00	0.87	-121.20	0.87	-121.20	0.42	132.00
12350	0.42	131.40	0.87	-122.10	0.87	-122.10	0.42	131.40
12400	0.42	130.50	0.87	-122.60	0.87	-122.60	0.42	130.50
12450	0.43	129.60	0.87	-123.20	0.87	-123.20	0.43	129.60
12500	0.43	128.00	0.87	-124.20	0.87	-124.20	0.43	128.00
12550	0.44	126.50	0.86	-125.20	0.86	-125.20	0.44	126.50
12600	0.44	126.20	0.86	-126.00	0.86	-126.00	0.44	126.20
12650	0.44	125.80	0.86	-126.70	0.86	-126.70	0.44	125.80
12700	0.44	124.70	0.85	-127.40	0.85	-127.40	0.44	124.70
12750	0.44	123.50	0.85	-128.10	0.85	-128.10	0.44	123.50
12800	0.45	121.80	0.85	-129.40	0.85	-129.40	0.45	121.80
12850	0.45	120.10	0.84	-130.60	0.84	-130.60	0.45	120.10
12900	0.46	119.30	0.84	-131.20	0.84	-131.20	0.46	119.30
12950	0.46	118.50	0.83	-131.70	0.83	-131.70	0.46	118.50
13000	0.47	117.20	0.83	-133.00	0.83	-133.00	0.47	117.20
13050	0.47	116.00	0.82	-134.20	0.82	-134.20	0.47	116.00
13100	0.48	114.90	0.81	-134.90	0.81	-134.90	0.48	114.90
13150	0.48	113.80	0.81	-135.50	0.81	-135.50	0.48	113.80
13200	0.49	112.60	0.80	-136.20	0.80	-136.20	0.49	112.60
13250	0.50	111.50	0.80	-136.90	0.80	-136.90	0.50	111.50
13300	0.49	111.60	0.79	-138.30	0.79	-138.30	0.49	111.60
13350	0.49	111.80	0.79	-139.60	0.79	-139.60	0.49	111.80
13400	0.51	108.80	0.78	-140.50	0.78	-140.50	0.51	108.80
13450	0.53	105.80	0.77	-141.40	0.77	-141.40	0.53	105.80
13500	0.54	104.70	0.77	-142.40	0.77	-142.40	0.54	104.70
13550	0.55	103.60	0.76	-143.50	0.76	-143.50	0.55	103.60
13600	0.55	102.30	0.76	-144.60	0.76	-144.60	0.55	102.30
13650	0.56	100.90	0.75	-145.70	0.75	-145.70	0.56	100.90
13700	0.57	99.50	0.74	-147.00	0.74	-147.00	0.57	99.50
13750	0.57	98.10	0.74	-148.20	0.74	-148.20	0.57	98.10
13800	0.58	96.60	0.73	-149.20	0.73	-149.20	0.58	96.60
13850	0.58	95.10	0.72	-150.30	0.72	-150.30	0.58	95.10
13900	0.59	93.40	0.71	-151.40	0.71	-151.40	0.59	93.40
13950	0.60	91.70	0.70	-152.60	0.70	-152.60	0.60	91.70
14000	0.60	89.50	0.69	-154.10	0.69	-154.10	0.60	89.50
14050	0.61	87.40	0.68	-155.60	0.68	-155.60	0.61	87.40
14100	0.62	85.60	0.67	-156.70	0.67	-156.70	0.62	85.60
14150	0.63	83.90	0.65	-157.80	0.65	-157.80	0.63	83.90
14200	0.64	81.60	0.64	-159.40	0.64	-159.40	0.64	81.60
14250	0.65	79.40	0.63	-161.00	0.63	-161.00	0.65	79.40
14300	0.67	77.00	0.61	-162.50	0.61	-162.50	0.67	77.00
14350	0.68	74.60	0.59	-164.00	0.59	-164.00	0.68	74.60
14400	0.69	72.70	0.57	-165.40	0.57	-165.40	0.69	72.70
14450	0.70	70.80	0.55	-166.80	0.55	-166.80	0.70	70.80
14500	0.71	68.40	0.53	-168.10	0.53	-168.10	0.71	68.40
14550	0.73	66.00	0.51	-169.50	0.51	-169.50	0.73	66.00
14600	0.74	64.40	0.49	-170.50	0.49	-170.50	0.74	64.40
14650	0.76	62.80	0.47	-171.50	0.47	-171.50	0.76	62.80
14700	0.77	60.50	0.44	-172.90	0.44	-172.90	0.77	60.50
14750	0.77	58.20	0.42	-174.20	0.42	-174.20	0.77	58.20
14800	0.79	56.10	0.40	-175.20	0.40	-175.20	0.79	56.10
14850	0.81	53.90	0.37	-176.20	0.37	-176.20	0.81	53.90
14900	0.82	53.10	0.34	-176.00	0.34	-176.00	0.82	53.10
14950	0.82	52.30	0.32	-175.80	0.32	-175.80	0.82	52.30
15000	0.83	49.40	0.29	-175.80	0.29	-175.80	0.83	49.40
15050	0.84	46.60	0.27	-175.70	0.27	-175.70	0.84	46.60
15100	0.83	45.50	0.25	-173.50	0.25	-173.50	0.83	45.50
15150	0.83	44.30	0.22	-171.20	0.22	-171.20	0.83	44.30
15200	0.83	42.50	0.20	-167.40	0.20	-167.40	0.83	42.50
15250	0.84	40.70	0.18	-163.60	0.18	-163.60	0.84	40.70
15300	0.85	38.40	0.17	-157.80	0.17	-157.80	0.85	38.40
15350	0.85	36.10	0.16	-152.10	0.16	-152.10	0.85	36.10
15400	0.83	34.30	0.15	-143.20	0.15	-143.20	0.83	34.30
15450	0.81	32.50	0.14	-134.40	0.14	-134.40	0.81	32.50
15500	0.82	31.40	0.15	-126.50	0.15	-126.50	0.82	31.40
15550	0.84	30.30	0.16	-118.60	0.16	-118.60	0.84	30.30
15600	0.83	28.90	0.17	-113.80	0.17	-113.80	0.83	28.90
15650	0.82	27.40	0.18	-109.10	0.18	-109.10	0.82	27.40
15700	0.82	26.30	0.19	-107.20	0.19	-107.20	0.82	26.30
15750	0.82	25.20	0.20	-105.30	0.20	-105.30	0.82	25.20
15800	0.81	25.10	0.21	-103.10	0.21	-103.10	0.81	25.10
15850	0.81	25.00	0.22	-101.00	0.22	-101.00	0.81	25.00
15900	0.81	23.90	0.23	-99.00	0.23	-99.00	0.81	23.90
15950	0.81	22.80	0.24	-97.00	0.24	-97.00	0.81	22.80
16000	0.81	23.10	0.25	-94.20	0.25	-94.20	0.81	23.10
16050	0.81	23.40	0.26	-91.40	0.26	-91.40	0.81	23.40
16100	0.81	22.40	0.28	-90.00	0.28	-90.00	0.81	22.40
16150	0.81	21.40	0.29	-88.60	0.29	-88.60	0.81	21.40
16200	0.80	20.70	0.31	-87.80	0.31	-87.80	0.80	20.70
16250	0.79	20.00	0.33	-87.10	0.33	-87.10	0.79	20.00
16300	0.77	19.30	0.35	-87.50	0.35	-87.50	0.77	19.30
16350	0.75	18.70	0.38	-88.00	0.38	-88.00	0.75	18.70
16400	0.74	18.40	0.39	-90.00	0.39	-90.00	0.74	18.40
16450	0.72	18.10	0.41	-92.00	0.41	-92.00	0.72	18.10
16500	0.70	18.00	0.41	-93.00	0.41	-93.00	0.70	18.00
16550	0.68	17.90	0.41	-94.10	0.41	-94.10	0.68	17.90
16600	0.69	17.50	0.41	-93.30	0.41	-93.30	0.69	17.50
16650	0.71	17.10	0.41	-92.50	0.41	-92.50	0.71	17.10
16700	0.72	15.20	0.42	-90.70	0.42	-90.70	0.72	15.20
16750	0.73	13.20	0.43	-88.90	0.43	-88.90	0.73	13.20
16800	0.73	10.40	0.45	-88.30	0.45	-88.30	0.73	10.40
16850	0.73	7.60	0.47	-87.70	0.47	-87.70	0.73	7.60
16900	0.72	5.10	0.50	-88.10	0.50	-88.10	0.72	5.10
16950	0.72	2.60	0.52	-88.40	0.52	-88.40	0.72	2.60
17000	0.71	0.50	0.54	-89.20	0.54	-89.20	0.71	0.50
17050	0.70	-1.50	0.56	-89.90	0.56	-89.90	0.70	-1.50
17100	0.69	-3.20	0.58	-91.00	0.58	-91.00	0.69	-3.20
17150	0.69	-4.80	0.60	-92.10	0.60	-92.10	0.69	-4.80
17200	0.67	-5.90	0.62	-93.00	0.62	-93.00	0.67	-5.90
17250	0.66	-7.00	0.64	-93.90	0.64	-93.90	0.66	-7.00
17300	0.65	-8.10	0.66	-95.00	0.66	-95.00	0.65	-8.10
17350	0.64	-9.30	0.67	-96.10	0.67	-96.10	0.64	-9.30
17400	0.63	-10.20	0.69	-97.10	0.69	-97.10	0.63	-10.20
17450	0.62	-11.10	0.71	-98.10	0.71	-98.10	0.62	-11.10
17500	0.61	-12.10	0.72	-99.70	0.72	-99.70	0.61	-12.10
17550	0.59	-13.10	0.74	-101.20	0.74	-101.20	0.59	-13.10
17600	0.57	-13.90	0.75	-102.70	0.75	-102.70	0.57	-13.90
17650	0.55	-14.70	0.77	-104.20	0.77	-104.20	0.55	-14.70
17700	0.54	-15.80	0.78	-105.50	0.78	-105.50	0.54	-15.80
17750	0.52	-16.80	0.80	-106.80	0.80	-106.80	0.52	-16.80
17800	0.50	-18.60	0.81	-108.50	0.81	-108.50	0.50	-18.60
17850	0.49	-20.40	0.81	-110.20	0.81	-110.20	0.49	-20.40
17900	0.47	-20.40	0.82	-111.30	0.82	-111.30	0.47	-20.40
17950	0.45	-20.40	0.82	-112.50	0.82	-112.50	0.45	-20.40
18000	0.44	-22.50	0.83	-113.90	0.83	-113.90	0.44	-22.50
18050	0.42	-24.50	0.84	-115.30	0.84	-115.30	0.42	-24.50
18100	0.41	-26.20	0.84	-116.50	0.84	-116.50	0.41	-26.20
18150	0.41	-27.90	0.85	-117.80	0.85	-117.80	0.41	-27.90
18200	0.41	-28.70	0.85	-118.80	0.85	-118.80	0.41	-28.70
18250	0.40	-29.60	0.86	-119.90	0.86	-119.90	0.40	-29.60
18300	0.41	-31.00	0.86	-121.10	0.86	-121.10	0.41	-31.00
18350	0.41	-32.50	0.87	-122.20	0.87	-122.20	0.41	-32.50
18400	0.41	-32.30	0.87	-123.10	0.87	-123.10	0.41	-32.30
18450	0.41	-32.20	0.87	-123.90	0.87	-123.90	0.41	-32.20
18500	0.41	-32.10	0.88	-124.80	0.88	-124.80	0.41	-32.10
18550	0.42	-32.10	0.89	-125.70	0.89	-125.70	0.42	-32.10
18600	0.42	-32.30	0.89	-126.80	0.89	-126.80	0.42	-32.30
18650	0.41	-32.50	0.89	-127.80	0.89	-127.80	0.41	-32.50
18700	0.41	-33.50	0.89	-129.00	0.89	-129.00	0.41	-33.50
18750	0.40	-34.50	0.89	-130.10	0.89	-130.10	0.40	-34.50
18800	0.40	-34.90	0.90	-130.90	0.90	-130.90	0.40	-34.90
18850	0.40	-35.20	0.90	-131.70	0.90	-131.70	0.40	-35.20
18900	0.39	-36.50	0.90	-132.80	0.90	-132.80	0.39	-36.50
