#	mhz	s	ma	r	50

50	0.89	164.60	0.25	65.70	0.25	65.70	0.89	164.60
100	0.81	153.10	0.43	56.70	0.43	56.70	0.81	153.10
150	0.74	141.60	0.59	47.70	0.59	47.70	0.74	141.60
200	0.66	134.50	0.68	41.40	0.68	41.40	0.66	134.50
250	0.58	127.30	0.76	35.20	0.76	35.20	0.58	127.30
300	0.52	122.10	0.81	30.50	0.81	30.50	0.52	122.10
350	0.46	116.80	0.85	25.90	0.85	25.90	0.46	116.80
400	0.41	113.20	0.88	22.90	0.88	22.90	0.41	113.20
450	0.37	109.60	0.90	19.90	0.90	19.90	0.37	109.60
500	0.33	105.20	0.92	16.70	0.92	16.70	0.33	105.20
550	0.29	100.70	0.94	13.50	0.94	13.50	0.29	100.70
600	0.27	99.00	0.95	11.70	0.95	11.70	0.27	99.00
650	0.24	97.20	0.95	9.90	0.95	9.90	0.24	97.20
700	0.22	94.60	0.96	8.50	0.96	8.50	0.22	94.60
750	0.21	91.90	0.97	7.10	0.97	7.10	0.21	91.90
800	0.19	90.80	0.97	5.80	0.97	5.80	0.19	90.80
850	0.18	89.70	0.97	4.40	0.97	4.40	0.18	89.70
900	0.17	88.10	0.97	3.30	0.97	3.30	0.17	88.10
950	0.15	86.50	0.98	2.10	0.98	2.10	0.15	86.50
1000	0.14	85.00	0.98	1.10	0.98	1.10	0.14	85.00
1050	0.13	83.40	0.98	0.00	0.98	0.00	0.13	83.40
1100	0.12	81.70	0.98	-0.90	0.98	-0.90	0.12	81.70
1150	0.11	80.10	0.98	-1.90	0.98	-1.90	0.11	80.10
1200	0.10	78.50	0.98	-2.80	0.98	-2.80	0.10	78.50
1250	0.10	76.80	0.99	-3.70	0.99	-3.70	0.10	76.80
1300	0.09	74.80	0.99	-4.50	0.99	-4.50	0.09	74.80
1350	0.08	72.90	0.99	-5.40	0.99	-5.40	0.08	72.90
1400	0.07	71.20	0.99	-6.20	0.99	-6.20	0.07	71.20
1450	0.07	69.50	0.99	-7.00	0.99	-7.00	0.07	69.50
1500	0.06	67.40	0.99	-7.80	0.99	-7.80	0.06	67.40
1550	0.05	65.20	0.99	-8.70	0.99	-8.70	0.05	65.20
1600	0.05	62.50	0.99	-9.50	0.99	-9.50	0.05	62.50
1650	0.04	59.70	0.99	-10.30	0.99	-10.30	0.04	59.70
1700	0.03	55.90	0.99	-11.00	0.99	-11.00	0.03	55.90
1750	0.03	52.00	0.99	-11.80	0.99	-11.80	0.03	52.00
1800	0.02	39.60	0.99	-12.60	0.99	-12.60	0.02	39.60
1850	0.01	27.20	0.99	-13.30	0.99	-13.30	0.01	27.20
1900	0.01	-1.30	0.99	-14.00	0.99	-14.00	0.01	-1.30
1950	0.01	-29.90	0.99	-14.60	0.99	-14.60	0.01	-29.90
2000	0.01	-52.40	0.99	-15.50	0.99	-15.50	0.01	-52.40
2050	0.02	-75.00	0.99	-16.30	0.99	-16.30	0.02	-75.00
2100	0.02	-82.80	0.99	-16.90	0.99	-16.90	0.02	-82.80
2150	0.03	-90.50	0.99	-17.60	0.99	-17.60	0.03	-90.50
2200	0.03	-96.70	0.99	-18.40	0.99	-18.40	0.03	-96.70
2250	0.04	-102.90	0.99	-19.10	0.99	-19.10	0.04	-102.90
2300	0.05	-104.10	0.99	-19.70	0.99	-19.70	0.05	-104.10
2350	0.05	-105.40	0.99	-20.40	0.99	-20.40	0.05	-105.40
2400	0.06	-107.60	0.99	-21.20	0.99	-21.20	0.06	-107.60
2450	0.06	-109.90	0.99	-22.00	0.99	-22.00	0.06	-109.90
2500	0.07	-110.60	0.99	-22.60	0.99	-22.60	0.07	-110.60
2550	0.08	-111.40	0.98	-23.30	0.98	-23.30	0.08	-111.40
2600	0.08	-112.40	0.99	-23.90	0.99	-23.90	0.08	-112.40
2650	0.09	-113.40	0.99	-24.60	0.99	-24.60	0.09	-113.40
2700	0.09	-114.30	0.98	-25.20	0.98	-25.20	0.09	-114.30
2750	0.10	-115.20	0.98	-25.90	0.98	-25.90	0.10	-115.20
2800	0.11	-115.80	0.98	-26.50	0.98	-26.50	0.11	-115.80
2850	0.11	-116.40	0.99	-27.20	0.99	-27.20	0.11	-116.40
2900	0.12	-117.00	0.98	-28.00	0.98	-28.00	0.12	-117.00
2950	0.12	-117.60	0.98	-28.90	0.98	-28.90	0.12	-117.60
3000	0.13	-118.00	0.98	-29.50	0.98	-29.50	0.13	-118.00
3050	0.13	-118.40	0.98	-30.00	0.98	-30.00	0.13	-118.40
3100	0.14	-119.00	0.98	-30.80	0.98	-30.80	0.14	-119.00
3150	0.14	-119.60	0.97	-31.60	0.97	-31.60	0.14	-119.60
3200	0.15	-119.90	0.98	-32.20	0.98	-32.20	0.15	-119.90
3250	0.15	-120.10	0.98	-32.70	0.98	-32.70	0.15	-120.10
3300	0.16	-120.80	0.98	-33.50	0.98	-33.50	0.16	-120.80
3350	0.16	-121.60	0.98	-34.20	0.98	-34.20	0.16	-121.60
3400	0.17	-122.20	0.98	-34.90	0.98	-34.90	0.17	-122.20
3450	0.18	-122.80	0.97	-35.50	0.97	-35.50	0.18	-122.80
3500	0.18	-123.30	0.97	-36.20	0.97	-36.20	0.18	-123.30
3550	0.18	-123.80	0.97	-36.90	0.97	-36.90	0.18	-123.80
3600	0.19	-124.00	0.97	-37.50	0.97	-37.50	0.19	-124.00
3650	0.19	-124.10	0.97	-38.10	0.97	-38.10	0.19	-124.10
3700	0.20	-124.80	0.97	-39.00	0.97	-39.00	0.20	-124.80
3750	0.20	-125.40	0.97	-39.80	0.97	-39.80	0.20	-125.40
3800	0.21	-125.40	0.97	-40.40	0.97	-40.40	0.21	-125.40
3850	0.21	-125.30	0.96	-40.90	0.96	-40.90	0.21	-125.30
3900	0.22	-126.00	0.96	-41.90	0.96	-41.90	0.22	-126.00
3950	0.22	-126.70	0.96	-42.80	0.96	-42.80	0.22	-126.70
4000	0.23	-126.80	0.96	-43.40	0.96	-43.40	0.23	-126.80
4050	0.23	-126.90	0.96	-44.00	0.96	-44.00	0.23	-126.90
4100	0.24	-127.40	0.96	-44.70	0.96	-44.70	0.24	-127.40
4150	0.24	-128.00	0.96	-45.50	0.96	-45.50	0.24	-128.00
4200	0.25	-128.90	0.95	-46.30	0.95	-46.30	0.25	-128.90
4250	0.26	-129.90	0.95	-47.20	0.95	-47.20	0.26	-129.90
4300	0.26	-130.80	0.95	-47.90	0.95	-47.90	0.26	-130.80
4350	0.27	-131.70	0.94	-48.50	0.94	-48.50	0.27	-131.70
4400	0.28	-132.90	0.94	-49.60	0.94	-49.60	0.28	-132.90
4450	0.28	-134.20	0.94	-50.60	0.94	-50.60	0.28	-134.20
4500	0.29	-136.20	0.93	-51.70	0.93	-51.70	0.29	-136.20
4550	0.30	-138.30	0.92	-52.80	0.92	-52.80	0.30	-138.30
4600	0.32	-142.50	0.90	-54.30	0.90	-54.30	0.32	-142.50
4650	0.33	-146.80	0.89	-55.70	0.89	-55.70	0.33	-146.80
4700	0.34	-155.00	0.84	-55.90	0.84	-55.90	0.34	-155.00
4750	0.35	-163.30	0.80	-56.10	0.80	-56.10	0.35	-163.30
4800	0.28	5.50	0.79	-51.00	0.79	-51.00	0.28	5.50
4850	0.22	174.30	0.79	-45.80	0.79	-45.80	0.22	174.30
4900	0.19	8.00	0.85	-46.40	0.85	-46.40	0.19	8.00
4950	0.15	-158.30	0.91	-47.00	0.91	-47.00	0.15	-158.30
5000	0.17	-151.50	0.92	-48.90	0.92	-48.90	0.17	-151.50
5050	0.19	-144.70	0.93	-50.80	0.93	-50.80	0.19	-144.70
5100	0.20	-144.40	0.94	-52.10	0.94	-52.10	0.20	-144.40
5150	0.22	-144.10	0.94	-53.40	0.94	-53.40	0.22	-144.10
5200	0.23	-144.80	0.94	-54.40	0.94	-54.40	0.23	-144.80
5250	0.24	-145.60	0.94	-55.40	0.94	-55.40	0.24	-145.60
5300	0.25	-146.90	0.94	-56.60	0.94	-56.60	0.25	-146.90
5350	0.26	-148.20	0.94	-57.80	0.94	-57.80	0.26	-148.20
5400	0.27	-149.40	0.94	-58.60	0.94	-58.60	0.27	-149.40
5450	0.28	-150.50	0.94	-59.50	0.94	-59.50	0.28	-150.50
5500	0.29	-151.60	0.94	-60.40	0.94	-60.40	0.29	-151.60
5550	0.29	-152.60	0.93	-61.20	0.93	-61.20	0.29	-152.60
5600	0.30	-154.20	0.93	-62.10	0.93	-62.10	0.30	-154.20
5650	0.31	-155.70	0.93	-62.90	0.93	-62.90	0.31	-155.70
5700	0.31	-156.80	0.93	-63.80	0.93	-63.80	0.31	-156.80
5750	0.32	-158.00	0.93	-64.60	0.93	-64.60	0.32	-158.00
5800	0.33	-159.40	0.92	-65.40	0.92	-65.40	0.33	-159.40
5850	0.33	-160.90	0.92	-66.10	0.92	-66.10	0.33	-160.90
5900	0.34	-162.30	0.92	-66.90	0.92	-66.90	0.34	-162.30
5950	0.35	-163.70	0.92	-67.70	0.92	-67.70	0.35	-163.70
6000	0.37	-164.20	0.91	-68.70	0.91	-68.70	0.37	-164.20
6050	0.38	-164.70	0.90	-69.70	0.90	-69.70	0.38	-164.70
6100	0.39	-166.20	0.90	-70.30	0.90	-70.30	0.39	-166.20
6150	0.40	-167.70	0.90	-71.00	0.90	-71.00	0.40	-167.70
6200	0.40	-169.40	0.89	-71.90	0.89	-71.90	0.40	-169.40
6250	0.41	-171.20	0.89	-72.80	0.89	-72.80	0.41	-171.20
6300	0.42	-172.60	0.88	-73.50	0.88	-73.50	0.42	-172.60
6350	0.43	-173.90	0.88	-74.30	0.88	-74.30	0.43	-173.90
6400	0.44	-175.20	0.87	-75.20	0.87	-75.20	0.44	-175.20
6450	0.44	-176.40	0.86	-76.00	0.86	-76.00	0.44	-176.40
6500	0.45	-177.50	0.86	-76.90	0.86	-76.90	0.45	-177.50
6550	0.46	-178.70	0.85	-77.80	0.85	-77.80	0.46	-178.70
6600	0.46	-0.50	0.85	-78.70	0.85	-78.70	0.46	-0.50
6650	0.47	177.80	0.84	-79.60	0.84	-79.60	0.47	177.80
6700	0.48	176.50	0.83	-80.40	0.83	-80.40	0.48	176.50
6750	0.49	175.30	0.83	-81.10	0.83	-81.10	0.49	175.30
6800	0.50	173.50	0.82	-82.30	0.82	-82.30	0.50	173.50
6850	0.51	171.70	0.81	-83.40	0.81	-83.40	0.51	171.70
6900	0.52	170.00	0.80	-84.30	0.80	-84.30	0.52	170.00
6950	0.53	168.30	0.79	-85.30	0.79	-85.30	0.53	168.30
7000	0.54	166.00	0.78	-86.60	0.78	-86.60	0.54	166.00
7050	0.55	163.80	0.77	-87.90	0.77	-87.90	0.55	163.80
7100	0.56	161.60	0.75	-89.10	0.75	-89.10	0.56	161.60
7150	0.58	159.40	0.74	-90.20	0.74	-90.20	0.58	159.40
7200	0.59	156.60	0.72	-91.70	0.72	-91.70	0.59	156.60
7250	0.61	153.80	0.70	-93.20	0.70	-93.20	0.61	153.80
7300	0.62	150.50	0.67	-94.40	0.67	-94.40	0.62	150.50
7350	0.63	147.30	0.64	-95.60	0.64	-95.60	0.63	147.30
7400	0.65	143.20	0.61	-96.60	0.61	-96.60	0.65	143.20
7450	0.66	139.10	0.57	-97.50	0.57	-97.50	0.66	139.10
7500	0.67	134.40	0.52	-97.00	0.52	-97.00	0.67	134.40
7550	0.68	129.60	0.47	-96.60	0.47	-96.60	0.68	129.60
7600	0.68	123.60	0.43	-91.70	0.43	-91.70	0.68	123.60
7650	0.68	117.50	0.38	-86.80	0.38	-86.80	0.68	117.50
7700	0.66	110.20	0.37	-76.00	0.37	-76.00	0.66	110.20
7750	0.63	102.90	0.36	-65.10	0.36	-65.10	0.63	102.90
7800	0.59	95.90	0.42	-57.80	0.42	-57.80	0.59	95.90
7850	0.54	88.90	0.48	-50.60	0.48	-50.60	0.54	88.90
7900	0.47	82.80	0.56	-50.60	0.56	-50.60	0.47	82.80
7950	0.41	76.70	0.63	-50.70	0.63	-50.70	0.41	76.70
8000	0.35	74.00	0.69	-53.40	0.69	-53.40	0.35	74.00
8050	0.28	71.40	0.75	-56.20	0.75	-56.20	0.28	71.40
8100	0.23	72.80	0.79	-59.30	0.79	-59.30	0.23	72.80
8150	0.19	74.20	0.82	-62.40	0.82	-62.40	0.19	74.20
8200	0.15	84.00	0.84	-65.00	0.84	-65.00	0.15	84.00
8250	0.12	93.80	0.86	-67.70	0.86	-67.70	0.12	93.80
8300	0.12	107.70	0.88	-70.20	0.88	-70.20	0.12	107.70
8350	0.11	121.60	0.89	-72.60	0.89	-72.60	0.11	121.60
8400	0.12	131.70	0.90	-74.70	0.90	-74.70	0.12	131.70
8450	0.14	141.90	0.90	-76.90	0.90	-76.90	0.14	141.90
8500	0.15	146.70	0.90	-78.80	0.90	-78.80	0.15	146.70
8550	0.16	151.50	0.91	-80.80	0.91	-80.80	0.16	151.50
8600	0.18	153.00	0.91	-82.60	0.91	-82.60	0.18	153.00
8650	0.20	154.40	0.91	-84.30	0.91	-84.30	0.20	154.40
8700	0.22	155.50	0.90	-86.00	0.90	-86.00	0.22	155.50
8750	0.23	156.60	0.90	-87.60	0.90	-87.60	0.23	156.60
8800	0.25	155.90	0.90	-88.90	0.90	-88.90	0.25	155.90
8850	0.26	155.30	0.90	-90.10	0.90	-90.10	0.26	155.30
8900	0.28	155.10	0.89	-91.80	0.89	-91.80	0.28	155.10
8950	0.30	155.00	0.89	-93.40	0.89	-93.40	0.30	155.00
9000	0.31	154.30	0.88	-94.80	0.88	-94.80	0.31	154.30
9050	0.33	153.70	0.88	-96.10	0.88	-96.10	0.33	153.70
9100	0.35	153.20	0.88	-97.50	0.88	-97.50	0.35	153.20
9150	0.37	152.60	0.87	-98.90	0.87	-98.90	0.37	152.60
9200	0.38	151.10	0.87	-100.50	0.87	-100.50	0.38	151.10
9250	0.40	149.60	0.86	-102.20	0.86	-102.20	0.40	149.60
9300	0.41	149.60	0.85	-103.30	0.85	-103.30	0.41	149.60
9350	0.42	149.50	0.84	-104.30	0.84	-104.30	0.42	149.50
9400	0.44	148.60	0.83	-105.60	0.83	-105.60	0.44	148.60
9450	0.46	147.60	0.83	-106.90	0.83	-106.90	0.46	147.60
9500	0.47	146.80	0.81	-108.20	0.81	-108.20	0.47	146.80
9550	0.47	145.90	0.80	-109.60	0.80	-109.60	0.47	145.90
9600	0.49	145.40	0.79	-110.70	0.79	-110.70	0.49	145.40
9650	0.50	144.90	0.79	-111.90	0.79	-111.90	0.50	144.90
9700	0.52	144.00	0.77	-113.00	0.77	-113.00	0.52	144.00
9750	0.53	143.00	0.76	-114.20	0.76	-114.20	0.53	143.00
9800	0.53	142.90	0.75	-115.10	0.75	-115.10	0.53	142.90
9850	0.54	142.80	0.74	-116.10	0.74	-116.10	0.54	142.80
9900	0.56	142.10	0.73	-117.20	0.73	-117.20	0.56	142.10
9950	0.58	141.40	0.72	-118.20	0.72	-118.20	0.58	141.40
10000	0.58	139.40	0.71	-119.60	0.71	-119.60	0.58	139.40
10050	0.59	137.40	0.69	-121.00	0.69	-121.00	0.59	137.40
10100	0.61	137.30	0.68	-121.90	0.68	-121.90	0.61	137.30
10150	0.62	137.20	0.67	-122.80	0.67	-122.80	0.62	137.20
10200	0.64	134.90	0.65	-124.30	0.65	-124.30	0.64	134.90
10250	0.66	132.70	0.64	-125.70	0.64	-125.70	0.66	132.70
10300	0.67	130.70	0.62	-127.20	0.62	-127.20	0.67	130.70
10350	0.69	128.70	0.60	-128.60	0.60	-128.60	0.69	128.70
10400	0.69	127.00	0.58	-129.40	0.58	-129.40	0.69	127.00
10450	0.70	125.30	0.56	-130.30	0.56	-130.30	0.70	125.30
10500	0.71	122.50	0.54	-131.50	0.54	-131.50	0.71	122.50
10550	0.73	119.70	0.51	-132.80	0.51	-132.80	0.73	119.70
10600	0.73	117.40	0.49	-132.60	0.49	-132.60	0.73	117.40
10650	0.72	115.00	0.46	-132.40	0.46	-132.40	0.72	115.00
10700	0.74	112.00	0.44	-132.30	0.44	-132.30	0.74	112.00
10750	0.75	109.00	0.41	-132.20	0.41	-132.20	0.75	109.00
10800	0.74	106.50	0.38	-129.30	0.38	-129.30	0.74	106.50
10850	0.73	103.90	0.36	-126.40	0.36	-126.40	0.73	103.90
10900	0.71	100.30	0.34	-121.00	0.34	-121.00	0.71	100.30
10950	0.69	96.60	0.33	-115.60	0.33	-115.60	0.69	96.60
11000	0.65	93.90	0.35	-110.20	0.35	-110.20	0.65	93.90
11050	0.62	91.20	0.37	-104.90	0.37	-104.90	0.62	91.20
11100	0.57	90.90	0.41	-103.20	0.41	-103.20	0.57	90.90
11150	0.53	90.60	0.45	-101.40	0.45	-101.40	0.53	90.60
11200	0.51	93.70	0.49	-104.50	0.49	-104.50	0.51	93.70
11250	0.49	96.80	0.53	-107.50	0.53	-107.50	0.49	96.80
11300	0.50	100.20	0.55	-111.60	0.55	-111.60	0.50	100.20
11350	0.52	103.70	0.56	-115.70	0.56	-115.70	0.52	103.70
11400	0.55	103.70	0.56	-119.90	0.56	-119.90	0.55	103.70
11450	0.58	103.80	0.55	-124.00	0.55	-124.00	0.58	103.80
11500	0.62	102.60	0.54	-127.10	0.54	-127.10	0.62	102.60
11550	0.65	101.40	0.52	-130.10	0.52	-130.10	0.65	101.40
11600	0.67	99.20	0.50	-132.90	0.50	-132.90	0.67	99.20
11650	0.70	97.10	0.48	-135.70	0.48	-135.70	0.70	97.10
11700	0.72	94.80	0.45	-137.60	0.45	-137.60	0.72	94.80
11750	0.75	92.60	0.43	-139.60	0.43	-139.60	0.75	92.60
11800	0.76	90.60	0.41	-140.70	0.41	-140.70	0.76	90.60
11850	0.78	88.70	0.38	-141.80	0.38	-141.80	0.78	88.70
11900	0.79	86.80	0.35	-143.00	0.35	-143.00	0.79	86.80
11950	0.80	84.80	0.33	-144.30	0.33	-144.30	0.80	84.80
12000	0.82	83.10	0.30	-143.70	0.30	-143.70	0.82	83.10
12050	0.84	81.40	0.28	-143.00	0.28	-143.00	0.84	81.40
12100	0.84	78.70	0.25	-142.60	0.25	-142.60	0.84	78.70
12150	0.85	76.00	0.23	-142.10	0.23	-142.10	0.85	76.00
12200	0.86	74.10	0.21	-138.90	0.21	-138.90	0.86	74.10
12250	0.86	72.30	0.19	-135.70	0.19	-135.70	0.86	72.30
12300	0.86	70.50	0.17	-129.50	0.17	-129.50	0.86	70.50
12350	0.85	68.60	0.15	-123.30	0.15	-123.30	0.85	68.60
12400	0.86	65.60	0.14	-113.80	0.14	-113.80	0.86	65.60
12450	0.86	62.50	0.13	-104.40	0.13	-104.40	0.86	62.50
12500	0.86	60.60	0.14	-93.30	0.14	-93.30	0.86	60.60
12550	0.86	58.60	0.14	-82.30	0.14	-82.30	0.86	58.60
12600	0.85	56.20	0.16	-75.20	0.16	-75.20	0.85	56.20
12650	0.84	53.90	0.17	-68.10	0.17	-68.10	0.84	53.90
12700	0.84	51.50	0.20	-64.30	0.20	-64.30	0.84	51.50
12750	0.84	49.10	0.22	-60.40	0.22	-60.40	0.84	49.10
12800	0.83	46.70	0.25	-59.10	0.25	-59.10	0.83	46.70
12850	0.82	44.20	0.27	-57.80	0.27	-57.80	0.82	44.20
12900	0.82	42.20	0.30	-57.70	0.30	-57.70	0.82	42.20
12950	0.81	40.10	0.32	-57.50	0.32	-57.50	0.81	40.10
13000	0.79	38.10	0.35	-58.00	0.35	-58.00	0.79	38.10
13050	0.77	36.10	0.37	-58.40	0.37	-58.40	0.77	36.10
13100	0.76	33.90	0.40	-59.40	0.40	-59.40	0.76	33.90
13150	0.75	31.60	0.42	-60.40	0.42	-60.40	0.75	31.60
13200	0.74	29.80	0.45	-61.50	0.45	-61.50	0.74	29.80
13250	0.73	28.10	0.47	-62.50	0.47	-62.50	0.73	28.10
13300	0.69	27.70	0.49	-64.40	0.49	-64.40	0.69	27.70
13350	0.66	27.30	0.51	-66.30	0.51	-66.30	0.66	27.30
13400	0.66	23.80	0.54	-67.90	0.54	-67.90	0.66	23.80
13450	0.66	20.30	0.56	-69.50	0.56	-69.50	0.66	20.30
13500	0.64	18.60	0.58	-71.20	0.58	-71.20	0.64	18.60
13550	0.62	17.00	0.60	-72.90	0.60	-72.90	0.62	17.00
13600	0.61	14.60	0.61	-75.00	0.61	-75.00	0.61	14.60
13650	0.59	12.20	0.63	-77.00	0.63	-77.00	0.59	12.20
13700	0.57	10.30	0.65	-78.60	0.65	-78.60	0.57	10.30
13750	0.56	8.50	0.66	-80.20	0.66	-80.20	0.56	8.50
13800	0.54	6.00	0.67	-82.10	0.67	-82.10	0.54	6.00
13850	0.52	3.50	0.69	-84.00	0.69	-84.00	0.52	3.50
13900	0.51	1.30	0.70	-85.70	0.70	-85.70	0.51	1.30
13950	0.49	-0.80	0.72	-87.30	0.72	-87.30	0.49	-0.80
14000	0.48	-2.40	0.73	-89.10	0.73	-89.10	0.48	-2.40
14050	0.46	-3.90	0.74	-90.80	0.74	-90.80	0.46	-3.90
14100	0.45	-6.20	0.75	-92.70	0.75	-92.70	0.45	-6.20
14150	0.43	-8.50	0.76	-94.50	0.76	-94.50	0.43	-8.50
14200	0.42	-9.00	0.76	-96.50	0.76	-96.50	0.42	-9.00
14250	0.40	-9.60	0.77	-98.40	0.77	-98.40	0.40	-9.60
14300	0.38	-10.80	0.78	-100.30	0.78	-100.30	0.38	-10.80
14350	0.37	-12.00	0.78	-102.30	0.78	-102.30	0.37	-12.00
14400	0.35	-11.50	0.79	-104.40	0.79	-104.40	0.35	-11.50
14450	0.34	-11.10	0.79	-106.40	0.79	-106.40	0.34	-11.10
14500	0.32	-9.80	0.79	-108.40	0.79	-108.40	0.32	-9.80
14550	0.30	-8.40	0.79	-110.40	0.79	-110.40	0.30	-8.40
14600	0.29	-4.80	0.78	-112.70	0.78	-112.70	0.29	-4.80
14650	0.27	-1.10	0.78	-115.00	0.78	-115.00	0.27	-1.10
14700	0.26	3.10	0.77	-117.50	0.77	-117.50	0.26	3.10
14750	0.25	7.30	0.77	-120.00	0.77	-120.00	0.25	7.30
14800	0.26	14.10	0.75	-122.60	0.75	-122.60	0.26	14.10
14850	0.27	20.90	0.74	-125.20	0.74	-125.20	0.27	20.90
14900	0.29	26.10	0.71	-127.50	0.71	-127.50	0.29	26.10
14950	0.30	31.20	0.69	-129.80	0.69	-129.80	0.30	31.20
15000	0.34	32.80	0.65	-132.30	0.65	-132.30	0.34	32.80
15050	0.37	34.30	0.62	-134.70	0.62	-134.70	0.37	34.30
15100	0.41	33.80	0.58	-135.70	0.58	-135.70	0.41	33.80
15150	0.45	33.40	0.54	-136.70	0.54	-136.70	0.45	33.40
15200	0.49	31.30	0.50	-136.00	0.50	-136.00	0.49	31.30
15250	0.52	29.30	0.46	-135.30	0.46	-135.30	0.52	29.30
15300	0.56	25.50	0.43	-132.50	0.43	-132.50	0.56	25.50
15350	0.59	21.70	0.39	-129.70	0.39	-129.70	0.59	21.70
15400	0.60	18.40	0.38	-124.40	0.38	-124.40	0.60	18.40
15450	0.61	15.10	0.36	-119.00	0.36	-119.00	0.61	15.10
15500	0.63	12.50	0.37	-114.30	0.37	-114.30	0.63	12.50
15550	0.65	10.00	0.38	-109.60	0.38	-109.60	0.65	10.00
15600	0.65	7.10	0.40	-106.50	0.40	-106.50	0.65	7.10
15650	0.65	4.20	0.41	-103.50	0.41	-103.50	0.65	4.20
15700	0.65	2.10	0.43	-102.40	0.43	-102.40	0.65	2.10
15750	0.65	-0.10	0.45	-101.30	0.45	-101.30	0.65	-0.10
15800	0.65	-1.20	0.47	-100.30	0.47	-100.30	0.65	-1.20
15850	0.64	-2.40	0.49	-99.30	0.49	-99.30	0.64	-2.40
15900	0.64	-4.20	0.50	-98.80	0.50	-98.80	0.64	-4.20
15950	0.64	-5.90	0.52	-98.40	0.52	-98.40	0.64	-5.90
16000	0.63	-6.50	0.54	-98.00	0.54	-98.00	0.63	-6.50
16050	0.63	-7.10	0.56	-97.60	0.56	-97.60	0.63	-7.10
16100	0.61	-9.10	0.58	-98.20	0.58	-98.20	0.61	-9.10
16150	0.60	-11.10	0.60	-98.80	0.60	-98.80	0.60	-11.10
16200	0.58	-12.40	0.62	-99.50	0.62	-99.50	0.58	-12.40
16250	0.56	-13.60	0.64	-100.20	0.64	-100.20	0.56	-13.60
16300	0.54	-15.50	0.67	-101.50	0.67	-101.50	0.54	-15.50
16350	0.51	-17.40	0.69	-102.90	0.69	-102.90	0.51	-17.40
16400	0.49	-17.90	0.70	-104.50	0.70	-104.50	0.49	-17.90
16450	0.47	-18.30	0.71	-106.00	0.71	-106.00	0.47	-18.30
16500	0.45	-20.20	0.71	-106.90	0.71	-106.90	0.45	-20.20
16550	0.43	-22.00	0.71	-107.80	0.71	-107.80	0.43	-22.00
16600	0.42	-23.20	0.73	-108.50	0.73	-108.50	0.42	-23.20
16650	0.42	-24.30	0.74	-109.20	0.74	-109.20	0.42	-24.30
16700	0.41	-27.20	0.75	-110.10	0.75	-110.10	0.41	-27.20
16750	0.39	-30.20	0.77	-110.90	0.77	-110.90	0.39	-30.20
16800	0.38	-32.60	0.78	-112.10	0.78	-112.10	0.38	-32.60
16850	0.36	-35.00	0.80	-113.30	0.80	-113.30	0.36	-35.00
16900	0.34	-36.80	0.81	-114.70	0.81	-114.70	0.34	-36.80
16950	0.33	-38.70	0.82	-116.10	0.82	-116.10	0.33	-38.70
17000	0.31	-39.20	0.82	-117.70	0.82	-117.70	0.31	-39.20
17050	0.28	-39.80	0.83	-119.20	0.83	-119.20	0.28	-39.80
17100	0.27	-39.00	0.84	-120.90	0.84	-120.90	0.27	-39.00
17150	0.25	-38.10	0.84	-122.60	0.84	-122.60	0.25	-38.10
17200	0.23	-34.30	0.84	-124.10	0.84	-124.10	0.23	-34.30
17250	0.21	-30.40	0.84	-125.60	0.84	-125.60	0.21	-30.40
17300	0.19	-24.60	0.84	-127.30	0.84	-127.30	0.19	-24.60
17350	0.18	-18.80	0.84	-129.00	0.84	-129.00	0.18	-18.80
17400	0.18	-10.40	0.83	-130.50	0.83	-130.50	0.18	-10.40
17450	0.17	-2.10	0.82	-132.10	0.82	-132.10	0.17	-2.10
17500	0.19	5.60	0.81	-133.70	0.81	-133.70	0.19	5.60
17550	0.20	13.20	0.80	-135.40	0.80	-135.40	0.20	13.20
17600	0.22	16.70	0.78	-136.80	0.78	-136.80	0.22	16.70
17650	0.24	20.20	0.76	-138.20	0.76	-138.20	0.24	20.20
17700	0.27	21.30	0.73	-138.70	0.73	-138.70	0.27	21.30
17750	0.30	22.50	0.71	-139.20	0.71	-139.20	0.30	22.50
17800	0.32	18.80	0.68	-139.10	0.68	-139.10	0.32	18.80
17850	0.34	15.00	0.66	-139.00	0.66	-139.00	0.34	15.00
17900	0.36	11.70	0.63	-137.00	0.63	-137.00	0.36	11.70
17950	0.38	8.40	0.61	-135.10	0.61	-135.10	0.38	8.40
18000	0.39	2.00	0.61	-132.70	0.61	-132.70	0.39	2.00
18050	0.40	-4.30	0.61	-130.30	0.61	-130.30	0.40	-4.30
18100	0.40	-10.50	0.63	-128.40	0.63	-128.40	0.40	-10.50
18150	0.40	-16.70	0.64	-126.50	0.64	-126.50	0.40	-16.70
18200	0.40	-21.20	0.67	-125.70	0.67	-125.70	0.40	-21.20
18250	0.40	-25.60	0.69	-125.00	0.69	-125.00	0.40	-25.60
18300	0.40	-30.40	0.72	-125.40	0.72	-125.40	0.40	-30.40
18350	0.40	-35.20	0.75	-125.80	0.75	-125.80	0.40	-35.20
18400	0.40	-36.90	0.76	-126.40	0.76	-126.40	0.40	-36.90
18450	0.39	-38.60	0.78	-127.00	0.78	-127.00	0.39	-38.60
18500	0.39	-40.80	0.80	-128.00	0.80	-128.00	0.39	-40.80
18550	0.39	-42.90	0.83	-129.00	0.83	-129.00	0.39	-42.90
18600	0.38	-43.60	0.84	-130.10	0.84	-130.10	0.38	-43.60
18650	0.37	-44.30	0.85	-131.20	0.85	-131.20	0.37	-44.30
