#	mhz	s	ma	r	50			
50	0.03	53.20	0.99	0.10	0.99	0.10	0.03	53.20
100	0.05	62.90	0.99	-1.30	0.99	-1.30	0.05	62.90
150	0.07	72.60	0.98	-2.60	0.98	-2.60	0.07	72.60
200	0.10	73.40	0.98	-4.00	0.98	-4.00	0.10	73.40
250	0.12	74.20	0.98	-5.40	0.98	-5.40	0.12	74.20
300	0.14	73.60	0.97	-6.80	0.97	-6.80	0.14	73.60
350	0.16	73.00	0.97	-8.30	0.97	-8.30	0.16	73.00
400	0.18	71.90	0.96	-9.50	0.96	-9.50	0.18	71.90
450	0.20	70.90	0.96	-10.80	0.96	-10.80	0.20	70.90
500	0.24	72.80	0.95	-13.00	0.95	-13.00	0.24	72.80
550	0.28	74.80	0.94	-15.10	0.94	-15.10	0.28	74.80
600	0.30	73.70	0.94	-16.50	0.94	-16.50	0.30	73.70
650	0.31	72.60	0.93	-17.80	0.93	-17.80	0.31	72.60
700	0.34	72.00	0.92	-19.20	0.92	-19.20	0.34	72.00
750	0.36	71.50	0.92	-20.60	0.92	-20.60	0.36	71.50
800	0.38	69.80	0.90	-21.90	0.90	-21.90	0.38	69.80
850	0.39	68.10	0.90	-23.20	0.90	-23.20	0.39	68.10
900	0.42	66.90	0.89	-24.60	0.89	-24.60	0.42	66.90
950	0.44	65.60	0.88	-25.90	0.88	-25.90	0.44	65.60
1000	0.46	64.30	0.87	-27.30	0.87	-27.30	0.46	64.30
1050	0.48	62.90	0.86	-28.60	0.86	-28.60	0.48	62.90
1100	0.50	61.80	0.85	-30.00	0.85	-30.00	0.50	61.80
1150	0.52	60.70	0.83	-31.40	0.83	-31.40	0.52	60.70
1200	0.54	59.50	0.82	-32.50	0.82	-32.50	0.54	59.50
1250	0.56	58.30	0.81	-33.70	0.81	-33.70	0.56	58.30
1300	0.57	56.80	0.80	-35.10	0.80	-35.10	0.57	56.80
1350	0.59	55.40	0.79	-36.50	0.79	-36.50	0.59	55.40
1400	0.61	54.10	0.77	-37.60	0.77	-37.60	0.61	54.10
1450	0.62	52.90	0.76	-38.70	0.76	-38.70	0.62	52.90
1500	0.64	51.40	0.75	-40.00	0.75	-40.00	0.64	51.40
1550	0.65	49.90	0.74	-41.40	0.74	-41.40	0.65	49.90
1600	0.67	48.40	0.72	-42.60	0.72	-42.60	0.67	48.40
1650	0.68	46.90	0.71	-43.80	0.71	-43.80	0.68	46.90
1700	0.69	45.70	0.69	-45.00	0.69	-45.00	0.69	45.70
1750	0.70	44.40	0.68	-46.10	0.68	-46.10	0.70	44.40
1800	0.72	43.00	0.67	-47.20	0.67	-47.20	0.72	43.00
1850	0.74	41.60	0.66	-48.30	0.66	-48.30	0.74	41.60
1900	0.75	40.20	0.64	-49.40	0.64	-49.40	0.75	40.20
1950	0.75	38.70	0.63	-50.40	0.63	-50.40	0.75	38.70
2000	0.76	37.30	0.61	-51.60	0.61	-51.60	0.76	37.30
2050	0.78	35.90	0.60	-52.80	0.60	-52.80	0.78	35.90
2100	0.79	34.90	0.58	-53.70	0.58	-53.70	0.79	34.90
2150	0.80	33.80	0.57	-54.60	0.57	-54.60	0.80	33.80
2200	0.81	32.20	0.56	-55.90	0.56	-55.90	0.81	32.20
2250	0.82	30.60	0.54	-57.10	0.54	-57.10	0.82	30.60
2300	0.83	29.60	0.52	-57.90	0.52	-57.90	0.83	29.60
2350	0.83	28.60	0.51	-58.60	0.51	-58.60	0.83	28.60
2400	0.85	27.20	0.50	-59.90	0.50	-59.90	0.85	27.20
2450	0.86	25.70	0.48	-61.10	0.48	-61.10	0.86	25.70
2500	0.87	24.50	0.46	-62.20	0.46	-62.20	0.87	24.50
2550	0.88	23.20	0.45	-63.30	0.45	-63.30	0.88	23.20
2600	0.88	22.20	0.43	-64.10	0.43	-64.10	0.88	22.20
2650	0.89	21.20	0.42	-64.90	0.42	-64.90	0.89	21.20
2700	0.90	20.00	0.40	-66.00	0.40	-66.00	0.90	20.00
2750	0.90	18.90	0.39	-67.00	0.39	-67.00	0.90	18.90
2800	0.91	17.70	0.37	-67.80	0.37	-67.80	0.91	17.70
2850	0.92	16.60	0.35	-68.60	0.35	-68.60	0.92	16.60
2900	0.93	15.40	0.34	-69.80	0.34	-69.80	0.93	15.40
2950	0.93	14.30	0.32	-71.00	0.32	-71.00	0.93	14.30
3000	0.94	13.30	0.31	-71.80	0.31	-71.80	0.94	13.30
3050	0.94	12.40	0.29	-72.60	0.29	-72.60	0.94	12.40
3100	0.95	11.00	0.27	-73.50	0.27	-73.50	0.95	11.00
3150	0.95	9.60	0.25	-74.40	0.25	-74.40	0.95	9.60
3200	0.95	9.10	0.24	-74.90	0.24	-74.90	0.95	9.10
3250	0.96	8.50	0.23	-75.30	0.23	-75.30	0.96	8.50
3300	0.97	7.50	0.21	-76.20	0.21	-76.20	0.97	7.50
3350	0.97	6.50	0.19	-77.10	0.19	-77.10	0.97	6.50
3400	0.97	5.50	0.18	-77.40	0.18	-77.40	0.97	5.50
3450	0.97	4.50	0.16	-77.70	0.16	-77.70	0.97	4.50
3500	0.98	3.60	0.15	-78.00	0.15	-78.00	0.98	3.60
3550	0.98	2.80	0.13	-78.30	0.13	-78.30	0.98	2.80
3600	0.98	1.90	0.12	-78.40	0.12	-78.40	0.98	1.90
3650	0.98	1.00	0.10	-78.50	0.10	-78.50	0.98	1.00
3700	0.98	-0.10	0.09	-77.90	0.09	-77.90	0.98	-0.10
3750	0.99	-1.20	0.08	-77.30	0.08	-77.30	0.99	-1.20
3800	0.99	-2.10	0.06	-74.70	0.06	-74.70	0.99	-2.10
3850	0.99	-3.00	0.05	-72.20	0.05	-72.20	0.99	-3.00
3900	0.99	-4.20	0.03	-60.90	0.03	-60.90	0.99	-4.20
3950	0.99	-5.40	0.02	-49.70	0.02	-49.70	0.99	-5.40
4000	0.99	-6.40	0.02	-5.00	0.02	-5.00	0.99	-6.40
4050	0.98	-7.30	0.02	39.80	0.02	39.80	0.98	-7.30
4100	0.98	-8.40	0.03	52.70	0.03	52.70	0.98	-8.40
4150	0.98	-9.40	0.04	65.60	0.04	65.60	0.98	-9.40
4200	0.98	-10.40	0.06	68.60	0.06	68.60	0.98	-10.40
4250	0.99	-11.40	0.07	71.70	0.07	71.70	0.99	-11.40
4300	0.98	-12.50	0.08	72.50	0.08	72.50	0.98	-12.50
4350	0.98	-13.50	0.09	73.30	0.09	73.30	0.98	-13.50
4400	0.98	-14.60	0.11	73.30	0.11	73.30	0.98	-14.60
4450	0.98	-15.60	0.12	73.20	0.12	73.20	0.98	-15.60
4500	0.98	-16.30	0.13	73.00	0.13	73.00	0.98	-16.30
4550	0.97	-17.00	0.14	72.90	0.14	72.90	0.97	-17.00
4600	0.98	-18.20	0.16	72.50	0.16	72.50	0.98	-18.20
4650	0.99	-19.30	0.17	72.10	0.17	72.10	0.99	-19.30
4700	0.98	-20.20	0.18	71.60	0.18	71.60	0.98	-20.20
4750	0.97	-21.20	0.19	71.20	0.19	71.20	0.97	-21.20
4800	0.96	-22.30	0.20	70.50	0.20	70.50	0.96	-22.30
4850	0.96	-23.40	0.21	69.80	0.21	69.80	0.96	-23.40
4900	0.96	-23.90	0.22	69.60	0.22	69.60	0.96	-23.90
4950	0.97	-24.50	0.23	69.30	0.23	69.30	0.97	-24.50
5000	0.96	-25.90	0.25	68.30	0.25	68.30	0.96	-25.90
5050	0.96	-27.30	0.26	67.20	0.26	67.20	0.96	-27.30
5100	0.95	-28.00	0.26	66.70	0.26	66.70	0.95	-28.00
5150	0.93	-28.70	0.27	66.10	0.27	66.10	0.93	-28.70
5200	0.93	-28.70	0.28	66.10	0.28	66.10	0.93	-28.70
5250	0.93	-28.70	0.29	66.00	0.29	66.00	0.93	-28.70
5300	0.94	-30.00	0.31	65.00	0.31	65.00	0.94	-30.00
5350	0.95	-31.30	0.32	63.90	0.32	63.90	0.95	-31.30
5400	0.94	-31.70	0.33	63.20	0.33	63.20	0.94	-31.70
5450	0.92	-32.20	0.33	62.50	0.33	62.50	0.92	-32.20
5500	0.93	-32.70	0.34	61.90	0.34	61.90	0.93	-32.70
5550	0.93	-33.30	0.35	61.40	0.35	61.40	0.93	-33.30
5600	0.92	-33.80	0.36	60.70	0.36	60.70	0.92	-33.80
5650	0.91	-34.40	0.37	59.90	0.37	59.90	0.91	-34.40
5700	0.91	-34.80	0.38	59.40	0.38	59.40	0.91	-34.80
5750	0.90	-35.10	0.38	58.90	0.38	58.90	0.90	-35.10
5800	0.90	-35.30	0.39	58.40	0.39	58.40	0.90	-35.30
5850	0.89	-35.40	0.40	57.80	0.40	57.80	0.89	-35.40
5900	0.89	-35.20	0.41	57.50	0.41	57.50	0.89	-35.20
5950	0.89	-35.10	0.41	57.20	0.41	57.20	0.89	-35.10
6000	0.88	-36.60	0.43	56.00	0.43	56.00	0.88	-36.60
6050	0.88	-38.00	0.44	54.80	0.44	54.80	0.88	-38.00
6100	0.87	-37.80	0.45	54.60	0.45	54.60	0.87	-37.80
6150	0.87	-37.60	0.45	54.40	0.45	54.40	0.87	-37.60
6200	0.87	-37.50	0.46	53.70	0.46	53.70	0.87	-37.50
6250	0.87	-37.40	0.47	53.00	0.47	53.00	0.87	-37.40
6300	0.86	-37.40	0.47	52.50	0.47	52.50	0.86	-37.40
6350	0.86	-37.40	0.48	52.10	0.48	52.10	0.86	-37.40
6400	0.86	-37.10	0.49	51.50	0.49	51.50	0.86	-37.10
6450	0.85	-36.80	0.49	50.90	0.49	50.90	0.85	-36.80
6500	0.85	-36.70	0.50	50.40	0.50	50.40	0.85	-36.70
6550	0.84	-36.70	0.50	49.80	0.50	49.80	0.84	-36.70
6600	0.84	-36.50	0.51	49.20	0.51	49.20	0.84	-36.50
6650	0.83	-36.30	0.52	48.70	0.52	48.70	0.83	-36.30
6700	0.83	-36.00	0.52	48.40	0.52	48.40	0.83	-36.00
6750	0.82	-35.60	0.53	48.10	0.53	48.10	0.82	-35.60
6800	0.82	-35.60	0.54	47.80	0.54	47.80	0.82	-35.60
6850	0.83	-35.60	0.55	47.40	0.55	47.40	0.83	-35.60
6900	0.82	-35.70	0.55	46.80	0.55	46.80	0.82	-35.70
6950	0.81	-35.80	0.55	46.20	0.55	46.20	0.81	-35.80
7000	0.81	-35.60	0.56	45.80	0.56	45.80	0.81	-35.60
7050	0.80	-35.40	0.56	45.40	0.56	45.40	0.80	-35.40
7100	0.80	-35.60	0.57	45.00	0.57	45.00	0.80	-35.60
7150	0.79	-35.80	0.57	44.60	0.57	44.60	0.79	-35.80
7200	0.78	-35.60	0.58	44.40	0.58	44.40	0.78	-35.60
7250	0.78	-35.40	0.58	44.20	0.58	44.20	0.78	-35.40
7300	0.78	-35.90	0.59	43.80	0.59	43.80	0.78	-35.90
7350	0.79	-36.50	0.60	43.30	0.60	43.30	0.79	-36.50
7400	0.77	-36.80	0.60	42.80	0.60	42.80	0.77	-36.80
7450	0.76	-37.10	0.61	42.30	0.61	42.30	0.76	-37.10
7500	0.76	-37.80	0.61	41.90	0.61	41.90	0.76	-37.80
7550	0.77	-38.50	0.62	41.50	0.62	41.50	0.77	-38.50
7600	0.76	-39.30	0.63	40.90	0.63	40.90	0.76	-39.30
7650	0.75	-40.20	0.63	40.30	0.63	40.30	0.75	-40.20
7700	0.74	-40.80	0.63	40.00	0.63	40.00	0.74	-40.80
7750	0.74	-41.40	0.64	39.70	0.64	39.70	0.74	-41.40
7800	0.73	-42.20	0.64	39.30	0.64	39.30	0.73	-42.20
7850	0.72	-43.00	0.65	38.90	0.65	38.90	0.72	-43.00
7900	0.72	-44.30	0.66	38.30	0.66	38.30	0.72	-44.30
7950	0.72	-45.50	0.66	37.70	0.66	37.70	0.72	-45.50
8000	0.71	-46.70	0.67	37.20	0.67	37.20	0.71	-46.70
8050	0.70	-47.90	0.67	36.60	0.67	36.60	0.70	-47.90
8100	0.69	-48.60	0.68	36.50	0.68	36.50	0.69	-48.60
8150	0.69	-49.20	0.68	36.40	0.68	36.40	0.69	-49.20
8200	0.68	-50.30	0.69	35.70	0.69	35.70	0.68	-50.30
8250	0.68	-51.40	0.69	35.10	0.69	35.10	0.68	-51.40
8300	0.67	-52.10	0.70	34.90	0.70	34.90	0.67	-52.10
8350	0.67	-52.90	0.70	34.70	0.70	34.70	0.67	-52.90
8400	0.66	-53.70	0.71	34.00	0.71	34.00	0.66	-53.70
8450	0.66	-54.60	0.71	33.30	0.71	33.30	0.66	-54.60
8500	0.65	-55.30	0.72	33.00	0.72	33.00	0.65	-55.30
8550	0.64	-56.00	0.73	32.70	0.73	32.70	0.64	-56.00
8600	0.64	-56.60	0.73	32.00	0.73	32.00	0.64	-56.60
8650	0.63	-57.20	0.74	31.30	0.74	31.30	0.63	-57.20
8700	0.63	-57.80	0.74	30.80	0.74	30.80	0.63	-57.80
8750	0.63	-58.30	0.75	30.30	0.75	30.30	0.63	-58.30
8800	0.62	-58.70	0.75	30.20	0.75	30.20	0.62	-58.70
8850	0.61	-59.10	0.75	30.00	0.75	30.00	0.61	-59.10
8900	0.60	-59.20	0.75	29.50	0.75	29.50	0.60	-59.20
8950	0.60	-59.30	0.76	28.90	0.76	28.90	0.60	-59.30
9000	0.60	-59.60	0.76	28.60	0.76	28.60	0.60	-59.60
9050	0.59	-60.00	0.76	28.20	0.76	28.20	0.59	-60.00
9100	0.58	-60.40	0.77	27.90	0.77	27.90	0.58	-60.40
9150	0.58	-60.90	0.77	27.50	0.77	27.50	0.58	-60.90
9200	0.57	-61.70	0.78	27.40	0.78	27.40	0.57	-61.70
9250	0.56	-62.50	0.78	27.30	0.78	27.30	0.56	-62.50
9300	0.56	-62.40	0.79	26.70	0.79	26.70	0.56	-62.40
9350	0.55	-62.30	0.80	26.10	0.80	26.10	0.55	-62.30
9400	0.55	-62.90	0.80	25.90	0.80	25.90	0.55	-62.90
9450	0.54	-63.40	0.80	25.70	0.80	25.70	0.54	-63.40
9500	0.53	-63.40	0.80	25.00	0.80	25.00	0.53	-63.40
9550	0.53	-63.30	0.81	24.30	0.81	24.30	0.53	-63.30
9600	0.52	-63.40	0.81	23.80	0.81	23.80	0.52	-63.40
9650	0.52	-63.50	0.81	23.30	0.81	23.30	0.52	-63.50
9700	0.52	-64.20	0.81	23.30	0.81	23.30	0.52	-64.20
9750	0.51	-65.00	0.81	23.40	0.81	23.40	0.51	-65.00
9800	0.51	-65.10	0.82	23.10	0.82	23.10	0.51	-65.10
9850	0.50	-65.20	0.83	22.70	0.83	22.70	0.50	-65.20
9900	0.49	-65.40	0.83	22.40	0.83	22.40	0.49	-65.40
9950	0.49	-65.60	0.83	22.10	0.83	22.10	0.49	-65.60
10000	0.48	-65.90	0.84	21.80	0.84	21.80	0.48	-65.90
10050	0.47	-66.20	0.85	21.40	0.85	21.40	0.47	-66.20
10100	0.47	-66.10	0.85	21.00	0.85	21.00	0.47	-66.10
10150	0.46	-66.10	0.85	20.50	0.85	20.50	0.46	-66.10
10200	0.45	-66.30	0.86	20.20	0.86	20.20	0.45	-66.30
10250	0.44	-66.60	0.86	19.90	0.86	19.90	0.44	-66.60
10300	0.44	-67.00	0.86	19.60	0.86	19.60	0.44	-67.00
10350	0.44	-67.40	0.86	19.30	0.86	19.30	0.44	-67.40
10400	0.42	-68.50	0.87	18.70	0.87	18.70	0.42	-68.50
10450	0.41	-69.70	0.88	18.10	0.88	18.10	0.41	-69.70
10500	0.41	-69.60	0.88	17.80	0.88	17.80	0.41	-69.60
10550	0.41	-69.50	0.88	17.60	0.88	17.60	0.41	-69.50
10600	0.40	-70.90	0.88	16.90	0.88	16.90	0.40	-70.90
10650	0.39	-72.30	0.89	16.30	0.89	16.30	0.39	-72.30
10700	0.39	-72.20	0.89	16.00	0.89	16.00	0.39	-72.20
10750	0.38	-72.10	0.89	15.80	0.89	15.80	0.38	-72.10
10800	0.38	-73.20	0.89	15.50	0.89	15.50	0.38	-73.20
10850	0.38	-74.30	0.89	15.20	0.89	15.20	0.38	-74.30
10900	0.37	-75.40	0.90	14.50	0.90	14.50	0.37	-75.40
10950	0.36	-76.60	0.90	13.80	0.90	13.80	0.36	-76.60
11000	0.36	-77.00	0.90	13.70	0.90	13.70	0.36	-77.00
11050	0.35	-77.40	0.90	13.50	0.90	13.50	0.35	-77.40
11100	0.35	-78.40	0.90	13.00	0.90	13.00	0.35	-78.40
11150	0.35	-79.50	0.90	12.60	0.90	12.60	0.35	-79.50
11200	0.35	-79.10	0.90	12.30	0.90	12.30	0.35	-79.10
11250	0.35	-78.80	0.90	12.00	0.90	12.00	0.35	-78.80
11300	0.34	-79.70	0.90	11.50	0.90	11.50	0.34	-79.70
11350	0.34	-80.60	0.90	11.00	0.90	11.00	0.34	-80.60
11400	0.34	-79.80	0.91	10.90	0.91	10.90	0.34	-79.80
11450	0.34	-79.10	0.91	10.90	0.91	10.90	0.34	-79.10
11500	0.33	-80.10	0.91	10.30	0.91	10.30	0.33	-80.10
11550	0.32	-81.10	0.91	9.70	0.91	9.70	0.32	-81.10
11600	0.32	-80.80	0.91	9.50	0.91	9.50	0.32	-80.80
11650	0.32	-80.60	0.92	9.20	0.92	9.20	0.32	-80.60
11700	0.31	-80.90	0.92	8.80	0.92	8.80	0.31	-80.90
11750	0.31	-81.10	0.92	8.30	0.92	8.30	0.31	-81.10
11800	0.30	-81.50	0.92	8.00	0.92	8.00	0.30	-81.50
11850	0.29	-81.90	0.92	7.70	0.92	7.70	0.29	-81.90
11900	0.28	-82.80	0.92	7.40	0.92	7.40	0.28	-82.80
11950	0.28	-83.80	0.92	7.10	0.92	7.10	0.28	-83.80
12000	0.27	-84.90	0.93	6.40	0.93	6.40	0.27	-84.90
12050	0.27	-86.00	0.93	5.70	0.93	5.70	0.27	-86.00
12100	0.26	-86.80	0.93	5.40	0.93	5.40	0.26	-86.80
12150	0.26	-87.70	0.92	5.10	0.92	5.10	0.26	-87.70
12200	0.26	-88.40	0.92	4.70	0.92	4.70	0.26	-88.40
12250	0.25	-89.00	0.92	4.30	0.92	4.30	0.25	-89.00
12300	0.25	-88.90	0.93	3.90	0.93	3.90	0.25	-88.90
12350	0.25	-88.70	0.93	3.40	0.93	3.40	0.25	-88.70
12400	0.25	-89.40	0.92	3.20	0.92	3.20	0.25	-89.40
12450	0.25	-90.10	0.92	2.90	0.92	2.90	0.25	-90.10
12500	0.25	-89.10	0.92	2.50	0.92	2.50	0.25	-89.10
12550	0.24	-88.10	0.93	2.10	0.93	2.10	0.24	-88.10
12600	0.24	-87.90	0.93	1.90	0.93	1.90	0.24	-87.90
12650	0.24	-87.60	0.92	1.60	0.92	1.60	0.24	-87.60
12700	0.24	-85.90	0.92	1.30	0.92	1.30	0.24	-85.90
12750	0.24	-84.20	0.93	0.90	0.93	0.90	0.24	-84.20
12800	0.23	-83.30	0.93	0.60	0.93	0.60	0.23	-83.30
12850	0.23	-82.40	0.93	0.30	0.93	0.30	0.23	-82.40
12900	0.22	-80.90	0.93	-0.10	0.93	-0.10	0.22	-80.90
12950	0.22	-79.30	0.93	-0.50	0.93	-0.50	0.22	-79.30
13000	0.22	-78.60	0.93	-0.80	0.93	-0.80	0.22	-78.60
13050	0.21	-77.80	0.94	-1.10	0.94	-1.10	0.21	-77.80
13100	0.21	-76.10	0.94	-1.50	0.94	-1.50	0.21	-76.10
13150	0.20	-74.40	0.93	-2.00	0.93	-2.00	0.20	-74.40
13200	0.19	-73.90	0.94	-2.20	0.94	-2.20	0.19	-73.90
13250	0.18	-73.40	0.94	-2.50	0.94	-2.50	0.18	-73.40
13300	0.17	-70.70	0.94	-3.20	0.94	-3.20	0.17	-70.70
13350	0.16	-67.90	0.94	-3.90	0.94	-3.90	0.16	-67.90
13400	0.16	-68.00	0.94	-4.50	0.94	-4.50	0.16	-68.00
13450	0.16	-68.00	0.94	-5.10	0.94	-5.10	0.16	-68.00
13500	0.15	-66.80	0.94	-5.60	0.94	-5.60	0.15	-66.80
13550	0.14	-65.60	0.94	-6.10	0.94	-6.10	0.14	-65.60
13600	0.13	-64.30	0.94	-6.70	0.94	-6.70	0.13	-64.30
13650	0.13	-63.10	0.93	-7.30	0.93	-7.30	0.13	-63.10
13700	0.12	-61.30	0.94	-7.90	0.94	-7.90	0.12	-61.30
13750	0.12	-59.40	0.94	-8.60	0.94	-8.60	0.12	-59.40
13800	0.11	-55.40	0.93	-9.10	0.93	-9.10	0.11	-55.40
13850	0.11	-51.30	0.93	-9.70	0.93	-9.70	0.11	-51.30
13900	0.11	-48.10	0.93	-10.30	0.93	-10.30	0.11	-48.10
13950	0.11	-44.80	0.93	-10.90	0.93	-10.90	0.11	-44.80
14000	0.11	-38.20	0.93	-11.70	0.93	-11.70	0.11	-38.20
14050	0.12	-31.60	0.93	-12.50	0.93	-12.50	0.12	-31.60
14100	0.12	-28.40	0.93	-13.20	0.93	-13.20	0.12	-28.40
14150	0.13	-25.10	0.93	-14.00	0.93	-14.00	0.13	-25.10
14200	0.13	-19.40	0.92	-14.90	0.92	-14.90	0.13	-19.40
14250	0.14	-13.70	0.92	-15.80	0.92	-15.80	0.14	-13.70
14300	0.15	-10.60	0.92	-16.70	0.92	-16.70	0.15	-10.60
14350	0.16	-7.60	0.92	-17.50	0.92	-17.50	0.16	-7.60
14400	0.18	-4.30	0.91	-18.60	0.91	-18.60	0.18	-4.30
14450	0.19	-1.00	0.90	-19.70	0.90	-19.70	0.19	-1.00
14500	0.21	1.40	0.90	-20.60	0.90	-20.60	0.21	1.40
14550	0.22	3.90	0.89	-21.50	0.89	-21.50	0.22	3.90
14600	0.24	6.00	0.88	-22.60	0.88	-22.60	0.24	6.00
14650	0.26	8.20	0.88	-23.80	0.88	-23.80	0.26	8.20
14700	0.28	8.80	0.87	-25.10	0.87	-25.10	0.28	8.80
14750	0.29	9.40	0.86	-26.40	0.86	-26.40	0.29	9.40
14800	0.32	10.10	0.84	-27.90	0.84	-27.90	0.32	10.10
14850	0.35	10.80	0.83	-29.30	0.83	-29.30	0.35	10.80
14900	0.37	11.10	0.81	-30.50	0.81	-30.50	0.37	11.10
14950	0.39	11.40	0.80	-31.80	0.80	-31.80	0.39	11.40
15000	0.41	9.80	0.77	-33.60	0.77	-33.60	0.41	9.80
15050	0.44	8.20	0.75	-35.30	0.75	-35.30	0.44	8.20
15100	0.47	7.70	0.73	-36.60	0.73	-36.60	0.47	7.70
15150	0.49	7.10	0.70	-37.90	0.70	-37.90	0.49	7.10
15200	0.52	5.10	0.67	-39.20	0.67	-39.20	0.52	5.10
15250	0.55	3.10	0.64	-40.50	0.64	-40.50	0.55	3.10
15300	0.58	0.60	0.60	-42.00	0.60	-42.00	0.58	0.60
15350	0.62	-1.90	0.56	-43.60	0.56	-43.60	0.62	-1.90
15400	0.64	-4.30	0.51	-43.50	0.51	-43.50	0.64	-4.30
15450	0.66	-6.60	0.46	-43.30	0.46	-43.30	0.66	-6.60
15500	0.69	-8.70	0.42	-42.20	0.42	-42.20	0.69	-8.70
15550	0.73	-10.80	0.38	-41.10	0.38	-41.10	0.73	-10.80
15600	0.74	-13.70	0.34	-35.90	0.34	-35.90	0.74	-13.70
15650	0.76	-16.70	0.30	-30.70	0.30	-30.70	0.76	-16.70
15700	0.77	-19.30	0.28	-21.50	0.28	-21.50	0.77	-19.30
15750	0.78	-22.00	0.26	-12.40	0.26	-12.40	0.78	-22.00
15800	0.78	-24.10	0.27	-2.20	0.27	-2.20	0.78	-24.10
15850	0.78	-26.30	0.28	8.00	0.28	8.00	0.78	-26.30
15900	0.77	-28.70	0.31	13.90	0.31	13.90	0.77	-28.70
15950	0.77	-31.10	0.34	19.90	0.34	19.90	0.77	-31.10
16000	0.75	-32.50	0.38	22.30	0.38	22.30	0.75	-32.50
16050	0.73	-33.80	0.43	24.60	0.43	24.60	0.73	-33.80
16100	0.71	-35.90	0.46	24.60	0.46	24.60	0.71	-35.90
16150	0.69	-38.00	0.50	24.60	0.50	24.60	0.69	-38.00
16200	0.67	-39.20	0.53	24.00	0.53	24.00	0.67	-39.20
16250	0.64	-40.30	0.56	23.50	0.56	23.50	0.64	-40.30
16300	0.62	-41.80	0.59	22.20	0.59	22.20	0.62	-41.80
16350	0.60	-43.40	0.62	21.00	0.62	21.00	0.60	-43.40
16400	0.57	-44.20	0.63	20.00	0.63	20.00	0.57	-44.20
16450	0.55	-45.00	0.65	19.10	0.65	19.10	0.55	-45.00
16500	0.54	-46.90	0.66	18.60	0.66	18.60	0.54	-46.90
16550	0.53	-48.90	0.67	18.20	0.67	18.20	0.53	-48.90
16600	0.52	-50.10	0.69	17.60	0.69	17.60	0.52	-50.10
16650	0.50	-51.40	0.71	17.00	0.71	17.00	0.50	-51.40
16700	0.50	-53.20	0.72	16.60	0.72	16.60	0.50	-53.20
16750	0.49	-55.00	0.74	16.20	0.74	16.20	0.49	-55.00
16800	0.48	-56.30	0.75	15.80	0.75	15.80	0.48	-56.30
16850	0.48	-57.60	0.76	15.50	0.76	15.50	0.48	-57.60
16900	0.47	-59.00	0.77	15.00	0.77	15.00	0.47	-59.00
16950	0.46	-60.40	0.79	14.50	0.79	14.50	0.46	-60.40
17000	0.45	-61.80	0.80	13.80	0.80	13.80	0.45	-61.80
17050	0.44	-63.20	0.81	13.10	0.81	13.10	0.44	-63.20
17100	0.43	-63.40	0.82	12.50	0.82	12.50	0.43	-63.40
17150	0.42	-63.60	0.83	11.80	0.83	11.80	0.42	-63.60
17200	0.40	-64.10	0.84	11.20	0.84	11.20	0.40	-64.10
17250	0.39	-64.70	0.85	10.50	0.85	10.50	0.39	-64.70
17300	0.38	-64.90	0.86	9.90	0.86	9.90	0.38	-64.90
17350	0.37	-65.00	0.87	9.40	0.87	9.40	0.37	-65.00
17400	0.36	-66.80	0.87	8.70	0.87	8.70	0.36	-66.80
17450	0.34	-68.60	0.88	8.00	0.88	8.00	0.34	-68.60
17500	0.33	-68.40	0.88	7.20	0.88	7.20	0.33	-68.40
17550	0.32	-68.20	0.89	6.40	0.89	6.40	0.32	-68.20
17600	0.30	-69.60	0.89	5.70	0.89	5.70	0.30	-69.60
17650	0.28	-71.10	0.89	5.00	0.89	5.00	0.28	-71.10
17700	0.27	-72.90	0.90	4.30	0.90	4.30	0.27	-72.90
17750	0.26	-74.70	0.90	3.70	0.90	3.70	0.26	-74.70
17800	0.25	-76.70	0.90	3.00	0.90	3.00	0.25	-76.70
17850	0.24	-78.60	0.91	2.40	0.91	2.40	0.24	-78.60
17900	0.23	-80.40	0.91	2.00	0.91	2.00	0.23	-80.40
17950	0.23	-82.30	0.91	1.60	0.91	1.60	0.23	-82.30
18000	0.22	-84.00	0.91	0.90	0.91	0.90	0.22	-84.00
18050	0.22	-85.80	0.91	0.20	0.91	0.20	0.22	-85.80
18100	0.22	-87.40	0.91	-0.20	0.91	-0.20	0.22	-87.40
18150	0.22	-89.10	0.91	-0.60	0.91	-0.60	0.22	-89.10
18200	0.22	-89.10	0.92	-1.10	0.92	-1.10	0.22	-89.10
18250	0.22	-89.00	0.92	-1.50	0.92	-1.50	0.22	-89.00
18300	0.22	-89.80	0.92	-2.10	0.92	-2.10	0.22	-89.80
18350	0.23	-90.60	0.92	-2.60	0.92	-2.60	0.23	-90.60
18400	0.22	-88.40	0.92	-2.90	0.92	-2.90	0.22	-88.40
18450	0.22	-86.20	0.92	-3.10	0.92	-3.10	0.22	-86.20
18500	0.22	-85.90	0.93	-3.60	0.93	-3.60	0.22	-85.90
18550	0.22	-85.50	0.93	-4.10	0.93	-4.10	0.22	-85.50
18600	0.21	-84.00	0.93	-4.40	0.93	-4.40	0.21	-84.00
18650	0.20	-82.60	0.94	-4.70	0.94	-4.70	0.20	-82.60
18700	0.20	-83.90	0.93	-5.30	0.93	-5.30	0.20	-83.90
18750	0.20	-85.30	0.93	-5.80	0.93	-5.80	0.20	-85.30
18800	0.19	-84.60	0.93	-6.20	0.93	-6.20	0.19	-84.60
18850	0.18	-84.00	0.93	-6.50	0.93	-6.50	0.18	-84.00
18900	0.18	-84.80	0.93	-7.00	0.93	-7.00	0.18	-84.80
18950	0.17	-85.70	0.92	-7.50	0.92	-7.50	0.17	-85.70
19000	0.17	-89.80	0.92	-7.50	0.92	-7.50	0.17	-89.80
19050	0.16	-93.90	0.92	-7.50	0.92	-7.50	0.16	-93.90
19100	0.16	-91.40	0.92	-7.70	0.92	-7.70	0.16	-91.40
19150	0.15	-88.80	0.92	-7.90	0.92	-7.90	0.15	-88.80
19200	0.16	-90.70	0.92	-8.20	0.92	-8.20	0.16	-90.70
19250	0.16	-92.60	0.92	-8.40	0.92	-8.40	0.16	-92.60
19300	0.16	-89.60	0.93	-8.70	0.93	-8.70	0.16	-89.60
19350	0.16	-86.60	0.93	-9.10	0.93	-9.10	0.16	-86.60
19400	0.17	-87.60	0.93	-9.70	0.93	-9.70	0.17	-87.60
19450	0.17	-88.60	0.94	-10.30	0.94	-10.30	0.17	-88.60
19500	0.18	-86.90	0.94	-10.40	0.94	-10.40	0.18	-86.90
