#	mhz	s	ma	r	50

50	0.93	172.70	0.12	72.70	0.12	72.70	0.93	172.70
100	0.92	166.30	0.22	68.80	0.22	68.80	0.92	166.30
150	0.91	160.00	0.33	64.80	0.33	64.80	0.91	160.00
200	0.87	154.80	0.41	60.30	0.41	60.30	0.87	154.80
250	0.83	149.70	0.49	55.80	0.49	55.80	0.83	149.70
300	0.79	144.90	0.55	51.20	0.55	51.20	0.79	144.90
350	0.75	140.00	0.61	46.60	0.61	46.60	0.75	140.00
400	0.70	136.40	0.66	43.20	0.66	43.20	0.70	136.40
450	0.66	132.80	0.70	39.80	0.70	39.80	0.66	132.80
500	0.61	127.60	0.75	35.50	0.75	35.50	0.61	127.60
550	0.56	122.50	0.80	31.10	0.80	31.10	0.56	122.50
600	0.53	120.30	0.82	28.70	0.82	28.70	0.53	120.30
650	0.50	118.10	0.84	26.20	0.84	26.20	0.50	118.10
700	0.48	115.40	0.86	24.10	0.86	24.10	0.48	115.40
750	0.45	112.70	0.87	22.10	0.87	22.10	0.45	112.70
800	0.43	111.30	0.88	20.20	0.88	20.20	0.43	111.30
850	0.41	109.80	0.89	18.30	0.89	18.30	0.41	109.80
900	0.39	108.20	0.90	16.70	0.90	16.70	0.39	108.20
950	0.37	106.60	0.91	15.10	0.91	15.10	0.37	106.60
1000	0.35	105.10	0.92	13.60	0.92	13.60	0.35	105.10
1050	0.33	103.70	0.93	12.10	0.93	12.10	0.33	103.70
1100	0.32	102.20	0.93	10.80	0.93	10.80	0.32	102.20
1150	0.31	100.60	0.94	9.50	0.94	9.50	0.31	100.60
1200	0.29	99.50	0.94	8.30	0.94	8.30	0.29	99.50
1250	0.28	98.40	0.94	7.10	0.94	7.10	0.28	98.40
1300	0.27	96.90	0.95	6.10	0.95	6.10	0.27	96.90
1350	0.26	95.40	0.95	5.00	0.95	5.00	0.26	95.40
1400	0.25	94.50	0.96	3.90	0.96	3.90	0.25	94.50
1450	0.23	93.60	0.96	2.90	0.96	2.90	0.23	93.60
1500	0.22	92.40	0.96	1.90	0.96	1.90	0.22	92.40
1550	0.22	91.20	0.96	0.90	0.96	0.90	0.22	91.20
1600	0.21	90.20	0.96	-0.10	0.96	-0.10	0.21	90.20
1650	0.20	89.20	0.97	-1.00	0.97	-1.00	0.20	89.20
1700	0.19	88.60	0.97	-1.90	0.97	-1.90	0.19	88.60
1750	0.18	88.00	0.97	-2.90	0.97	-2.90	0.18	88.00
1800	0.17	87.00	0.97	-3.70	0.97	-3.70	0.17	87.00
1850	0.17	86.00	0.98	-4.50	0.98	-4.50	0.17	86.00
1900	0.16	85.10	0.98	-5.30	0.98	-5.30	0.16	85.10
1950	0.15	84.10	0.98	-6.00	0.98	-6.00	0.15	84.10
2000	0.14	83.60	0.98	-6.90	0.98	-6.90	0.14	83.60
2050	0.13	83.10	0.98	-7.80	0.98	-7.80	0.13	83.10
2100	0.13	82.40	0.98	-8.50	0.98	-8.50	0.13	82.40
2150	0.12	81.80	0.98	-9.20	0.98	-9.20	0.12	81.80
2200	0.11	81.90	0.98	-10.10	0.98	-10.10	0.11	81.90
2250	0.11	81.90	0.98	-10.90	0.98	-10.90	0.11	81.90
2300	0.10	81.70	0.98	-11.50	0.98	-11.50	0.10	81.70
2350	0.09	81.50	0.99	-12.20	0.99	-12.20	0.09	81.50
2400	0.09	81.80	0.98	-13.00	0.98	-13.00	0.09	81.80
2450	0.08	82.10	0.98	-13.80	0.98	-13.80	0.08	82.10
2500	0.07	82.40	0.98	-14.50	0.98	-14.50	0.07	82.40
2550	0.07	82.70	0.99	-15.30	0.99	-15.30	0.07	82.70
2600	0.06	83.10	0.99	-15.90	0.99	-15.90	0.06	83.10
2650	0.05	83.50	0.99	-16.60	0.99	-16.60	0.05	83.50
2700	0.05	85.50	0.99	-17.20	0.99	-17.20	0.05	85.50
2750	0.04	87.40	0.99	-17.90	0.99	-17.90	0.04	87.40
2800	0.04	89.30	0.99	-18.50	0.99	-18.50	0.04	89.30
2850	0.03	91.10	0.99	-19.20	0.99	-19.20	0.03	91.10
2900	0.03	97.40	0.99	-20.00	0.99	-20.00	0.03	97.40
2950	0.02	103.70	0.99	-20.90	0.99	-20.90	0.02	103.70
3000	0.02	115.90	0.99	-21.50	0.99	-21.50	0.02	115.90
3050	0.01	128.10	0.99	-22.00	0.99	-22.00	0.01	128.10
3100	0.01	151.70	0.99	-22.80	0.99	-22.80	0.01	151.70
3150	0.01	175.30	0.98	-23.70	0.98	-23.70	0.01	175.30
3200	0.01	9.90	0.99	-24.20	0.99	-24.20	0.01	9.90
3250	0.01	-155.40	0.99	-24.60	0.99	-24.60	0.01	-155.40
3300	0.02	-149.80	0.99	-25.40	0.99	-25.40	0.02	-149.80
3350	0.02	-144.10	0.99	-26.20	0.99	-26.20	0.02	-144.10
3400	0.03	-140.00	0.99	-26.80	0.99	-26.80	0.03	-140.00
3450	0.03	-135.90	0.99	-27.30	0.99	-27.30	0.03	-135.90
3500	0.04	-134.90	0.99	-28.00	0.99	-28.00	0.04	-134.90
3550	0.04	-133.90	0.99	-28.60	0.99	-28.60	0.04	-133.90
3600	0.04	-132.00	0.99	-29.10	0.99	-29.10	0.04	-132.00
3650	0.05	-130.10	0.99	-29.70	0.99	-29.70	0.05	-130.10
3700	0.05	-129.10	0.99	-30.50	0.99	-30.50	0.05	-129.10
3750	0.06	-128.00	0.99	-31.20	0.99	-31.20	0.06	-128.00
3800	0.06	-126.10	0.99	-31.70	0.99	-31.70	0.06	-126.10
3850	0.06	-124.20	0.99	-32.20	0.99	-32.20	0.06	-124.20
3900	0.07	-124.00	0.99	-33.00	0.99	-33.00	0.07	-124.00
3950	0.07	-123.70	0.99	-33.80	0.99	-33.80	0.07	-123.70
4000	0.07	-122.50	0.99	-34.40	0.99	-34.40	0.07	-122.50
4050	0.08	-121.20	0.99	-34.90	0.99	-34.90	0.08	-121.20
4100	0.08	-120.80	0.99	-35.50	0.99	-35.50	0.08	-120.80
4150	0.08	-120.30	0.99	-36.10	0.99	-36.10	0.08	-120.30
4200	0.09	-120.10	0.99	-36.80	0.99	-36.80	0.09	-120.10
4250	0.09	-119.90	0.99	-37.40	0.99	-37.40	0.09	-119.90
4300	0.09	-119.60	0.99	-37.90	0.99	-37.90	0.09	-119.60
4350	0.09	-119.40	0.98	-38.30	0.98	-38.30	0.09	-119.40
4400	0.10	-119.00	0.99	-39.00	0.99	-39.00	0.10	-119.00
4450	0.10	-118.70	0.99	-39.70	0.99	-39.70	0.10	-118.70
4500	0.10	-118.70	0.99	-40.40	0.99	-40.40	0.10	-118.70
4550	0.10	-118.80	0.99	-41.10	0.99	-41.10	0.10	-118.80
4600	0.11	-119.80	0.99	-41.90	0.99	-41.90	0.11	-119.80
4650	0.11	-120.70	0.99	-42.60	0.99	-42.60	0.11	-120.70
4700	0.11	-121.60	0.99	-43.10	0.99	-43.10	0.11	-121.60
4750	0.12	-122.60	0.98	-43.70	0.98	-43.70	0.12	-122.60
4800	0.12	-123.20	0.98	-44.30	0.98	-44.30	0.12	-123.20
4850	0.12	-123.70	0.98	-44.90	0.98	-44.90	0.12	-123.70
4900	0.12	-125.20	0.98	-45.50	0.98	-45.50	0.12	-125.20
4950	0.13	-126.70	0.98	-46.20	0.98	-46.20	0.13	-126.70
5000	0.13	-127.70	0.98	-46.90	0.98	-46.90	0.13	-127.70
5050	0.13	-128.80	0.98	-47.50	0.98	-47.50	0.13	-128.80
5100	0.14	-129.80	0.98	-48.00	0.98	-48.00	0.14	-129.80
5150	0.14	-130.80	0.98	-48.60	0.98	-48.60	0.14	-130.80
5200	0.14	-132.00	0.98	-49.10	0.98	-49.10	0.14	-132.00
5250	0.15	-133.20	0.98	-49.60	0.98	-49.60	0.15	-133.20
5300	0.15	-134.30	0.98	-50.40	0.98	-50.40	0.15	-134.30
5350	0.16	-135.40	0.98	-51.10	0.98	-51.10	0.16	-135.40
5400	0.16	-136.40	0.98	-51.80	0.98	-51.80	0.16	-136.40
5450	0.16	-137.40	0.97	-52.40	0.97	-52.40	0.16	-137.40
5500	0.17	-138.00	0.97	-53.00	0.97	-53.00	0.17	-138.00
5550	0.17	-138.70	0.97	-53.60	0.97	-53.60	0.17	-138.70
5600	0.17	-140.10	0.97	-54.20	0.97	-54.20	0.17	-140.10
5650	0.17	-141.60	0.97	-54.90	0.97	-54.90	0.17	-141.60
5700	0.18	-142.60	0.97	-55.40	0.97	-55.40	0.18	-142.60
5750	0.18	-143.60	0.97	-56.00	0.97	-56.00	0.18	-143.60
5800	0.18	-144.70	0.97	-56.60	0.97	-56.60	0.18	-144.70
5850	0.19	-145.90	0.97	-57.30	0.97	-57.30	0.19	-145.90
5900	0.19	-147.20	0.97	-57.80	0.97	-57.80	0.19	-147.20
5950	0.19	-148.60	0.97	-58.30	0.97	-58.30	0.19	-148.60
6000	0.21	-148.50	0.97	-59.10	0.97	-59.10	0.21	-148.50
6050	0.23	-148.40	0.96	-59.90	0.96	-59.90	0.23	-148.40
6100	0.23	-149.80	0.96	-60.30	0.96	-60.30	0.23	-149.80
6150	0.23	-151.30	0.96	-60.70	0.96	-60.70	0.23	-151.30
6200	0.23	-153.10	0.96	-61.40	0.96	-61.40	0.23	-153.10
6250	0.24	-154.80	0.96	-62.10	0.96	-62.10	0.24	-154.80
6300	0.24	-156.30	0.96	-62.60	0.96	-62.60	0.24	-156.30
6350	0.25	-157.70	0.96	-63.10	0.96	-63.10	0.25	-157.70
6400	0.25	-158.70	0.95	-63.70	0.95	-63.70	0.25	-158.70
6450	0.25	-159.70	0.95	-64.30	0.95	-64.30	0.25	-159.70
6500	0.26	-160.50	0.95	-64.90	0.95	-64.90	0.26	-160.50
6550	0.26	-161.30	0.95	-65.50	0.95	-65.50	0.26	-161.30
6600	0.26	-162.90	0.95	-66.10	0.95	-66.10	0.26	-162.90
6650	0.27	-164.50	0.95	-66.70	0.95	-66.70	0.27	-164.50
6700	0.27	-165.20	0.94	-67.00	0.94	-67.00	0.27	-165.20
6750	0.27	-165.90	0.94	-67.40	0.94	-67.40	0.27	-165.90
6800	0.28	-167.00	0.94	-68.10	0.94	-68.10	0.28	-167.00
6850	0.28	-168.10	0.95	-68.70	0.95	-68.70	0.28	-168.10
6900	0.28	-169.10	0.94	-69.20	0.94	-69.20	0.28	-169.10
6950	0.28	-170.10	0.94	-69.80	0.94	-69.80	0.28	-170.10
7000	0.28	-171.60	0.94	-70.50	0.94	-70.50	0.28	-171.60
7050	0.29	-173.10	0.94	-71.20	0.94	-71.20	0.29	-173.10
7100	0.29	-174.20	0.94	-71.70	0.94	-71.70	0.29	-174.20
7150	0.29	-175.30	0.94	-72.20	0.94	-72.20	0.29	-175.30
7200	0.29	-176.40	0.94	-72.90	0.94	-72.90	0.29	-176.40
7250	0.30	-177.50	0.94	-73.60	0.94	-73.60	0.30	-177.50
7300	0.30	-178.70	0.94	-74.30	0.94	-74.30	0.30	-178.70
7350	0.30	-179.90	0.94	-74.90	0.94	-74.90	0.30	-179.90
7400	0.30	-1.60	0.94	-75.60	0.94	-75.60	0.30	-1.60
7450	0.31	176.70	0.94	-76.20	0.94	-76.20	0.31	176.70
7500	0.31	175.90	0.94	-77.00	0.94	-77.00	0.31	175.90
7550	0.31	175.00	0.93	-77.80	0.93	-77.80	0.31	175.00
7600	0.31	173.50	0.93	-78.40	0.93	-78.40	0.31	173.50
7650	0.32	172.10	0.93	-79.10	0.93	-79.10	0.32	172.10
7700	0.32	171.10	0.93	-79.90	0.93	-79.90	0.32	171.10
7750	0.32	170.00	0.93	-80.70	0.93	-80.70	0.32	170.00
7800	0.33	168.30	0.92	-81.60	0.92	-81.60	0.33	168.30
7850	0.33	166.60	0.92	-82.50	0.92	-82.50	0.33	166.60
7900	0.34	165.10	0.91	-83.40	0.91	-83.40	0.34	165.10
7950	0.34	163.50	0.90	-84.30	0.90	-84.30	0.34	163.50
8000	0.35	160.60	0.89	-85.20	0.89	-85.20	0.35	160.60
8050	0.36	157.60	0.87	-86.10	0.87	-86.10	0.36	157.60
8100	0.35	151.00	0.84	-85.70	0.84	-85.70	0.35	151.00
8150	0.34	144.50	0.81	-85.30	0.81	-85.30	0.34	144.50
8200	0.29	144.20	0.83	-82.60	0.83	-82.60	0.29	144.20
8250	0.23	143.80	0.85	-79.80	0.85	-79.80	0.23	143.80
8300	0.23	152.50	0.88	-81.10	0.88	-81.10	0.23	152.50
8350	0.23	161.30	0.92	-82.30	0.92	-82.30	0.23	161.30
8400	0.24	163.70	0.92	-83.90	0.92	-83.90	0.24	163.70
8450	0.26	166.20	0.93	-85.40	0.93	-85.40	0.26	166.20
8500	0.27	167.10	0.93	-86.70	0.93	-86.70	0.27	167.10
8550	0.27	168.00	0.93	-87.90	0.93	-87.90	0.27	168.00
8600	0.28	167.70	0.93	-89.10	0.93	-89.10	0.28	167.70
8650	0.29	167.40	0.93	-90.20	0.93	-90.20	0.29	167.40
8700	0.30	167.70	0.93	-91.20	0.93	-91.20	0.30	167.70
8750	0.31	168.00	0.92	-92.20	0.92	-92.20	0.31	168.00
8800	0.31	167.30	0.92	-92.90	0.92	-92.90	0.31	167.30
8850	0.32	166.50	0.92	-93.50	0.92	-93.50	0.32	166.50
8900	0.33	166.40	0.92	-94.70	0.92	-94.70	0.33	166.40
8950	0.34	166.30	0.91	-95.80	0.91	-95.80	0.34	166.30
9000	0.35	165.90	0.91	-96.70	0.91	-96.70	0.35	165.90
9050	0.36	165.50	0.90	-97.60	0.90	-97.60	0.36	165.50
9100	0.37	165.30	0.90	-98.50	0.90	-98.50	0.37	165.30
9150	0.38	165.00	0.90	-99.40	0.90	-99.40	0.38	165.00
9200	0.39	163.80	0.90	-100.60	0.90	-100.60	0.39	163.80
9250	0.40	162.60	0.90	-101.90	0.90	-101.90	0.40	162.60
9300	0.41	163.00	0.89	-102.50	0.89	-102.50	0.41	163.00
9350	0.41	163.40	0.88	-103.20	0.88	-103.20	0.41	163.40
9400	0.42	162.90	0.88	-104.20	0.88	-104.20	0.42	162.90
9450	0.44	162.40	0.87	-105.10	0.87	-105.10	0.44	162.40
9500	0.44	162.00	0.86	-106.10	0.86	-106.10	0.44	162.00
9550	0.44	161.60	0.85	-107.20	0.85	-107.20	0.44	161.60
9600	0.46	161.50	0.85	-108.10	0.85	-108.10	0.46	161.50
9650	0.47	161.50	0.84	-108.90	0.84	-108.90	0.47	161.50
9700	0.48	160.90	0.83	-109.80	0.83	-109.80	0.48	160.90
9750	0.49	160.30	0.83	-110.70	0.83	-110.70	0.49	160.30
9800	0.49	160.60	0.82	-111.50	0.82	-111.50	0.49	160.60
9850	0.49	160.90	0.81	-112.30	0.81	-112.30	0.49	160.90
9900	0.51	160.60	0.81	-113.10	0.81	-113.10	0.51	160.60
9950	0.52	160.40	0.80	-113.90	0.80	-113.90	0.52	160.40
10000	0.53	158.80	0.79	-115.10	0.79	-115.10	0.53	158.80
10050	0.54	157.10	0.78	-116.30	0.78	-116.30	0.54	157.10
10100	0.55	157.60	0.77	-116.90	0.77	-116.90	0.55	157.60
10150	0.56	158.00	0.77	-117.60	0.77	-117.60	0.56	158.00
10200	0.58	156.00	0.76	-118.80	0.76	-118.80	0.58	156.00
10250	0.59	154.10	0.75	-120.10	0.75	-120.10	0.59	154.10
10300	0.61	152.80	0.74	-121.40	0.74	-121.40	0.61	152.80
10350	0.62	151.50	0.72	-122.70	0.72	-122.70	0.62	151.50
10400	0.63	150.00	0.71	-123.70	0.71	-123.70	0.63	150.00
10450	0.63	148.60	0.70	-124.70	0.70	-124.70	0.63	148.60
10500	0.65	146.80	0.69	-126.10	0.69	-126.10	0.65	146.80
10550	0.67	145.00	0.68	-127.60	0.68	-127.60	0.67	145.00
10600	0.67	143.20	0.66	-128.30	0.66	-128.30	0.67	143.20
10650	0.67	141.40	0.64	-129.00	0.64	-129.00	0.67	141.40
10700	0.69	139.50	0.63	-130.40	0.63	-130.40	0.69	139.50
10750	0.71	137.70	0.62	-131.90	0.62	-131.90	0.71	137.70
10800	0.72	136.40	0.60	-132.60	0.60	-132.60	0.72	136.40
10850	0.72	135.20	0.58	-133.20	0.58	-133.20	0.72	135.20
10900	0.73	132.50	0.56	-134.30	0.56	-134.30	0.73	132.50
10950	0.73	129.80	0.54	-135.30	0.54	-135.30	0.73	129.80
11000	0.75	128.30	0.53	-136.50	0.53	-136.50	0.75	128.30
11050	0.76	126.70	0.52	-137.60	0.52	-137.60	0.76	126.70
11100	0.77	124.00	0.49	-138.60	0.49	-138.60	0.77	124.00
11150	0.78	121.30	0.47	-139.50	0.47	-139.50	0.78	121.30
11200	0.79	118.70	0.44	-140.40	0.44	-140.40	0.79	118.70
11250	0.80	116.00	0.43	-141.40	0.43	-141.40	0.80	116.00
11300	0.80	113.50	0.40	-141.80	0.40	-141.80	0.80	113.50
11350	0.81	110.90	0.37	-142.10	0.37	-142.10	0.81	110.90
11400	0.82	107.50	0.34	-142.30	0.34	-142.30	0.82	107.50
11450	0.82	104.00	0.31	-142.50	0.31	-142.50	0.82	104.00
11500	0.83	101.00	0.27	-140.00	0.27	-140.00	0.83	101.00
11550	0.83	98.00	0.24	-137.50	0.24	-137.50	0.83	98.00
11600	0.83	94.50	0.21	-131.30	0.21	-131.30	0.83	94.50
11650	0.84	90.90	0.18	-125.10	0.18	-125.10	0.84	90.90
11700	0.83	87.50	0.17	-111.70	0.17	-111.70	0.83	87.50
11750	0.83	84.00	0.16	-98.20	0.16	-98.20	0.83	84.00
11800	0.83	80.90	0.18	-84.80	0.18	-84.80	0.83	80.90
11850	0.82	77.70	0.20	-71.30	0.20	-71.30	0.82	77.70
11900	0.80	74.40	0.24	-65.90	0.24	-65.90	0.80	74.40
11950	0.78	71.10	0.28	-60.50	0.28	-60.50	0.78	71.10
12000	0.76	68.00	0.33	-58.80	0.33	-58.80	0.76	68.00
12050	0.75	64.80	0.38	-57.20	0.38	-57.20	0.75	64.80
12100	0.71	60.90	0.43	-58.90	0.43	-58.90	0.71	60.90
12150	0.68	57.00	0.48	-60.60	0.48	-60.60	0.68	57.00
12200	0.64	54.20	0.53	-62.70	0.53	-62.70	0.64	54.20
12250	0.61	51.40	0.58	-64.80	0.58	-64.80	0.61	51.40
12300	0.56	49.20	0.62	-67.40	0.62	-67.40	0.56	49.20
12350	0.52	46.90	0.66	-70.00	0.66	-70.00	0.52	46.90
12400	0.48	44.00	0.70	-73.20	0.70	-73.20	0.48	44.00
12450	0.44	41.20	0.73	-76.40	0.73	-76.40	0.44	41.20
12500	0.41	40.50	0.76	-79.00	0.76	-79.00	0.41	40.50
12550	0.38	39.70	0.79	-81.70	0.79	-81.70	0.38	39.70
12600	0.34	39.10	0.81	-84.40	0.81	-84.40	0.34	39.10
12650	0.31	38.50	0.82	-87.10	0.82	-87.10	0.31	38.50
12700	0.28	39.00	0.84	-89.50	0.84	-89.50	0.28	39.00
12750	0.26	39.50	0.86	-91.90	0.86	-91.90	0.26	39.50
12800	0.24	41.40	0.87	-94.30	0.87	-94.30	0.24	41.40
12850	0.22	43.30	0.87	-96.70	0.87	-96.70	0.22	43.30
12900	0.20	47.50	0.88	-98.80	0.88	-98.80	0.20	47.50
12950	0.19	51.70	0.89	-100.90	0.89	-100.90	0.19	51.70
13000	0.18	56.90	0.89	-102.90	0.89	-102.90	0.18	56.90
13050	0.17	62.20	0.90	-104.90	0.90	-104.90	0.17	62.20
13100	0.16	68.30	0.90	-106.70	0.90	-106.70	0.16	68.30
13150	0.16	74.40	0.90	-108.60	0.90	-108.60	0.16	74.40
13200	0.17	79.80	0.90	-110.10	0.90	-110.10	0.17	79.80
13250	0.17	85.20	0.91	-111.70	0.91	-111.70	0.17	85.20
13300	0.18	91.20	0.91	-113.70	0.91	-113.70	0.18	91.20
13350	0.19	97.20	0.90	-115.70	0.90	-115.70	0.19	97.20
13400	0.20	97.60	0.90	-117.40	0.90	-117.40	0.20	97.60
13450	0.22	98.00	0.90	-119.00	0.90	-119.00	0.22	98.00
13500	0.23	100.20	0.90	-120.60	0.90	-120.60	0.23	100.20
13550	0.25	102.50	0.90	-122.20	0.90	-122.20	0.25	102.50
13600	0.25	102.80	0.90	-123.80	0.90	-123.80	0.25	102.80
13650	0.26	103.10	0.89	-125.30	0.89	-125.30	0.26	103.10
13700	0.27	103.50	0.89	-126.90	0.89	-126.90	0.27	103.50
13750	0.28	103.90	0.89	-128.50	0.89	-128.50	0.28	103.90
13800	0.29	103.60	0.88	-129.80	0.88	-129.80	0.29	103.60
13850	0.30	103.30	0.88	-131.20	0.88	-131.20	0.30	103.30
13900	0.31	102.80	0.88	-132.70	0.88	-132.70	0.31	102.80
13950	0.32	102.20	0.87	-134.10	0.87	-134.10	0.32	102.20
14000	0.33	100.90	0.87	-135.80	0.87	-135.80	0.33	100.90
14050	0.34	99.50	0.86	-137.50	0.86	-137.50	0.34	99.50
14100	0.35	98.90	0.86	-138.80	0.86	-138.80	0.35	98.90
14150	0.37	98.20	0.85	-140.20	0.85	-140.20	0.37	98.20
14200	0.38	96.60	0.84	-141.90	0.84	-141.90	0.38	96.60
14250	0.40	95.00	0.83	-143.60	0.83	-143.60	0.40	95.00
14300	0.41	93.30	0.82	-145.30	0.82	-145.30	0.41	93.30
14350	0.42	91.60	0.82	-147.00	0.82	-147.00	0.42	91.60
14400	0.44	90.30	0.80	-148.70	0.80	-148.70	0.44	90.30
14450	0.46	89.00	0.79	-150.40	0.79	-150.40	0.46	89.00
14500	0.47	87.00	0.78	-152.10	0.78	-152.10	0.47	87.00
14550	0.49	85.10	0.76	-153.80	0.76	-153.80	0.49	85.10
14600	0.51	83.90	0.75	-155.30	0.75	-155.30	0.51	83.90
14650	0.54	82.80	0.73	-156.80	0.73	-156.80	0.54	82.80
14700	0.55	81.00	0.72	-158.80	0.72	-158.80	0.55	81.00
14750	0.56	79.30	0.70	-160.80	0.70	-160.80	0.56	79.30
14800	0.59	77.30	0.68	-162.70	0.68	-162.70	0.59	77.30
14850	0.62	75.40	0.66	-164.60	0.66	-164.60	0.62	75.40
14900	0.63	74.80	0.64	-166.00	0.64	-166.00	0.63	74.80
14950	0.64	74.20	0.62	-167.50	0.62	-167.50	0.64	74.20
15000	0.67	71.80	0.60	-169.50	0.60	-169.50	0.67	71.80
15050	0.69	69.30	0.58	-171.40	0.58	-171.40	0.69	69.30
15100	0.70	67.90	0.55	-172.70	0.55	-172.70	0.70	67.90
15150	0.70	66.50	0.52	-173.90	0.52	-173.90	0.70	66.50
15200	0.72	65.00	0.50	-174.90	0.50	-174.90	0.72	65.00
15250	0.74	63.40	0.47	-175.90	0.47	-175.90	0.74	63.40
15300	0.75	61.00	0.44	-177.00	0.44	-177.00	0.75	61.00
15350	0.77	58.60	0.42	-178.00	0.42	-178.00	0.77	58.60
15400	0.76	56.40	0.39	-178.30	0.39	-178.30	0.76	56.40
15450	0.75	54.20	0.35	-178.50	0.35	-178.50	0.75	54.20
15500	0.77	53.20	0.33	-177.60	0.33	-177.60	0.77	53.20
15550	0.79	52.10	0.31	-176.60	0.31	-176.60	0.79	52.10
15600	0.79	50.10	0.29	-174.70	0.29	-174.70	0.79	50.10
15650	0.79	48.20	0.27	-172.80	0.27	-172.80	0.79	48.20
15700	0.80	46.70	0.25	-170.60	0.25	-170.60	0.80	46.70
15750	0.80	45.30	0.24	-168.50	0.24	-168.50	0.80	45.30
15800	0.80	44.80	0.23	-165.80	0.23	-165.80	0.80	44.80
15850	0.80	44.40	0.21	-163.10	0.21	-163.10	0.80	44.40
15900	0.81	42.90	0.20	-160.40	0.20	-160.40	0.81	42.90
15950	0.82	41.40	0.18	-157.80	0.18	-157.80	0.82	41.40
16000	0.82	41.40	0.17	-152.00	0.17	-152.00	0.82	41.40
16050	0.83	41.40	0.16	-146.20	0.16	-146.20	0.83	41.40
16100	0.83	40.20	0.16	-138.60	0.16	-138.60	0.83	40.20
16150	0.84	39.00	0.15	-130.90	0.15	-130.90	0.84	39.00
16200	0.83	38.00	0.16	-123.10	0.16	-123.10	0.83	38.00
16250	0.82	36.90	0.17	-115.30	0.17	-115.30	0.82	36.90
16300	0.81	36.40	0.19	-111.10	0.19	-111.10	0.81	36.40
16350	0.80	35.90	0.20	-106.90	0.20	-106.90	0.80	35.90
16400	0.79	35.80	0.22	-107.20	0.22	-107.20	0.79	35.80
16450	0.78	35.70	0.23	-107.50	0.23	-107.50	0.78	35.70
16500	0.77	35.50	0.23	-107.80	0.23	-107.80	0.77	35.50
16550	0.76	35.20	0.23	-108.00	0.23	-108.00	0.76	35.20
16600	0.77	34.60	0.23	-104.90	0.23	-104.90	0.77	34.60
16650	0.80	34.00	0.23	-101.80	0.23	-101.80	0.80	34.00
16700	0.81	31.90	0.24	-96.50	0.24	-96.50	0.81	31.90
16750	0.82	29.80	0.25	-91.30	0.25	-91.30	0.82	29.80
16800	0.82	27.00	0.27	-88.30	0.27	-88.30	0.82	27.00
16850	0.82	24.20	0.29	-85.40	0.29	-85.40	0.82	24.20
16900	0.82	21.50	0.31	-84.50	0.31	-84.50	0.82	21.50
16950	0.81	18.80	0.34	-83.50	0.34	-83.50	0.81	18.80
17000	0.81	16.40	0.37	-83.70	0.37	-83.70	0.81	16.40
17050	0.80	14.10	0.39	-83.90	0.39	-83.90	0.80	14.10
17100	0.79	12.00	0.42	-84.70	0.42	-84.70	0.79	12.00
17150	0.78	10.00	0.44	-85.60	0.44	-85.60	0.78	10.00
17200	0.77	8.30	0.47	-86.40	0.47	-86.40	0.77	8.30
17250	0.76	6.70	0.49	-87.20	0.49	-87.20	0.76	6.70
17300	0.75	5.20	0.52	-88.50	0.52	-88.50	0.75	5.20
17350	0.74	3.80	0.54	-89.70	0.54	-89.70	0.74	3.80
17400	0.73	2.50	0.56	-90.90	0.56	-90.90	0.73	2.50
17450	0.72	1.10	0.59	-92.10	0.59	-92.10	0.72	1.10
17500	0.70	-0.20	0.61	-94.10	0.61	-94.10	0.70	-0.20
17550	0.68	-1.50	0.63	-96.00	0.63	-96.00	0.68	-1.50
17600	0.66	-2.80	0.65	-98.10	0.65	-98.10	0.66	-2.80
17650	0.63	-4.10	0.67	-100.10	0.67	-100.10	0.63	-4.10
17700	0.61	-4.80	0.69	-102.00	0.69	-102.00	0.61	-4.80
17750	0.59	-5.50	0.71	-103.90	0.71	-103.90	0.59	-5.50
17800	0.56	-7.10	0.72	-106.40	0.72	-106.40	0.56	-7.10
17850	0.54	-8.70	0.73	-108.90	0.73	-108.90	0.54	-8.70
17900	0.51	-7.60	0.73	-110.80	0.73	-110.80	0.51	-7.60
17950	0.48	-6.50	0.73	-112.80	0.73	-112.80	0.48	-6.50
18000	0.47	-6.30	0.72	-114.60	0.72	-114.60	0.47	-6.30
18050	0.46	-6.10	0.72	-116.30	0.72	-116.30	0.46	-6.10
18100	0.47	-6.30	0.71	-116.90	0.71	-116.90	0.47	-6.30
18150	0.47	-6.50	0.70	-117.50	0.70	-117.50	0.47	-6.50
18200	0.48	-7.80	0.70	-117.10	0.70	-117.10	0.48	-7.80
18250	0.50	-9.10	0.70	-116.80	0.70	-116.80	0.50	-9.10
18300	0.51	-12.20	0.72	-117.10	0.72	-117.10	0.51	-12.20
18350	0.52	-15.20	0.74	-117.30	0.74	-117.30	0.52	-15.20
18400	0.52	-16.50	0.75	-117.90	0.75	-117.90	0.52	-16.50
18450	0.52	-17.70	0.76	-118.60	0.76	-118.60	0.52	-17.70
18500	0.52	-19.00	0.78	-119.50	0.78	-119.50	0.52	-19.00
18550	0.52	-20.30	0.80	-120.50	0.80	-120.50	0.52	-20.30
18600	0.52	-21.00	0.81	-121.70	0.81	-121.70	0.52	-21.00
18650	0.52	-21.80	0.81	-122.90	0.81	-122.90	0.52	-21.80
