#	mhz	s	ma	r	50
50	0.56015	125.6293	0.74988	30.46389	0.74988	30.46389	0.56015	125.6293
70	0.49792	118.57999	0.7878	24.72628	0.7878	24.72628	0.49792	118.57999
90	0.43568	111.53068	0.82572	18.98867	0.82572	18.98867	0.43568	111.53068
110	0.37345	104.48136	0.86364	13.25106	0.86364	13.25106	0.37345	104.48136
130	0.31122	97.43205	0.90156	7.51345	0.90156	7.51345	0.31122	97.43205
150	0.24898	90.38274	0.93948	1.77584	0.93948	1.77584	0.24898	90.38274
170	0.22779	86.88776	0.94624	-1.10149	0.94624	-1.10149	0.22779	86.88776
190	0.20659	83.39278	0.9530	-3.97883	0.9530	-3.97883	0.20659	83.39278
210	0.1854	79.8978	0.95976	-6.85617	0.95976	-6.85617	0.1854	79.8978
230	0.1642	76.40281	0.96652	-9.73351	0.96652	-9.73351	0.1642	76.40281
250	0.1430	72.90783	0.97328	-12.61084	0.97328	-12.61084	0.1430	72.90783
270	0.13312	69.67529	0.97499	-14.97534	0.97499	-14.97534	0.13312	69.67529
290	0.12325	66.44275	0.97671	-17.33984	0.97671	-17.33984	0.12325	66.44275
310	0.11337	63.21021	0.97842	-19.70434	0.97842	-19.70434	0.11337	63.21021
330	0.10349	59.97766	0.98014	-22.06884	0.98014	-22.06884	0.10349	59.97766
350	0.09361	56.74512	0.98185	-24.43334	0.98185	-24.43334	0.09361	56.74512
370	0.0884	53.31048	0.98237	-26.4248	0.98237	-26.4248	0.0884	53.31048
390	0.08318	49.87584	0.98288	-28.41625	0.98288	-28.41625	0.08318	49.87584
410	0.07797	46.4412	0.98339	-30.4077	0.98339	-30.4077	0.07797	46.4412
430	0.07276	43.00656	0.9839	-32.39915	0.9839	-32.39915	0.07276	43.00656
450	0.06755	39.57192	0.98442	-34.39061	0.98442	-34.39061	0.06755	39.57192
470	0.06418	40.28117	0.98384	-36.32352	0.98384	-36.32352	0.06418	40.28117
490	0.0608	40.99042	0.98326	-38.25644	0.98326	-38.25644	0.0608	40.99042
510	0.05743	41.69967	0.98267	-40.18936	0.98267	-40.18936	0.05743	41.69967
530	0.05406	42.40893	0.98209	-42.12228	0.98209	-42.12228	0.05406	42.40893
550	0.05068	43.11818	0.98151	-44.05519	0.98151	-44.05519	0.05068	43.11818
570	0.04418	40.97501	0.9824	-45.97523	0.9824	-45.97523	0.04418	40.97501
590	0.03769	38.83184	0.98329	-47.89528	0.98329	-47.89528	0.03769	38.83184
610	0.03119	36.68867	0.98418	-49.81532	0.98418	-49.81532	0.03119	36.68867
630	0.02469	34.5455	0.98507	-51.73536	0.98507	-51.73536	0.02469	34.5455
650	0.0182	32.40233	0.98596	-53.6554	0.98596	-53.6554	0.0182	32.40233
670	0.01787	31.97713	0.98669	-55.47128	0.98669	-55.47128	0.01787	31.97713
690	0.01755	31.55194	0.98741	-57.28717	0.98741	-57.28717	0.01755	31.55194
710	0.01722	31.12675	0.98814	-59.10305	0.98814	-59.10305	0.01722	31.12675
730	0.0169	30.70156	0.98886	-60.91893	0.98886	-60.91893	0.0169	30.70156
750	0.01658	30.27637	0.98959	-62.73482	0.98959	-62.73482	0.01658	30.27637
770	0.01569	52.81489	0.98915	-64.57086	0.98915	-64.57086	0.01569	52.81489
790	0.0148	75.35341	0.98872	-66.40691	0.98872	-66.40691	0.0148	75.35341
810	0.01392	97.89193	0.98828	-68.24295	0.98828	-68.24295	0.01392	97.89193
830	0.01303	120.43046	0.98785	-70.079	0.98785	-70.079	0.01303	120.43046
850	0.01214	142.96898	0.98741	-71.91504	0.98741	-71.91504	0.01214	142.96898
870	0.01162	141.25822	0.98795	-73.75257	0.98795	-73.75257	0.01162	141.25822
890	0.01109	139.54747	0.9885	-75.59009	0.9885	-75.59009	0.01109	139.54747
910	0.01056	137.83671	0.98904	-77.42761	0.98904	-77.42761	0.01056	137.83671
930	0.01004	136.12596	0.98958	-79.26513	0.98958	-79.26513	0.01004	136.12596
950	0.00951	134.4152	0.99012	-81.10266	0.99012	-81.10266	0.00951	134.4152
970	0.0133	133.41493	0.98803	-82.83536	0.98803	-82.83536	0.0133	133.41493
990	0.01708	132.41465	0.98594	-84.56807	0.98594	-84.56807	0.01708	132.41465
1010	0.02086	131.41437	0.98384	-86.30077	0.98384	-86.30077	0.02086	131.41437
1030	0.02465	130.41409	0.98175	-88.03348	0.98175	-88.03348	0.02465	130.41409
1050	0.02843	129.41381	0.97965	-89.76618	0.97965	-89.76618	0.02843	129.41381
1070	0.02918	128.23356	0.98059	-91.57423	0.98059	-91.57423	0.02918	128.23356
1090	0.02993	127.05331	0.98152	-93.38227	0.98152	-93.38227	0.02993	127.05331
1110	0.03068	125.87306	0.98245	-95.19031	0.98245	-95.19031	0.03068	125.87306
1130	0.03143	124.6928	0.98339	-96.99835	0.98339	-96.99835	0.03143	124.6928
1150	0.03218	123.51255	0.98432	-98.8064	0.98432	-98.8064	0.03218	123.51255
1170	0.0361	122.11607	0.98444	-100.62387	0.98444	-100.62387	0.0361	122.11607
1190	0.04002	120.71958	0.98455	-102.44133	0.98455	-102.44133	0.04002	120.71958
1210	0.04394	119.3231	0.98467	-104.2588	0.98467	-104.2588	0.04394	119.3231
1230	0.04786	117.92661	0.98478	-106.07627	0.98478	-106.07627	0.04786	117.92661
1250	0.05178	116.53013	0.9849	-107.89374	0.9849	-107.89374	0.05178	116.53013
1270	0.05121	115.72469	0.98441	-109.66812	0.98441	-109.66812	0.05121	115.72469
1290	0.05063	114.91925	0.98392	-111.44249	0.98392	-111.44249	0.05063	114.91925
1310	0.05005	114.11382	0.98344	-113.21687	0.98344	-113.21687	0.05005	114.11382
1330	0.04947	113.30838	0.98295	-114.99125	0.98295	-114.99125	0.04947	113.30838
1350	0.04889	112.50294	0.98246	-116.76562	0.98246	-116.76562	0.04889	112.50294
1370	0.05182	108.6632	0.9825	-118.58689	0.9825	-118.58689	0.05182	108.6632
1390	0.05475	104.82346	0.98253	-120.40816	0.98253	-120.40816	0.05475	104.82346
1410	0.05768	100.98372	0.98257	-122.22942	0.98257	-122.22942	0.05768	100.98372
1430	0.06061	97.14398	0.98261	-124.05069	0.98261	-124.05069	0.06061	97.14398
1450	0.06354	93.30424	0.98264	-125.87195	0.98264	-125.87195	0.06354	93.30424
1470	0.06345	91.9891	0.98278	-127.62011	0.98278	-127.62011	0.06345	91.9891
1490	0.06336	90.67396	0.98292	-129.36827	0.98292	-129.36827	0.06336	90.67396
1510	0.06328	89.35881	0.98306	-131.11642	0.98306	-131.11642	0.06328	89.35881
1530	0.06319	88.04367	0.9832	-132.86458	0.9832	-132.86458	0.06319	88.04367
1550	0.0631	86.72852	0.98334	-134.61274	0.98334	-134.61274	0.0631	86.72852
1570	0.06497	83.13887	0.98287	-136.43984	0.98287	-136.43984	0.06497	83.13887
1590	0.06683	79.54922	0.98239	-138.26695	0.98239	-138.26695	0.06683	79.54922
1610	0.0687	75.95958	0.98192	-140.09406	0.98192	-140.09406	0.0687	75.95958
1630	0.07056	72.36993	0.98144	-141.92116	0.98144	-141.92116	0.07056	72.36993
1650	0.07243	68.78028	0.98097	-143.74827	0.98097	-143.74827	0.07243	68.78028
1670	0.07244	66.76381	0.9812	-145.47221	0.9812	-145.47221	0.07244	66.76381
1690	0.07244	64.74735	0.98143	-147.19616	0.98143	-147.19616	0.07244	64.74735
1710	0.07245	62.73089	0.98167	-148.9201	0.98167	-148.9201	0.07245	62.73089
1730	0.07246	60.71443	0.9819	-150.64405	0.9819	-150.64405	0.07246	60.71443
1750	0.07247	58.69797	0.98213	-152.36799	0.98213	-152.36799	0.07247	58.69797
1770	0.07453	54.78029	0.982	-154.15107	0.982	-154.15107	0.07453	54.78029
1790	0.0766	50.86262	0.98187	-155.93414	0.98187	-155.93414	0.0766	50.86262
1810	0.07866	46.94495	0.98173	-157.71722	0.98173	-157.71722	0.07866	46.94495
1830	0.08073	43.02728	0.9816	-159.50029	0.9816	-159.50029	0.08073	43.02728
1850	0.08279	39.10961	0.98147	-161.28336	0.98147	-161.28336	0.08279	39.10961
1870	0.08412	37.48916	0.9811	-163.11732	0.9811	-163.11732	0.08412	37.48916
1890	0.08545	35.8687	0.98073	-164.95129	0.98073	-164.95129	0.08545	35.8687
1910	0.08679	34.24825	0.98037	-166.78525	0.98037	-166.78525	0.08679	34.24825
1930	0.08812	32.62779	0.98	-168.61921	0.98	-168.61921	0.08812	32.62779
1950	0.08945	31.00734	0.97963	-170.45317	0.97963	-170.45317	0.08945	31.00734
1970	0.09029	27.75701	0.97957	-172.24112	0.97957	-172.24112	0.09029	27.75701
1990	0.09113	24.50668	0.9795	-174.02907	0.9795	-174.02907	0.09113	24.50668
2010	0.09197	21.25634	0.97943	-175.81702	0.97943	-175.81702	0.09197	21.25634
2030	0.09281	18.00601	0.97937	-177.60497	0.97937	-177.60497	0.09281	18.00601
2050	0.09365	14.75568	0.9793	-179.39292	0.9793	-179.39292	0.09365	14.75568
2070	0.09539	12.66699	0.9791	-109.16761	0.9791	-109.16761	0.09539	12.66699
2090	0.09712	10.57829	0.9789	-38.94229	0.9789	-38.94229	0.09712	10.57829
2110	0.09886	8.4896	0.9787	31.28303	0.9787	31.28303	0.09886	8.4896
2130	0.10059	6.4009	0.9785	101.50834	0.9785	101.50834	0.10059	6.4009
2150	0.10233	4.31221	0.9783	171.73366	0.9783	171.73366	0.10233	4.31221
2170	0.10318	1.54402	0.97732	169.9383	0.97732	169.9383	0.10318	1.54402
2190	0.10403	-1.22417	0.97634	168.14295	0.97634	168.14295	0.10403	-1.22417
2210	0.10488	-3.99236	0.97537	166.34759	0.97537	166.34759	0.10488	-3.99236
2230	0.10573	-6.76055	0.97439	164.55224	0.97439	164.55224	0.10573	-6.76055
2250	0.10658	-9.52874	0.97341	162.75688	0.97341	162.75688	0.10658	-9.52874
2270	0.10689	-12.39587	0.97249	160.94335	0.97249	160.94335	0.10689	-12.39587
2290	0.10721	-15.26301	0.97157	159.12981	0.97157	159.12981	0.10721	-15.26301
2310	0.10752	-18.13014	0.97064	157.31627	0.97064	157.31627	0.10752	-18.13014
2330	0.10784	-20.99727	0.96972	155.50274	0.96972	155.50274	0.10784	-20.99727
2350	0.10815	-23.8644	0.9688	153.6892	0.9688	153.6892	0.10815	-23.8644
2370	0.10849	-26.17279	0.96818	152.05154	0.96818	152.05154	0.10849	-26.17279
2390	0.10884	-28.48117	0.96756	150.41388	0.96756	150.41388	0.10884	-28.48117
2410	0.10918	-30.78955	0.96694	148.77622	0.96694	148.77622	0.10918	-30.78955
2430	0.10952	-33.09794	0.96632	147.13856	0.96632	147.13856	0.10952	-33.09794
2450	0.10986	-35.40632	0.9657	145.5009	0.9657	145.5009	0.10986	-35.40632
2470	0.11272	-37.42766	0.96533	143.67859	0.96533	143.67859	0.11272	-37.42766
2490	0.11557	-39.44899	0.96496	141.85628	0.96496	141.85628	0.11557	-39.44899
2510	0.11842	-41.47033	0.9646	140.03398	0.9646	140.03398	0.11842	-41.47033
2530	0.12127	-43.49166	0.96423	138.21167	0.96423	138.21167	0.12127	-43.49166
2550	0.12412	-45.513	0.96386	136.38936	0.96386	136.38936	0.12412	-45.513
2570	0.12569	-48.47474	0.96436	134.47519	0.96436	134.47519	0.12569	-48.47474
2590	0.12726	-51.43647	0.96487	132.56102	0.96487	132.56102	0.12726	-51.43647
2610	0.12883	-54.39821	0.96537	130.64685	0.96537	130.64685	0.12883	-54.39821
2630	0.13039	-57.35994	0.96587	128.73268	0.96587	128.73268	0.13039	-57.35994
2650	0.13196	-60.32168	0.96638	126.81851	0.96638	126.81851	0.13196	-60.32168
2670	0.13424	-62.47952	0.96541	125.11984	0.96541	125.11984	0.13424	-62.47952
2690	0.13652	-64.63736	0.96445	123.42116	0.96445	123.42116	0.13652	-64.63736
2710	0.1388	-66.7952	0.96349	121.72249	0.96349	121.72249	0.1388	-66.7952
2730	0.14108	-68.95304	0.96253	120.02382	0.96253	120.02382	0.14108	-68.95304
2750	0.14336	-71.11088	0.96156	118.32514	0.96156	118.32514	0.14336	-71.11088
2770	0.14423	-73.86932	0.96163	116.59821	0.96163	116.59821	0.14423	-73.86932
2790	0.1451	-76.62776	0.96169	114.87129	0.96169	114.87129	0.1451	-76.62776
2810	0.14597	-79.38621	0.96176	113.14436	0.96176	113.14436	0.14597	-79.38621
2830	0.14684	-82.14465	0.96182	111.41743	0.96182	111.41743	0.14684	-82.14465
2850	0.14771	-84.9031	0.96188	109.69051	0.96188	109.69051	0.14771	-84.9031
2870	0.15066	-87.16473	0.96003	107.838	0.96003	107.838	0.15066	-87.16473
2890	0.15361	-89.42635	0.95818	105.98549	0.95818	105.98549	0.15361	-89.42635
2910	0.15656	-91.68798	0.95633	104.13299	0.95633	104.13299	0.15656	-91.68798
2930	0.15952	-93.94961	0.95448	102.28048	0.95448	102.28048	0.15952	-93.94961
2950	0.16247	-96.21124	0.95262	100.42797	0.95262	100.42797	0.16247	-96.21124
2970	0.16478	-98.80403	0.95252	98.6594	0.95252	98.6594	0.16478	-98.80403
2990	0.1671	-101.39682	0.95241	96.89083	0.95241	96.89083	0.1671	-101.39682
3010	0.16942	-103.98961	0.9523	95.12226	0.9523	95.12226	0.16942	-103.98961
3030	0.17173	-106.5824	0.95219	93.35369	0.95219	93.35369	0.17173	-106.5824
3050	0.17405	-109.17519	0.95209	91.58512	0.95209	91.58512	0.17405	-109.17519
3070	0.17622	-111.14235	0.95306	89.74709	0.95306	89.74709	0.17622	-111.14235
3090	0.1784	-113.10951	0.95404	87.90906	0.95404	87.90906	0.1784	-113.10951
3110	0.18057	-115.07667	0.95501	86.07103	0.95501	86.07103	0.18057	-115.07667
3130	0.18275	-117.04382	0.95599	84.233	0.95599	84.233	0.18275	-117.04382
3150	0.18492	-119.01098	0.95696	82.39497	0.95696	82.39497	0.18492	-119.01098
3170	0.18626	-121.8745	0.95627	80.64871	0.95627	80.64871	0.18626	-121.8745
3190	0.1876	-124.73803	0.95557	78.90245	0.95557	78.90245	0.1876	-124.73803
3210	0.18894	-127.60155	0.95487	77.15618	0.95487	77.15618	0.18894	-127.60155
3230	0.19028	-130.46507	0.95417	75.40992	0.95417	75.40992	0.19028	-130.46507
3250	0.19162	-133.32859	0.95347	73.66365	0.95347	73.66365	0.19162	-133.32859
3270	0.19515	-135.54475	0.9524	71.802	0.9524	71.802	0.19515	-135.54475
3290	0.19868	-137.76091	0.95134	69.94035	0.95134	69.94035	0.19868	-137.76091
3310	0.20221	-139.97707	0.95027	68.0787	0.95027	68.0787	0.20221	-139.97707
3330	0.20574	-142.19323	0.9492	66.21705	0.9492	66.21705	0.20574	-142.19323
3350	0.20927	-144.40939	0.94813	64.3554	0.94813	64.3554	0.20927	-144.40939
3370	0.212	-146.99503	0.94803	62.42938	0.94803	62.42938	0.212	-146.99503
3390	0.21472	-149.58067	0.94792	60.50336	0.94792	60.50336	0.21472	-149.58067
3410	0.21744	-152.16631	0.94782	58.57734	0.94782	58.57734	0.21744	-152.16631
3430	0.22016	-154.75195	0.94771	56.65132	0.94771	56.65132	0.22016	-154.75195
3450	0.22288	-157.33759	0.94761	54.7253	0.94761	54.7253	0.22288	-157.33759
3470	0.22698	-159.97702	0.94596	52.79919	0.94596	52.79919	0.22698	-159.97702
3490	0.23108	-162.61644	0.94432	50.87309	0.94432	50.87309	0.23108	-162.61644
3510	0.23518	-165.25587	0.94268	48.94698	0.94268	48.94698	0.23518	-165.25587
3530	0.23928	-167.8953	0.94103	47.02087	0.94103	47.02087	0.23928	-167.8953
3550	0.24338	-170.53473	0.93939	45.09476	0.93939	45.09476	0.24338	-170.53473
3570	0.24877	-101.75467	0.93544	42.95515	0.93544	42.95515	0.24877	-101.75467
3590	0.25417	-32.97462	0.93149	40.81554	0.93149	40.81554	0.25417	-32.97462
3610	0.25956	35.80544	0.92755	38.67592	0.92755	38.67592	0.25956	35.80544
3630	0.26496	104.58549	0.9236	36.53631	0.9236	36.53631	0.26496	104.58549
3650	0.27035	173.36554	0.91966	34.3967	0.91966	34.3967	0.27035	173.36554
3670	0.27898	169.54706	0.91044	32.19629	0.91044	32.19629	0.27898	169.54706
3690	0.2876	165.72857	0.90122	29.99588	0.90122	29.99588	0.2876	165.72857
3710	0.29623	161.91008	0.89201	27.79547	0.89201	27.79547	0.29623	161.91008
3730	0.30486	158.0916	0.88279	25.59506	0.88279	25.59506	0.30486	158.0916
3750	0.31348	154.27311	0.87357	23.39466	0.87357	23.39466	0.31348	154.27311
3770	0.32292	147.91418	0.84781	21.73891	0.84781	21.73891	0.32292	147.91418
3790	0.33235	141.55524	0.82205	20.08316	0.82205	20.08316	0.33235	141.55524
3810	0.34179	135.19631	0.79629	18.42742	0.79629	18.42742	0.34179	135.19631
3830	0.35122	128.83738	0.77052	16.77167	0.77052	16.77167	0.35122	128.83738
3850	0.36065	122.47844	0.74476	15.11592	0.74476	15.11592	0.36065	122.47844
3870	0.34303	113.81287	0.74174	16.53018	0.74174	16.53018	0.34303	113.81287
3890	0.32541	105.1473	0.73872	17.94444	0.73872	17.94444	0.32541	105.1473
3910	0.30779	96.48172	0.7357	19.3587	0.7357	19.3587	0.30779	96.48172
3930	0.29016	87.81615	0.73268	20.77296	0.73268	20.77296	0.29016	87.81615
3950	0.27254	79.15058	0.72966	22.18722	0.72966	22.18722	0.27254	79.15058
3970	0.24566	77.39272	0.75863	20.63442	0.75863	20.63442	0.24566	77.39272
3990	0.21879	75.63486	0.78761	19.08162	0.78761	19.08162	0.21879	75.63486
4010	0.19191	73.877	0.81659	17.52881	0.81659	17.52881	0.19191	73.877
4030	0.16503	72.11915	0.84557	15.97601	0.84557	15.97601	0.16503	72.11915
4050	0.13816	70.36129	0.87455	14.42321	0.87455	14.42321	0.13816	70.36129
4070	0.13394	73.75902	0.88541	12.08732	0.88541	12.08732	0.13394	73.75902
4090	0.12972	77.15676	0.89627	9.75143	0.89627	9.75143	0.12972	77.15676
4110	0.12551	80.55449	0.90714	7.41555	0.90714	7.41555	0.12551	80.55449
4130	0.12129	83.95223	0.918	5.07966	0.918	5.07966	0.12129	83.95223
4150	0.11708	87.34997	0.92886	2.74377	0.92886	2.74377	0.11708	87.34997
4170	0.1213	88.02989	0.93211	0.50537	0.93211	0.50537	0.1213	88.02989
4190	0.12553	88.7098	0.93537	-1.73304	0.93537	-1.73304	0.12553	88.7098
4210	0.12976	89.38972	0.93862	-3.97144	0.93862	-3.97144	0.12976	89.38972
4230	0.13399	90.06964	0.94188	-6.20985	0.94188	-6.20985	0.13399	90.06964
4250	0.13822	90.74956	0.94513	-8.44825	0.94513	-8.44825	0.13822	90.74956
4270	0.14311	89.47202	0.94696	-10.43702	0.94696	-10.43702	0.14311	89.47202
4290	0.14801	88.19448	0.94878	-12.42578	0.94878	-12.42578	0.14801	88.19448
4310	0.1529	86.91694	0.95061	-14.41454	0.95061	-14.41454	0.1529	86.91694
4330	0.1578	85.6394	0.95244	-16.40331	0.95244	-16.40331	0.1578	85.6394
4350	0.16269	84.36186	0.95426	-18.39207	0.95426	-18.39207	0.16269	84.36186
4370	0.16719	82.76662	0.95316	-20.3968	0.95316	-20.3968	0.16719	82.76662
4390	0.1717	81.17138	0.95206	-22.40153	0.95206	-22.40153	0.1717	81.17138
4410	0.1762	79.57614	0.95095	-24.40626	0.95095	-24.40626	0.1762	79.57614
4430	0.1807	77.9809	0.94985	-26.41099	0.94985	-26.41099	0.1807	77.9809
4450	0.1852	76.38566	0.94875	-28.41572	0.94875	-28.41572	0.1852	76.38566
4470	0.18871	74.17591	0.94789	-30.32355	0.94789	-30.32355	0.18871	74.17591
4490	0.19221	71.96616	0.94703	-32.23138	0.94703	-32.23138	0.19221	71.96616
4510	0.19572	69.75641	0.94617	-34.13921	0.94617	-34.13921	0.19572	69.75641
4530	0.19922	67.54666	0.94531	-36.04704	0.94531	-36.04704	0.19922	67.54666
4550	0.20273	65.33691	0.94444	-37.95487	0.94444	-37.95487	0.20273	65.33691
4570	0.20745	63.11188	0.94291	-39.8286	0.94291	-39.8286	0.20745	63.11188
4590	0.21217	60.88685	0.94138	-41.70233	0.94138	-41.70233	0.21217	60.88685
4610	0.21689	58.66182	0.93985	-43.57607	0.93985	-43.57607	0.21689	58.66182
4630	0.22161	56.43679	0.93832	-45.4498	0.93832	-45.4498	0.22161	56.43679
4650	0.22633	54.21176	0.93679	-47.32353	0.93679	-47.32353	0.22633	54.21176
4670	0.22934	51.8581	0.93549	-49.19473	0.93549	-49.19473	0.22934	51.8581
4690	0.23236	49.50445	0.93418	-51.06593	0.93418	-51.06593	0.23236	49.50445
4710	0.23538	47.15079	0.93288	-52.93713	0.93288	-52.93713	0.23538	47.15079
4730	0.23839	44.79714	0.93157	-54.80834	0.93157	-54.80834	0.23839	44.79714
4750	0.24141	42.44348	0.93027	-56.67954	0.93027	-56.67954	0.24141	42.44348
4770	0.24497	40.31447	0.93055	-58.53639	0.93055	-58.53639	0.24497	40.31447
4790	0.24854	38.18545	0.93083	-60.39323	0.93083	-60.39323	0.24854	38.18545
4810	0.2521	36.05643	0.93112	-62.25008	0.93112	-62.25008	0.2521	36.05643
4830	0.25567	33.92741	0.9314	-64.10692	0.9314	-64.10692	0.25567	33.92741
4850	0.25923	31.7984	0.93168	-65.96377	0.93168	-65.96377	0.25923	31.7984
4870	0.26264	29.40971	0.92962	-67.76603	0.92962	-67.76603	0.26264	29.40971
4890	0.26606	27.02102	0.92756	-69.56829	0.92756	-69.56829	0.26606	27.02102
4910	0.26947	24.63234	0.92551	-71.37055	0.92551	-71.37055	0.26947	24.63234
4930	0.27288	22.24365	0.92345	-73.17281	0.92345	-73.17281	0.27288	22.24365
4950	0.2763	19.85497	0.92139	-74.97507	0.92139	-74.97507	0.2763	19.85497
4970	0.28055	17.74369	0.92116	-76.77085	0.92116	-76.77085	0.28055	17.74369
4990	0.2848	15.63241	0.92092	-78.56664	0.92092	-78.56664	0.2848	15.63241
5010	0.28906	13.52113	0.92069	-80.36242	0.92069	-80.36242	0.28906	13.52113
5030	0.29331	11.40986	0.92045	-82.15821	0.92045	-82.15821	0.29331	11.40986
5050	0.29757	9.29858	0.92022	-83.954	0.92022	-83.954	0.29757	9.29858
5070	0.29947	6.97528	0.91945	-85.82528	0.91945	-85.82528	0.29947	6.97528
5090	0.30138	4.65198	0.91869	-87.69657	0.91869	-87.69657	0.30138	4.65198
5110	0.30329	2.32868	0.91792	-89.56786	0.91792	-89.56786	0.30329	2.32868
5130	0.3052	0.00538	0.91715	-91.43915	0.91715	-91.43915	0.3052	0.00538
5150	0.30711	-2.31792	0.91639	-93.31044	0.91639	-93.31044	0.30711	-2.31792
5170	0.3113	-4.4201	0.91411	-95.16467	0.91411	-95.16467	0.3113	-4.4201
5190	0.31549	-6.52228	0.91184	-97.01891	0.91184	-97.01891	0.31549	-6.52228
5210	0.31969	-8.62447	0.90957	-98.87314	0.90957	-98.87314	0.31969	-8.62447
5230	0.32388	-10.72665	0.9073	-100.72738	0.9073	-100.72738	0.32388	-10.72665
5250	0.32807	-12.82883	0.90503	-102.58162	0.90503	-102.58162	0.32807	-12.82883
5270	0.33008	-15.33693	0.90422	-104.39112	0.90422	-104.39112	0.33008	-15.33693
5290	0.33209	-17.84502	0.9034	-106.20063	0.9034	-106.20063	0.33209	-17.84502
5310	0.3341	-20.35311	0.90259	-108.01013	0.90259	-108.01013	0.3341	-20.35311
5330	0.33611	-22.86121	0.90178	-109.81964	0.90178	-109.81964	0.33611	-22.86121
5350	0.33812	-25.3693	0.90096	-111.62914	0.90096	-111.62914	0.33812	-25.3693
5370	0.34083	-27.70372	0.89792	-113.34602	0.89792	-113.34602	0.34083	-27.70372
