#	mhz	s	ma	r	50
50	0.70725	135.57516	0.61012	41.86345	0.61012	41.86345	0.70725	135.57516
70	0.63948	127.51577	0.66643	35.25389	0.66643	35.25389	0.63948	127.51577
90	0.57171	119.45638	0.72275	28.64432	0.72275	28.64432	0.57171	119.45638
110	0.50394	111.397	0.77907	22.03476	0.77907	22.03476	0.50394	111.397
130	0.43617	103.33761	0.83538	15.4252	0.83538	15.4252	0.43617	103.33761
150	0.3684	95.27822	0.8917	8.81564	0.8917	8.81564	0.3684	95.27822
170	0.34005	90.96992	0.9027	5.45303	0.9027	5.45303	0.34005	90.96992
190	0.3117	86.66162	0.9137	2.09042	0.9137	2.09042	0.3117	86.66162
210	0.28336	82.35331	0.9247	-1.27219	0.9247	-1.27219	0.28336	82.35331
230	0.25501	78.04501	0.93571	-4.6348	0.93571	-4.6348	0.25501	78.04501
250	0.22666	73.73671	0.94671	-7.99741	0.94671	-7.99741	0.22666	73.73671
270	0.21245	69.9708	0.95024	-10.46042	0.95024	-10.46042	0.21245	69.9708
290	0.19823	66.20489	0.95378	-12.92342	0.95378	-12.92342	0.19823	66.20489
310	0.18402	62.43898	0.95732	-15.38642	0.95732	-15.38642	0.18402	62.43898
330	0.1698	58.67307	0.96085	-17.84943	0.96085	-17.84943	0.1698	58.67307
350	0.15559	54.90717	0.96439	-20.31243	0.96439	-20.31243	0.15559	54.90717
370	0.1483	51.28005	0.96661	-22.49047	0.96661	-22.49047	0.1483	51.28005
390	0.14101	47.65293	0.96883	-24.6685	0.96883	-24.6685	0.14101	47.65293
410	0.13373	44.02581	0.97105	-26.84654	0.97105	-26.84654	0.13373	44.02581
430	0.12644	40.39869	0.97327	-29.02457	0.97327	-29.02457	0.12644	40.39869
450	0.11915	36.77158	0.9755	-31.20261	0.9755	-31.20261	0.11915	36.77158
470	0.1138	35.34828	0.97658	-33.23962	0.97658	-33.23962	0.1138	35.34828
490	0.10846	33.92499	0.97766	-35.27663	0.97766	-35.27663	0.10846	33.92499
510	0.10311	32.5017	0.97874	-37.31364	0.97874	-37.31364	0.10311	32.5017
530	0.09776	31.07841	0.97983	-39.35065	0.97983	-39.35065	0.09776	31.07841
550	0.09241	29.65511	0.98091	-41.38766	0.98091	-41.38766	0.09241	29.65511
570	0.08513	25.54763	0.98116	-43.36243	0.98116	-43.36243	0.08513	25.54763
590	0.07784	21.44016	0.9814	-45.3372	0.9814	-45.3372	0.07784	21.44016
610	0.07056	17.33268	0.98165	-47.31197	0.98165	-47.31197	0.07056	17.33268
630	0.06328	13.2252	0.9819	-49.28674	0.9819	-49.28674	0.06328	13.2252
650	0.05599	9.11772	0.98214	-51.26151	0.98214	-51.26151	0.05599	9.11772
670	0.05478	6.55697	0.98286	-53.16117	0.98286	-53.16117	0.05478	6.55697
690	0.05356	3.99622	0.98358	-55.06084	0.98358	-55.06084	0.05356	3.99622
710	0.05234	1.43547	0.9843	-56.96051	0.9843	-56.96051	0.05234	1.43547
730	0.05112	-1.12528	0.98502	-58.86017	0.98502	-58.86017	0.05112	-1.12528
750	0.0499	-3.68603	0.98574	-60.75984	0.98574	-60.75984	0.0499	-3.68603
770	0.04445	-8.91576	0.98584	-62.57626	0.98584	-62.57626	0.04445	-8.91576
790	0.039	-14.14549	0.98595	-64.39268	0.98595	-64.39268	0.039	-14.14549
810	0.03355	-19.37522	0.98605	-66.2091	0.98605	-66.2091	0.03355	-19.37522
830	0.02809	-24.60495	0.98615	-68.02553	0.98615	-68.02553	0.02809	-24.60495
850	0.02264	-29.83468	0.98625	-69.84195	0.98625	-69.84195	0.02264	-29.83468
870	0.02286	-33.67959	0.98669	-71.71614	0.98669	-71.71614	0.02286	-33.67959
890	0.02307	-37.52451	0.98713	-73.59032	0.98713	-73.59032	0.02307	-37.52451
910	0.02328	-41.36943	0.98757	-75.46451	0.98757	-75.46451	0.02328	-41.36943
930	0.0235	-45.21435	0.98801	-77.3387	0.98801	-77.3387	0.0235	-45.21435
950	0.02371	-49.05926	0.98844	-79.21289	0.98844	-79.21289	0.02371	-49.05926
970	0.02025	-61.99306	0.98838	-81.03972	0.98838	-81.03972	0.02025	-61.99306
990	0.01679	-74.92686	0.98832	-82.86655	0.98832	-82.86655	0.01679	-74.92686
1010	0.01333	-87.86066	0.98826	-84.69338	0.98826	-84.69338	0.01333	-87.86066
1030	0.00987	-100.79446	0.9882	-86.52022	0.9882	-86.52022	0.00987	-100.79446
1050	0.00641	-113.72826	0.98814	-88.34705	0.98814	-88.34705	0.00641	-113.72826
1070	0.00736	-123.26348	0.98848	-90.14997	0.98848	-90.14997	0.00736	-123.26348
1090	0.00832	-132.79869	0.98883	-91.95289	0.98883	-91.95289	0.00832	-132.79869
1110	0.00927	-142.33391	0.98917	-93.75581	0.98917	-93.75581	0.00927	-142.33391
1130	0.01023	-151.86913	0.98951	-95.55873	0.98951	-95.55873	0.01023	-151.86913
1150	0.01118	-161.40434	0.98985	-97.36165	0.98985	-97.36165	0.01118	-161.40434
1170	0.0146	-100.0483	0.98896	-99.19715	0.98896	-99.19715	0.0146	-100.0483
1190	0.01802	-38.69225	0.98807	-101.03265	0.98807	-101.03265	0.01802	-38.69225
1210	0.02143	22.66379	0.98719	-102.86815	0.98719	-102.86815	0.02143	22.66379
1230	0.02485	84.01984	0.9863	-104.70364	0.9863	-104.70364	0.02485	84.01984
1250	0.02826	145.37588	0.98541	-106.53914	0.98541	-106.53914	0.02826	145.37588
1270	0.02878	145.82027	0.9853	-108.31342	0.9853	-108.31342	0.02878	145.82027
1290	0.0293	146.26466	0.98519	-110.0877	0.98519	-110.0877	0.0293	146.26466
1310	0.02981	146.70905	0.98508	-111.86197	0.98508	-111.86197	0.02981	146.70905
1330	0.03033	147.15344	0.98498	-113.63625	0.98498	-113.63625	0.03033	147.15344
1350	0.03084	147.59783	0.98487	-115.41052	0.98487	-115.41052	0.03084	147.59783
1370	0.03295	141.03879	0.98456	-117.20294	0.98456	-117.20294	0.03295	141.03879
1390	0.03506	134.47975	0.98426	-118.99536	0.98426	-118.99536	0.03506	134.47975
1410	0.03717	127.92071	0.98396	-120.78778	0.98396	-120.78778	0.03717	127.92071
1430	0.03927	121.36167	0.98366	-122.5802	0.98366	-122.5802	0.03927	121.36167
1450	0.04138	114.80262	0.98336	-124.37262	0.98336	-124.37262	0.04138	114.80262
1470	0.04187	114.0106	0.9833	-126.13633	0.9833	-126.13633	0.04187	114.0106
1490	0.04237	113.21857	0.98324	-127.90003	0.98324	-127.90003	0.04237	113.21857
1510	0.04286	112.42654	0.98319	-129.66374	0.98319	-129.66374	0.04286	112.42654
1530	0.04336	111.63451	0.98313	-131.42745	0.98313	-131.42745	0.04336	111.63451
1550	0.04385	110.84248	0.98308	-133.19115	0.98308	-133.19115	0.04385	110.84248
1570	0.04526	105.95749	0.98308	-135.01175	0.98308	-135.01175	0.04526	105.95749
1590	0.04666	101.07249	0.98308	-136.83234	0.98308	-136.83234	0.04666	101.07249
1610	0.04807	96.18749	0.98308	-138.65293	0.98308	-138.65293	0.04807	96.18749
1630	0.04948	91.3025	0.98308	-140.47352	0.98308	-140.47352	0.04948	91.3025
1650	0.05088	86.4175	0.98308	-142.29412	0.98308	-142.29412	0.05088	86.4175
1670	0.05115	84.75189	0.98352	-144.05009	0.98352	-144.05009	0.05115	84.75189
1690	0.05141	83.08628	0.98396	-145.80606	0.98396	-145.80606	0.05141	83.08628
1710	0.05168	81.42068	0.9844	-147.56204	0.9844	-147.56204	0.05168	81.42068
1730	0.05194	79.75507	0.98484	-149.31801	0.98484	-149.31801	0.05194	79.75507
1750	0.05221	78.08946	0.98528	-151.07398	0.98528	-151.07398	0.05221	78.08946
1770	0.05349	73.13083	0.98405	-152.8254	0.98405	-152.8254	0.05349	73.13083
1790	0.05478	68.17221	0.98281	-154.57681	0.98281	-154.57681	0.05478	68.17221
1810	0.05607	63.21358	0.98158	-156.32823	0.98158	-156.32823	0.05607	63.21358
1830	0.05736	58.25496	0.98034	-158.07964	0.98034	-158.07964	0.05736	58.25496
1850	0.05864	53.29633	0.97911	-159.83106	0.97911	-159.83106	0.05864	53.29633
1870	0.06014	51.71419	0.97948	-161.64509	0.97948	-161.64509	0.06014	51.71419
1890	0.06164	50.13205	0.97986	-163.45911	0.97986	-163.45911	0.06164	50.13205
1910	0.06313	48.54991	0.98024	-165.27314	0.98024	-165.27314	0.06313	48.54991
1930	0.06463	46.96777	0.98062	-167.08717	0.98062	-167.08717	0.06463	46.96777
1950	0.06613	45.38563	0.98099	-168.9012	0.98099	-168.9012	0.06613	45.38563
1970	0.06647	41.64917	0.98083	-170.70057	0.98083	-170.70057	0.06647	41.64917
1990	0.06682	37.91271	0.98066	-172.49994	0.98066	-172.49994	0.06682	37.91271
2010	0.06716	34.17626	0.98049	-174.29931	0.98049	-174.29931	0.06716	34.17626
2030	0.06751	30.4398	0.98032	-176.09868	0.98032	-176.09868	0.06751	30.4398
2050	0.06785	26.70335	0.98015	-177.89805	0.98015	-177.89805	0.06785	26.70335
2070	0.06969	24.65589	0.98034	-107.62588	0.98034	-107.62588	0.06969	24.65589
2090	0.07153	22.60844	0.98052	-37.35371	0.98052	-37.35371	0.07153	22.60844
2110	0.07336	20.56098	0.98071	32.91846	0.98071	32.91846	0.07336	20.56098
2130	0.0752	18.51353	0.98089	103.19063	0.98089	103.19063	0.0752	18.51353
2150	0.07703	16.46608	0.98108	173.46279	0.98108	173.46279	0.07703	16.46608
2170	0.07759	13.62441	0.98048	171.63454	0.98048	171.63454	0.07759	13.62441
2190	0.07814	10.78275	0.97988	169.80629	0.97988	169.80629	0.07814	10.78275
2210	0.07869	7.94109	0.97927	167.97804	0.97927	167.97804	0.07869	7.94109
2230	0.07924	5.09943	0.97867	166.14979	0.97867	166.14979	0.07924	5.09943
2250	0.07979	2.25776	0.97807	164.32153	0.97807	164.32153	0.07979	2.25776
2270	0.0804	0.02938	0.97743	162.54632	0.97743	162.54632	0.0804	0.02938
2290	0.08101	-2.19901	0.9768	160.7711	0.9768	160.7711	0.08101	-2.19901
2310	0.08162	-4.42739	0.97616	158.99589	0.97616	158.99589	0.08162	-4.42739
2330	0.08223	-6.65578	0.97552	157.22067	0.97552	157.22067	0.08223	-6.65578
2350	0.08285	-8.88416	0.97488	155.44546	0.97488	155.44546	0.08285	-8.88416
2370	0.0839	-12.52596	0.97496	153.66321	0.97496	153.66321	0.0839	-12.52596
2390	0.08495	-16.16775	0.97504	151.88095	0.97504	151.88095	0.08495	-16.16775
2410	0.086	-19.80955	0.97512	150.0987	0.97512	150.0987	0.086	-19.80955
2430	0.08705	-23.45134	0.97521	148.31644	0.97521	148.31644	0.08705	-23.45134
2450	0.08811	-27.09314	0.97529	146.53419	0.97529	146.53419	0.08811	-27.09314
2470	0.09005	-29.16736	0.97616	144.80385	0.97616	144.80385	0.09005	-29.16736
2490	0.09199	-31.24158	0.97704	143.07352	0.97704	143.07352	0.09199	-31.24158
2510	0.09394	-33.3158	0.97791	141.34318	0.97791	141.34318	0.09394	-33.3158
2530	0.09588	-35.39002	0.97879	139.61285	0.97879	139.61285	0.09588	-35.39002
2550	0.09782	-37.46424	0.97966	137.88251	0.97966	137.88251	0.09782	-37.46424
2570	0.09888	-40.67577	0.97891	135.95873	0.97891	135.95873	0.09888	-40.67577
2590	0.09993	-43.88729	0.97817	134.03494	0.97817	134.03494	0.09993	-43.88729
2610	0.10099	-47.09882	0.97742	132.11116	0.97742	132.11116	0.10099	-47.09882
2630	0.10204	-50.31034	0.97667	130.18738	0.97667	130.18738	0.10204	-50.31034
2650	0.1031	-53.52187	0.97592	128.26359	0.97592	128.26359	0.1031	-53.52187
2670	0.10499	-55.52585	0.9734	126.6273	0.9734	126.6273	0.10499	-55.52585
2690	0.10687	-57.52984	0.97088	124.99101	0.97088	124.99101	0.10687	-57.52984
2710	0.10876	-59.53382	0.96835	123.35472	0.96835	123.35472	0.10876	-59.53382
2730	0.11065	-61.5378	0.96583	121.71843	0.96583	121.71843	0.11065	-61.5378
2750	0.11254	-63.54178	0.96331	120.08214	0.96331	120.08214	0.11254	-63.54178
2770	0.1138	-66.48229	0.96398	118.38314	0.96398	118.38314	0.1138	-66.48229
2790	0.11506	-69.42279	0.96465	116.68413	0.96465	116.68413	0.11506	-69.42279
2810	0.11633	-72.3633	0.96532	114.98512	0.96532	114.98512	0.11633	-72.3633
2830	0.11759	-75.30381	0.966	113.28612	0.966	113.28612	0.11759	-75.30381
2850	0.11886	-78.24431	0.96667	111.58711	0.96667	111.58711	0.11886	-78.24431
2870	0.1209	-80.55481	0.96518	109.75734	0.96518	109.75734	0.1209	-80.55481
2890	0.12294	-82.8653	0.96369	107.92757	0.96369	107.92757	0.12294	-82.8653
2910	0.12498	-85.17579	0.9622	106.0978	0.9622	106.0978	0.12498	-85.17579
2930	0.12702	-87.48628	0.96071	104.26802	0.96071	104.26802	0.12702	-87.48628
2950	0.12906	-89.79678	0.95922	102.43825	0.95922	102.43825	0.12906	-89.79678
2970	0.13157	-92.8591	0.95823	100.67376	0.95823	100.67376	0.13157	-92.8591
2990	0.13408	-95.92142	0.95724	98.90926	0.95724	98.90926	0.13408	-95.92142
3010	0.13659	-98.98374	0.95625	97.14476	0.95625	97.14476	0.13659	-98.98374
3030	0.1391	-102.04606	0.95525	95.38026	0.95525	95.38026	0.1391	-102.04606
3050	0.14161	-105.10838	0.95426	93.61577	0.95426	93.61577	0.14161	-105.10838
3070	0.14141	-106.91039	0.95605	91.92789	0.95605	91.92789	0.14141	-106.91039
3090	0.14121	-108.71241	0.95783	90.24	0.95783	90.24	0.14121	-108.71241
3110	0.141	-110.51442	0.95962	88.55212	0.95962	88.55212	0.141	-110.51442
3130	0.1408	-112.31643	0.9614	86.86424	0.9614	86.86424	0.1408	-112.31643
3150	0.14059	-114.11844	0.96319	85.17636	0.96319	85.17636	0.14059	-114.11844
3170	0.1411	-116.87896	0.96283	83.406	0.96283	83.406	0.1411	-116.87896
3190	0.14161	-119.63949	0.96247	81.63565	0.96247	81.63565	0.14161	-119.63949
3210	0.14213	-122.40001	0.96211	79.86529	0.96211	79.86529	0.14213	-122.40001
3230	0.14264	-125.16053	0.96176	78.09494	0.96176	78.09494	0.14264	-125.16053
3250	0.14315	-127.92105	0.9614	76.32459	0.9614	76.32459	0.14315	-127.92105
3270	0.14499	-130.01371	0.96184	74.53508	0.96184	74.53508	0.14499	-130.01371
3290	0.14682	-132.10636	0.96228	72.74558	0.96228	72.74558	0.14682	-132.10636
3310	0.14866	-134.19902	0.96272	70.95607	0.96272	70.95607	0.14866	-134.19902
3330	0.1505	-136.29168	0.96317	69.16657	0.96317	69.16657	0.1505	-136.29168
3350	0.15234	-138.38433	0.96361	67.37706	0.96361	67.37706	0.15234	-138.38433
3370	0.15354	-140.73582	0.96408	65.62906	0.96408	65.62906	0.15354	-140.73582
3390	0.15474	-143.08731	0.96455	63.88105	0.96455	63.88105	0.15474	-143.08731
3410	0.15594	-145.4388	0.96503	62.13304	0.96503	62.13304	0.15594	-145.4388
3430	0.15715	-147.79029	0.9655	60.38503	0.9655	60.38503	0.15715	-147.79029
3450	0.15835	-150.14178	0.96597	58.63702	0.96597	58.63702	0.15835	-150.14178
3470	0.1593	-152.44084	0.96621	56.79822	0.96621	56.79822	0.1593	-152.44084
3490	0.16025	-154.7399	0.96644	54.95942	0.96644	54.95942	0.16025	-154.7399
3510	0.1612	-157.03897	0.96668	53.12062	0.96668	53.12062	0.1612	-157.03897
3530	0.16215	-159.33803	0.96691	51.28182	0.96691	51.28182	0.16215	-159.33803
3550	0.16311	-161.63709	0.96715	49.44302	0.96715	49.44302	0.16311	-161.63709
3570	0.16418	-164.26101	0.96712	47.59795	0.96712	47.59795	0.16418	-164.26101
3590	0.16525	-166.88494	0.96709	45.75288	0.96709	45.75288	0.16525	-166.88494
3610	0.16633	-169.50886	0.96706	43.90781	0.96706	43.90781	0.16633	-169.50886
3630	0.1674	-172.13279	0.96704	42.06274	0.96704	42.06274	0.1674	-172.13279
3650	0.16848	-174.75671	0.96701	40.21767	0.96701	40.21767	0.16848	-174.75671
3670	0.16979	-105.14103	0.96722	38.37234	0.96722	38.37234	0.16979	-105.14103
3690	0.1711	-35.52535	0.96744	36.52701	0.96744	36.52701	0.1711	-35.52535
3710	0.17241	34.09032	0.96766	34.68168	0.96766	34.68168	0.17241	34.09032
3730	0.17372	103.706	0.96787	32.83635	0.96787	32.83635	0.17372	103.706
3750	0.17503	173.32168	0.96809	30.99101	0.96809	30.99101	0.17503	173.32168
3770	0.17641	170.66869	0.96758	29.13184	0.96758	29.13184	0.17641	170.66869
3790	0.17779	168.01569	0.96708	27.27267	0.96708	27.27267	0.17779	168.01569
3810	0.17918	165.3627	0.96657	25.41349	0.96657	25.41349	0.17918	165.3627
3830	0.18056	162.70971	0.96606	23.55432	0.96606	23.55432	0.18056	162.70971
3850	0.18194	160.05672	0.96555	21.69515	0.96555	21.69515	0.18194	160.05672
3870	0.18361	157.31526	0.96554	19.81914	0.96554	19.81914	0.18361	157.31526
3890	0.18527	154.5738	0.96554	17.94312	0.96554	17.94312	0.18527	154.5738
3910	0.18694	151.83235	0.96553	16.06711	0.96553	16.06711	0.18694	151.83235
3930	0.18861	149.09089	0.96552	14.1911	0.96552	14.1911	0.18861	149.09089
3950	0.19028	146.34944	0.96552	12.31509	0.96552	12.31509	0.19028	146.34944
3970	0.19298	143.71087	0.96392	10.53836	0.96392	10.53836	0.19298	143.71087
3990	0.19567	141.0723	0.96232	8.76163	0.96232	8.76163	0.19567	141.0723
4010	0.19837	138.43373	0.96072	6.9849	0.96072	6.9849	0.19837	138.43373
4030	0.20107	135.79516	0.95912	5.20817	0.95912	5.20817	0.20107	135.79516
4050	0.20376	133.1566	0.95753	3.43144	0.95753	3.43144	0.20376	133.1566
4070	0.20656	130.35308	0.95586	1.61484	0.95586	1.61484	0.20656	130.35308
4090	0.20936	127.54957	0.95419	-0.20176	0.95419	-0.20176	0.20936	127.54957
4110	0.21215	124.74606	0.95253	-2.01837	0.95253	-2.01837	0.21215	124.74606
4130	0.21495	121.94255	0.95086	-3.83497	0.95086	-3.83497	0.21495	121.94255
4150	0.21774	119.13904	0.94919	-5.65157	0.94919	-5.65157	0.21774	119.13904
4170	0.22085	116.50545	0.94777	-7.60529	0.94777	-7.60529	0.22085	116.50545
4190	0.22397	113.87187	0.94634	-9.55902	0.94634	-9.55902	0.22397	113.87187
4210	0.22708	111.23829	0.94491	-11.51274	0.94491	-11.51274	0.22708	111.23829
4230	0.23019	108.60471	0.94348	-13.46646	0.94348	-13.46646	0.23019	108.60471
4250	0.2333	105.97113	0.94205	-15.42019	0.94205	-15.42019	0.2333	105.97113
4270	0.23695	103.25872	0.94174	-17.28643	0.94174	-17.28643	0.23695	103.25872
4290	0.24061	100.54632	0.94143	-19.15266	0.94143	-19.15266	0.24061	100.54632
4310	0.24426	97.83391	0.94112	-21.0189	0.94112	-21.0189	0.24426	97.83391
4330	0.24791	95.1215	0.94081	-22.88514	0.94081	-22.88514	0.24791	95.1215
4350	0.25157	92.40909	0.9405	-24.75138	0.9405	-24.75138	0.25157	92.40909
4370	0.25585	89.73865	0.93718	-26.71895	0.93718	-26.71895	0.25585	89.73865
4390	0.26013	87.06821	0.93387	-28.68652	0.93387	-28.68652	0.26013	87.06821
4410	0.26441	84.39777	0.93056	-30.65409	0.93056	-30.65409	0.26441	84.39777
4430	0.26869	81.72733	0.92724	-32.62166	0.92724	-32.62166	0.26869	81.72733
4450	0.27297	79.05689	0.92393	-34.58923	0.92393	-34.58923	0.27297	79.05689
4470	0.27706	76.10012	0.92048	-36.49683	0.92048	-36.49683	0.27706	76.10012
4490	0.28116	73.14335	0.91703	-38.40443	0.91703	-38.40443	0.28116	73.14335
4510	0.28526	70.18658	0.91359	-40.31203	0.91359	-40.31203	0.28526	70.18658
4530	0.28935	67.22981	0.91014	-42.21964	0.91014	-42.21964	0.28935	67.22981
4550	0.29345	64.27305	0.90669	-44.12724	0.90669	-44.12724	0.29345	64.27305
4570	0.3	61.34765	0.90229	-46.10934	0.90229	-46.10934	0.3	61.34765
4590	0.30655	58.42226	0.89789	-48.09143	0.89789	-48.09143	0.30655	58.42226
4610	0.31311	55.49687	0.89348	-50.07353	0.89348	-50.07353	0.31311	55.49687
4630	0.31966	52.57147	0.88908	-52.05563	0.88908	-52.05563	0.31966	52.57147
4650	0.32622	49.64608	0.88468	-54.03773	0.88468	-54.03773	0.32622	49.64608
4670	0.33193	46.26364	0.87648	-56.03655	0.87648	-56.03655	0.33193	46.26364
4690	0.33765	42.88121	0.86827	-58.03538	0.86827	-58.03538	0.33765	42.88121
4710	0.34336	39.49877	0.86007	-60.03421	0.86007	-60.03421	0.34336	39.49877
4730	0.34908	36.11633	0.85187	-62.03304	0.85187	-62.03304	0.34908	36.11633
4750	0.35479	32.73389	0.84366	-64.03186	0.84366	-64.03186	0.35479	32.73389
4770	0.36178	28.70762	0.83078	-65.99431	0.83078	-65.99431	0.36178	28.70762
4790	0.36877	24.68135	0.8179	-67.95675	0.8179	-67.95675	0.36877	24.68135
4810	0.37576	20.65508	0.80501	-69.9192	0.80501	-69.9192	0.37576	20.65508
4830	0.38275	16.6288	0.79213	-71.88165	0.79213	-71.88165	0.38275	16.6288
4850	0.38975	12.60253	0.77925	-73.84409	0.77925	-73.84409	0.38975	12.60253
4870	0.39089	7.0367	0.75741	-74.80213	0.75741	-74.80213	0.39089	7.0367
4890	0.39204	1.47087	0.73557	-75.76017	0.73557	-75.76017	0.39204	1.47087
4910	0.39318	-4.09496	0.71374	-76.71821	0.71374	-76.71821	0.39318	-4.09496
4930	0.39433	-9.66079	0.6919	-77.67625	0.6919	-77.67625	0.39433	-9.66079
4950	0.39548	-15.22662	0.67006	-78.63429	0.67006	-78.63429	0.39548	-15.22662
4970	0.37509	-21.38409	0.6709	-77.4632	0.6709	-77.4632	0.37509	-21.38409
4990	0.35471	-27.54157	0.67173	-76.29212	0.67173	-76.29212	0.35471	-27.54157
5010	0.33433	-33.69904	0.67257	-75.12103	0.67257	-75.12103	0.33433	-33.69904
5030	0.31395	-39.85651	0.6734	-73.94995	0.6734	-73.94995	0.31395	-39.85651
5050	0.29357	-46.01399	0.67424	-72.77887	0.67424	-72.77887	0.29357	-46.01399
5070	0.26403	-46.83385	0.70145	-73.8801	0.70145	-73.8801	0.26403	-46.83385
5090	0.23449	-47.65371	0.72865	-74.98134	0.72865	-74.98134	0.23449	-47.65371
5110	0.20496	-48.47356	0.75586	-76.08258	0.75586	-76.08258	0.20496	-48.47356
5130	0.17542	-49.29342	0.78307	-77.18382	0.78307	-77.18382	0.17542	-49.29342
5150	0.14588	-50.11328	0.81027	-78.28505	0.81027	-78.28505	0.14588	-50.11328
5170	0.14375	-44.18541	0.82429	-80.76866	0.82429	-80.76866	0.14375	-44.18541
5190	0.14161	-38.25754	0.83832	-83.25227	0.83832	-83.25227	0.14161	-38.25754
5210	0.13948	-32.32967	0.85234	-85.73588	0.85234	-85.73588	0.13948	-32.32967
5230	0.13735	-26.4018	0.86636	-88.21949	0.86636	-88.21949	0.13735	-26.4018
5250	0.13521	-20.47394	0.88038	-90.7031	0.88038	-90.7031	0.13521	-20.47394
5270	0.14334	-19.96095	0.88583	-92.94295	0.88583	-92.94295	0.14334	-19.96095
5290	0.15146	-19.44796	0.89128	-95.1828	0.89128	-95.1828	0.15146	-19.44796
5310	0.15958	-18.93497	0.89673	-97.42265	0.89673	-97.42265	0.15958	-18.93497
5330	0.16771	-18.42198	0.90218	-99.6625	0.90218	-99.6625	0.16771	-18.42198
5350	0.17583	-17.909	0.90764	-101.90235	0.90764	-101.90235	0.17583	-17.909
