#	mhz	s	ma	r	50

50	0.94	177.00	0.05	60.20	0.05	60.20	0.94	177.00
100	0.96	174.40	0.09	65.40	0.09	65.40	0.96	174.40
150	0.97	171.80	0.13	70.60	0.13	70.60	0.97	171.80
200	0.96	169.50	0.16	70.20	0.16	70.20	0.96	169.50
250	0.94	167.30	0.20	69.80	0.20	69.80	0.94	167.30
300	0.94	164.50	0.23	67.80	0.23	67.80	0.94	164.50
350	0.93	161.70	0.27	65.90	0.27	65.90	0.93	161.70
400	0.92	159.60	0.30	64.40	0.30	64.40	0.92	159.60
450	0.90	157.50	0.33	62.80	0.33	62.80	0.90	157.50
500	0.88	153.60	0.38	60.10	0.38	60.10	0.88	153.60
550	0.87	149.60	0.43	57.40	0.43	57.40	0.87	149.60
600	0.86	147.50	0.46	55.20	0.46	55.20	0.86	147.50
650	0.84	145.50	0.49	53.10	0.49	53.10	0.84	145.50
700	0.82	143.00	0.51	51.30	0.51	51.30	0.82	143.00
750	0.81	140.50	0.54	49.60	0.54	49.60	0.81	140.50
800	0.80	138.70	0.56	47.50	0.56	47.50	0.80	138.70
850	0.78	136.80	0.58	45.50	0.58	45.50	0.78	136.80
900	0.76	134.80	0.60	43.70	0.60	43.70	0.76	134.80
950	0.74	132.90	0.62	41.90	0.62	41.90	0.74	132.90
1000	0.73	131.00	0.64	40.10	0.64	40.10	0.73	131.00
1050	0.71	129.10	0.66	38.30	0.66	38.30	0.71	129.10
1100	0.70	127.20	0.68	36.80	0.68	36.80	0.70	127.20
1150	0.68	125.20	0.69	35.30	0.69	35.30	0.68	125.20
1200	0.67	123.60	0.70	33.80	0.70	33.80	0.67	123.60
1250	0.65	122.00	0.72	32.20	0.72	32.20	0.65	122.00
1300	0.64	120.20	0.73	30.90	0.73	30.90	0.64	120.20
1350	0.63	118.30	0.75	29.70	0.75	29.70	0.63	118.30
1400	0.62	116.90	0.75	28.20	0.75	28.20	0.62	116.90
1450	0.60	115.50	0.76	26.80	0.76	26.80	0.60	115.50
1500	0.59	113.80	0.77	25.50	0.77	25.50	0.59	113.80
1550	0.58	112.20	0.79	24.20	0.79	24.20	0.58	112.20
1600	0.57	110.70	0.80	23.00	0.80	23.00	0.57	110.70
1650	0.56	109.30	0.80	21.70	0.80	21.70	0.56	109.30
1700	0.55	108.00	0.81	20.50	0.81	20.50	0.55	108.00
1750	0.53	106.60	0.82	19.30	0.82	19.30	0.53	106.60
1800	0.52	105.50	0.83	18.30	0.83	18.30	0.52	105.50
1850	0.52	104.30	0.83	17.40	0.83	17.40	0.52	104.30
1900	0.50	102.90	0.84	16.30	0.84	16.30	0.50	102.90
1950	0.49	101.50	0.85	15.20	0.85	15.20	0.49	101.50
2000	0.48	100.50	0.85	14.10	0.85	14.10	0.48	100.50
2050	0.47	99.40	0.86	12.90	0.86	12.90	0.47	99.40
2100	0.46	98.50	0.87	12.00	0.87	12.00	0.46	98.50
2150	0.45	97.50	0.87	11.10	0.87	11.10	0.45	97.50
2200	0.44	96.60	0.88	10.10	0.88	10.10	0.44	96.60
2250	0.44	95.60	0.88	9.00	0.88	9.00	0.44	95.60
2300	0.43	94.90	0.88	8.20	0.88	8.20	0.43	94.90
2350	0.41	94.10	0.89	7.30	0.89	7.30	0.41	94.10
2400	0.41	93.40	0.89	6.40	0.89	6.40	0.41	93.40
2450	0.40	92.70	0.90	5.40	0.90	5.40	0.40	92.70
2500	0.39	92.10	0.90	4.50	0.90	4.50	0.39	92.10
2550	0.38	91.40	0.90	3.50	0.90	3.50	0.38	91.40
2600	0.37	90.80	0.91	2.70	0.91	2.70	0.37	90.80
2650	0.36	90.20	0.91	1.90	0.91	1.90	0.36	90.20
2700	0.35	89.80	0.92	1.00	0.92	1.00	0.35	89.80
2750	0.35	89.40	0.92	0.20	0.92	0.20	0.35	89.40
2800	0.34	88.80	0.93	-0.60	0.93	-0.60	0.34	88.80
2850	0.33	88.30	0.93	-1.40	0.93	-1.40	0.33	88.30
2900	0.32	87.90	0.93	-2.40	0.93	-2.40	0.32	87.90
2950	0.31	87.60	0.93	-3.50	0.93	-3.50	0.31	87.60
3000	0.31	87.30	0.94	-4.20	0.94	-4.20	0.31	87.30
3050	0.30	87.00	0.94	-5.00	0.94	-5.00	0.30	87.00
3100	0.29	86.10	0.94	-6.00	0.94	-6.00	0.29	86.10
3150	0.28	85.10	0.94	-7.00	0.94	-7.00	0.28	85.10
3200	0.28	85.10	0.94	-7.60	0.94	-7.60	0.28	85.10
3250	0.27	85.00	0.95	-8.10	0.95	-8.10	0.27	85.00
3300	0.26	84.80	0.95	-9.10	0.95	-9.10	0.26	84.80
3350	0.26	84.60	0.95	-10.00	0.95	-10.00	0.26	84.60
3400	0.25	84.10	0.95	-10.70	0.95	-10.70	0.25	84.10
3450	0.25	83.60	0.95	-11.30	0.95	-11.30	0.25	83.60
3500	0.24	83.70	0.95	-12.00	0.95	-12.00	0.24	83.70
3550	0.23	83.80	0.96	-12.70	0.96	-12.70	0.23	83.80
3600	0.23	83.70	0.96	-13.50	0.96	-13.50	0.23	83.70
3650	0.22	83.60	0.96	-14.20	0.96	-14.20	0.22	83.60
3700	0.21	83.20	0.96	-15.10	0.96	-15.10	0.21	83.20
3750	0.21	82.70	0.96	-15.90	0.96	-15.90	0.21	82.70
3800	0.20	82.10	0.96	-16.50	0.96	-16.50	0.20	82.10
3850	0.20	81.60	0.97	-17.10	0.97	-17.10	0.20	81.60
3900	0.19	81.10	0.97	-18.00	0.97	-18.00	0.19	81.10
3950	0.19	80.60	0.97	-18.90	0.97	-18.90	0.19	80.60
4000	0.18	79.90	0.97	-19.60	0.97	-19.60	0.18	79.90
4050	0.17	79.20	0.97	-20.20	0.97	-20.20	0.17	79.20
4100	0.17	78.30	0.97	-21.00	0.97	-21.00	0.17	78.30
4150	0.17	77.40	0.98	-21.70	0.98	-21.70	0.17	77.40
4200	0.16	76.50	0.98	-22.40	0.98	-22.40	0.16	76.50
4250	0.16	75.60	0.98	-23.20	0.98	-23.20	0.16	75.60
4300	0.15	74.50	0.98	-23.70	0.98	-23.70	0.15	74.50
4350	0.15	73.30	0.98	-24.30	0.98	-24.30	0.15	73.30
4400	0.14	72.10	0.98	-25.00	0.98	-25.00	0.14	72.10
4450	0.14	71.00	0.98	-25.80	0.98	-25.80	0.14	71.00
4500	0.13	69.00	0.98	-26.60	0.98	-26.60	0.13	69.00
4550	0.13	67.10	0.98	-27.50	0.98	-27.50	0.13	67.10
4600	0.13	66.00	0.98	-28.20	0.98	-28.20	0.13	66.00
4650	0.12	65.00	0.98	-29.00	0.98	-29.00	0.12	65.00
4700	0.12	63.60	0.98	-29.60	0.98	-29.60	0.12	63.60
4750	0.12	62.10	0.98	-30.20	0.98	-30.20	0.12	62.10
4800	0.11	60.70	0.98	-30.90	0.98	-30.90	0.11	60.70
4850	0.11	59.40	0.98	-31.60	0.98	-31.60	0.11	59.40
4900	0.10	58.20	0.98	-32.20	0.98	-32.20	0.10	58.20
4950	0.10	57.00	0.98	-32.90	0.98	-32.90	0.10	57.00
5000	0.10	55.80	0.98	-33.60	0.98	-33.60	0.10	55.80
5050	0.09	54.70	0.98	-34.30	0.98	-34.30	0.09	54.70
5100	0.09	53.20	0.98	-35.00	0.98	-35.00	0.09	53.20
5150	0.08	51.70	0.98	-35.70	0.98	-35.70	0.08	51.70
5200	0.08	51.80	0.98	-36.20	0.98	-36.20	0.08	51.80
5250	0.07	52.00	0.98	-36.70	0.98	-36.70	0.07	52.00
5300	0.07	50.10	0.99	-37.40	0.99	-37.40	0.07	50.10
5350	0.06	48.20	0.99	-38.20	0.99	-38.20	0.06	48.20
5400	0.06	46.90	0.99	-38.90	0.99	-38.90	0.06	46.90
5450	0.05	45.70	0.99	-39.70	0.99	-39.70	0.05	45.70
5500	0.05	44.30	0.99	-40.20	0.99	-40.20	0.05	44.30
5550	0.05	42.90	0.99	-40.80	0.99	-40.80	0.05	42.90
5600	0.04	42.00	0.99	-41.60	0.99	-41.60	0.04	42.00
5650	0.04	41.10	0.99	-42.30	0.99	-42.30	0.04	41.10
5700	0.03	42.50	0.99	-43.00	0.99	-43.00	0.03	42.50
5750	0.03	43.90	1.00	-43.60	1.00	-43.60	0.03	43.90
5800	0.03	41.70	0.99	-44.30	0.99	-44.30	0.03	41.70
5850	0.02	39.50	0.99	-44.90	0.99	-44.90	0.02	39.50
5900	0.02	48.80	0.99	-45.40	0.99	-45.40	0.02	48.80
5950	0.01	58.20	0.99	-46.00	0.99	-46.00	0.01	58.20
6000	0.01	-30.90	0.99	-46.70	0.99	-46.70	0.01	-30.90
6050	0.01	-120.00	0.99	-47.50	0.99	-47.50	0.01	-120.00
6100	0.02	-133.90	0.99	-47.90	0.99	-47.90	0.02	-133.90
6150	0.02	-147.80	0.99	-48.40	0.99	-48.40	0.02	-147.80
6200	0.03	-156.80	0.99	-49.00	0.99	-49.00	0.03	-156.80
6250	0.03	-165.80	0.99	-49.70	0.99	-49.70	0.03	-165.80
6300	0.04	-167.90	0.99	-50.30	0.99	-50.30	0.04	-167.90
6350	0.05	-169.90	0.99	-50.80	0.99	-50.80	0.05	-169.90
6400	0.05	-170.40	0.99	-51.50	0.99	-51.50	0.05	-170.40
6450	0.06	-170.90	0.98	-52.10	0.98	-52.10	0.06	-170.90
6500	0.06	-170.90	0.98	-52.70	0.98	-52.70	0.06	-170.90
6550	0.06	-170.90	0.98	-53.30	0.98	-53.30	0.06	-170.90
6600	0.07	-173.80	0.98	-53.90	0.98	-53.90	0.07	-173.80
6650	0.08	-176.70	0.98	-54.60	0.98	-54.60	0.08	-176.70
6700	0.08	-176.90	0.98	-55.00	0.98	-55.00	0.08	-176.90
6750	0.08	-177.20	0.98	-55.40	0.98	-55.40	0.08	-177.20
6800	0.09	-178.50	0.98	-56.00	0.98	-56.00	0.09	-178.50
6850	0.09	-179.80	0.98	-56.60	0.98	-56.60	0.09	-179.80
6900	0.09	-1.60	0.98	-57.20	0.98	-57.20	0.09	-1.60
6950	0.09	176.50	0.98	-57.80	0.98	-57.80	0.09	176.50
7000	0.10	174.60	0.98	-58.40	0.98	-58.40	0.10	174.60
7050	0.10	172.80	0.98	-59.10	0.98	-59.10	0.10	172.80
7100	0.10	171.10	0.98	-59.60	0.98	-59.60	0.10	171.10
7150	0.11	169.50	0.98	-60.10	0.98	-60.10	0.11	169.50
7200	0.11	168.80	0.98	-60.70	0.98	-60.70	0.11	168.80
7250	0.11	168.20	0.99	-61.30	0.99	-61.30	0.11	168.20
7300	0.12	166.40	0.98	-61.90	0.98	-61.90	0.12	166.40
7350	0.12	164.70	0.98	-62.50	0.98	-62.50	0.12	164.70
7400	0.12	163.40	0.98	-63.10	0.98	-63.10	0.12	163.40
7450	0.12	162.00	0.98	-63.70	0.98	-63.70	0.12	162.00
7500	0.13	161.50	0.98	-64.30	0.98	-64.30	0.13	161.50
7550	0.13	161.00	0.98	-65.00	0.98	-65.00	0.13	161.00
7600	0.13	159.70	0.98	-65.50	0.98	-65.50	0.13	159.70
7650	0.13	158.40	0.98	-66.10	0.98	-66.10	0.13	158.40
7700	0.12	157.60	0.98	-66.70	0.98	-66.70	0.12	157.60
7750	0.12	156.70	0.98	-67.30	0.98	-67.30	0.12	156.70
7800	0.12	155.60	0.98	-67.90	0.98	-67.90	0.12	155.60
7850	0.13	154.40	0.98	-68.50	0.98	-68.50	0.13	154.40
7900	0.13	154.40	0.98	-69.10	0.98	-69.10	0.13	154.40
7950	0.12	154.50	0.98	-69.70	0.98	-69.70	0.12	154.50
8000	0.12	154.10	0.98	-70.30	0.98	-70.30	0.12	154.10
8050	0.12	153.80	0.98	-71.00	0.98	-71.00	0.12	153.80
8100	0.12	153.80	0.98	-71.60	0.98	-71.60	0.12	153.80
8150	0.12	153.70	0.98	-72.10	0.98	-72.10	0.12	153.70
8200	0.12	154.80	0.98	-72.70	0.98	-72.70	0.12	154.80
8250	0.12	155.80	0.98	-73.30	0.98	-73.30	0.12	155.80
8300	0.12	156.90	0.98	-73.90	0.98	-73.90	0.12	156.90
8350	0.11	157.90	0.98	-74.60	0.98	-74.60	0.11	157.90
8400	0.12	159.10	0.98	-75.20	0.98	-75.20	0.12	159.10
8450	0.12	160.30	0.98	-75.90	0.98	-75.90	0.12	160.30
8500	0.11	162.90	0.98	-76.50	0.98	-76.50	0.11	162.90
8550	0.11	165.50	0.98	-77.20	0.98	-77.20	0.11	165.50
8600	0.11	166.30	0.98	-77.90	0.98	-77.90	0.11	166.30
8650	0.11	167.00	0.98	-78.50	0.98	-78.50	0.11	167.00
8700	0.11	169.50	0.98	-79.20	0.98	-79.20	0.11	169.50
8750	0.11	171.90	0.98	-79.90	0.98	-79.90	0.11	171.90
8800	0.11	171.80	0.98	-80.30	0.98	-80.30	0.11	171.80
8850	0.11	171.60	0.98	-80.70	0.98	-80.70	0.11	171.60
8900	0.12	172.70	0.98	-81.50	0.98	-81.50	0.12	172.70
8950	0.12	173.70	0.98	-82.30	0.98	-82.30	0.12	173.70
9000	0.12	174.40	0.98	-82.90	0.98	-82.90	0.12	174.40
9050	0.13	175.00	0.97	-83.50	0.97	-83.50	0.13	175.00
9100	0.13	175.40	0.98	-84.20	0.98	-84.20	0.13	175.40
9150	0.14	175.90	0.98	-84.80	0.98	-84.80	0.14	175.90
9200	0.14	176.20	0.98	-85.70	0.98	-85.70	0.14	176.20
9250	0.15	176.40	0.98	-86.60	0.98	-86.60	0.15	176.40
9300	0.15	177.70	0.98	-87.00	0.98	-87.00	0.15	177.70
9350	0.16	178.90	0.97	-87.50	0.97	-87.50	0.16	178.90
9400	0.17	-0.10	0.97	-88.10	0.97	-88.10	0.17	-0.10
9450	0.17	-179.10	0.97	-88.80	0.97	-88.80	0.17	-179.10
9500	0.18	-178.90	0.97	-89.60	0.97	-89.60	0.18	-178.90
9550	0.18	-178.80	0.96	-90.30	0.96	-90.30	0.18	-178.80
9600	0.19	-177.90	0.96	-91.10	0.96	-91.10	0.19	-177.90
9650	0.20	-177.00	0.97	-91.80	0.97	-91.80	0.20	-177.00
9700	0.20	-177.10	0.96	-92.40	0.96	-92.40	0.20	-177.10
9750	0.21	-177.30	0.96	-93.10	0.96	-93.10	0.21	-177.30
9800	0.22	-176.00	0.96	-93.70	0.96	-93.70	0.22	-176.00
9850	0.22	-174.60	0.95	-94.30	0.95	-94.30	0.22	-174.60
9900	0.23	-174.90	0.95	-94.90	0.95	-94.90	0.23	-174.90
9950	0.24	-175.20	0.95	-95.50	0.95	-95.50	0.24	-175.20
10000	0.24	-176.30	0.95	-96.30	0.95	-96.30	0.24	-176.30
10050	0.25	-177.50	0.95	-97.10	0.95	-97.10	0.25	-177.50
10100	0.26	-176.80	0.94	-97.50	0.94	-97.50	0.26	-176.80
10150	0.27	-176.10	0.94	-98.00	0.94	-98.00	0.27	-176.10
10200	0.28	-177.60	0.94	-98.80	0.94	-98.80	0.28	-177.60
10250	0.29	-179.10	0.94	-99.60	0.94	-99.60	0.29	-179.10
10300	0.30	0.30	0.94	-100.40	0.94	-100.40	0.30	0.30
10350	0.31	179.70	0.93	-101.20	0.93	-101.20	0.31	179.70
10400	0.31	178.50	0.93	-102.00	0.93	-102.00	0.31	178.50
10450	0.31	177.30	0.93	-102.70	0.93	-102.70	0.31	177.30
10500	0.32	176.10	0.93	-103.50	0.93	-103.50	0.32	176.10
10550	0.33	174.90	0.93	-104.40	0.93	-104.40	0.33	174.90
10600	0.34	172.80	0.92	-104.90	0.92	-104.90	0.34	172.80
10650	0.34	170.70	0.91	-105.50	0.91	-105.50	0.34	170.70
10700	0.35	169.70	0.91	-106.30	0.91	-106.30	0.35	169.70
10750	0.36	168.70	0.92	-107.20	0.92	-107.20	0.36	168.70
10800	0.37	167.80	0.91	-107.60	0.91	-107.60	0.37	167.80
10850	0.37	166.80	0.90	-108.00	0.90	-108.00	0.37	166.80
10900	0.38	164.40	0.90	-108.80	0.90	-108.80	0.38	164.40
10950	0.38	161.90	0.89	-109.60	0.89	-109.60	0.38	161.90
11000	0.39	161.70	0.90	-110.20	0.90	-110.20	0.39	161.70
11050	0.39	161.40	0.90	-110.70	0.90	-110.70	0.39	161.40
11100	0.40	159.60	0.89	-111.50	0.89	-111.50	0.40	159.60
11150	0.41	157.80	0.88	-112.30	0.88	-112.30	0.41	157.80
11200	0.41	156.50	0.89	-112.90	0.89	-112.90	0.41	156.50
11250	0.41	155.30	0.89	-113.50	0.89	-113.50	0.41	155.30
11300	0.42	154.20	0.89	-114.20	0.89	-114.20	0.42	154.20
11350	0.42	153.10	0.88	-114.90	0.88	-114.90	0.42	153.10
11400	0.43	151.40	0.88	-115.80	0.88	-115.80	0.43	151.40
11450	0.43	149.60	0.88	-116.70	0.88	-116.70	0.43	149.60
11500	0.43	148.00	0.87	-117.30	0.87	-117.30	0.43	148.00
11550	0.44	146.40	0.87	-117.90	0.87	-117.90	0.44	146.40
11600	0.44	144.70	0.87	-118.80	0.87	-118.80	0.44	144.70
11650	0.45	143.00	0.87	-119.70	0.87	-119.70	0.45	143.00
11700	0.45	141.30	0.86	-120.40	0.86	-120.40	0.45	141.30
11750	0.46	139.70	0.86	-121.00	0.86	-121.00	0.46	139.70
11800	0.46	138.20	0.85	-121.60	0.85	-121.60	0.46	138.20
11850	0.47	136.70	0.84	-122.20	0.84	-122.20	0.47	136.70
11900	0.48	135.90	0.84	-123.00	0.84	-123.00	0.48	135.90
11950	0.49	135.20	0.84	-123.90	0.84	-123.90	0.49	135.20
12000	0.49	134.20	0.83	-124.40	0.83	-124.40	0.49	134.20
12050	0.50	133.20	0.83	-124.80	0.83	-124.80	0.50	133.20
12100	0.51	132.10	0.82	-125.60	0.82	-125.60	0.51	132.10
12150	0.51	131.10	0.82	-126.40	0.82	-126.40	0.51	131.10
12200	0.52	130.40	0.82	-126.90	0.82	-126.90	0.52	130.40
12250	0.52	129.70	0.82	-127.40	0.82	-127.40	0.52	129.70
12300	0.53	129.00	0.81	-128.40	0.81	-128.40	0.53	129.00
12350	0.53	128.40	0.80	-129.30	0.80	-129.30	0.53	128.40
12400	0.53	127.50	0.81	-129.90	0.81	-129.90	0.53	127.50
12450	0.54	126.70	0.81	-130.50	0.81	-130.50	0.54	126.70
12500	0.54	125.20	0.80	-131.60	0.80	-131.60	0.54	125.20
12550	0.55	123.70	0.79	-132.60	0.79	-132.60	0.55	123.70
12600	0.55	123.30	0.79	-133.40	0.79	-133.40	0.55	123.30
12650	0.55	122.90	0.79	-134.30	0.79	-134.30	0.55	122.90
12700	0.55	121.80	0.78	-135.00	0.78	-135.00	0.55	121.80
12750	0.56	120.70	0.78	-135.70	0.78	-135.70	0.56	120.70
12800	0.56	119.10	0.77	-137.10	0.77	-137.10	0.56	119.10
12850	0.56	117.40	0.77	-138.40	0.77	-138.40	0.56	117.40
12900	0.57	116.60	0.76	-139.00	0.76	-139.00	0.57	116.60
12950	0.58	115.80	0.75	-139.50	0.75	-139.50	0.58	115.80
13000	0.58	114.50	0.75	-140.90	0.75	-140.90	0.58	114.50
13050	0.58	113.10	0.74	-142.20	0.74	-142.20	0.58	113.10
13100	0.59	111.90	0.73	-142.90	0.73	-142.90	0.59	111.90
13150	0.59	110.80	0.72	-143.50	0.72	-143.50	0.59	110.80
13200	0.60	109.70	0.72	-144.30	0.72	-144.30	0.60	109.70
13250	0.61	108.50	0.71	-145.00	0.71	-145.00	0.61	108.50
13300	0.60	108.60	0.70	-146.40	0.70	-146.40	0.60	108.60
13350	0.60	108.70	0.69	-147.80	0.69	-147.80	0.60	108.70
13400	0.62	105.70	0.69	-148.70	0.69	-148.70	0.62	105.70
13450	0.63	102.60	0.68	-149.60	0.68	-149.60	0.63	102.60
13500	0.64	101.40	0.67	-150.70	0.67	-150.70	0.64	101.40
13550	0.65	100.20	0.66	-151.90	0.66	-151.90	0.65	100.20
13600	0.66	98.70	0.65	-153.10	0.65	-153.10	0.66	98.70
13650	0.67	97.20	0.65	-154.30	0.65	-154.30	0.67	97.20
13700	0.68	95.70	0.63	-155.60	0.63	-155.60	0.68	95.70
13750	0.68	94.10	0.62	-156.80	0.62	-156.80	0.68	94.10
13800	0.69	92.50	0.61	-157.90	0.61	-157.90	0.69	92.50
13850	0.69	90.80	0.60	-159.10	0.60	-159.10	0.69	90.80
13900	0.70	88.90	0.59	-160.20	0.59	-160.20	0.70	88.90
13950	0.71	87.10	0.58	-161.40	0.58	-161.40	0.71	87.10
14000	0.71	84.80	0.56	-163.00	0.56	-163.00	0.71	84.80
14050	0.72	82.50	0.55	-164.60	0.55	-164.60	0.72	82.50
14100	0.73	80.50	0.53	-165.60	0.53	-165.60	0.73	80.50
14150	0.74	78.60	0.52	-166.70	0.52	-166.70	0.74	78.60
14200	0.75	76.20	0.50	-168.30	0.50	-168.30	0.75	76.20
14250	0.76	73.90	0.48	-169.80	0.48	-169.80	0.76	73.90
14300	0.77	71.30	0.46	-171.20	0.46	-171.20	0.77	71.30
14350	0.78	68.80	0.44	-172.60	0.44	-172.60	0.78	68.80
14400	0.79	66.80	0.42	-173.60	0.42	-173.60	0.79	66.80
14450	0.80	64.80	0.40	-174.70	0.40	-174.70	0.80	64.80
14500	0.81	62.30	0.37	-175.60	0.37	-175.60	0.81	62.30
14550	0.82	59.80	0.35	-176.60	0.35	-176.60	0.82	59.80
14600	0.83	58.20	0.33	-176.90	0.33	-176.90	0.83	58.20
14650	0.85	56.50	0.30	-177.20	0.30	-177.20	0.85	56.50
14700	0.85	54.20	0.28	-177.40	0.28	-177.40	0.85	54.20
14750	0.85	51.90	0.25	-177.50	0.25	-177.50	0.85	51.90
14800	0.86	49.70	0.23	-176.60	0.23	-176.60	0.86	49.70
14850	0.88	47.50	0.21	-175.70	0.21	-175.70	0.88	47.50
14900	0.88	46.80	0.19	-172.10	0.19	-172.10	0.88	46.80
14950	0.88	46.00	0.16	-168.60	0.16	-168.60	0.88	46.00
15000	0.88	43.20	0.15	-162.90	0.15	-162.90	0.88	43.20
15050	0.88	40.30	0.13	-157.20	0.13	-157.20	0.88	40.30
15100	0.87	39.30	0.12	-146.70	0.12	-146.70	0.87	39.30
15150	0.87	38.30	0.11	-136.20	0.11	-136.20	0.87	38.30
15200	0.87	36.60	0.12	-125.50	0.12	-125.50	0.87	36.60
15250	0.87	34.90	0.12	-114.90	0.12	-114.90	0.87	34.90
15300	0.87	32.70	0.13	-107.90	0.13	-107.90	0.87	32.70
15350	0.87	30.40	0.15	-100.80	0.15	-100.80	0.87	30.40
15400	0.85	28.90	0.16	-96.40	0.16	-96.40	0.85	28.90
15450	0.82	27.40	0.18	-92.00	0.18	-92.00	0.82	27.40
15500	0.84	26.40	0.20	-90.30	0.20	-90.30	0.84	26.40
15550	0.85	25.50	0.22	-88.70	0.22	-88.70	0.85	25.50
15600	0.83	24.20	0.23	-88.30	0.23	-88.30	0.83	24.20
15650	0.82	22.90	0.25	-87.90	0.25	-87.90	0.82	22.90
15700	0.82	21.90	0.26	-88.60	0.26	-88.60	0.82	21.90
15750	0.82	21.00	0.28	-89.20	0.28	-89.20	0.82	21.00
15800	0.81	21.00	0.29	-88.90	0.29	-88.90	0.81	21.00
15850	0.80	21.00	0.29	-88.50	0.29	-88.50	0.80	21.00
15900	0.80	20.10	0.30	-88.10	0.30	-88.10	0.80	20.10
15950	0.80	19.20	0.31	-87.60	0.31	-87.60	0.80	19.20
16000	0.80	19.60	0.32	-86.20	0.32	-86.20	0.80	19.60
16050	0.80	20.00	0.34	-84.90	0.34	-84.90	0.80	20.00
16100	0.80	19.00	0.35	-84.60	0.35	-84.60	0.80	19.00
16150	0.80	18.10	0.37	-84.40	0.37	-84.40	0.80	18.10
16200	0.78	17.40	0.39	-84.40	0.39	-84.40	0.78	17.40
16250	0.77	16.80	0.41	-84.40	0.41	-84.40	0.77	16.80
16300	0.75	16.10	0.43	-85.30	0.43	-85.30	0.75	16.10
16350	0.74	15.40	0.46	-86.20	0.46	-86.20	0.74	15.40
16400	0.72	14.90	0.47	-88.20	0.47	-88.20	0.72	14.90
16450	0.70	14.40	0.48	-90.20	0.48	-90.20	0.70	14.40
16500	0.68	14.00	0.49	-91.40	0.49	-91.40	0.68	14.00
16550	0.65	13.60	0.49	-92.70	0.49	-92.70	0.65	13.60
16600	0.66	13.50	0.49	-92.90	0.49	-92.90	0.66	13.50
16650	0.66	13.40	0.49	-93.10	0.49	-93.10	0.66	13.40
16700	0.67	11.80	0.50	-92.00	0.50	-92.00	0.67	11.80
16750	0.68	10.20	0.51	-91.00	0.51	-91.00	0.68	10.20
16800	0.68	7.40	0.54	-90.90	0.54	-90.90	0.68	7.40
16850	0.68	4.60	0.56	-90.80	0.56	-90.80	0.68	4.60
16900	0.67	2.00	0.58	-91.50	0.58	-91.50	0.67	2.00
16950	0.66	-0.50	0.60	-92.30	0.60	-92.30	0.66	-0.50
17000	0.65	-2.60	0.62	-93.40	0.62	-93.40	0.65	-2.60
17050	0.64	-4.60	0.64	-94.60	0.64	-94.60	0.64	-4.60
17100	0.63	-6.20	0.66	-96.10	0.66	-96.10	0.63	-6.20
17150	0.61	-7.70	0.67	-97.60	0.67	-97.60	0.61	-7.70
17200	0.60	-8.50	0.69	-98.90	0.69	-98.90	0.60	-8.50
17250	0.58	-9.30	0.71	-100.30	0.71	-100.30	0.58	-9.30
17300	0.56	-10.00	0.72	-101.90	0.72	-101.90	0.56	-10.00
17350	0.54	-10.80	0.74	-103.50	0.74	-103.50	0.54	-10.80
17400	0.52	-10.90	0.75	-105.20	0.75	-105.20	0.52	-10.90
17450	0.50	-10.90	0.76	-106.80	0.76	-106.80	0.50	-10.90
17500	0.48	-10.10	0.76	-109.10	0.76	-109.10	0.48	-10.10
17550	0.46	-9.30	0.77	-111.30	0.77	-111.30	0.46	-9.30
17600	0.44	-7.10	0.76	-113.50	0.76	-113.50	0.44	-7.10
17650	0.42	-4.80	0.76	-115.60	0.76	-115.60	0.42	-4.80
17700	0.41	-1.60	0.74	-116.90	0.74	-116.90	0.41	-1.60
17750	0.41	1.60	0.73	-118.10	0.73	-118.10	0.41	1.60
17800	0.43	1.70	0.71	-118.10	0.71	-118.10	0.43	1.70
17850	0.45	1.80	0.69	-118.10	0.69	-118.10	0.45	1.80
17900	0.46	0.80	0.69	-116.70	0.69	-116.70	0.46	0.80
17950	0.47	-0.20	0.69	-115.20	0.69	-115.20	0.47	-0.20
18000	0.47	-4.20	0.71	-114.80	0.71	-114.80	0.47	-4.20
18050	0.47	-8.10	0.73	-114.50	0.73	-114.50	0.47	-8.10
18100	0.46	-11.60	0.75	-115.10	0.75	-115.10	0.46	-11.60
18150	0.46	-15.20	0.77	-115.70	0.77	-115.70	0.46	-15.20
18200	0.45	-17.40	0.78	-116.60	0.78	-116.60	0.45	-17.40
18250	0.45	-19.60	0.80	-117.60	0.80	-117.60	0.45	-19.60
18300	0.45	-22.00	0.81	-118.80	0.81	-118.80	0.45	-22.00
18350	0.45	-24.30	0.83	-119.90	0.83	-119.90	0.45	-24.30
18400	0.45	-25.00	0.83	-120.90	0.83	-120.90	0.45	-25.00
18450	0.45	-25.60	0.83	-121.90	0.83	-121.90	0.45	-25.60
18500	0.45	-25.90	0.85	-122.90	0.85	-122.90	0.45	-25.90
18550	0.45	-26.20	0.86	-123.80	0.86	-123.80	0.45	-26.20
18600	0.45	-26.90	0.87	-125.00	0.87	-125.00	0.45	-26.90
18650	0.44	-27.50	0.87	-126.10	0.87	-126.10	0.44	-27.50
18700	0.44	-28.70	0.87	-127.40	0.87	-127.40	0.44	-28.70
18750	0.43	-29.90	0.88	-128.70	0.88	-128.70	0.43	-29.90
18800	0.42	-30.40	0.88	-129.50	0.88	-129.50	0.42	-30.40
18850	0.42	-30.80	0.89	-130.40	0.89	-130.40	0.42	-30.80
