#	mhz	s	ma	r	50

50	0.96	178.60	0.02	80.60	0.02	80.60	0.96	178.60
100	0.98	177.30	0.03	81.20	0.03	81.20	0.98	177.30
150	1.00	175.90	0.05	81.80	0.05	81.80	1.00	175.90
200	0.99	174.90	0.06	81.50	0.06	81.50	0.99	174.90
250	0.98	173.80	0.08	81.30	0.08	81.30	0.98	173.80
300	0.99	172.30	0.09	79.90	0.09	79.90	0.99	172.30
350	0.99	170.70	0.11	78.60	0.11	78.60	0.99	170.70
400	0.98	169.60	0.12	77.80	0.12	77.80	0.98	169.60
450	0.97	168.60	0.13	77.10	0.13	77.10	0.97	168.60
500	0.97	166.20	0.16	75.90	0.16	75.90	0.97	166.20
550	0.97	163.90	0.18	74.70	0.18	74.70	0.97	163.90
600	0.97	162.60	0.19	73.30	0.19	73.30	0.97	162.60
650	0.97	161.30	0.21	71.90	0.21	71.90	0.97	161.30
700	0.96	159.70	0.22	71.00	0.22	71.00	0.96	159.70
750	0.96	158.20	0.24	70.10	0.24	70.10	0.96	158.20
800	0.96	157.00	0.25	68.70	0.25	68.70	0.96	157.00
850	0.95	155.80	0.26	67.20	0.26	67.20	0.95	155.80
900	0.95	154.30	0.28	66.00	0.28	66.00	0.95	154.30
950	0.94	152.80	0.29	64.80	0.29	64.80	0.94	152.80
1000	0.93	151.40	0.30	63.50	0.30	63.50	0.93	151.40
1050	0.93	150.10	0.31	62.30	0.31	62.30	0.93	150.10
1100	0.93	148.60	0.33	61.30	0.33	61.30	0.93	148.60
1150	0.92	147.20	0.34	60.40	0.34	60.40	0.92	147.20
1200	0.91	145.80	0.35	59.10	0.35	59.10	0.91	145.80
1250	0.91	144.40	0.36	57.80	0.36	57.80	0.91	144.40
1300	0.91	143.00	0.37	57.00	0.37	57.00	0.91	143.00
1350	0.91	141.60	0.39	56.20	0.39	56.20	0.91	141.60
1400	0.90	140.30	0.40	54.90	0.40	54.90	0.90	140.30
1450	0.89	139.00	0.41	53.60	0.41	53.60	0.89	139.00
1500	0.89	137.60	0.42	52.60	0.42	52.60	0.89	137.60
1550	0.89	136.20	0.43	51.70	0.43	51.70	0.89	136.20
1600	0.88	134.90	0.44	50.60	0.44	50.60	0.88	134.90
1650	0.88	133.60	0.45	49.60	0.45	49.60	0.88	133.60
1700	0.87	132.30	0.46	48.50	0.46	48.50	0.87	132.30
1750	0.87	131.00	0.47	47.40	0.47	47.40	0.87	131.00
1800	0.86	130.10	0.48	46.70	0.48	46.70	0.86	130.10
1850	0.86	129.10	0.49	45.90	0.49	45.90	0.86	129.10
1900	0.86	127.80	0.49	44.90	0.49	44.90	0.86	127.80
1950	0.85	126.40	0.50	43.90	0.50	43.90	0.85	126.40
2000	0.84	125.40	0.51	42.90	0.51	42.90	0.84	125.40
2050	0.84	124.40	0.52	41.80	0.52	41.80	0.84	124.40
2100	0.83	123.50	0.53	41.00	0.53	41.00	0.83	123.50
2150	0.82	122.60	0.53	40.20	0.53	40.20	0.82	122.60
2200	0.82	121.60	0.54	39.20	0.54	39.20	0.82	121.60
2250	0.82	120.60	0.55	38.30	0.55	38.30	0.82	120.60
2300	0.81	119.80	0.56	37.50	0.56	37.50	0.81	119.80
2350	0.80	119.10	0.56	36.60	0.56	36.60	0.80	119.10
2400	0.80	118.40	0.57	35.80	0.57	35.80	0.80	118.40
2450	0.80	117.70	0.58	35.00	0.58	35.00	0.80	117.70
2500	0.79	117.00	0.59	34.10	0.59	34.10	0.79	117.00
2550	0.79	116.40	0.60	33.10	0.60	33.10	0.79	116.40
2600	0.78	115.70	0.60	32.30	0.60	32.30	0.78	115.70
2650	0.78	115.00	0.61	31.50	0.61	31.50	0.78	115.00
2700	0.77	114.60	0.62	30.70	0.62	30.70	0.77	114.60
2750	0.76	114.20	0.62	29.90	0.62	29.90	0.76	114.20
2800	0.76	113.40	0.63	29.00	0.63	29.00	0.76	113.40
2850	0.75	112.60	0.64	28.20	0.64	28.20	0.75	112.60
2900	0.75	112.20	0.64	27.10	0.64	27.10	0.75	112.20
2950	0.74	111.80	0.65	26.10	0.65	26.10	0.74	111.80
3000	0.74	111.30	0.66	25.30	0.66	25.30	0.74	111.30
3050	0.74	110.90	0.67	24.60	0.67	24.60	0.74	110.90
3100	0.73	109.80	0.67	23.40	0.67	23.40	0.73	109.80
3150	0.72	108.80	0.67	22.20	0.67	22.20	0.72	108.80
3200	0.71	108.70	0.68	21.70	0.68	21.70	0.71	108.70
3250	0.71	108.60	0.69	21.20	0.69	21.20	0.71	108.60
3300	0.70	108.10	0.69	20.20	0.69	20.20	0.70	108.10
3350	0.70	107.50	0.70	19.10	0.70	19.10	0.70	107.50
3400	0.70	106.90	0.70	18.40	0.70	18.40	0.70	106.90
3450	0.69	106.40	0.71	17.60	0.71	17.60	0.69	106.40
3500	0.68	106.20	0.71	16.90	0.71	16.90	0.68	106.20
3550	0.67	105.90	0.72	16.20	0.72	16.20	0.67	105.90
3600	0.67	105.70	0.72	15.40	0.72	15.40	0.67	105.70
3650	0.67	105.50	0.73	14.50	0.73	14.50	0.67	105.50
3700	0.66	104.80	0.74	13.60	0.74	13.60	0.66	104.80
3750	0.65	104.20	0.74	12.70	0.74	12.70	0.65	104.20
3800	0.65	103.80	0.74	12.00	0.74	12.00	0.65	103.80
3850	0.64	103.40	0.75	11.30	0.75	11.30	0.64	103.40
3900	0.63	102.70	0.75	10.40	0.75	10.40	0.63	102.70
3950	0.63	102.10	0.76	9.40	0.76	9.40	0.63	102.10
4000	0.62	101.60	0.76	8.60	0.76	8.60	0.62	101.60
4050	0.62	101.20	0.77	7.80	0.77	7.80	0.62	101.20
4100	0.61	100.20	0.77	6.90	0.77	6.90	0.61	100.20
4150	0.61	99.30	0.78	6.00	0.78	6.00	0.61	99.30
4200	0.60	98.40	0.78	5.20	0.78	5.20	0.60	98.40
4250	0.60	97.50	0.79	4.40	0.79	4.40	0.60	97.50
4300	0.59	96.60	0.79	3.70	0.79	3.70	0.59	96.60
4350	0.59	95.60	0.79	3.10	0.79	3.10	0.59	95.60
4400	0.58	94.60	0.80	2.20	0.80	2.20	0.58	94.60
4450	0.57	93.60	0.80	1.40	0.80	1.40	0.57	93.60
4500	0.57	92.30	0.80	0.20	0.80	0.20	0.57	92.30
4550	0.57	90.90	0.81	-0.90	0.81	-0.90	0.57	90.90
4600	0.56	89.70	0.81	-1.50	0.81	-1.50	0.56	89.70
4650	0.56	88.50	0.81	-2.20	0.81	-2.20	0.56	88.50
4700	0.55	87.50	0.81	-2.90	0.81	-2.90	0.55	87.50
4750	0.55	86.50	0.82	-3.60	0.82	-3.60	0.55	86.50
4800	0.55	85.20	0.82	-4.40	0.82	-4.40	0.55	85.20
4850	0.54	83.90	0.82	-5.10	0.82	-5.10	0.54	83.90
4900	0.54	82.90	0.82	-5.90	0.82	-5.90	0.54	82.90
4950	0.53	81.80	0.83	-6.60	0.83	-6.60	0.53	81.80
5000	0.53	80.70	0.83	-7.30	0.83	-7.30	0.53	80.70
5050	0.53	79.50	0.84	-8.00	0.84	-8.00	0.53	79.50
5100	0.52	78.30	0.84	-8.90	0.84	-8.90	0.52	78.30
5150	0.51	77.00	0.84	-9.80	0.84	-9.80	0.51	77.00
5200	0.51	76.30	0.84	-10.40	0.84	-10.40	0.51	76.30
5250	0.50	75.60	0.84	-11.00	0.84	-11.00	0.50	75.60
5300	0.50	74.40	0.85	-11.50	0.85	-11.50	0.50	74.40
5350	0.50	73.20	0.85	-12.10	0.85	-12.10	0.50	73.20
5400	0.49	72.10	0.86	-13.00	0.86	-13.00	0.49	72.10
5450	0.49	70.90	0.86	-14.00	0.86	-14.00	0.49	70.90
5500	0.48	69.90	0.86	-14.60	0.86	-14.60	0.48	69.90
5550	0.48	68.90	0.87	-15.10	0.87	-15.10	0.48	68.90
5600	0.47	67.90	0.87	-16.00	0.87	-16.00	0.47	67.90
5650	0.47	67.00	0.87	-16.90	0.87	-16.90	0.47	67.00
5700	0.46	66.00	0.88	-17.70	0.88	-17.70	0.46	66.00
5750	0.46	65.00	0.88	-18.50	0.88	-18.50	0.46	65.00
5800	0.45	64.10	0.88	-19.20	0.88	-19.20	0.45	64.10
5850	0.45	63.20	0.88	-19.90	0.88	-19.90	0.45	63.20
5900	0.44	62.70	0.88	-20.50	0.88	-20.50	0.44	62.70
5950	0.44	62.20	0.88	-21.10	0.88	-21.10	0.44	62.20
6000	0.43	61.10	0.89	-21.50	0.89	-21.50	0.43	61.10
6050	0.42	59.90	0.90	-21.90	0.90	-21.90	0.42	59.90
6100	0.42	59.60	0.90	-22.50	0.90	-22.50	0.42	59.60
6150	0.41	59.30	0.90	-23.10	0.90	-23.10	0.41	59.30
6200	0.41	59.00	0.90	-23.70	0.90	-23.70	0.41	59.00
6250	0.41	58.60	0.90	-24.40	0.90	-24.40	0.41	58.60
6300	0.40	58.70	0.90	-25.00	0.90	-25.00	0.40	58.70
6350	0.40	58.90	0.91	-25.70	0.91	-25.70	0.40	58.90
6400	0.39	58.50	0.91	-26.40	0.91	-26.40	0.39	58.50
6450	0.38	58.10	0.91	-27.10	0.91	-27.10	0.38	58.10
6500	0.37	57.90	0.91	-27.80	0.91	-27.80	0.37	57.90
6550	0.37	57.70	0.91	-28.40	0.91	-28.40	0.37	57.70
6600	0.37	57.50	0.92	-29.20	0.92	-29.20	0.37	57.50
6650	0.36	57.30	0.92	-29.90	0.92	-29.90	0.36	57.30
6700	0.35	57.20	0.92	-30.40	0.92	-30.40	0.35	57.20
6750	0.35	57.00	0.92	-30.90	0.92	-30.90	0.35	57.00
6800	0.35	56.70	0.92	-31.50	0.92	-31.50	0.35	56.70
6850	0.34	56.30	0.93	-32.00	0.93	-32.00	0.34	56.30
6900	0.34	55.90	0.93	-32.90	0.93	-32.90	0.34	55.90
6950	0.34	55.50	0.93	-33.70	0.93	-33.70	0.34	55.50
7000	0.33	55.30	0.93	-34.40	0.93	-34.40	0.33	55.30
7050	0.33	55.10	0.93	-35.10	0.93	-35.10	0.33	55.10
7100	0.33	54.90	0.93	-35.70	0.93	-35.70	0.33	54.90
7150	0.32	54.70	0.93	-36.40	0.93	-36.40	0.32	54.70
7200	0.32	54.20	0.93	-37.00	0.93	-37.00	0.32	54.20
7250	0.32	53.80	0.93	-37.60	0.93	-37.60	0.32	53.80
7300	0.32	53.40	0.94	-38.20	0.94	-38.20	0.32	53.40
7350	0.32	53.00	0.94	-38.70	0.94	-38.70	0.32	53.00
7400	0.32	52.60	0.94	-39.50	0.94	-39.50	0.32	52.60
7450	0.32	52.20	0.94	-40.20	0.94	-40.20	0.32	52.20
7500	0.31	51.50	0.94	-40.80	0.94	-40.80	0.31	51.50
7550	0.31	50.80	0.94	-41.30	0.94	-41.30	0.31	50.80
7600	0.31	50.00	0.94	-42.00	0.94	-42.00	0.31	50.00
7650	0.31	49.20	0.94	-42.60	0.94	-42.60	0.31	49.20
7700	0.31	48.00	0.94	-43.30	0.94	-43.30	0.31	48.00
7750	0.31	46.90	0.94	-44.00	0.94	-44.00	0.31	46.90
7800	0.31	46.60	0.94	-44.50	0.94	-44.50	0.31	46.60
7850	0.31	46.30	0.94	-45.10	0.94	-45.10	0.31	46.30
7900	0.31	44.40	0.94	-45.70	0.94	-45.70	0.31	44.40
7950	0.31	42.60	0.94	-46.30	0.94	-46.30	0.31	42.60
8000	0.31	41.50	0.94	-46.90	0.94	-46.90	0.31	41.50
8050	0.31	40.50	0.94	-47.60	0.94	-47.60	0.31	40.50
8100	0.30	38.80	0.94	-48.20	0.94	-48.20	0.30	38.80
8150	0.30	37.20	0.94	-48.80	0.94	-48.80	0.30	37.20
8200	0.30	35.70	0.94	-49.30	0.94	-49.30	0.30	35.70
8250	0.30	34.20	0.94	-49.70	0.94	-49.70	0.30	34.20
8300	0.30	33.00	0.94	-50.30	0.94	-50.30	0.30	33.00
8350	0.30	31.70	0.94	-50.80	0.94	-50.80	0.30	31.70
8400	0.30	30.10	0.94	-51.40	0.94	-51.40	0.30	30.10
8450	0.30	28.60	0.94	-51.90	0.94	-51.90	0.30	28.60
8500	0.30	27.30	0.94	-52.40	0.94	-52.40	0.30	27.30
8550	0.30	25.90	0.94	-52.90	0.94	-52.90	0.30	25.90
8600	0.31	24.70	0.94	-53.50	0.94	-53.50	0.31	24.70
8650	0.31	23.50	0.94	-54.00	0.94	-54.00	0.31	23.50
8700	0.31	22.60	0.94	-54.50	0.94	-54.50	0.31	22.60
8750	0.31	21.70	0.94	-55.10	0.94	-55.10	0.31	21.70
8800	0.31	20.60	0.94	-55.50	0.94	-55.50	0.31	20.60
8850	0.31	19.50	0.94	-55.90	0.94	-55.90	0.31	19.50
8900	0.31	19.30	0.94	-56.50	0.94	-56.50	0.31	19.30
8950	0.31	19.20	0.94	-57.00	0.94	-57.00	0.31	19.20
9000	0.31	18.30	0.94	-57.60	0.94	-57.60	0.31	18.30
9050	0.31	17.50	0.94	-58.20	0.94	-58.20	0.31	17.50
9100	0.31	16.90	0.94	-58.80	0.94	-58.80	0.31	16.90
9150	0.31	16.30	0.94	-59.30	0.94	-59.30	0.31	16.30
9200	0.31	15.20	0.94	-59.90	0.94	-59.90	0.31	15.20
9250	0.30	14.20	0.94	-60.40	0.94	-60.40	0.30	14.20
9300	0.30	14.10	0.94	-60.60	0.94	-60.60	0.30	14.10
9350	0.30	14.00	0.94	-60.90	0.94	-60.90	0.30	14.00
9400	0.30	12.90	0.94	-61.40	0.94	-61.40	0.30	12.90
9450	0.30	11.80	0.94	-61.90	0.94	-61.90	0.30	11.80
9500	0.29	11.50	0.94	-62.40	0.94	-62.40	0.29	11.50
9550	0.29	11.30	0.94	-62.90	0.94	-62.90	0.29	11.30
9600	0.29	10.10	0.94	-63.50	0.94	-63.50	0.29	10.10
9650	0.29	8.90	0.95	-64.10	0.95	-64.10	0.29	8.90
9700	0.28	8.30	0.95	-64.50	0.95	-64.50	0.28	8.30
9750	0.28	7.70	0.95	-64.80	0.95	-64.80	0.28	7.70
9800	0.28	6.80	0.95	-65.30	0.95	-65.30	0.28	6.80
9850	0.28	5.90	0.95	-65.80	0.95	-65.80	0.28	5.90
9900	0.28	5.20	0.95	-66.40	0.95	-66.40	0.28	5.20
9950	0.27	4.40	0.95	-67.00	0.95	-67.00	0.27	4.40
10000	0.27	3.70	0.95	-67.40	0.95	-67.40	0.27	3.70
10050	0.26	2.90	0.95	-67.70	0.95	-67.70	0.26	2.90
10100	0.26	1.80	0.95	-68.30	0.95	-68.30	0.26	1.80
10150	0.26	0.60	0.95	-68.80	0.95	-68.80	0.26	0.60
10200	0.25	0.50	0.95	-69.30	0.95	-69.30	0.25	0.50
10250	0.25	0.40	0.96	-69.70	0.96	-69.70	0.25	0.40
10300	0.25	-1.20	0.95	-70.30	0.95	-70.30	0.25	-1.20
10350	0.24	-2.90	0.95	-70.80	0.95	-70.80	0.24	-2.90
10400	0.24	-3.40	0.95	-71.30	0.95	-71.30	0.24	-3.40
10450	0.23	-3.90	0.96	-71.80	0.96	-71.80	0.23	-3.90
10500	0.23	-5.10	0.96	-72.40	0.96	-72.40	0.23	-5.10
10550	0.23	-6.30	0.96	-73.00	0.96	-73.00	0.23	-6.30
10600	0.22	-7.00	0.96	-73.40	0.96	-73.40	0.22	-7.00
10650	0.20	-7.80	0.96	-73.90	0.96	-73.90	0.20	-7.80
10700	0.20	-8.50	0.97	-74.50	0.97	-74.50	0.20	-8.50
10750	0.20	-9.20	0.97	-75.10	0.97	-75.10	0.20	-9.20
10800	0.20	-11.20	0.97	-75.50	0.97	-75.50	0.20	-11.20
10850	0.19	-13.20	0.97	-75.80	0.97	-75.80	0.19	-13.20
10900	0.18	-13.70	0.97	-76.50	0.97	-76.50	0.18	-13.70
10950	0.18	-14.10	0.97	-77.20	0.97	-77.20	0.18	-14.10
11000	0.17	-15.80	0.97	-77.80	0.97	-77.80	0.17	-15.80
11050	0.17	-17.40	0.97	-78.50	0.97	-78.50	0.17	-17.40
11100	0.17	-18.70	0.97	-78.90	0.97	-78.90	0.17	-18.70
11150	0.16	-20.10	0.97	-79.40	0.97	-79.40	0.16	-20.10
11200	0.16	-20.50	0.98	-80.10	0.98	-80.10	0.16	-20.50
11250	0.16	-20.80	0.98	-80.70	0.98	-80.70	0.16	-20.80
11300	0.15	-22.70	0.98	-81.30	0.98	-81.30	0.15	-22.70
11350	0.15	-24.50	0.98	-81.90	0.98	-81.90	0.15	-24.50
11400	0.15	-23.00	0.98	-82.30	0.98	-82.30	0.15	-23.00
11450	0.15	-21.40	0.97	-82.80	0.97	-82.80	0.15	-21.40
11500	0.14	-22.40	0.98	-83.40	0.98	-83.40	0.14	-22.40
11550	0.14	-23.40	0.98	-84.00	0.98	-84.00	0.14	-23.40
11600	0.14	-22.80	0.98	-84.50	0.98	-84.50	0.14	-22.80
11650	0.14	-22.10	0.98	-85.00	0.98	-85.00	0.14	-22.10
11700	0.13	-21.70	0.98	-85.60	0.98	-85.60	0.13	-21.70
11750	0.13	-21.30	0.98	-86.20	0.98	-86.20	0.13	-21.30
11800	0.13	-18.30	0.98	-86.50	0.98	-86.50	0.13	-18.30
11850	0.12	-15.40	0.98	-86.90	0.98	-86.90	0.12	-15.40
11900	0.11	-16.30	0.98	-87.50	0.98	-87.50	0.11	-16.30
11950	0.10	-17.10	0.98	-88.00	0.98	-88.00	0.10	-17.10
12000	0.10	-15.30	0.98	-88.60	0.98	-88.60	0.10	-15.30
12050	0.10	-13.60	0.99	-89.20	0.99	-89.20	0.10	-13.60
12100	0.09	-14.80	0.98	-89.80	0.98	-89.80	0.09	-14.80
12150	0.09	-16.10	0.98	-90.40	0.98	-90.40	0.09	-16.10
12200	0.09	-13.80	0.98	-90.80	0.98	-90.80	0.09	-13.80
12250	0.08	-11.60	0.98	-91.30	0.98	-91.30	0.08	-11.60
12300	0.08	-12.10	0.98	-91.80	0.98	-91.80	0.08	-12.10
12350	0.08	-12.60	0.98	-92.40	0.98	-92.40	0.08	-12.60
12400	0.08	-13.50	0.98	-92.90	0.98	-92.90	0.08	-13.50
12450	0.08	-14.40	0.98	-93.40	0.98	-93.40	0.08	-14.40
12500	0.08	-9.80	0.99	-94.00	0.99	-94.00	0.08	-9.80
12550	0.09	-5.30	0.99	-94.50	0.99	-94.50	0.09	-5.30
12600	0.08	-7.80	0.98	-95.00	0.98	-95.00	0.08	-7.80
12650	0.08	-10.40	0.98	-95.50	0.98	-95.50	0.08	-10.40
12700	0.09	-9.00	0.98	-96.00	0.98	-96.00	0.09	-9.00
12750	0.10	-7.70	0.98	-96.50	0.98	-96.50	0.10	-7.70
12800	0.10	-7.00	0.98	-97.00	0.98	-97.00	0.10	-7.00
12850	0.10	-6.40	0.98	-97.60	0.98	-97.60	0.10	-6.40
12900	0.11	-4.40	0.98	-98.00	0.98	-98.00	0.11	-4.40
12950	0.11	-2.30	0.98	-98.40	0.98	-98.40	0.11	-2.30
13000	0.11	-3.30	0.98	-98.90	0.98	-98.90	0.11	-3.30
13050	0.11	-4.30	0.98	-99.40	0.98	-99.40	0.11	-4.30
13100	0.10	-3.00	0.98	-99.80	0.98	-99.80	0.10	-3.00
13150	0.10	-1.80	0.98	-100.30	0.98	-100.30	0.10	-1.80
13200	0.11	-1.00	0.98	-100.60	0.98	-100.60	0.11	-1.00
13250	0.11	-0.30	0.98	-100.90	0.98	-100.90	0.11	-0.30
13300	0.10	3.60	0.98	-101.70	0.98	-101.70	0.10	3.60
13350	0.10	7.50	0.98	-102.40	0.98	-102.40	0.10	7.50
13400	0.10	6.40	0.98	-103.00	0.98	-103.00	0.10	6.40
13450	0.11	5.30	0.98	-103.60	0.98	-103.60	0.11	5.30
13500	0.10	6.90	0.98	-104.10	0.98	-104.10	0.10	6.90
13550	0.10	8.50	0.98	-104.60	0.98	-104.60	0.10	8.50
13600	0.10	5.50	0.98	-105.20	0.98	-105.20	0.10	5.50
13650	0.11	2.60	0.98	-105.80	0.98	-105.80	0.11	2.60
13700	0.11	1.50	0.98	-106.30	0.98	-106.30	0.11	1.50
13750	0.11	0.40	0.98	-106.80	0.98	-106.80	0.11	0.40
13800	0.12	-2.70	0.97	-107.20	0.97	-107.20	0.12	-2.70
13850	0.12	-5.80	0.97	-107.70	0.97	-107.70	0.12	-5.80
13900	0.12	-9.00	0.97	-108.20	0.97	-108.20	0.12	-9.00
13950	0.13	-12.20	0.98	-108.60	0.98	-108.60	0.13	-12.20
14000	0.13	-12.90	0.98	-109.10	0.98	-109.10	0.13	-12.90
14050	0.14	-13.60	0.97	-109.70	0.97	-109.70	0.14	-13.60
14100	0.14	-18.00	0.97	-110.10	0.97	-110.10	0.14	-18.00
14150	0.14	-22.30	0.97	-110.50	0.97	-110.50	0.14	-22.30
14200	0.15	-22.30	0.97	-111.10	0.97	-111.10	0.15	-22.30
14250	0.15	-22.20	0.97	-111.70	0.97	-111.70	0.15	-22.20
14300	0.15	-25.00	0.97	-112.10	0.97	-112.10	0.15	-25.00
14350	0.16	-27.70	0.97	-112.60	0.97	-112.60	0.16	-27.70
14400	0.16	-28.40	0.97	-113.20	0.97	-113.20	0.16	-28.40
14450	0.16	-29.10	0.97	-113.70	0.97	-113.70	0.16	-29.10
14500	0.17	-29.70	0.97	-114.00	0.97	-114.00	0.17	-29.70
14550	0.17	-30.30	0.97	-114.30	0.97	-114.30	0.17	-30.30
14600	0.17	-30.90	0.97	-114.80	0.97	-114.80	0.17	-30.90
14650	0.17	-31.50	0.97	-115.30	0.97	-115.30	0.17	-31.50
14700	0.17	-33.70	0.97	-115.80	0.97	-115.80	0.17	-33.70
14750	0.16	-35.80	0.97	-116.30	0.97	-116.30	0.16	-35.80
14800	0.17	-36.10	0.97	-116.80	0.97	-116.80	0.17	-36.10
14850	0.17	-36.30	0.97	-117.40	0.97	-117.40	0.17	-36.30
14900	0.16	-38.80	0.97	-117.80	0.97	-117.80	0.16	-38.80
14950	0.16	-41.20	0.97	-118.20	0.97	-118.20	0.16	-41.20
15000	0.16	-43.20	0.97	-118.70	0.97	-118.70	0.16	-43.20
15050	0.15	-45.20	0.97	-119.20	0.97	-119.20	0.15	-45.20
15100	0.16	-46.50	0.97	-119.50	0.97	-119.50	0.16	-46.50
15150	0.16	-47.80	0.97	-119.90	0.97	-119.90	0.16	-47.80
15200	0.16	-51.80	0.98	-120.10	0.98	-120.10	0.16	-51.80
15250	0.15	-55.90	0.98	-120.40	0.98	-120.40	0.15	-55.90
15300	0.16	-57.20	0.98	-121.10	0.98	-121.10	0.16	-57.20
15350	0.16	-58.50	0.98	-121.80	0.98	-121.80	0.16	-58.50
15400	0.16	-60.10	0.98	-122.00	0.98	-122.00	0.16	-60.10
15450	0.16	-61.70	0.97	-122.30	0.97	-122.30	0.16	-61.70
15500	0.16	-61.60	0.98	-122.90	0.98	-122.90	0.16	-61.60
15550	0.16	-61.40	0.98	-123.40	0.98	-123.40	0.16	-61.40
15600	0.16	-64.00	0.98	-123.80	0.98	-123.80	0.16	-64.00
15650	0.16	-66.50	0.98	-124.10	0.98	-124.10	0.16	-66.50
15700	0.16	-67.10	0.98	-124.70	0.98	-124.70	0.16	-67.10
15750	0.15	-67.70	0.98	-125.20	0.98	-125.20	0.15	-67.70
15800	0.15	-69.80	0.98	-125.50	0.98	-125.50	0.15	-69.80
15850	0.14	-71.80	0.98	-125.80	0.98	-125.80	0.14	-71.80
15900	0.14	-73.70	0.98	-126.30	0.98	-126.30	0.14	-73.70
15950	0.13	-75.60	0.98	-126.80	0.98	-126.80	0.13	-75.60
16000	0.12	-78.20	0.98	-127.20	0.98	-127.20	0.12	-78.20
16050	0.11	-80.80	0.98	-127.60	0.98	-127.60	0.11	-80.80
16100	0.10	-88.20	0.98	-128.30	0.98	-128.30	0.10	-88.20
16150	0.09	-95.60	0.98	-129.00	0.98	-129.00	0.09	-95.60
16200	0.08	-102.40	0.98	-129.60	0.98	-129.60	0.08	-102.40
16250	0.08	-109.20	0.98	-130.10	0.98	-130.10	0.08	-109.20
16300	0.08	-121.90	0.98	-130.80	0.98	-130.80	0.08	-121.90
16350	0.08	-134.60	0.99	-131.50	0.99	-131.50	0.08	-134.60
16400	0.08	-141.50	0.99	-131.90	0.99	-131.90	0.08	-141.50
16450	0.08	-148.30	0.98	-132.30	0.98	-132.30	0.08	-148.30
16500	0.09	-152.90	0.98	-132.80	0.98	-132.80	0.09	-152.90
16550	0.10	-157.40	0.97	-133.30	0.97	-133.30	0.10	-157.40
16600	0.10	-164.20	0.98	-133.90	0.98	-133.90	0.10	-164.20
16650	0.10	-170.90	0.99	-134.50	0.99	-134.50	0.10	-170.90
16700	0.11	-171.50	0.99	-134.90	0.99	-134.90	0.11	-171.50
16750	0.11	-172.10	0.99	-135.30	0.99	-135.30	0.11	-172.10
16800	0.12	3.30	0.99	-135.90	0.99	-135.90	0.12	3.30
16850	0.12	178.80	0.99	-136.40	0.99	-136.40	0.12	178.80
16900	0.12	176.30	0.99	-137.00	0.99	-137.00	0.12	176.30
16950	0.11	173.70	0.99	-137.60	0.99	-137.60	0.11	173.70
17000	0.11	169.10	0.99	-138.10	0.99	-138.10	0.11	169.10
17050	0.11	164.50	0.99	-138.70	0.99	-138.70	0.11	164.50
17100	0.11	159.00	0.99	-139.30	0.99	-139.30	0.11	159.00
17150	0.10	153.40	0.99	-140.00	0.99	-140.00	0.10	153.40
17200	0.10	146.80	0.99	-140.40	0.99	-140.40	0.10	146.80
17250	0.11	140.20	0.99	-140.70	0.99	-140.70	0.11	140.20
17300	0.11	134.00	0.99	-141.30	0.99	-141.30	0.11	134.00
17350	0.12	127.80	0.99	-141.90	0.99	-141.90	0.12	127.80
17400	0.12	124.50	0.99	-142.40	0.99	-142.40	0.12	124.50
17450	0.13	121.30	0.98	-142.80	0.98	-142.80	0.13	121.30
17500	0.13	116.60	0.98	-143.30	0.98	-143.30	0.13	116.60
17550	0.14	111.90	0.98	-143.70	0.98	-143.70	0.14	111.90
17600	0.14	110.70	0.98	-144.30	0.98	-144.30	0.14	110.70
17650	0.14	109.40	0.98	-144.90	0.98	-144.90	0.14	109.40
17700	0.15	108.50	0.98	-145.20	0.98	-145.20	0.15	108.50
17750	0.16	107.50	0.98	-145.60	0.98	-145.60	0.16	107.50
17800	0.16	107.40	0.98	-146.10	0.98	-146.10	0.16	107.40
17850	0.15	107.30	0.98	-146.60	0.98	-146.60	0.15	107.30
17900	0.16	107.60	0.98	-147.10	0.98	-147.10	0.16	107.60
17950	0.16	107.90	0.98	-147.50	0.98	-147.50	0.16	107.90
18000	0.16	108.60	0.98	-148.10	0.98	-148.10	0.16	108.60
18050	0.15	109.20	0.98	-148.70	0.98	-148.70	0.15	109.20
18100	0.14	111.00	0.98	-149.20	0.98	-149.20	0.14	111.00
18150	0.13	112.90	0.98	-149.60	0.98	-149.60	0.13	112.90
18200	0.12	110.00	0.98	-150.20	0.98	-150.20	0.12	110.00
18250	0.11	107.10	0.99	-150.80	0.99	-150.80	0.11	107.10
18300	0.10	107.30	0.99	-151.20	0.99	-151.20	0.10	107.30
18350	0.10	107.50	0.98	-151.70	0.98	-151.70	0.10	107.50
18400	0.09	99.90	0.99	-152.10	0.99	-152.10	0.09	99.90
18450	0.08	92.30	0.99	-152.60	0.99	-152.60	0.08	92.30
18500	0.07	92.40	0.99	-153.10	0.99	-153.10	0.07	92.40
18550	0.06	92.50	0.99	-153.60	0.99	-153.60	0.06	92.50
18600	0.07	84.70	0.99	-153.90	0.99	-153.90	0.07	84.70
18650	0.07	76.90	0.99	-154.20	0.99	-154.20	0.07	76.90
18700	0.06	75.20	0.99	-154.90	0.99	-154.90	0.06	75.20
18750	0.05	73.50	0.99	-155.50	0.99	-155.50	0.05	73.50
18800	0.05	74.70	0.99	-155.80	0.99	-155.80	0.05	74.70
18850	0.05	75.90	0.99	-156.20	0.99	-156.20	0.05	75.90
18900	0.05	74.90	0.99	-156.80	0.99	-156.80	0.05	74.90
18950	0.04	73.90	0.99	-157.30	0.99	-157.30	0.04	73.90
19000	0.04	102.30	0.99	-157.70	0.99	-157.70	0.04	102.30
