#	mhz	s	ma	r	50			
50	0.06	72.30	0.98	-2.00	0.98	-2.00	0.06	72.30
100	0.11	72.70	0.98	-5.00	0.98	-5.00	0.11	72.70
150	0.17	73.10	0.96	-8.10	0.96	-8.10	0.17	73.10
200	0.22	71.10	0.95	-11.00	0.95	-11.00	0.22	71.10
250	0.27	69.10	0.94	-14.00	0.94	-14.00	0.27	69.10
300	0.31	66.50	0.92	-16.90	0.92	-16.90	0.31	66.50
350	0.35	63.90	0.91	-19.90	0.91	-19.90	0.35	63.90
400	0.40	61.30	0.89	-22.50	0.89	-22.50	0.40	61.30
450	0.44	58.70	0.87	-25.20	0.87	-25.20	0.44	58.70
500	0.51	58.30	0.83	-29.40	0.83	-29.40	0.51	58.30
550	0.58	58.00	0.80	-33.50	0.80	-33.50	0.58	58.00
600	0.61	55.60	0.78	-35.90	0.78	-35.90	0.61	55.60
650	0.63	53.30	0.75	-38.30	0.75	-38.30	0.63	53.30
700	0.67	51.60	0.73	-40.80	0.73	-40.80	0.67	51.60
750	0.70	49.90	0.70	-43.20	0.70	-43.20	0.70	49.90
800	0.72	47.30	0.68	-45.30	0.68	-45.30	0.72	47.30
850	0.73	44.70	0.65	-47.30	0.65	-47.30	0.73	44.70
900	0.76	42.80	0.62	-49.30	0.62	-49.30	0.76	42.80
950	0.80	40.80	0.59	-51.20	0.59	-51.20	0.80	40.80
1000	0.81	38.80	0.57	-53.20	0.57	-53.20	0.81	38.80
1050	0.83	36.70	0.54	-55.10	0.54	-55.10	0.83	36.70
1100	0.85	35.00	0.51	-57.10	0.51	-57.10	0.85	35.00
1150	0.87	33.20	0.49	-59.00	0.49	-59.00	0.87	33.20
1200	0.88	31.70	0.46	-60.40	0.46	-60.40	0.88	31.70
1250	0.89	30.20	0.44	-61.70	0.44	-61.70	0.89	30.20
1300	0.90	28.20	0.42	-63.60	0.42	-63.60	0.90	28.20
1350	0.92	26.20	0.39	-65.40	0.39	-65.40	0.92	26.20
1400	0.92	24.80	0.37	-66.50	0.37	-66.50	0.92	24.80
1450	0.93	23.50	0.34	-67.60	0.34	-67.60	0.93	23.50
1500	0.94	21.60	0.32	-69.20	0.32	-69.20	0.94	21.60
1550	0.95	19.70	0.30	-70.80	0.30	-70.80	0.95	19.70
1600	0.95	18.10	0.28	-72.00	0.28	-72.00	0.95	18.10
1650	0.96	16.40	0.26	-73.10	0.26	-73.10	0.96	16.40
1700	0.96	15.10	0.24	-74.20	0.24	-74.20	0.96	15.10
1750	0.96	13.70	0.22	-75.20	0.22	-75.20	0.96	13.70
1800	0.97	12.10	0.20	-76.20	0.20	-76.20	0.97	12.10
1850	0.98	10.50	0.18	-77.10	0.18	-77.10	0.98	10.50
1900	0.98	9.00	0.16	-77.70	0.16	-77.70	0.98	9.00
1950	0.98	7.60	0.14	-78.30	0.14	-78.30	0.98	7.60
2000	0.98	6.10	0.12	-78.60	0.12	-78.60	0.98	6.10
2050	0.98	4.70	0.10	-79.00	0.10	-79.00	0.98	4.70
2100	0.98	3.60	0.08	-78.20	0.08	-78.20	0.98	3.60
2150	0.99	2.50	0.07	-77.40	0.07	-77.40	0.99	2.50
2200	0.98	0.90	0.05	-72.80	0.05	-72.80	0.98	0.90
2250	0.98	-0.80	0.03	-68.30	0.03	-68.30	0.98	-0.80
2300	0.98	-1.70	0.02	-21.90	0.02	-21.90	0.98	-1.70
2350	0.99	-2.60	0.01	24.60	0.01	24.60	0.99	-2.60
2400	0.99	-4.10	0.03	47.00	0.03	47.00	0.99	-4.10
2450	0.99	-5.60	0.04	69.50	0.04	69.50	0.99	-5.60
2500	0.99	-6.80	0.06	72.00	0.06	72.00	0.99	-6.80
2550	0.99	-7.90	0.07	74.60	0.07	74.60	0.99	-7.90
2600	0.98	-8.80	0.09	75.20	0.09	75.20	0.98	-8.80
2650	0.98	-9.80	0.10	75.70	0.10	75.70	0.98	-9.80
2700	0.98	-10.90	0.12	75.40	0.12	75.40	0.98	-10.90
2750	0.98	-12.00	0.13	75.00	0.13	75.00	0.98	-12.00
2800	0.98	-13.00	0.15	74.70	0.15	74.70	0.98	-13.00
2850	0.97	-14.00	0.16	74.40	0.16	74.40	0.97	-14.00
2900	0.97	-15.00	0.18	73.50	0.18	73.50	0.97	-15.00
2950	0.97	-16.00	0.19	72.70	0.19	72.70	0.97	-16.00
3000	0.97	-16.80	0.20	72.00	0.20	72.00	0.97	-16.80
3050	0.96	-17.60	0.22	71.40	0.22	71.40	0.96	-17.60
3100	0.96	-18.70	0.23	70.80	0.23	70.80	0.96	-18.70
3150	0.95	-19.70	0.24	70.20	0.24	70.20	0.95	-19.70
3200	0.95	-20.30	0.26	69.60	0.26	69.60	0.95	-20.30
3250	0.95	-20.80	0.27	69.10	0.27	69.10	0.95	-20.80
3300	0.95	-21.50	0.28	68.30	0.28	68.30	0.95	-21.50
3350	0.94	-22.20	0.29	67.50	0.29	67.50	0.94	-22.20
3400	0.94	-23.10	0.31	67.00	0.31	67.00	0.94	-23.10
3450	0.94	-24.00	0.32	66.60	0.32	66.60	0.94	-24.00
3500	0.93	-24.80	0.33	65.80	0.33	65.80	0.93	-24.80
3550	0.92	-25.60	0.34	65.10	0.34	65.10	0.92	-25.60
3600	0.92	-26.20	0.35	64.50	0.35	64.50	0.92	-26.20
3650	0.91	-26.80	0.36	63.90	0.36	63.90	0.91	-26.80
3700	0.91	-27.80	0.37	63.20	0.37	63.20	0.91	-27.80
3750	0.91	-28.80	0.39	62.60	0.39	62.60	0.91	-28.80
3800	0.91	-29.40	0.40	62.00	0.40	62.00	0.91	-29.40
3850	0.90	-30.10	0.40	61.50	0.40	61.50	0.90	-30.10
3900	0.89	-31.10	0.41	60.60	0.41	60.60	0.89	-31.10
3950	0.89	-32.10	0.43	59.60	0.43	59.60	0.89	-32.10
4000	0.88	-32.80	0.43	59.10	0.43	59.10	0.88	-32.80
4050	0.88	-33.50	0.44	58.60	0.44	58.60	0.88	-33.50
4100	0.87	-34.30	0.45	58.00	0.45	58.00	0.87	-34.30
4150	0.86	-35.00	0.46	57.40	0.46	57.40	0.86	-35.00
4200	0.87	-35.90	0.47	57.00	0.47	57.00	0.87	-35.90
4250	0.87	-36.80	0.48	56.50	0.48	56.50	0.87	-36.80
4300	0.86	-37.50	0.48	56.00	0.48	56.00	0.86	-37.50
4350	0.85	-38.30	0.49	55.60	0.49	55.60	0.85	-38.30
4400	0.85	-39.20	0.50	54.90	0.50	54.90	0.85	-39.20
4450	0.85	-40.10	0.51	54.20	0.51	54.20	0.85	-40.10
4500	0.84	-40.40	0.51	53.80	0.51	53.80	0.84	-40.40
4550	0.83	-40.80	0.52	53.40	0.52	53.40	0.83	-40.80
4600	0.83	-41.90	0.53	52.60	0.53	52.60	0.83	-41.90
4650	0.84	-43.10	0.54	51.90	0.54	51.90	0.84	-43.10
4700	0.83	-43.80	0.55	51.40	0.55	51.40	0.83	-43.80
4750	0.82	-44.50	0.55	50.90	0.55	50.90	0.82	-44.50
4800	0.81	-45.40	0.56	50.30	0.56	50.30	0.81	-45.40
4850	0.80	-46.30	0.56	49.70	0.56	49.70	0.80	-46.30
4900	0.80	-46.70	0.57	49.40	0.57	49.40	0.80	-46.70
4950	0.80	-47.20	0.58	49.00	0.58	49.00	0.80	-47.20
5000	0.80	-48.40	0.58	48.10	0.58	48.10	0.80	-48.40
5050	0.79	-49.60	0.59	47.10	0.59	47.10	0.79	-49.60
5100	0.78	-50.00	0.59	46.70	0.59	46.70	0.78	-50.00
5150	0.77	-50.40	0.60	46.40	0.60	46.40	0.77	-50.40
5200	0.76	-50.40	0.60	46.30	0.60	46.30	0.76	-50.40
5250	0.76	-50.40	0.61	46.20	0.61	46.20	0.76	-50.40
5300	0.77	-51.60	0.62	45.20	0.62	45.20	0.77	-51.60
5350	0.77	-52.80	0.63	44.20	0.63	44.20	0.77	-52.80
5400	0.76	-53.00	0.63	43.70	0.63	43.70	0.76	-53.00
5450	0.74	-53.20	0.63	43.20	0.63	43.20	0.74	-53.20
5500	0.75	-53.60	0.64	42.70	0.64	42.70	0.75	-53.60
5550	0.75	-54.10	0.65	42.10	0.65	42.10	0.75	-54.10
5600	0.74	-54.40	0.65	41.60	0.65	41.60	0.74	-54.40
5650	0.73	-54.80	0.65	41.00	0.65	41.00	0.73	-54.80
5700	0.72	-55.00	0.66	40.60	0.66	40.60	0.72	-55.00
5750	0.72	-55.20	0.66	40.20	0.66	40.20	0.72	-55.20
5800	0.71	-55.20	0.67	39.80	0.67	39.80	0.71	-55.20
5850	0.71	-55.20	0.67	39.30	0.67	39.30	0.71	-55.20
5900	0.70	-55.00	0.67	39.10	0.67	39.10	0.70	-55.00
5950	0.70	-54.80	0.68	38.90	0.68	38.90	0.70	-54.80
6000	0.69	-56.10	0.69	37.70	0.69	37.70	0.69	-56.10
6050	0.68	-57.40	0.70	36.50	0.70	36.50	0.68	-57.40
6100	0.68	-57.20	0.70	36.40	0.70	36.40	0.68	-57.20
6150	0.67	-57.00	0.71	36.20	0.71	36.20	0.67	-57.00
6200	0.67	-56.70	0.71	35.60	0.71	35.60	0.67	-56.70
6250	0.66	-56.50	0.72	34.90	0.72	34.90	0.66	-56.50
6300	0.66	-56.50	0.72	34.50	0.72	34.50	0.66	-56.50
6350	0.66	-56.40	0.73	34.10	0.73	34.10	0.66	-56.40
6400	0.65	-56.00	0.73	33.60	0.73	33.60	0.65	-56.00
6450	0.64	-55.60	0.73	33.10	0.73	33.10	0.64	-55.60
6500	0.64	-55.40	0.74	32.60	0.74	32.60	0.64	-55.40
6550	0.63	-55.30	0.74	32.10	0.74	32.10	0.63	-55.30
6600	0.63	-55.00	0.74	31.60	0.74	31.60	0.63	-55.00
6650	0.63	-54.70	0.75	31.10	0.75	31.10	0.63	-54.70
6700	0.62	-54.20	0.75	30.90	0.75	30.90	0.62	-54.20
6750	0.62	-53.70	0.75	30.70	0.75	30.70	0.62	-53.70
6800	0.61	-53.60	0.76	30.30	0.76	30.30	0.61	-53.60
6850	0.61	-53.60	0.77	29.80	0.77	29.80	0.61	-53.60
6900	0.60	-53.50	0.77	29.30	0.77	29.30	0.60	-53.50
6950	0.60	-53.40	0.77	28.80	0.77	28.80	0.60	-53.40
7000	0.59	-53.10	0.77	28.40	0.77	28.40	0.59	-53.10
7050	0.58	-52.80	0.78	28.00	0.78	28.00	0.58	-52.80
7100	0.58	-53.00	0.78	27.60	0.78	27.60	0.58	-53.00
7150	0.57	-53.10	0.78	27.20	0.78	27.20	0.57	-53.10
7200	0.56	-52.90	0.79	26.90	0.79	26.90	0.56	-52.90
7250	0.56	-52.70	0.79	26.60	0.79	26.60	0.56	-52.70
7300	0.56	-53.30	0.80	26.00	0.80	26.00	0.56	-53.30
7350	0.55	-53.80	0.81	25.50	0.81	25.50	0.55	-53.80
7400	0.54	-54.10	0.81	25.00	0.81	25.00	0.54	-54.10
7450	0.53	-54.30	0.81	24.50	0.81	24.50	0.53	-54.30
7500	0.53	-55.10	0.81	23.90	0.81	23.90	0.53	-55.10
7550	0.53	-55.80	0.82	23.40	0.82	23.40	0.53	-55.80
7600	0.51	-56.40	0.82	22.80	0.82	22.80	0.51	-56.40
7650	0.50	-57.10	0.83	22.20	0.83	22.20	0.50	-57.10
7700	0.50	-57.60	0.83	21.70	0.83	21.70	0.50	-57.60
7750	0.49	-58.10	0.83	21.20	0.83	21.20	0.49	-58.10
7800	0.48	-59.00	0.84	20.60	0.84	20.60	0.48	-59.00
7850	0.47	-59.90	0.84	20.00	0.84	20.00	0.47	-59.90
7900	0.46	-61.00	0.85	19.30	0.85	19.30	0.46	-61.00
7950	0.45	-62.00	0.85	18.60	0.85	18.60	0.45	-62.00
8000	0.44	-63.00	0.85	17.90	0.85	17.90	0.44	-63.00
8050	0.43	-64.00	0.86	17.10	0.86	17.10	0.43	-64.00
8100	0.42	-64.70	0.86	16.70	0.86	16.70	0.42	-64.70
8150	0.41	-65.30	0.86	16.20	0.86	16.20	0.41	-65.30
8200	0.39	-66.00	0.87	15.30	0.87	15.30	0.39	-66.00
8250	0.38	-66.70	0.87	14.40	0.87	14.40	0.38	-66.70
8300	0.37	-67.30	0.88	13.70	0.88	13.70	0.37	-67.30
8350	0.36	-67.90	0.88	13.10	0.88	13.10	0.36	-67.90
8400	0.34	-68.00	0.88	12.00	0.88	12.00	0.34	-68.00
8450	0.33	-68.10	0.89	10.90	0.89	10.90	0.33	-68.10
8500	0.31	-68.00	0.89	10.00	0.89	10.00	0.31	-68.00
8550	0.30	-67.90	0.89	9.00	0.89	9.00	0.30	-67.90
8600	0.28	-66.80	0.89	7.80	0.89	7.80	0.28	-66.80
8650	0.27	-65.70	0.90	6.50	0.90	6.50	0.27	-65.70
8700	0.25	-63.50	0.89	5.20	0.89	5.20	0.25	-63.50
8750	0.23	-61.30	0.89	3.80	0.89	3.80	0.23	-61.30
8800	0.22	-57.10	0.89	2.60	0.89	2.60	0.22	-57.10
8850	0.20	-52.90	0.89	1.30	0.89	1.30	0.20	-52.90
8900	0.19	-44.90	0.88	-0.60	0.88	-0.60	0.19	-44.90
8950	0.18	-36.80	0.88	-2.50	0.88	-2.50	0.18	-36.80
9000	0.19	-26.50	0.86	-4.60	0.86	-4.60	0.19	-26.50
9050	0.19	-16.20	0.85	-6.70	0.85	-6.70	0.19	-16.20
9100	0.22	-8.20	0.82	-9.10	0.82	-9.10	0.22	-8.20
9150	0.25	-0.20	0.80	-11.50	0.80	-11.50	0.25	-0.20
9200	0.29	2.10	0.76	-13.90	0.76	-13.90	0.29	2.10
9250	0.33	4.30	0.72	-16.40	0.72	-16.40	0.33	4.30
9300	0.39	3.80	0.67	-18.10	0.67	-18.10	0.39	3.80
9350	0.44	3.30	0.62	-19.90	0.62	-19.90	0.44	3.30
9400	0.50	-0.70	0.55	-19.40	0.55	-19.40	0.50	-0.70
9450	0.55	-4.70	0.48	-18.90	0.48	-18.90	0.55	-4.70
9500	0.59	-8.90	0.43	-13.40	0.43	-13.40	0.59	-8.90
9550	0.63	-13.20	0.38	-7.90	0.38	-7.90	0.63	-13.20
9600	0.66	-18.20	0.37	1.80	0.37	1.80	0.66	-18.20
9650	0.68	-23.20	0.36	11.40	0.36	11.40	0.68	-23.20
9700	0.69	-27.50	0.39	18.40	0.39	18.40	0.69	-27.50
9750	0.69	-31.70	0.42	25.40	0.42	25.40	0.69	-31.70
9800	0.69	-35.00	0.46	27.80	0.46	27.80	0.69	-35.00
9850	0.68	-38.30	0.50	30.20	0.50	30.20	0.68	-38.30
9900	0.67	-41.10	0.53	30.60	0.53	30.60	0.67	-41.10
9950	0.65	-43.90	0.57	31.10	0.57	31.10	0.65	-43.90
10000	0.64	-46.20	0.60	30.80	0.60	30.80	0.64	-46.20
10050	0.63	-48.40	0.63	30.60	0.63	30.60	0.63	-48.40
10100	0.61	-50.10	0.66	29.80	0.66	29.80	0.61	-50.10
10150	0.60	-51.70	0.68	29.00	0.68	29.00	0.60	-51.70
10200	0.58	-53.10	0.70	28.40	0.70	28.40	0.58	-53.10
10250	0.57	-54.50	0.72	27.70	0.72	27.70	0.57	-54.50
10300	0.56	-55.90	0.73	27.10	0.73	27.10	0.56	-55.90
10350	0.55	-57.40	0.75	26.40	0.75	26.40	0.55	-57.40
10400	0.53	-59.20	0.76	25.40	0.76	25.40	0.53	-59.20
10450	0.51	-61.00	0.78	24.50	0.78	24.50	0.51	-61.00
10500	0.51	-61.60	0.79	23.90	0.79	23.90	0.51	-61.60
10550	0.51	-62.20	0.80	23.40	0.80	23.40	0.51	-62.20
10600	0.49	-64.10	0.81	22.40	0.81	22.40	0.49	-64.10
10650	0.47	-66.00	0.82	21.40	0.82	21.40	0.47	-66.00
10700	0.47	-66.30	0.83	20.90	0.83	20.90	0.47	-66.30
10750	0.46	-66.60	0.84	20.50	0.84	20.50	0.46	-66.60
10800	0.45	-68.10	0.84	20.00	0.84	20.00	0.45	-68.10
10850	0.45	-69.50	0.85	19.50	0.85	19.50	0.45	-69.50
10900	0.44	-71.00	0.85	18.60	0.85	18.60	0.44	-71.00
10950	0.42	-72.40	0.86	17.70	0.86	17.70	0.42	-72.40
11000	0.41	-73.10	0.86	17.30	0.86	17.30	0.41	-73.10
11050	0.41	-73.80	0.86	17.00	0.86	17.00	0.41	-73.80
11100	0.41	-75.10	0.87	16.40	0.87	16.40	0.41	-75.10
11150	0.41	-76.40	0.87	15.90	0.87	15.90	0.41	-76.40
11200	0.40	-76.50	0.87	15.50	0.87	15.50	0.40	-76.50
11250	0.40	-76.50	0.87	15.10	0.87	15.10	0.40	-76.50
11300	0.39	-77.60	0.88	14.50	0.88	14.50	0.39	-77.60
11350	0.39	-78.60	0.88	13.90	0.88	13.90	0.39	-78.60
11400	0.39	-78.10	0.88	13.80	0.88	13.80	0.39	-78.10
11450	0.38	-77.50	0.88	13.70	0.88	13.70	0.38	-77.50
11500	0.38	-78.60	0.89	13.10	0.89	13.10	0.38	-78.60
11550	0.37	-79.70	0.89	12.50	0.89	12.50	0.37	-79.70
11600	0.37	-79.60	0.89	12.20	0.89	12.20	0.37	-79.60
11650	0.36	-79.50	0.90	11.90	0.90	11.90	0.36	-79.50
11700	0.36	-79.90	0.90	11.40	0.90	11.40	0.36	-79.90
11750	0.35	-80.30	0.90	11.00	0.90	11.00	0.35	-80.30
11800	0.34	-80.70	0.90	10.60	0.90	10.60	0.34	-80.70
11850	0.33	-81.10	0.90	10.20	0.90	10.20	0.33	-81.10
11900	0.32	-82.00	0.91	9.90	0.91	9.90	0.32	-82.00
11950	0.32	-83.00	0.91	9.60	0.91	9.60	0.32	-83.00
12000	0.31	-84.20	0.91	8.90	0.91	8.90	0.31	-84.20
12050	0.31	-85.40	0.91	8.20	0.91	8.20	0.31	-85.40
12100	0.31	-86.30	0.91	7.90	0.91	7.90	0.31	-86.30
12150	0.30	-87.10	0.91	7.60	0.91	7.60	0.30	-87.10
12200	0.30	-87.80	0.91	7.20	0.91	7.20	0.30	-87.80
12250	0.30	-88.60	0.91	6.90	0.91	6.90	0.30	-88.60
12300	0.29	-88.40	0.91	6.50	0.91	6.50	0.29	-88.40
12350	0.29	-88.30	0.91	6.00	0.91	6.00	0.29	-88.30
12400	0.29	-89.00	0.91	5.80	0.91	5.80	0.29	-89.00
12450	0.29	-89.70	0.90	5.60	0.90	5.60	0.29	-89.70
12500	0.29	-88.70	0.91	5.20	0.91	5.20	0.29	-88.70
12550	0.28	-87.80	0.91	4.80	0.91	4.80	0.28	-87.80
12600	0.28	-87.50	0.91	4.60	0.91	4.60	0.28	-87.50
12650	0.28	-87.20	0.90	4.40	0.90	4.40	0.28	-87.20
12700	0.28	-85.40	0.90	4.10	0.90	4.10	0.28	-85.40
12750	0.28	-83.50	0.90	3.70	0.90	3.70	0.28	-83.50
12800	0.27	-81.80	0.90	3.60	0.90	3.60	0.27	-81.80
12850	0.27	-80.10	0.90	3.40	0.90	3.40	0.27	-80.10
12900	0.27	-77.50	0.89	3.30	0.89	3.30	0.27	-77.50
12950	0.27	-74.90	0.89	3.20	0.89	3.20	0.27	-74.90
13000	0.28	-73.60	0.89	3.50	0.89	3.50	0.28	-73.60
13050	0.28	-72.40	0.89	3.80	0.89	3.80	0.28	-72.40
13100	0.28	-71.90	0.89	3.80	0.89	3.80	0.28	-71.90
13150	0.28	-71.40	0.90	3.90	0.90	3.90	0.28	-71.40
13200	0.28	-72.00	0.90	3.90	0.90	3.90	0.28	-72.00
13250	0.28	-72.70	0.91	4.00	0.91	4.00	0.28	-72.70
13300	0.27	-71.30	0.91	3.50	0.91	3.50	0.27	-71.30
13350	0.26	-69.90	0.91	3.10	0.91	3.10	0.26	-69.90
13400	0.26	-71.60	0.92	2.60	0.92	2.60	0.26	-71.60
13450	0.26	-73.40	0.92	2.20	0.92	2.20	0.26	-73.40
13500	0.26	-73.80	0.92	1.90	0.92	1.90	0.26	-73.80
13550	0.25	-74.20	0.92	1.60	0.92	1.60	0.25	-74.20
13600	0.25	-74.90	0.92	1.30	0.92	1.30	0.25	-74.90
13650	0.24	-75.60	0.92	1.00	0.92	1.00	0.24	-75.60
13700	0.24	-76.00	0.92	0.60	0.92	0.60	0.24	-76.00
13750	0.24	-76.40	0.93	0.20	0.93	0.20	0.24	-76.40
13800	0.23	-76.40	0.93	0.00	0.93	0.00	0.23	-76.40
13850	0.23	-76.40	0.92	-0.20	0.92	-0.20	0.23	-76.40
13900	0.23	-76.40	0.93	-0.50	0.93	-0.50	0.23	-76.40
13950	0.23	-76.30	0.93	-0.70	0.93	-0.70	0.23	-76.30
14000	0.23	-75.40	0.93	-1.10	0.93	-1.10	0.23	-75.40
14050	0.23	-74.50	0.93	-1.50	0.93	-1.50	0.23	-74.50
14100	0.23	-74.40	0.93	-1.80	0.93	-1.80	0.23	-74.40
14150	0.23	-74.30	0.93	-2.10	0.93	-2.10	0.23	-74.30
14200	0.23	-73.00	0.93	-2.50	0.93	-2.50	0.23	-73.00
14250	0.22	-71.60	0.93	-2.90	0.93	-2.90	0.22	-71.60
14300	0.22	-70.90	0.94	-3.10	0.94	-3.10	0.22	-70.90
14350	0.22	-70.10	0.94	-3.40	0.94	-3.40	0.22	-70.10
14400	0.22	-68.80	0.94	-3.90	0.94	-3.90	0.22	-68.80
14450	0.22	-67.50	0.94	-4.40	0.94	-4.40	0.22	-67.50
14500	0.21	-65.80	0.94	-4.60	0.94	-4.60	0.21	-65.80
14550	0.20	-64.10	0.94	-4.70	0.94	-4.70	0.20	-64.10
14600	0.20	-62.30	0.94	-5.20	0.94	-5.20	0.20	-62.30
14650	0.20	-60.50	0.94	-5.60	0.94	-5.60	0.20	-60.50
14700	0.19	-59.70	0.94	-6.10	0.94	-6.10	0.19	-59.70
14750	0.19	-59.00	0.94	-6.50	0.94	-6.50	0.19	-59.00
14800	0.18	-56.50	0.94	-6.90	0.94	-6.90	0.18	-56.50
14850	0.17	-53.90	0.94	-7.40	0.94	-7.40	0.17	-53.90
14900	0.17	-52.90	0.94	-7.70	0.94	-7.70	0.17	-52.90
14950	0.17	-51.90	0.95	-8.00	0.95	-8.00	0.17	-51.90
15000	0.16	-50.40	0.94	-8.50	0.94	-8.50	0.16	-50.40
15050	0.16	-48.90	0.94	-9.00	0.94	-9.00	0.16	-48.90
15100	0.16	-46.40	0.94	-9.30	0.94	-9.30	0.16	-46.40
15150	0.16	-43.90	0.95	-9.60	0.95	-9.60	0.16	-43.90
15200	0.15	-42.60	0.95	-9.80	0.95	-9.80	0.15	-42.60
15250	0.15	-41.40	0.95	-10.10	0.95	-10.10	0.15	-41.40
15300	0.15	-38.50	0.95	-10.80	0.95	-10.80	0.15	-38.50
15350	0.16	-35.60	0.94	-11.50	0.94	-11.50	0.16	-35.60
15400	0.16	-33.20	0.94	-11.80	0.94	-11.80	0.16	-33.20
15450	0.16	-30.80	0.94	-12.20	0.94	-12.20	0.16	-30.80
15500	0.16	-26.60	0.94	-12.70	0.94	-12.70	0.16	-26.60
15550	0.17	-22.50	0.94	-13.30	0.94	-13.30	0.17	-22.50
15600	0.17	-20.00	0.94	-13.70	0.94	-13.70	0.17	-20.00
15650	0.18	-17.40	0.93	-14.00	0.93	-14.00	0.18	-17.40
15700	0.19	-13.60	0.93	-14.70	0.93	-14.70	0.19	-13.60
15750	0.19	-9.80	0.93	-15.30	0.93	-15.30	0.19	-9.80
15800	0.20	-6.20	0.92	-15.70	0.92	-15.70	0.20	-6.20
15850	0.20	-2.50	0.92	-16.00	0.92	-16.00	0.20	-2.50
15900	0.21	-0.40	0.91	-16.60	0.91	-16.60	0.21	-0.40
15950	0.22	1.80	0.91	-17.30	0.91	-17.30	0.22	1.80
16000	0.23	5.70	0.90	-17.60	0.90	-17.60	0.23	5.70
16050	0.24	9.60	0.90	-18.00	0.90	-18.00	0.24	9.60
16100	0.25	11.80	0.89	-18.70	0.89	-18.70	0.25	11.80
16150	0.26	14.00	0.88	-19.50	0.88	-19.50	0.26	14.00
16200	0.27	15.90	0.88	-20.00	0.88	-20.00	0.27	15.90
16250	0.28	17.90	0.87	-20.50	0.87	-20.50	0.28	17.90
16300	0.28	19.00	0.86	-21.20	0.86	-21.20	0.28	19.00
16350	0.29	20.20	0.86	-21.80	0.86	-21.80	0.29	20.20
16400	0.30	21.30	0.84	-22.50	0.84	-22.50	0.30	21.30
16450	0.31	22.50	0.83	-23.30	0.83	-23.30	0.31	22.50
16500	0.32	21.00	0.81	-23.80	0.81	-23.80	0.32	21.00
16550	0.32	19.60	0.79	-24.30	0.79	-24.30	0.32	19.60
16600	0.34	18.50	0.77	-24.90	0.77	-24.90	0.34	18.50
16650	0.36	17.40	0.76	-25.60	0.76	-25.60	0.36	17.40
16700	0.37	14.80	0.73	-25.80	0.73	-25.80	0.37	14.80
16750	0.38	12.20	0.71	-26.10	0.71	-26.10	0.38	12.20
16800	0.40	8.60	0.68	-25.50	0.68	-25.50	0.40	8.60
16850	0.42	4.90	0.64	-25.00	0.64	-25.00	0.42	4.90
16900	0.44	1.00	0.61	-23.00	0.61	-23.00	0.44	1.00
16950	0.46	-3.00	0.58	-21.00	0.58	-21.00	0.46	-3.00
17000	0.46	-7.60	0.57	-17.60	0.57	-17.60	0.46	-7.60
17050	0.47	-12.20	0.55	-14.10	0.55	-14.10	0.47	-12.20
17100	0.48	-16.40	0.55	-10.00	0.55	-10.00	0.48	-16.40
17150	0.48	-20.70	0.55	-5.90	0.55	-5.90	0.48	-20.70
17200	0.47	-24.40	0.57	-2.60	0.57	-2.60	0.47	-24.40
17250	0.46	-28.20	0.59	0.70	0.59	0.70	0.46	-28.20
17300	0.44	-31.40	0.62	2.30	0.62	2.30	0.44	-31.40
17350	0.43	-34.70	0.66	4.00	0.66	4.00	0.43	-34.70
17400	0.41	-38.50	0.69	4.40	0.69	4.40	0.41	-38.50
17450	0.38	-42.20	0.72	4.80	0.72	4.80	0.38	-42.20
17500	0.36	-44.30	0.74	4.30	0.74	4.30	0.36	-44.30
17550	0.34	-46.30	0.77	3.80	0.77	3.80	0.34	-46.30
17600	0.31	-48.70	0.79	3.10	0.79	3.10	0.31	-48.70
17650	0.29	-51.10	0.81	2.40	0.81	2.40	0.29	-51.10
17700	0.26	-53.90	0.82	1.60	0.82	1.60	0.26	-53.90
17750	0.24	-56.60	0.84	0.70	0.84	0.70	0.24	-56.60
17800	0.22	-59.60	0.85	-0.10	0.85	-0.10	0.22	-59.60
17850	0.21	-62.60	0.86	-1.00	0.86	-1.00	0.21	-62.60
17900	0.19	-65.50	0.87	-1.60	0.87	-1.60	0.19	-65.50
17950	0.17	-68.30	0.88	-2.20	0.88	-2.20	0.17	-68.30
18000	0.17	-71.40	0.88	-3.10	0.88	-3.10	0.17	-71.40
18050	0.16	-74.50	0.89	-3.90	0.89	-3.90	0.16	-74.50
18100	0.15	-77.70	0.89	-4.50	0.89	-4.50	0.15	-77.70
18150	0.15	-80.90	0.90	-5.10	0.90	-5.10	0.15	-80.90
18200	0.14	-81.70	0.91	-5.70	0.91	-5.70	0.14	-81.70
18250	0.14	-82.50	0.91	-6.30	0.91	-6.30	0.14	-82.50
18300	0.14	-84.00	0.92	-7.00	0.92	-7.00	0.14	-84.00
18350	0.14	-85.50	0.92	-7.60	0.92	-7.60	0.14	-85.50
18400	0.14	-82.10	0.92	-8.00	0.92	-8.00	0.14	-82.10
18450	0.13	-78.80	0.92	-8.40	0.92	-8.40	0.13	-78.80
18500	0.13	-78.50	0.93	-8.90	0.93	-8.90	0.13	-78.50
18550	0.13	-78.20	0.93	-9.40	0.93	-9.40	0.13	-78.20
18600	0.12	-74.20	0.93	-9.70	0.93	-9.70	0.12	-74.20
18650	0.11	-70.30	0.94	-10.10	0.94	-10.10	0.11	-70.30
18700	0.11	-72.80	0.93	-10.70	0.93	-10.70	0.11	-72.80
18750	0.11	-75.40	0.93	-11.40	0.93	-11.40	0.11	-75.40
18800	0.10	-72.60	0.93	-11.70	0.93	-11.70	0.10	-72.60
18850	0.09	-69.90	0.94	-12.10	0.94	-12.10	0.09	-69.90
18900	0.08	-70.60	0.93	-12.60	0.93	-12.60	0.08	-70.60
18950	0.08	-71.40	0.93	-13.20	0.93	-13.20	0.08	-71.40
19000	0.07	-80.50	0.93	-13.30	0.93	-13.30	0.07	-80.50
19050	0.06	-89.60	0.92	-13.40	0.92	-13.40	0.06	-89.60
19100	0.06	-82.00	0.92	-13.60	0.92	-13.60	0.06	-82.00
19150	0.05	-74.40	0.92	-13.70	0.92	-13.70	0.05	-74.40
19200	0.06	-78.10	0.93	-13.90	0.93	-13.90	0.06	-78.10
19250	0.06	-81.80	0.93	-14.10	0.93	-14.10	0.06	-81.80
19300	0.07	-73.70	0.93	-14.50	0.93	-14.50	0.07	-73.70
19350	0.07	-65.70	0.94	-14.90	0.94	-14.90	0.07	-65.70
19400	0.08	-67.40	0.94	-15.60	0.94	-15.60	0.08	-67.40
19450	0.09	-69.10	0.94	-16.20	0.94	-16.20	0.09	-69.10
19500	0.09	-66.10	0.94	-16.40	0.94	-16.40	0.09	-66.10
