#	mhz	s	ma	r	50			
50	0.01	52.00	0.99	0.80	0.99	0.80	0.01	52.00
100	0.02	63.70	0.99	0.10	0.99	0.10	0.02	63.70
150	0.03	75.40	0.99	-0.50	0.99	-0.50	0.03	75.40
200	0.04	77.00	0.99	-1.10	0.99	-1.10	0.04	77.00
250	0.05	78.60	0.99	-1.80	0.99	-1.80	0.05	78.60
300	0.06	78.60	0.99	-2.60	0.99	-2.60	0.06	78.60
350	0.07	78.50	0.99	-3.40	0.99	-3.40	0.07	78.50
400	0.08	77.80	0.99	-4.00	0.99	-4.00	0.08	77.80
450	0.09	77.10	0.99	-4.60	0.99	-4.60	0.09	77.10
500	0.11	80.20	0.98	-5.60	0.98	-5.60	0.11	80.20
550	0.13	83.30	0.98	-6.70	0.98	-6.70	0.13	83.30
600	0.14	83.00	0.98	-7.40	0.98	-7.40	0.14	83.00
650	0.15	82.60	0.98	-8.20	0.98	-8.20	0.15	82.60
700	0.16	82.60	0.98	-8.90	0.98	-8.90	0.16	82.60
750	0.17	82.60	0.98	-9.60	0.98	-9.60	0.17	82.60
800	0.18	81.60	0.97	-10.30	0.97	-10.30	0.18	81.60
850	0.19	80.50	0.97	-11.00	0.97	-11.00	0.19	80.50
900	0.20	80.00	0.97	-11.70	0.97	-11.70	0.20	80.00
950	0.22	79.50	0.96	-12.40	0.96	-12.40	0.22	79.50
1000	0.22	78.70	0.96	-13.10	0.96	-13.10	0.22	78.70
1050	0.24	78.00	0.96	-13.80	0.96	-13.80	0.24	78.00
1100	0.25	77.50	0.96	-14.60	0.96	-14.60	0.25	77.50
1150	0.26	77.00	0.95	-15.30	0.95	-15.30	0.26	77.00
1200	0.27	76.30	0.95	-16.00	0.95	-16.00	0.27	76.30
1250	0.28	75.60	0.95	-16.60	0.95	-16.60	0.28	75.60
1300	0.29	74.80	0.94	-17.30	0.94	-17.30	0.29	74.80
1350	0.30	74.00	0.94	-18.00	0.94	-18.00	0.30	74.00
1400	0.31	73.30	0.94	-18.70	0.94	-18.70	0.31	73.30
1450	0.32	72.50	0.93	-19.40	0.93	-19.40	0.32	72.50
1500	0.33	71.60	0.93	-20.10	0.93	-20.10	0.33	71.60
1550	0.34	70.70	0.92	-20.90	0.92	-20.90	0.34	70.70
1600	0.35	69.70	0.92	-21.60	0.92	-21.60	0.35	69.70
1650	0.36	68.70	0.92	-22.30	0.92	-22.30	0.36	68.70
1700	0.37	68.00	0.91	-23.00	0.91	-23.00	0.37	68.00
1750	0.38	67.20	0.91	-23.80	0.91	-23.80	0.38	67.20
1800	0.39	66.20	0.91	-24.40	0.91	-24.40	0.39	66.20
1850	0.40	65.20	0.90	-25.00	0.90	-25.00	0.40	65.20
1900	0.41	64.20	0.90	-25.60	0.90	-25.60	0.41	64.20
1950	0.42	63.20	0.89	-26.30	0.89	-26.30	0.42	63.20
2000	0.43	62.20	0.89	-27.10	0.89	-27.10	0.43	62.20
2050	0.44	61.30	0.88	-27.80	0.88	-27.80	0.44	61.30
2100	0.45	60.60	0.88	-28.40	0.88	-28.40	0.45	60.60
2150	0.46	59.90	0.87	-29.00	0.87	-29.00	0.46	59.90
2200	0.47	58.80	0.87	-29.80	0.87	-29.80	0.47	58.80
2250	0.48	57.70	0.86	-30.60	0.86	-30.60	0.48	57.70
2300	0.49	57.00	0.85	-31.10	0.85	-31.10	0.49	57.00
2350	0.50	56.20	0.85	-31.60	0.85	-31.60	0.50	56.20
2400	0.51	55.30	0.84	-32.40	0.84	-32.40	0.51	55.30
2450	0.52	54.30	0.84	-33.10	0.84	-33.10	0.52	54.30
2500	0.53	53.40	0.83	-33.90	0.83	-33.90	0.53	53.40
2550	0.54	52.50	0.82	-34.70	0.82	-34.70	0.54	52.50
2600	0.55	51.80	0.82	-35.30	0.82	-35.30	0.55	51.80
2650	0.56	51.10	0.81	-35.90	0.81	-35.90	0.56	51.10
2700	0.57	50.30	0.80	-36.60	0.80	-36.60	0.57	50.30
2750	0.58	49.50	0.80	-37.40	0.80	-37.40	0.58	49.50
2800	0.59	48.60	0.79	-38.00	0.79	-38.00	0.59	48.60
2850	0.60	47.70	0.78	-38.60	0.78	-38.60	0.60	47.70
2900	0.61	46.90	0.78	-39.60	0.78	-39.60	0.61	46.90
2950	0.62	46.00	0.77	-40.60	0.77	-40.60	0.62	46.00
3000	0.63	45.30	0.76	-41.30	0.76	-41.30	0.63	45.30
3050	0.64	44.70	0.75	-41.90	0.75	-41.90	0.64	44.70
3100	0.65	43.40	0.74	-42.90	0.74	-42.90	0.65	43.40
3150	0.66	42.00	0.73	-43.80	0.73	-43.80	0.66	42.00
3200	0.67	41.70	0.72	-44.30	0.72	-44.30	0.67	41.70
3250	0.68	41.40	0.71	-44.70	0.71	-44.70	0.68	41.40
3300	0.69	40.60	0.70	-45.70	0.70	-45.70	0.69	40.60
3350	0.70	39.80	0.70	-46.70	0.70	-46.70	0.70	39.80
3400	0.71	38.90	0.69	-47.30	0.69	-47.30	0.71	38.90
3450	0.71	38.00	0.68	-47.80	0.68	-47.80	0.71	38.00
3500	0.72	37.40	0.67	-48.50	0.67	-48.50	0.72	37.40
3550	0.73	36.80	0.66	-49.10	0.66	-49.10	0.73	36.80
3600	0.74	35.90	0.65	-50.10	0.65	-50.10	0.74	35.90
3650	0.75	35.10	0.64	-51.00	0.64	-51.00	0.75	35.10
3700	0.76	34.10	0.63	-51.70	0.63	-51.70	0.76	34.10
3750	0.77	33.10	0.62	-52.50	0.62	-52.50	0.77	33.10
3800	0.78	32.20	0.60	-53.30	0.60	-53.30	0.78	32.20
3850	0.79	31.40	0.59	-54.00	0.59	-54.00	0.79	31.40
3900	0.79	30.30	0.58	-55.10	0.58	-55.10	0.79	30.30
3950	0.80	29.30	0.57	-56.10	0.57	-56.10	0.80	29.30
4000	0.81	28.30	0.56	-57.00	0.56	-57.00	0.81	28.30
4050	0.82	27.20	0.55	-57.80	0.55	-57.80	0.82	27.20
4100	0.82	26.10	0.54	-58.80	0.54	-58.80	0.82	26.10
4150	0.83	25.00	0.52	-59.80	0.52	-59.80	0.83	25.00
4200	0.84	23.90	0.51	-60.40	0.51	-60.40	0.84	23.90
4250	0.85	22.70	0.50	-61.10	0.50	-61.10	0.85	22.70
4300	0.86	21.60	0.48	-61.90	0.48	-61.90	0.86	21.60
4350	0.86	20.50	0.47	-62.80	0.47	-62.80	0.86	20.50
4400	0.87	19.30	0.46	-63.70	0.46	-63.70	0.87	19.30
4450	0.88	18.20	0.44	-64.60	0.44	-64.60	0.88	18.20
4500	0.88	17.10	0.43	-65.60	0.43	-65.60	0.88	17.10
4550	0.89	16.00	0.41	-66.60	0.41	-66.60	0.89	16.00
4600	0.90	14.90	0.40	-67.20	0.40	-67.20	0.90	14.90
4650	0.91	13.80	0.39	-67.90	0.39	-67.90	0.91	13.80
4700	0.91	12.70	0.38	-68.70	0.38	-68.70	0.91	12.70
4750	0.92	11.60	0.36	-69.60	0.36	-69.60	0.92	11.60
4800	0.92	10.30	0.35	-70.50	0.35	-70.50	0.92	10.30
4850	0.92	9.00	0.33	-71.50	0.33	-71.50	0.92	9.00
4900	0.93	8.30	0.32	-72.00	0.32	-72.00	0.93	8.30
4950	0.94	7.60	0.31	-72.40	0.31	-72.40	0.94	7.60
5000	0.95	6.10	0.29	-73.60	0.29	-73.60	0.95	6.10
5050	0.95	4.60	0.28	-74.70	0.28	-74.70	0.95	4.60
5100	0.95	3.50	0.26	-75.60	0.26	-75.60	0.95	3.50
5150	0.94	2.40	0.25	-76.50	0.25	-76.50	0.94	2.40
5200	0.94	2.20	0.23	-76.70	0.23	-76.70	0.94	2.20
5250	0.94	1.90	0.22	-76.90	0.22	-76.90	0.94	1.90
5300	0.96	0.60	0.21	-77.60	0.21	-77.60	0.96	0.60
5350	0.98	-0.60	0.20	-78.30	0.20	-78.30	0.98	-0.60
5400	0.98	-1.60	0.18	-79.00	0.18	-79.00	0.98	-1.60
5450	0.97	-2.50	0.17	-79.80	0.17	-79.80	0.97	-2.50
5500	0.98	-3.20	0.15	-79.90	0.15	-79.90	0.98	-3.20
5550	0.99	-4.00	0.14	-80.10	0.14	-80.10	0.99	-4.00
5600	0.98	-4.80	0.13	-80.30	0.13	-80.30	0.98	-4.80
5650	0.98	-5.70	0.11	-80.50	0.11	-80.50	0.98	-5.70
5700	0.98	-6.40	0.10	-79.90	0.10	-79.90	0.98	-6.40
5750	0.98	-7.00	0.09	-79.40	0.09	-79.40	0.98	-7.00
5800	0.98	-7.60	0.07	-77.40	0.07	-77.40	0.98	-7.60
5850	0.98	-8.10	0.06	-75.30	0.06	-75.30	0.98	-8.10
5900	0.98	-8.30	0.05	-69.10	0.05	-69.10	0.98	-8.30
5950	0.98	-8.40	0.03	-63.00	0.03	-63.00	0.98	-8.40
6000	0.98	-9.80	0.03	-39.10	0.03	-39.10	0.98	-9.80
6050	0.98	-11.30	0.02	-15.20	0.02	-15.20	0.98	-11.30
6100	0.98	-11.40	0.02	14.80	0.02	14.80	0.98	-11.40
6150	0.98	-11.50	0.03	44.80	0.03	44.80	0.98	-11.50
6200	0.98	-11.60	0.04	52.60	0.04	52.60	0.98	-11.60
6250	0.99	-11.80	0.05	60.30	0.05	60.30	0.99	-11.80
6300	0.99	-12.00	0.07	62.80	0.07	62.80	0.99	-12.00
6350	0.99	-12.30	0.08	65.30	0.08	65.30	0.99	-12.30
6400	0.98	-12.30	0.09	66.10	0.09	66.10	0.98	-12.30
6450	0.98	-12.40	0.10	66.90	0.10	66.90	0.98	-12.40
6500	0.98	-12.60	0.12	67.00	0.12	67.00	0.98	-12.60
6550	0.98	-12.90	0.13	67.20	0.13	67.20	0.98	-12.90
6600	0.97	-13.10	0.14	66.90	0.14	66.90	0.97	-13.10
6650	0.97	-13.20	0.15	66.70	0.15	66.70	0.97	-13.20
6700	0.97	-13.20	0.16	66.60	0.16	66.60	0.97	-13.20
6750	0.96	-13.20	0.17	66.50	0.17	66.50	0.96	-13.20
6800	0.97	-13.40	0.19	66.20	0.19	66.20	0.97	-13.40
6850	0.97	-13.60	0.20	66.00	0.20	66.00	0.97	-13.60
6900	0.96	-14.20	0.21	65.30	0.21	65.30	0.96	-14.20
6950	0.96	-14.80	0.22	64.50	0.22	64.50	0.96	-14.80
7000	0.95	-14.80	0.23	64.10	0.23	64.10	0.95	-14.80
7050	0.95	-14.80	0.24	63.80	0.24	63.80	0.95	-14.80
7100	0.94	-15.40	0.25	63.20	0.25	63.20	0.94	-15.40
7150	0.94	-15.90	0.26	62.60	0.26	62.60	0.94	-15.90
7200	0.93	-15.90	0.27	62.30	0.27	62.30	0.93	-15.90
7250	0.93	-16.00	0.28	62.00	0.28	62.00	0.93	-16.00
7300	0.94	-16.70	0.29	61.50	0.29	61.50	0.94	-16.70
7350	0.94	-17.50	0.31	61.00	0.31	61.00	0.94	-17.50
7400	0.93	-18.10	0.31	60.30	0.31	60.30	0.93	-18.10
7450	0.92	-18.70	0.32	59.60	0.32	59.60	0.92	-18.70
7500	0.92	-19.60	0.33	59.20	0.33	59.20	0.92	-19.60
7550	0.93	-20.40	0.35	58.80	0.35	58.80	0.93	-20.40
7600	0.92	-21.60	0.35	58.00	0.35	58.00	0.92	-21.60
7650	0.91	-22.70	0.36	57.20	0.36	57.20	0.91	-22.70
7700	0.90	-23.60	0.37	56.70	0.37	56.70	0.90	-23.60
7750	0.90	-24.50	0.38	56.20	0.38	56.20	0.90	-24.50
7800	0.89	-25.40	0.39	55.80	0.39	55.80	0.89	-25.40
7850	0.88	-26.40	0.40	55.30	0.40	55.30	0.88	-26.40
7900	0.89	-27.90	0.41	54.50	0.41	54.50	0.89	-27.90
7950	0.89	-29.50	0.42	53.70	0.42	53.70	0.89	-29.50
8000	0.88	-30.90	0.43	53.00	0.43	53.00	0.88	-30.90
8050	0.87	-32.30	0.44	52.20	0.44	52.20	0.87	-32.30
8100	0.86	-33.20	0.45	52.00	0.45	52.00	0.86	-33.20
8150	0.85	-34.10	0.45	51.70	0.45	51.70	0.85	-34.10
8200	0.84	-35.40	0.47	51.00	0.47	51.00	0.84	-35.40
8250	0.84	-36.70	0.48	50.20	0.48	50.20	0.84	-36.70
8300	0.83	-37.60	0.48	49.90	0.48	49.90	0.83	-37.60
8350	0.83	-38.60	0.49	49.60	0.49	49.60	0.83	-38.60
8400	0.82	-39.70	0.50	48.70	0.50	48.70	0.82	-39.70
8450	0.82	-40.90	0.51	47.80	0.51	47.80	0.82	-40.90
8500	0.81	-41.70	0.52	47.40	0.52	47.40	0.81	-41.70
8550	0.81	-42.60	0.53	46.90	0.53	46.90	0.81	-42.60
8600	0.80	-43.40	0.54	46.00	0.54	46.00	0.80	-43.40
8650	0.80	-44.30	0.55	45.10	0.55	45.10	0.80	-44.30
8700	0.80	-45.00	0.56	44.40	0.56	44.40	0.80	-45.00
8750	0.79	-45.70	0.56	43.70	0.56	43.70	0.79	-45.70
8800	0.78	-46.30	0.57	43.30	0.57	43.30	0.78	-46.30
8850	0.77	-46.90	0.57	42.90	0.57	42.90	0.77	-46.90
8900	0.77	-47.10	0.58	42.40	0.58	42.40	0.77	-47.10
8950	0.76	-47.30	0.58	41.80	0.58	41.80	0.76	-47.30
9000	0.76	-47.80	0.59	41.50	0.59	41.50	0.76	-47.80
9050	0.76	-48.20	0.59	41.10	0.59	41.10	0.76	-48.20
9100	0.75	-48.90	0.60	40.70	0.60	40.70	0.75	-48.90
9150	0.75	-49.50	0.60	40.40	0.60	40.40	0.75	-49.50
9200	0.74	-50.30	0.61	40.40	0.61	40.40	0.74	-50.30
9250	0.73	-51.10	0.62	40.40	0.62	40.40	0.73	-51.10
9300	0.73	-51.30	0.63	39.80	0.63	39.80	0.73	-51.30
9350	0.72	-51.40	0.64	39.20	0.64	39.20	0.72	-51.40
9400	0.72	-52.10	0.64	39.00	0.64	39.00	0.72	-52.10
9450	0.71	-52.80	0.65	38.80	0.65	38.80	0.71	-52.80
9500	0.70	-53.00	0.66	38.20	0.66	38.20	0.70	-53.00
9550	0.70	-53.30	0.67	37.50	0.67	37.50	0.70	-53.30
9600	0.69	-53.80	0.68	36.90	0.68	36.90	0.69	-53.80
9650	0.69	-54.30	0.68	36.30	0.68	36.30	0.69	-54.30
9700	0.68	-54.80	0.69	36.00	0.69	36.00	0.68	-54.80
9750	0.67	-55.30	0.70	35.60	0.70	35.60	0.67	-55.30
9800	0.67	-55.40	0.70	34.90	0.70	34.90	0.67	-55.40
9850	0.66	-55.50	0.71	34.20	0.71	34.20	0.66	-55.50
9900	0.65	-55.80	0.71	33.90	0.71	33.90	0.65	-55.80
9950	0.65	-56.10	0.71	33.50	0.71	33.50	0.65	-56.10
10000	0.64	-56.50	0.72	33.10	0.72	33.10	0.64	-56.50
10050	0.63	-56.90	0.73	32.80	0.73	32.80	0.63	-56.90
10100	0.63	-57.00	0.74	32.20	0.74	32.20	0.63	-57.00
10150	0.62	-57.20	0.74	31.70	0.74	31.70	0.62	-57.20
10200	0.61	-57.50	0.75	31.40	0.75	31.40	0.61	-57.50
10250	0.60	-57.80	0.75	31.00	0.75	31.00	0.60	-57.80
10300	0.60	-58.30	0.76	30.70	0.76	30.70	0.60	-58.30
10350	0.60	-58.80	0.76	30.40	0.76	30.40	0.60	-58.80
10400	0.58	-59.90	0.77	29.70	0.77	29.70	0.58	-59.90
10450	0.57	-61.00	0.78	29.00	0.78	29.00	0.57	-61.00
10500	0.57	-61.10	0.78	28.70	0.78	28.70	0.57	-61.10
10550	0.58	-61.10	0.79	28.50	0.79	28.50	0.58	-61.10
10600	0.56	-62.60	0.79	27.60	0.79	27.60	0.56	-62.60
10650	0.55	-64.10	0.80	26.80	0.80	26.80	0.55	-64.10
10700	0.55	-64.00	0.80	26.60	0.80	26.60	0.55	-64.00
10750	0.55	-64.00	0.81	26.40	0.81	26.40	0.55	-64.00
10800	0.54	-65.00	0.81	26.00	0.81	26.00	0.54	-65.00
10850	0.54	-66.10	0.81	25.60	0.81	25.60	0.54	-66.10
10900	0.53	-67.30	0.82	24.80	0.82	24.80	0.53	-67.30
10950	0.52	-68.50	0.82	24.00	0.82	24.00	0.52	-68.50
11000	0.51	-68.80	0.82	23.80	0.82	23.80	0.51	-68.80
11050	0.50	-69.10	0.82	23.50	0.82	23.50	0.50	-69.10
11100	0.51	-70.20	0.82	23.10	0.82	23.10	0.51	-70.20
11150	0.51	-71.30	0.83	22.60	0.83	22.60	0.51	-71.30
11200	0.50	-71.10	0.83	22.20	0.83	22.20	0.50	-71.10
11250	0.50	-71.00	0.83	21.80	0.83	21.80	0.50	-71.00
11300	0.50	-72.00	0.83	21.30	0.83	21.30	0.50	-72.00
11350	0.49	-72.90	0.83	20.70	0.83	20.70	0.49	-72.90
11400	0.49	-72.20	0.84	20.80	0.84	20.80	0.49	-72.20
11450	0.49	-71.50	0.84	20.80	0.84	20.80	0.49	-71.50
11500	0.48	-72.60	0.84	20.10	0.84	20.10	0.48	-72.60
11550	0.47	-73.60	0.84	19.40	0.84	19.40	0.47	-73.60
11600	0.47	-73.40	0.85	19.20	0.85	19.20	0.47	-73.40
11650	0.47	-73.30	0.85	19.00	0.85	19.00	0.47	-73.30
11700	0.47	-73.70	0.86	18.60	0.86	18.60	0.47	-73.70
11750	0.46	-74.10	0.86	18.10	0.86	18.10	0.46	-74.10
11800	0.45	-74.30	0.86	17.80	0.86	17.80	0.45	-74.30
11850	0.45	-74.60	0.86	17.40	0.86	17.40	0.45	-74.60
11900	0.44	-75.10	0.86	17.20	0.86	17.20	0.44	-75.10
11950	0.43	-75.70	0.86	16.90	0.86	16.90	0.43	-75.70
12000	0.43	-76.90	0.87	16.10	0.87	16.10	0.43	-76.90
12050	0.43	-78.00	0.87	15.30	0.87	15.30	0.43	-78.00
12100	0.42	-78.60	0.87	15.10	0.87	15.10	0.42	-78.60
12150	0.42	-79.20	0.87	14.80	0.87	14.80	0.42	-79.20
12200	0.41	-79.80	0.87	14.50	0.87	14.50	0.41	-79.80
12250	0.41	-80.40	0.87	14.10	0.87	14.10	0.41	-80.40
12300	0.41	-80.20	0.87	13.70	0.87	13.70	0.41	-80.20
12350	0.41	-80.00	0.87	13.30	0.87	13.30	0.41	-80.00
12400	0.41	-80.60	0.87	13.10	0.87	13.10	0.41	-80.60
12450	0.41	-81.20	0.87	12.90	0.87	12.90	0.41	-81.20
12500	0.41	-80.50	0.87	12.70	0.87	12.70	0.41	-80.50
12550	0.41	-79.80	0.88	12.40	0.88	12.40	0.41	-79.80
12600	0.41	-79.60	0.87	12.30	0.87	12.30	0.41	-79.60
12650	0.41	-79.40	0.87	12.10	0.87	12.10	0.41	-79.40
12700	0.41	-78.50	0.87	11.80	0.87	11.80	0.41	-78.50
12750	0.41	-77.50	0.88	11.50	0.88	11.50	0.41	-77.50
12800	0.41	-76.90	0.88	11.50	0.88	11.50	0.41	-76.90
12850	0.41	-76.20	0.88	11.40	0.88	11.40	0.41	-76.20
12900	0.40	-75.50	0.88	11.00	0.88	11.00	0.40	-75.50
12950	0.40	-74.80	0.88	10.70	0.88	10.70	0.40	-74.80
13000	0.40	-74.40	0.89	10.60	0.89	10.60	0.40	-74.40
13050	0.40	-74.00	0.89	10.60	0.89	10.60	0.40	-74.00
13100	0.39	-73.50	0.89	10.20	0.89	10.20	0.39	-73.50
13150	0.39	-72.90	0.89	9.80	0.89	9.80	0.39	-72.90
13200	0.38	-73.00	0.89	9.80	0.89	9.80	0.38	-73.00
13250	0.38	-73.20	0.90	9.70	0.90	9.70	0.38	-73.20
13300	0.36	-71.30	0.90	9.30	0.90	9.30	0.36	-71.30
13350	0.35	-69.50	0.89	8.80	0.89	8.80	0.35	-69.50
13400	0.35	-71.20	0.90	8.30	0.90	8.30	0.35	-71.20
13450	0.35	-72.90	0.90	7.90	0.90	7.90	0.35	-72.90
13500	0.35	-73.10	0.90	7.70	0.90	7.70	0.35	-73.10
13550	0.34	-73.30	0.90	7.50	0.90	7.50	0.34	-73.30
13600	0.34	-73.90	0.90	7.10	0.90	7.10	0.34	-73.90
13650	0.34	-74.50	0.90	6.80	0.90	6.80	0.34	-74.50
13700	0.33	-74.90	0.90	6.50	0.90	6.50	0.33	-74.90
13750	0.33	-75.30	0.90	6.10	0.90	6.10	0.33	-75.30
13800	0.33	-75.50	0.90	5.90	0.90	5.90	0.33	-75.50
13850	0.32	-75.80	0.90	5.70	0.90	5.70	0.32	-75.80
13900	0.33	-76.00	0.90	5.50	0.90	5.50	0.33	-76.00
13950	0.33	-76.20	0.91	5.20	0.91	5.20	0.33	-76.20
14000	0.32	-75.80	0.91	4.90	0.91	4.90	0.32	-75.80
14050	0.32	-75.40	0.91	4.60	0.91	4.60	0.32	-75.40
14100	0.32	-75.80	0.91	4.30	0.91	4.30	0.32	-75.80
14150	0.32	-76.10	0.91	3.90	0.91	3.90	0.32	-76.10
14200	0.32	-75.40	0.91	3.60	0.91	3.60	0.32	-75.40
14250	0.31	-74.70	0.91	3.20	0.91	3.20	0.31	-74.70
14300	0.31	-74.70	0.92	3.00	0.92	3.00	0.31	-74.70
14350	0.31	-74.60	0.92	2.80	0.92	2.80	0.31	-74.60
14400	0.31	-74.10	0.92	2.30	0.92	2.30	0.31	-74.10
14450	0.31	-73.60	0.92	1.70	0.92	1.70	0.31	-73.60
14500	0.30	-72.90	0.92	1.70	0.92	1.70	0.30	-72.90
14550	0.29	-72.20	0.92	1.60	0.92	1.60	0.29	-72.20
14600	0.29	-71.50	0.92	1.10	0.92	1.10	0.29	-71.50
14650	0.28	-70.90	0.92	0.70	0.92	0.70	0.28	-70.90
14700	0.28	-71.00	0.93	0.30	0.93	0.30	0.28	-71.00
14750	0.27	-71.10	0.93	0.00	0.93	0.00	0.27	-71.10
14800	0.26	-70.30	0.93	-0.40	0.93	-0.40	0.26	-70.30
14850	0.25	-69.50	0.93	-0.80	0.93	-0.80	0.25	-69.50
14900	0.25	-69.50	0.94	-1.10	0.94	-1.10	0.25	-69.50
14950	0.25	-69.40	0.94	-1.40	0.94	-1.40	0.25	-69.40
15000	0.24	-69.40	0.94	-1.80	0.94	-1.80	0.24	-69.40
15050	0.23	-69.40	0.94	-2.20	0.94	-2.20	0.23	-69.40
15100	0.23	-68.30	0.94	-2.40	0.94	-2.40	0.23	-68.30
15150	0.22	-67.10	0.94	-2.60	0.94	-2.60	0.22	-67.10
15200	0.22	-67.20	0.95	-2.80	0.95	-2.80	0.22	-67.20
15250	0.22	-67.20	0.95	-3.00	0.95	-3.00	0.22	-67.20
15300	0.22	-65.90	0.95	-3.60	0.95	-3.60	0.22	-65.90
15350	0.21	-64.60	0.95	-4.20	0.95	-4.20	0.21	-64.60
15400	0.21	-63.20	0.95	-4.30	0.95	-4.30	0.21	-63.20
15450	0.21	-61.70	0.95	-4.50	0.95	-4.50	0.21	-61.70
15500	0.20	-59.50	0.95	-5.00	0.95	-5.00	0.20	-59.50
15550	0.20	-57.40	0.95	-5.50	0.95	-5.50	0.20	-57.40
15600	0.20	-55.20	0.95	-5.70	0.95	-5.70	0.20	-55.20
15650	0.20	-53.00	0.95	-5.90	0.95	-5.90	0.20	-53.00
15700	0.20	-50.40	0.95	-6.40	0.95	-6.40	0.20	-50.40
15750	0.19	-47.70	0.95	-6.80	0.95	-6.80	0.19	-47.70
15800	0.19	-44.40	0.95	-7.00	0.95	-7.00	0.19	-44.40
15850	0.18	-41.20	0.95	-7.20	0.95	-7.20	0.18	-41.20
15900	0.18	-38.80	0.95	-7.60	0.95	-7.60	0.18	-38.80
15950	0.18	-36.40	0.94	-8.00	0.94	-8.00	0.18	-36.40
16000	0.18	-31.20	0.95	-8.20	0.95	-8.20	0.18	-31.20
16050	0.17	-25.90	0.95	-8.40	0.95	-8.40	0.17	-25.90
16100	0.17	-23.40	0.94	-8.90	0.94	-8.90	0.17	-23.40
16150	0.16	-20.90	0.94	-9.50	0.94	-9.50	0.16	-20.90
16200	0.16	-16.90	0.94	-9.70	0.94	-9.70	0.16	-16.90
16250	0.15	-12.90	0.94	-10.00	0.94	-10.00	0.15	-12.90
16300	0.15	-11.20	0.94	-10.30	0.94	-10.30	0.15	-11.20
16350	0.14	-9.60	0.94	-10.70	0.94	-10.70	0.14	-9.60
16400	0.14	-6.30	0.94	-10.90	0.94	-10.90	0.14	-6.30
16450	0.13	-3.10	0.93	-11.20	0.93	-11.20	0.13	-3.10
16500	0.13	-4.00	0.93	-11.30	0.93	-11.30	0.13	-4.00
16550	0.12	-5.00	0.92	-11.40	0.92	-11.40	0.12	-5.00
16600	0.12	-1.50	0.93	-11.90	0.93	-11.90	0.12	-1.50
16650	0.12	2.00	0.93	-12.40	0.93	-12.40	0.12	2.00
16700	0.11	3.00	0.93	-12.70	0.93	-12.70	0.11	3.00
16750	0.11	4.00	0.93	-13.00	0.93	-13.00	0.11	4.00
16800	0.12	5.90	0.92	-13.40	0.92	-13.40	0.12	5.90
16850	0.12	7.80	0.92	-13.90	0.92	-13.90	0.12	7.80
16900	0.13	10.70	0.91	-14.40	0.91	-14.40	0.13	10.70
16950	0.14	13.70	0.90	-14.90	0.90	-14.90	0.14	13.70
17000	0.15	14.40	0.89	-15.30	0.89	-15.30	0.15	14.40
17050	0.17	15.10	0.88	-15.80	0.88	-15.80	0.17	15.10
17100	0.19	12.80	0.85	-15.70	0.85	-15.70	0.19	12.80
17150	0.21	10.50	0.83	-15.60	0.83	-15.60	0.21	10.50
17200	0.23	6.90	0.81	-14.20	0.81	-14.20	0.23	6.90
17250	0.24	3.30	0.79	-12.70	0.79	-12.70	0.24	3.30
17300	0.25	-2.20	0.80	-10.70	0.80	-10.70	0.25	-2.20
17350	0.25	-7.70	0.80	-8.70	0.80	-8.70	0.25	-7.70
17400	0.23	-12.70	0.82	-7.50	0.82	-7.50	0.23	-12.70
17450	0.22	-17.70	0.84	-6.40	0.84	-6.40	0.22	-17.70
17500	0.20	-19.70	0.86	-6.50	0.86	-6.50	0.20	-19.70
17550	0.19	-21.60	0.88	-6.50	0.88	-6.50	0.19	-21.60
17600	0.16	-21.50	0.89	-7.10	0.89	-7.10	0.16	-21.50
17650	0.14	-21.30	0.91	-7.60	0.91	-7.60	0.14	-21.30
17700	0.12	-20.40	0.92	-8.10	0.92	-8.10	0.12	-20.40
17750	0.11	-19.50	0.93	-8.70	0.93	-8.70	0.11	-19.50
17800	0.09	-19.10	0.93	-9.30	0.93	-9.30	0.09	-19.10
17850	0.08	-18.80	0.94	-10.00	0.94	-10.00	0.08	-18.80
17900	0.07	-16.70	0.94	-10.40	0.94	-10.40	0.07	-16.70
17950	0.06	-14.70	0.94	-10.90	0.94	-10.90	0.06	-14.70
18000	0.05	-13.30	0.94	-11.50	0.94	-11.50	0.05	-13.30
18050	0.04	-11.90	0.94	-12.20	0.94	-12.20	0.04	-11.90
18100	0.04	-18.20	0.95	-12.60	0.95	-12.60	0.04	-18.20
18150	0.03	-24.50	0.95	-13.00	0.95	-13.00	0.03	-24.50
18200	0.03	-23.10	0.95	-13.50	0.95	-13.50	0.03	-23.10
18250	0.03	-21.70	0.95	-14.00	0.95	-14.00	0.03	-21.70
18300	0.04	-28.40	0.95	-14.40	0.95	-14.40	0.04	-28.40
18350	0.04	-35.10	0.95	-14.80	0.95	-14.80	0.04	-35.10
18400	0.04	-26.40	0.95	-15.10	0.95	-15.10	0.04	-26.40
18450	0.05	-17.60	0.95	-15.50	0.95	-15.50	0.05	-17.60
18500	0.05	-17.60	0.96	-15.70	0.96	-15.70	0.05	-17.60
18550	0.05	-17.60	0.96	-16.00	0.96	-16.00	0.05	-17.60
18600	0.06	-6.40	0.96	-16.30	0.96	-16.30	0.06	-6.40
18650	0.06	4.70	0.96	-16.50	0.96	-16.50	0.06	4.70
18700	0.06	0.10	0.96	-17.00	0.96	-17.00	0.06	0.10
18750	0.05	-4.50	0.95	-17.50	0.95	-17.50	0.05	-4.50
18800	0.06	2.70	0.95	-17.70	0.95	-17.70	0.06	2.70
18850	0.06	9.90	0.95	-17.90	0.95	-17.90	0.06	9.90
18900	0.06	12.80	0.95	-18.30	0.95	-18.30	0.06	12.80
18950	0.06	15.70	0.95	-18.80	0.95	-18.80	0.06	15.70
19000	0.05	23.70	0.95	-18.80	0.95	-18.80	0.05	23.70
19050	0.04	31.70	0.94	-18.70	0.94	-18.70	0.04	31.70
19100	0.05	28.10	0.94	-18.90	0.94	-18.90	0.05	28.10
19150	0.06	24.40	0.94	-19.00	0.94	-19.00	0.06	24.40
19200	0.05	16.60	0.94	-19.20	0.94	-19.20	0.05	16.60
19250	0.05	8.80	0.94	-19.30	0.94	-19.30	0.05	8.80
19300	0.06	5.00	0.95	-19.60	0.95	-19.60	0.06	5.00
19350	0.07	1.30	0.95	-19.90	0.95	-19.90	0.07	1.30
19400	0.07	-5.30	0.95	-20.40	0.95	-20.40	0.07	-5.30
19450	0.07	-11.90	0.96	-21.00	0.96	-21.00	0.07	-11.90
19500	0.08	-15.90	0.95	-21.10	0.95	-21.10	0.08	-15.90
