#	mhz	s	ma	r	50			
50	0.01	10.60	1.00	1.10	1.00	1.10	0.01	10.60
100	0.01	33.90	0.99	0.90	0.99	0.90	0.01	33.90
150	0.02	57.20	0.99	0.70	0.99	0.70	0.02	57.20
200	0.02	62.80	0.99	0.30	0.99	0.30	0.02	62.80
250	0.03	68.40	0.99	0.00	0.99	0.00	0.03	68.40
300	0.03	69.50	0.99	-0.40	0.99	-0.40	0.03	69.50
350	0.03	70.60	0.99	-0.90	0.99	-0.90	0.03	70.60
400	0.04	71.00	0.99	-1.10	0.99	-1.10	0.04	71.00
450	0.04	71.40	0.99	-1.40	0.99	-1.40	0.04	71.40
500	0.05	75.90	0.99	-1.90	0.99	-1.90	0.05	75.90
550	0.05	80.50	0.99	-2.40	0.99	-2.40	0.05	80.50
600	0.06	81.30	0.99	-2.80	0.99	-2.80	0.06	81.30
650	0.06	82.10	0.99	-3.10	0.99	-3.10	0.06	82.10
700	0.06	82.40	0.99	-3.50	0.99	-3.50	0.06	82.40
750	0.07	82.80	0.99	-3.80	0.99	-3.80	0.07	82.80
800	0.07	82.80	0.99	-4.10	0.99	-4.10	0.07	82.80
850	0.08	82.80	0.99	-4.50	0.99	-4.50	0.08	82.80
900	0.08	82.90	0.99	-4.80	0.99	-4.80	0.08	82.90
950	0.09	83.10	0.98	-5.10	0.98	-5.10	0.09	83.10
1000	0.09	82.90	0.98	-5.50	0.98	-5.50	0.09	82.90
1050	0.10	82.70	0.98	-5.80	0.98	-5.80	0.10	82.70
1100	0.10	82.70	0.98	-6.20	0.98	-6.20	0.10	82.70
1150	0.11	82.80	0.98	-6.60	0.98	-6.60	0.11	82.80
1200	0.11	82.50	0.98	-6.90	0.98	-6.90	0.11	82.50
1250	0.12	82.20	0.98	-7.20	0.98	-7.20	0.12	82.20
1300	0.12	82.00	0.98	-7.50	0.98	-7.50	0.12	82.00
1350	0.13	81.80	0.98	-7.80	0.98	-7.80	0.13	81.80
1400	0.13	81.50	0.98	-8.20	0.98	-8.20	0.13	81.50
1450	0.14	81.20	0.98	-8.50	0.98	-8.50	0.14	81.20
1500	0.14	80.90	0.98	-8.90	0.98	-8.90	0.14	80.90
1550	0.14	80.60	0.98	-9.20	0.98	-9.20	0.14	80.60
1600	0.15	80.00	0.98	-9.60	0.98	-9.60	0.15	80.00
1650	0.15	79.30	0.97	-9.90	0.97	-9.90	0.15	79.30
1700	0.16	79.20	0.97	-10.30	0.97	-10.30	0.16	79.20
1750	0.16	79.00	0.97	-10.70	0.97	-10.70	0.16	79.00
1800	0.17	78.20	0.97	-10.90	0.97	-10.90	0.17	78.20
1850	0.17	77.30	0.97	-11.20	0.97	-11.20	0.17	77.30
1900	0.17	76.70	0.97	-11.50	0.97	-11.50	0.17	76.70
1950	0.18	76.10	0.97	-11.80	0.97	-11.80	0.18	76.10
2000	0.19	75.80	0.97	-12.20	0.97	-12.20	0.19	75.80
2050	0.19	75.50	0.97	-12.60	0.97	-12.60	0.19	75.50
2100	0.19	75.10	0.97	-12.80	0.97	-12.80	0.19	75.10
2150	0.20	74.70	0.97	-13.10	0.97	-13.10	0.20	74.70
2200	0.20	74.20	0.96	-13.50	0.96	-13.50	0.20	74.20
2250	0.21	73.70	0.96	-13.80	0.96	-13.80	0.21	73.70
2300	0.21	73.20	0.96	-14.10	0.96	-14.10	0.21	73.20
2350	0.22	72.80	0.96	-14.30	0.96	-14.30	0.22	72.80
2400	0.22	72.20	0.96	-14.70	0.96	-14.70	0.22	72.20
2450	0.22	71.70	0.96	-15.00	0.96	-15.00	0.22	71.70
2500	0.23	71.30	0.96	-15.40	0.96	-15.40	0.23	71.30
2550	0.23	71.00	0.95	-15.70	0.95	-15.70	0.23	71.00
2600	0.24	70.60	0.95	-16.00	0.95	-16.00	0.24	70.60
2650	0.25	70.20	0.95	-16.20	0.95	-16.20	0.25	70.20
2700	0.25	70.00	0.95	-16.50	0.95	-16.50	0.25	70.00
2750	0.25	69.80	0.95	-16.80	0.95	-16.80	0.25	69.80
2800	0.26	69.30	0.95	-17.10	0.95	-17.10	0.26	69.30
2850	0.26	68.70	0.95	-17.30	0.95	-17.30	0.26	68.70
2900	0.27	68.30	0.95	-17.90	0.95	-17.90	0.27	68.30
2950	0.28	67.90	0.95	-18.40	0.95	-18.40	0.28	67.90
3000	0.28	67.70	0.94	-18.70	0.94	-18.70	0.28	67.70
3050	0.29	67.50	0.94	-18.90	0.94	-18.90	0.29	67.50
3100	0.29	66.60	0.94	-19.40	0.94	-19.40	0.29	66.60
3150	0.29	65.70	0.93	-19.90	0.93	-19.90	0.29	65.70
3200	0.30	65.80	0.93	-20.00	0.93	-20.00	0.30	65.80
3250	0.31	65.90	0.93	-20.10	0.93	-20.10	0.31	65.90
3300	0.31	65.60	0.93	-20.60	0.93	-20.60	0.31	65.60
3350	0.32	65.40	0.93	-21.10	0.93	-21.10	0.32	65.40
3400	0.32	64.90	0.93	-21.30	0.93	-21.30	0.32	64.90
3450	0.33	64.40	0.93	-21.60	0.93	-21.60	0.33	64.40
3500	0.33	64.30	0.92	-21.80	0.92	-21.80	0.33	64.30
3550	0.34	64.30	0.92	-22.10	0.92	-22.10	0.34	64.30
3600	0.34	64.10	0.92	-22.50	0.92	-22.50	0.34	64.10
3650	0.35	63.90	0.92	-22.90	0.92	-22.90	0.35	63.90
3700	0.35	63.40	0.92	-23.20	0.92	-23.20	0.35	63.40
3750	0.36	62.80	0.92	-23.60	0.92	-23.60	0.36	62.80
3800	0.37	62.50	0.91	-23.90	0.91	-23.90	0.37	62.50
3850	0.37	62.10	0.91	-24.20	0.91	-24.20	0.37	62.10
3900	0.38	61.70	0.91	-24.80	0.91	-24.80	0.38	61.70
3950	0.38	61.20	0.91	-25.30	0.91	-25.30	0.38	61.20
4000	0.39	60.80	0.91	-25.60	0.91	-25.60	0.39	60.80
4050	0.39	60.30	0.90	-26.00	0.90	-26.00	0.39	60.30
4100	0.40	59.70	0.90	-26.50	0.90	-26.50	0.40	59.70
4150	0.41	59.10	0.90	-26.90	0.90	-26.90	0.41	59.10
4200	0.41	58.40	0.89	-27.30	0.89	-27.30	0.41	58.40
4250	0.42	57.70	0.89	-27.70	0.89	-27.70	0.42	57.70
4300	0.43	57.20	0.89	-28.00	0.89	-28.00	0.43	57.20
4350	0.43	56.70	0.88	-28.30	0.88	-28.30	0.43	56.70
4400	0.44	56.00	0.88	-28.80	0.88	-28.80	0.44	56.00
4450	0.44	55.30	0.88	-29.30	0.88	-29.30	0.44	55.30
4500	0.45	54.60	0.88	-29.90	0.88	-29.90	0.45	54.60
4550	0.46	53.90	0.87	-30.60	0.87	-30.60	0.46	53.90
4600	0.46	53.10	0.87	-31.00	0.87	-31.00	0.46	53.10
4650	0.47	52.40	0.87	-31.40	0.87	-31.40	0.47	52.40
4700	0.47	51.90	0.86	-31.80	0.86	-31.80	0.47	51.90
4750	0.48	51.40	0.86	-32.20	0.86	-32.20	0.48	51.40
4800	0.48	50.70	0.86	-32.60	0.86	-32.60	0.48	50.70
4850	0.49	50.00	0.85	-33.10	0.85	-33.10	0.49	50.00
4900	0.50	49.60	0.85	-33.50	0.85	-33.50	0.50	49.60
4950	0.50	49.20	0.84	-33.90	0.84	-33.90	0.50	49.20
5000	0.51	48.50	0.84	-34.40	0.84	-34.40	0.51	48.50
5050	0.52	47.70	0.84	-35.00	0.84	-35.00	0.52	47.70
5100	0.52	47.10	0.84	-35.60	0.84	-35.60	0.52	47.10
5150	0.52	46.40	0.83	-36.30	0.83	-36.30	0.52	46.40
5200	0.53	46.40	0.82	-36.50	0.82	-36.50	0.53	46.40
5250	0.53	46.30	0.82	-36.80	0.82	-36.80	0.53	46.30
5300	0.54	45.80	0.82	-37.20	0.82	-37.20	0.54	45.80
5350	0.56	45.20	0.82	-37.60	0.82	-37.60	0.56	45.20
5400	0.56	44.50	0.81	-38.40	0.81	-38.40	0.56	44.50
5450	0.56	43.90	0.81	-39.10	0.81	-39.10	0.56	43.90
5500	0.57	43.60	0.81	-39.50	0.81	-39.50	0.57	43.60
5550	0.58	43.30	0.80	-39.90	0.80	-39.90	0.58	43.30
5600	0.58	42.80	0.80	-40.60	0.80	-40.60	0.58	42.80
5650	0.59	42.40	0.79	-41.30	0.79	-41.30	0.59	42.40
5700	0.60	41.90	0.79	-41.90	0.79	-41.90	0.60	41.90
5750	0.60	41.40	0.78	-42.60	0.78	-42.60	0.60	41.40
5800	0.61	41.10	0.77	-43.10	0.77	-43.10	0.61	41.10
5850	0.61	40.80	0.77	-43.70	0.77	-43.70	0.61	40.80
5900	0.62	40.90	0.76	-44.10	0.76	-44.10	0.62	40.90
5950	0.62	40.90	0.76	-44.60	0.76	-44.60	0.62	40.90
6000	0.63	40.20	0.76	-44.80	0.76	-44.80	0.63	40.20
6050	0.63	39.50	0.76	-45.10	0.76	-45.10	0.63	39.50
6100	0.63	39.70	0.75	-45.60	0.75	-45.60	0.63	39.70
6150	0.64	39.90	0.75	-46.00	0.75	-46.00	0.64	39.90
6200	0.65	40.10	0.74	-46.60	0.74	-46.60	0.65	40.10
6250	0.66	40.30	0.74	-47.10	0.74	-47.10	0.66	40.30
6300	0.66	40.30	0.73	-47.70	0.73	-47.70	0.66	40.30
6350	0.67	40.40	0.72	-48.20	0.72	-48.20	0.67	40.40
6400	0.68	40.50	0.72	-48.80	0.72	-48.80	0.68	40.50
6450	0.68	40.60	0.71	-49.40	0.71	-49.40	0.68	40.60
6500	0.69	40.60	0.70	-50.00	0.70	-50.00	0.69	40.60
6550	0.69	40.50	0.70	-50.70	0.70	-50.70	0.69	40.50
6600	0.70	40.50	0.69	-51.40	0.69	-51.40	0.70	40.50
6650	0.71	40.40	0.69	-52.10	0.69	-52.10	0.71	40.40
6700	0.71	40.40	0.68	-52.60	0.68	-52.60	0.71	40.40
6750	0.72	40.40	0.67	-53.10	0.67	-53.10	0.72	40.40
6800	0.73	40.20	0.67	-53.50	0.67	-53.50	0.73	40.20
6850	0.73	40.10	0.66	-53.90	0.66	-53.90	0.73	40.10
6900	0.74	39.50	0.65	-54.90	0.65	-54.90	0.74	39.50
6950	0.75	38.90	0.64	-55.80	0.64	-55.80	0.75	38.90
7000	0.75	38.80	0.63	-56.40	0.63	-56.40	0.75	38.80
7050	0.76	38.60	0.63	-57.00	0.63	-57.00	0.76	38.60
7100	0.76	38.10	0.62	-57.70	0.62	-57.70	0.76	38.10
7150	0.77	37.60	0.61	-58.40	0.61	-58.40	0.77	37.60
7200	0.77	37.20	0.60	-58.90	0.60	-58.90	0.77	37.20
7250	0.78	36.90	0.59	-59.30	0.59	-59.30	0.78	36.90
7300	0.79	36.30	0.58	-59.70	0.58	-59.70	0.79	36.30
7350	0.80	35.80	0.58	-60.10	0.58	-60.10	0.80	35.80
7400	0.80	35.00	0.57	-61.00	0.57	-61.00	0.80	35.00
7450	0.80	34.30	0.56	-61.80	0.56	-61.80	0.80	34.30
7500	0.81	33.50	0.55	-62.10	0.55	-62.10	0.81	33.50
7550	0.82	32.70	0.54	-62.50	0.54	-62.50	0.82	32.70
7600	0.83	31.60	0.54	-63.30	0.54	-63.30	0.83	31.60
7650	0.83	30.50	0.53	-64.00	0.53	-64.00	0.83	30.50
7700	0.84	29.20	0.52	-64.70	0.52	-64.70	0.84	29.20
7750	0.84	28.00	0.51	-65.40	0.51	-65.40	0.84	28.00
7800	0.84	27.20	0.50	-65.80	0.50	-65.80	0.84	27.20
7850	0.85	26.40	0.49	-66.20	0.49	-66.20	0.85	26.40
7900	0.86	24.70	0.48	-66.80	0.48	-66.80	0.86	24.70
7950	0.87	23.10	0.47	-67.50	0.47	-67.50	0.87	23.10
8000	0.87	21.60	0.46	-68.20	0.46	-68.20	0.87	21.60
8050	0.87	20.20	0.45	-68.90	0.45	-68.90	0.87	20.20
8100	0.87	18.70	0.44	-69.50	0.44	-69.50	0.87	18.70
8150	0.87	17.30	0.43	-70.10	0.43	-70.10	0.87	17.30
8200	0.87	16.10	0.42	-70.40	0.42	-70.40	0.87	16.10
8250	0.88	14.90	0.41	-70.70	0.41	-70.70	0.88	14.90
8300	0.88	13.60	0.40	-71.10	0.40	-71.10	0.88	13.60
8350	0.88	12.30	0.38	-71.50	0.38	-71.50	0.88	12.30
8400	0.89	11.00	0.38	-71.90	0.38	-71.90	0.89	11.00
8450	0.90	9.70	0.37	-72.40	0.37	-72.40	0.90	9.70
8500	0.89	8.60	0.35	-72.40	0.35	-72.40	0.89	8.60
8550	0.89	7.50	0.34	-72.40	0.34	-72.40	0.89	7.50
8600	0.90	6.30	0.33	-72.50	0.33	-72.50	0.90	6.30
8650	0.91	5.20	0.32	-72.50	0.32	-72.50	0.91	5.20
8700	0.91	4.30	0.31	-72.10	0.31	-72.10	0.91	4.30
8750	0.92	3.40	0.30	-71.70	0.30	-71.70	0.92	3.40
8800	0.91	2.20	0.29	-71.10	0.29	-71.10	0.91	2.20
8850	0.91	1.00	0.28	-70.60	0.28	-70.60	0.91	1.00
8900	0.91	1.00	0.28	-70.30	0.28	-70.30	0.91	1.00
8950	0.91	1.00	0.27	-70.00	0.27	-70.00	0.91	1.00
9000	0.92	0.40	0.26	-70.50	0.26	-70.50	0.92	0.40
9050	0.92	-0.30	0.26	-71.00	0.26	-71.00	0.92	-0.30
9100	0.93	-1.00	0.25	-71.80	0.25	-71.80	0.93	-1.00
9150	0.93	-1.70	0.24	-72.60	0.24	-72.60	0.93	-1.70
9200	0.93	-2.40	0.23	-72.90	0.23	-72.90	0.93	-2.40
9250	0.92	-3.10	0.22	-73.20	0.22	-73.20	0.92	-3.10
9300	0.93	-3.10	0.21	-73.50	0.21	-73.50	0.93	-3.10
9350	0.94	-3.10	0.20	-73.70	0.20	-73.70	0.94	-3.10
9400	0.94	-4.10	0.19	-73.90	0.19	-73.90	0.94	-4.10
9450	0.94	-5.00	0.17	-74.00	0.17	-74.00	0.94	-5.00
9500	0.94	-5.10	0.17	-74.00	0.17	-74.00	0.94	-5.10
9550	0.94	-5.30	0.16	-74.00	0.16	-74.00	0.94	-5.30
9600	0.95	-6.00	0.14	-73.90	0.14	-73.90	0.95	-6.00
9650	0.95	-6.80	0.13	-73.90	0.13	-73.90	0.95	-6.80
9700	0.95	-7.30	0.12	-73.00	0.12	-73.00	0.95	-7.30
9750	0.95	-7.70	0.11	-72.00	0.11	-72.00	0.95	-7.70
9800	0.96	-8.10	0.10	-70.50	0.10	-70.50	0.96	-8.10
9850	0.97	-8.40	0.09	-69.10	0.09	-69.10	0.97	-8.40
9900	0.96	-9.20	0.08	-66.20	0.08	-66.20	0.96	-9.20
9950	0.96	-10.00	0.06	-63.30	0.06	-63.30	0.96	-10.00
10000	0.96	-10.40	0.05	-55.40	0.05	-55.40	0.96	-10.40
10050	0.96	-10.70	0.04	-47.40	0.04	-47.40	0.96	-10.70
10100	0.96	-11.40	0.04	-30.60	0.04	-30.60	0.96	-11.40
10150	0.96	-12.10	0.03	-13.80	0.03	-13.80	0.96	-12.10
10200	0.96	-12.40	0.04	7.20	0.04	7.20	0.96	-12.40
10250	0.96	-12.70	0.04	28.30	0.04	28.30	0.96	-12.70
10300	0.96	-13.50	0.05	38.60	0.05	38.60	0.96	-13.50
10350	0.96	-14.30	0.06	48.90	0.06	48.90	0.96	-14.30
10400	0.96	-15.10	0.07	53.00	0.07	53.00	0.96	-15.10
10450	0.95	-15.90	0.08	57.10	0.08	57.10	0.95	-15.90
10500	0.96	-16.50	0.09	59.10	0.09	59.10	0.96	-16.50
10550	0.96	-17.20	0.11	61.00	0.11	61.00	0.96	-17.20
10600	0.96	-18.60	0.12	61.40	0.12	61.40	0.96	-18.60
10650	0.95	-20.10	0.13	61.80	0.13	61.80	0.95	-20.10
10700	0.95	-20.30	0.15	62.30	0.15	62.30	0.95	-20.30
10750	0.95	-20.50	0.16	62.70	0.16	62.70	0.95	-20.50
10800	0.95	-21.70	0.17	62.80	0.17	62.80	0.95	-21.70
10850	0.95	-22.90	0.18	62.80	0.18	62.80	0.95	-22.90
10900	0.95	-24.30	0.20	62.30	0.20	62.30	0.95	-24.30
10950	0.95	-25.60	0.21	61.80	0.21	61.80	0.95	-25.60
11000	0.93	-26.60	0.22	61.10	0.22	61.10	0.93	-26.60
11050	0.90	-27.60	0.23	60.30	0.23	60.30	0.90	-27.60
11100	0.92	-28.60	0.25	60.20	0.25	60.20	0.92	-28.60
11150	0.93	-29.70	0.26	60.00	0.26	60.00	0.93	-29.70
11200	0.92	-30.40	0.27	59.10	0.27	59.10	0.92	-30.40
11250	0.91	-31.20	0.28	58.20	0.28	58.20	0.91	-31.20
11300	0.90	-32.60	0.29	57.40	0.29	57.40	0.90	-32.60
11350	0.90	-33.90	0.31	56.60	0.31	56.60	0.90	-33.90
11400	0.90	-33.60	0.31	56.50	0.31	56.50	0.90	-33.60
11450	0.90	-33.20	0.32	56.50	0.32	56.50	0.90	-33.20
11500	0.89	-34.70	0.34	55.50	0.34	55.50	0.89	-34.70
11550	0.89	-36.20	0.35	54.40	0.35	54.40	0.89	-36.20
11600	0.89	-36.20	0.36	54.20	0.36	54.20	0.89	-36.20
11650	0.89	-36.30	0.37	53.90	0.37	53.90	0.89	-36.30
11700	0.88	-37.10	0.38	53.20	0.38	53.20	0.88	-37.10
11750	0.88	-38.00	0.39	52.40	0.39	52.40	0.88	-38.00
11800	0.87	-38.30	0.40	51.80	0.40	51.80	0.87	-38.30
11850	0.87	-38.60	0.41	51.20	0.41	51.20	0.87	-38.60
11900	0.86	-39.10	0.42	50.80	0.42	50.80	0.86	-39.10
11950	0.83	-39.50	0.43	50.30	0.43	50.30	0.83	-39.50
12000	0.85	-41.00	0.44	49.10	0.44	49.10	0.85	-41.00
12050	0.85	-42.40	0.46	47.90	0.46	47.90	0.85	-42.40
12100	0.84	-43.30	0.46	47.30	0.46	47.30	0.84	-43.30
12150	0.82	-44.20	0.47	46.60	0.47	46.60	0.82	-44.20
12200	0.82	-45.00	0.48	45.90	0.48	45.90	0.82	-45.00
12250	0.81	-45.80	0.49	45.10	0.49	45.10	0.81	-45.80
12300	0.81	-45.80	0.50	44.60	0.50	44.60	0.81	-45.80
12350	0.80	-45.80	0.50	44.10	0.50	44.10	0.80	-45.80
12400	0.80	-47.00	0.51	43.40	0.51	43.40	0.80	-47.00
12450	0.79	-48.20	0.51	42.60	0.51	42.60	0.79	-48.20
12500	0.79	-47.80	0.52	42.30	0.52	42.30	0.79	-47.80
12550	0.79	-47.40	0.53	41.90	0.53	41.90	0.79	-47.40
12600	0.79	-47.70	0.54	41.50	0.54	41.50	0.79	-47.70
12650	0.78	-48.00	0.54	41.10	0.54	41.10	0.78	-48.00
12700	0.78	-47.90	0.55	40.40	0.55	40.40	0.78	-47.90
12750	0.79	-47.90	0.56	39.80	0.56	39.80	0.79	-47.90
12800	0.78	-47.50	0.56	39.70	0.56	39.70	0.78	-47.50
12850	0.78	-47.20	0.57	39.60	0.57	39.60	0.78	-47.20
12900	0.77	-47.40	0.58	38.80	0.58	38.80	0.77	-47.40
12950	0.77	-47.60	0.58	38.00	0.58	38.00	0.77	-47.60
13000	0.77	-47.40	0.59	38.00	0.59	38.00	0.77	-47.40
13050	0.77	-47.10	0.60	38.00	0.60	38.00	0.77	-47.10
13100	0.76	-47.50	0.61	37.20	0.61	37.20	0.76	-47.50
13150	0.75	-47.90	0.61	36.40	0.61	36.40	0.75	-47.90
13200	0.74	-48.30	0.62	36.10	0.62	36.10	0.74	-48.30
13250	0.74	-48.60	0.63	35.80	0.63	35.80	0.74	-48.60
13300	0.71	-47.20	0.63	35.10	0.63	35.10	0.71	-47.20
13350	0.69	-45.80	0.63	34.40	0.63	34.40	0.69	-45.80
13400	0.69	-48.10	0.64	33.60	0.64	33.60	0.69	-48.10
13450	0.70	-50.40	0.65	32.90	0.65	32.90	0.70	-50.40
13500	0.69	-50.80	0.65	32.40	0.65	32.40	0.69	-50.80
13550	0.68	-51.10	0.66	32.00	0.66	32.00	0.68	-51.10
13600	0.68	-52.10	0.66	31.40	0.66	31.40	0.68	-52.10
13650	0.67	-53.10	0.66	30.80	0.66	30.80	0.67	-53.10
13700	0.67	-53.80	0.67	30.30	0.67	30.30	0.67	-53.80
13750	0.66	-54.40	0.68	29.90	0.68	29.90	0.66	-54.40
13800	0.66	-55.40	0.68	29.40	0.68	29.40	0.66	-55.40
13850	0.65	-56.30	0.68	28.80	0.68	28.80	0.65	-56.30
13900	0.65	-57.20	0.68	28.40	0.68	28.40	0.65	-57.20
13950	0.65	-58.00	0.69	27.90	0.69	27.90	0.65	-58.00
14000	0.64	-58.40	0.70	27.60	0.70	27.60	0.64	-58.40
14050	0.64	-58.70	0.70	27.30	0.70	27.30	0.64	-58.70
14100	0.64	-59.90	0.71	26.70	0.71	26.70	0.64	-59.90
14150	0.64	-61.10	0.71	26.10	0.71	26.10	0.64	-61.10
14200	0.64	-61.30	0.71	25.60	0.71	25.60	0.64	-61.30
14250	0.63	-61.40	0.72	25.20	0.72	25.20	0.63	-61.40
14300	0.63	-62.20	0.73	24.80	0.73	24.80	0.63	-62.20
14350	0.62	-63.00	0.73	24.50	0.73	24.50	0.62	-63.00
14400	0.62	-63.40	0.74	23.80	0.74	23.80	0.62	-63.40
14450	0.62	-63.70	0.74	23.10	0.74	23.10	0.62	-63.70
14500	0.61	-63.90	0.75	23.00	0.75	23.00	0.61	-63.90
14550	0.60	-64.10	0.75	22.80	0.75	22.80	0.60	-64.10
14600	0.60	-64.40	0.76	22.20	0.76	22.20	0.60	-64.40
14650	0.59	-64.70	0.76	21.50	0.76	21.50	0.59	-64.70
14700	0.58	-65.30	0.77	21.10	0.77	21.10	0.58	-65.30
14750	0.57	-65.90	0.78	20.60	0.78	20.60	0.57	-65.90
14800	0.56	-66.30	0.78	20.20	0.78	20.20	0.56	-66.30
14850	0.56	-66.60	0.78	19.70	0.78	19.70	0.56	-66.60
14900	0.55	-66.80	0.79	19.20	0.79	19.20	0.55	-66.80
14950	0.54	-67.10	0.80	18.70	0.80	18.70	0.54	-67.10
15000	0.53	-68.00	0.80	18.30	0.80	18.30	0.53	-68.00
15050	0.52	-68.80	0.80	17.80	0.80	17.80	0.52	-68.80
15100	0.52	-68.50	0.81	17.50	0.81	17.50	0.52	-68.50
15150	0.51	-68.10	0.82	17.20	0.82	17.20	0.51	-68.10
15200	0.51	-68.60	0.82	16.90	0.82	16.90	0.51	-68.60
15250	0.51	-69.20	0.83	16.50	0.83	16.50	0.51	-69.20
15300	0.50	-69.30	0.83	15.80	0.83	15.80	0.50	-69.30
15350	0.50	-69.40	0.83	15.00	0.83	15.00	0.50	-69.40
15400	0.49	-68.90	0.83	15.00	0.83	15.00	0.49	-68.90
15450	0.48	-68.40	0.84	14.90	0.84	14.90	0.48	-68.40
15500	0.48	-67.90	0.84	14.20	0.84	14.20	0.48	-67.90
15550	0.47	-67.30	0.84	13.40	0.84	13.40	0.47	-67.30
15600	0.47	-66.70	0.85	13.20	0.85	13.20	0.47	-66.70
15650	0.47	-66.20	0.85	12.90	0.85	12.90	0.47	-66.20
15700	0.46	-65.50	0.86	12.40	0.86	12.40	0.46	-65.50
15750	0.45	-64.80	0.86	11.90	0.86	11.90	0.45	-64.80
15800	0.44	-63.90	0.86	11.60	0.86	11.60	0.44	-63.90
15850	0.43	-63.10	0.86	11.40	0.86	11.40	0.43	-63.10
15900	0.43	-62.50	0.87	11.00	0.87	11.00	0.43	-62.50
15950	0.42	-61.90	0.87	10.60	0.87	10.60	0.42	-61.90
16000	0.40	-60.40	0.87	10.20	0.87	10.20	0.40	-60.40
16050	0.39	-59.00	0.88	9.70	0.88	9.70	0.39	-59.00
16100	0.38	-58.90	0.88	9.00	0.88	9.00	0.38	-58.90
16150	0.37	-58.70	0.88	8.40	0.88	8.40	0.37	-58.70
16200	0.36	-57.70	0.88	8.00	0.88	8.00	0.36	-57.70
16250	0.34	-56.70	0.88	7.60	0.88	7.60	0.34	-56.70
16300	0.34	-56.80	0.88	7.10	0.88	7.10	0.34	-56.80
16350	0.33	-56.80	0.88	6.50	0.88	6.50	0.33	-56.80
16400	0.32	-56.80	0.88	6.40	0.88	6.40	0.32	-56.80
16450	0.31	-56.70	0.88	6.20	0.88	6.20	0.31	-56.70
16500	0.31	-58.20	0.87	6.20	0.87	6.20	0.31	-58.20
16550	0.31	-59.80	0.87	6.30	0.87	6.30	0.31	-59.80
16600	0.31	-60.50	0.88	6.10	0.88	6.10	0.31	-60.50
16650	0.31	-61.20	0.88	5.90	0.88	5.90	0.31	-61.20
16700	0.31	-62.90	0.89	5.90	0.89	5.90	0.31	-62.90
16750	0.31	-64.60	0.89	5.90	0.89	5.90	0.31	-64.60
16800	0.31	-65.30	0.89	5.80	0.89	5.80	0.31	-65.30
16850	0.31	-66.00	0.89	5.80	0.89	5.80	0.31	-66.00
16900	0.31	-66.80	0.90	5.70	0.90	5.70	0.31	-66.80
16950	0.31	-67.70	0.90	5.50	0.90	5.50	0.31	-67.70
17000	0.30	-68.70	0.91	5.20	0.91	5.20	0.30	-68.70
17050	0.30	-69.70	0.91	4.90	0.91	4.90	0.30	-69.70
17100	0.29	-69.10	0.92	4.50	0.92	4.50	0.29	-69.10
17150	0.29	-68.60	0.92	4.20	0.92	4.20	0.29	-68.60
17200	0.28	-68.60	0.92	4.00	0.92	4.00	0.28	-68.60
17250	0.27	-68.70	0.92	3.70	0.92	3.70	0.27	-68.70
17300	0.27	-68.40	0.93	3.40	0.93	3.40	0.27	-68.40
17350	0.26	-68.10	0.93	3.10	0.93	3.10	0.26	-68.10
17400	0.25	-69.90	0.93	2.80	0.93	2.80	0.25	-69.90
17450	0.24	-71.80	0.94	2.40	0.94	2.40	0.24	-71.80
17500	0.24	-70.90	0.94	1.90	0.94	1.90	0.24	-70.90
17550	0.23	-70.10	0.94	1.40	0.94	1.40	0.23	-70.10
17600	0.22	-71.50	0.94	1.00	0.94	1.00	0.22	-71.50
17650	0.20	-72.90	0.94	0.50	0.94	0.50	0.20	-72.90
17700	0.19	-74.80	0.94	0.10	0.94	0.10	0.19	-74.80
17750	0.19	-76.80	0.94	-0.30	0.94	-0.30	0.19	-76.80
17800	0.18	-78.80	0.94	-0.80	0.94	-0.80	0.18	-78.80
17850	0.18	-80.90	0.94	-1.20	0.94	-1.20	0.18	-80.90
17900	0.17	-83.00	0.94	-1.50	0.94	-1.50	0.17	-83.00
17950	0.17	-85.20	0.94	-1.70	0.94	-1.70	0.17	-85.20
18000	0.17	-87.00	0.94	-2.20	0.94	-2.20	0.17	-87.00
18050	0.17	-88.80	0.94	-2.80	0.94	-2.80	0.17	-88.80
18100	0.17	-90.30	0.94	-3.00	0.94	-3.00	0.17	-90.30
18150	0.17	-91.90	0.94	-3.30	0.94	-3.30	0.17	-91.90
18200	0.17	-91.60	0.94	-3.70	0.94	-3.70	0.17	-91.60
18250	0.17	-91.20	0.94	-4.00	0.94	-4.00	0.17	-91.20
18300	0.18	-91.70	0.94	-4.40	0.94	-4.40	0.18	-91.70
18350	0.19	-92.10	0.94	-4.80	0.94	-4.80	0.19	-92.10
18400	0.18	-89.30	0.94	-5.00	0.94	-5.00	0.18	-89.30
18450	0.18	-86.50	0.94	-5.10	0.94	-5.10	0.18	-86.50
18500	0.19	-85.90	0.95	-5.50	0.95	-5.50	0.19	-85.90
18550	0.19	-85.30	0.95	-5.90	0.95	-5.90	0.19	-85.30
18600	0.18	-83.40	0.95	-6.00	0.95	-6.00	0.18	-83.40
18650	0.17	-81.50	0.95	-6.20	0.95	-6.20	0.17	-81.50
18700	0.17	-82.90	0.95	-6.70	0.95	-6.70	0.17	-82.90
18750	0.17	-84.30	0.94	-7.30	0.94	-7.30	0.17	-84.30
18800	0.17	-83.30	0.94	-7.50	0.94	-7.50	0.17	-83.30
18850	0.16	-82.30	0.94	-7.70	0.94	-7.70	0.16	-82.30
18900	0.16	-83.00	0.94	-8.10	0.94	-8.10	0.16	-83.00
18950	0.15	-83.70	0.94	-8.50	0.94	-8.50	0.15	-83.70
19000	0.15	-88.10	0.93	-8.50	0.93	-8.50	0.15	-88.10
19050	0.14	-92.50	0.93	-8.40	0.93	-8.40	0.14	-92.50
19100	0.14	-89.30	0.93	-8.60	0.93	-8.60	0.14	-89.30
19150	0.14	-86.10	0.93	-8.70	0.93	-8.70	0.14	-86.10
19200	0.14	-88.30	0.93	-8.90	0.93	-8.90	0.14	-88.30
19250	0.15	-90.40	0.93	-9.10	0.93	-9.10	0.15	-90.40
19300	0.15	-87.10	0.94	-9.30	0.94	-9.30	0.15	-87.10
19350	0.15	-83.70	0.94	-9.60	0.94	-9.60	0.15	-83.70
19400	0.16	-84.80	0.94	-10.10	0.94	-10.10	0.16	-84.80
19450	0.17	-85.90	0.95	-10.70	0.95	-10.70	0.17	-85.90
19500	0.17	-84.20	0.94	-10.70	0.94	-10.70	0.17	-84.20
19550	0.18	-82.50	0.94	-10.70	0.94	-10.70	0.18	-82.50
