#	mhz	s	ma	r	50

50	0.93	174.50	0.09	68.60	0.09	68.60	0.93	174.50
100	0.94	169.50	0.17	68.30	0.17	68.30	0.94	169.50
150	0.94	164.60	0.24	67.90	0.24	67.90	0.94	164.60
200	0.91	160.30	0.31	65.00	0.31	65.00	0.91	160.30
250	0.88	156.10	0.37	62.00	0.37	62.00	0.88	156.10
300	0.86	151.70	0.43	58.20	0.43	58.20	0.86	151.70
350	0.83	147.30	0.49	54.40	0.49	54.40	0.83	147.30
400	0.80	143.90	0.53	51.50	0.53	51.50	0.80	143.90
450	0.77	140.40	0.57	48.60	0.57	48.60	0.77	140.40
500	0.73	135.00	0.63	44.50	0.63	44.50	0.73	135.00
550	0.69	129.70	0.69	40.40	0.69	40.40	0.69	129.70
600	0.66	127.10	0.72	37.80	0.72	37.80	0.66	127.10
650	0.63	124.60	0.74	35.20	0.74	35.20	0.63	124.60
700	0.61	121.60	0.76	33.10	0.76	33.10	0.61	121.60
750	0.58	118.60	0.79	31.00	0.79	31.00	0.58	118.60
800	0.56	116.70	0.80	28.90	0.80	28.90	0.56	116.70
850	0.54	114.80	0.82	26.80	0.82	26.80	0.54	114.80
900	0.52	112.70	0.83	25.10	0.83	25.10	0.52	112.70
950	0.50	110.60	0.84	23.30	0.84	23.30	0.50	110.60
1000	0.48	108.70	0.85	21.60	0.85	21.60	0.48	108.70
1050	0.46	106.80	0.87	20.00	0.87	20.00	0.46	106.80
1100	0.44	104.80	0.88	18.50	0.88	18.50	0.44	104.80
1150	0.43	102.90	0.88	17.10	0.88	17.10	0.43	102.90
1200	0.41	101.40	0.89	15.80	0.89	15.80	0.41	101.40
1250	0.40	99.90	0.90	14.50	0.90	14.50	0.40	99.90
1300	0.38	98.00	0.90	13.30	0.90	13.30	0.38	98.00
1350	0.37	96.10	0.91	12.10	0.91	12.10	0.37	96.10
1400	0.36	94.80	0.92	10.90	0.92	10.90	0.36	94.80
1450	0.35	93.50	0.92	9.80	0.92	9.80	0.35	93.50
1500	0.34	91.90	0.92	8.70	0.92	8.70	0.34	91.90
1550	0.33	90.30	0.93	7.60	0.93	7.60	0.33	90.30
1600	0.32	88.80	0.93	6.50	0.93	6.50	0.32	88.80
1650	0.31	87.40	0.94	5.50	0.94	5.50	0.31	87.40
1700	0.30	86.20	0.94	4.50	0.94	4.50	0.30	86.20
1750	0.29	85.00	0.94	3.50	0.94	3.50	0.29	85.00
1800	0.28	83.80	0.95	2.70	0.95	2.70	0.28	83.80
1850	0.27	82.50	0.95	1.80	0.95	1.80	0.27	82.50
1900	0.26	81.10	0.95	1.00	0.95	1.00	0.26	81.10
1950	0.25	79.60	0.95	0.10	0.95	0.10	0.25	79.60
2000	0.25	78.60	0.96	-0.80	0.96	-0.80	0.25	78.60
2050	0.24	77.60	0.96	-1.80	0.96	-1.80	0.24	77.60
2100	0.23	76.40	0.96	-2.50	0.96	-2.50	0.23	76.40
2150	0.22	75.20	0.96	-3.30	0.96	-3.30	0.22	75.20
2200	0.21	74.30	0.96	-4.10	0.96	-4.10	0.21	74.30
2250	0.21	73.40	0.97	-5.00	0.97	-5.00	0.21	73.40
2300	0.20	72.40	0.97	-5.70	0.97	-5.70	0.20	72.40
2350	0.19	71.40	0.97	-6.40	0.97	-6.40	0.19	71.40
2400	0.18	70.60	0.97	-7.20	0.97	-7.20	0.18	70.60
2450	0.18	69.80	0.97	-8.10	0.97	-8.10	0.18	69.80
2500	0.17	68.80	0.97	-8.80	0.97	-8.80	0.17	68.80
2550	0.16	67.80	0.97	-9.60	0.97	-9.60	0.16	67.80
2600	0.16	66.80	0.97	-10.30	0.97	-10.30	0.16	66.80
2650	0.15	65.80	0.98	-10.90	0.98	-10.90	0.15	65.80
2700	0.14	65.10	0.98	-11.70	0.98	-11.70	0.14	65.10
2750	0.14	64.40	0.98	-12.40	0.98	-12.40	0.14	64.40
2800	0.13	63.30	0.98	-13.00	0.98	-13.00	0.13	63.30
2850	0.13	62.30	0.98	-13.70	0.98	-13.70	0.13	62.30
2900	0.12	61.60	0.98	-14.60	0.98	-14.60	0.12	61.60
2950	0.12	60.90	0.98	-15.50	0.98	-15.50	0.12	60.90
3000	0.11	59.90	0.98	-16.10	0.98	-16.10	0.11	59.90
3050	0.10	59.00	0.98	-16.70	0.98	-16.70	0.10	59.00
3100	0.10	56.90	0.98	-17.50	0.98	-17.50	0.10	56.90
3150	0.09	54.90	0.98	-18.30	0.98	-18.30	0.09	54.90
3200	0.09	54.00	0.98	-18.80	0.98	-18.80	0.09	54.00
3250	0.09	53.10	0.98	-19.30	0.98	-19.30	0.09	53.10
3300	0.08	52.10	0.99	-20.10	0.99	-20.10	0.08	52.10
3350	0.08	51.10	0.99	-20.90	0.99	-20.90	0.08	51.10
3400	0.07	49.20	0.99	-21.50	0.99	-21.50	0.07	49.20
3450	0.07	47.20	0.99	-22.00	0.99	-22.00	0.07	47.20
3500	0.06	46.20	0.99	-22.60	0.99	-22.60	0.06	46.20
3550	0.06	45.20	0.99	-23.30	0.99	-23.30	0.06	45.20
3600	0.05	42.70	0.99	-23.90	0.99	-23.90	0.05	42.70
3650	0.05	40.20	0.99	-24.50	0.99	-24.50	0.05	40.20
3700	0.05	36.30	0.99	-25.20	0.99	-25.20	0.05	36.30
3750	0.04	32.50	0.99	-26.00	0.99	-26.00	0.04	32.50
3800	0.04	27.10	0.99	-26.50	0.99	-26.50	0.04	27.10
3850	0.04	21.60	0.99	-27.00	0.99	-27.00	0.04	21.60
3900	0.04	17.00	0.99	-27.80	0.99	-27.80	0.04	17.00
3950	0.04	12.40	0.99	-28.60	0.99	-28.60	0.04	12.40
4000	0.04	5.10	0.99	-29.10	0.99	-29.10	0.04	5.10
4050	0.03	-2.20	0.99	-29.70	0.99	-29.70	0.03	-2.20
4100	0.03	-5.60	0.99	-30.30	0.99	-30.30	0.03	-5.60
4150	0.04	-9.10	0.99	-31.00	0.99	-31.00	0.04	-9.10
4200	0.04	-16.80	0.99	-31.60	0.99	-31.60	0.04	-16.80
4250	0.04	-24.60	0.99	-32.20	0.99	-32.20	0.04	-24.60
4300	0.04	-27.70	0.99	-32.70	0.99	-32.70	0.04	-27.70
4350	0.04	-30.70	0.99	-33.10	0.99	-33.10	0.04	-30.70
4400	0.04	-36.70	0.99	-33.80	0.99	-33.80	0.04	-36.70
4450	0.04	-42.80	0.99	-34.50	0.99	-34.50	0.04	-42.80
4500	0.05	-43.80	0.99	-35.20	0.99	-35.20	0.05	-43.80
4550	0.05	-44.70	0.99	-35.90	0.99	-35.90	0.05	-44.70
4600	0.05	-48.30	0.99	-36.60	0.99	-36.60	0.05	-48.30
4650	0.05	-51.90	0.99	-37.30	0.99	-37.30	0.05	-51.90
4700	0.05	-55.60	0.99	-37.80	0.99	-37.80	0.05	-55.60
4750	0.05	-59.30	0.99	-38.30	0.99	-38.30	0.05	-59.30
4800	0.05	-61.80	0.99	-38.90	0.99	-38.90	0.05	-61.80
4850	0.05	-64.30	0.99	-39.50	0.99	-39.50	0.05	-64.30
4900	0.06	-67.80	0.99	-40.10	0.99	-40.10	0.06	-67.80
4950	0.06	-71.20	0.99	-40.70	0.99	-40.70	0.06	-71.20
5000	0.06	-74.90	0.99	-41.40	0.99	-41.40	0.06	-74.90
5050	0.06	-78.60	0.99	-42.10	0.99	-42.10	0.06	-78.60
5100	0.06	-80.90	0.99	-42.60	0.99	-42.60	0.06	-80.90
5150	0.06	-83.30	0.99	-43.10	0.99	-43.10	0.06	-83.30
5200	0.07	-86.70	0.99	-43.50	0.99	-43.50	0.07	-86.70
5250	0.07	-90.10	0.99	-44.00	0.99	-44.00	0.07	-90.10
5300	0.07	-92.80	0.99	-44.70	0.99	-44.70	0.07	-92.80
5350	0.08	-95.40	0.99	-45.50	0.99	-45.50	0.08	-95.40
5400	0.08	-97.80	0.99	-46.10	0.99	-46.10	0.08	-97.80
5450	0.08	-100.20	0.99	-46.70	0.99	-46.70	0.08	-100.20
5500	0.08	-101.90	0.99	-47.20	0.99	-47.20	0.08	-101.90
5550	0.08	-103.60	0.99	-47.80	0.99	-47.80	0.08	-103.60
5600	0.09	-106.10	0.99	-48.40	0.99	-48.40	0.09	-106.10
5650	0.09	-108.70	0.99	-49.00	0.99	-49.00	0.09	-108.70
5700	0.09	-111.00	0.99	-49.60	0.99	-49.60	0.09	-111.00
5750	0.09	-113.30	0.99	-50.10	0.99	-50.10	0.09	-113.30
5800	0.09	-115.00	0.98	-50.70	0.98	-50.70	0.09	-115.00
5850	0.09	-116.70	0.98	-51.30	0.98	-51.30	0.09	-116.70
5900	0.09	-119.30	0.98	-51.80	0.98	-51.80	0.09	-119.30
5950	0.10	-122.00	0.98	-52.30	0.98	-52.30	0.10	-122.00
6000	0.11	-123.60	0.98	-53.00	0.98	-53.00	0.11	-123.60
6050	0.13	-125.10	0.98	-53.70	0.98	-53.70	0.13	-125.10
6100	0.13	-127.50	0.98	-54.10	0.98	-54.10	0.13	-127.50
6150	0.13	-129.90	0.98	-54.50	0.98	-54.50	0.13	-129.90
6200	0.13	-132.60	0.98	-55.10	0.98	-55.10	0.13	-132.60
6250	0.13	-135.40	0.98	-55.70	0.98	-55.70	0.13	-135.40
6300	0.14	-138.00	0.98	-56.20	0.98	-56.20	0.14	-138.00
6350	0.14	-140.70	0.98	-56.70	0.98	-56.70	0.14	-140.70
6400	0.14	-142.20	0.98	-57.20	0.98	-57.20	0.14	-142.20
6450	0.14	-143.80	0.98	-57.80	0.98	-57.80	0.14	-143.80
6500	0.15	-144.90	0.97	-58.30	0.97	-58.30	0.15	-144.90
6550	0.15	-146.10	0.97	-58.90	0.97	-58.90	0.15	-146.10
6600	0.15	-148.50	0.97	-59.40	0.97	-59.40	0.15	-148.50
6650	0.15	-150.90	0.97	-60.00	0.97	-60.00	0.15	-150.90
6700	0.16	-152.20	0.97	-60.30	0.97	-60.30	0.16	-152.20
6750	0.16	-153.40	0.97	-60.60	0.97	-60.60	0.16	-153.40
6800	0.16	-154.90	0.97	-61.20	0.97	-61.20	0.16	-154.90
6850	0.16	-156.30	0.98	-61.70	0.98	-61.70	0.16	-156.30
6900	0.16	-157.80	0.97	-62.20	0.97	-62.20	0.16	-157.80
6950	0.16	-159.20	0.97	-62.80	0.97	-62.80	0.16	-159.20
7000	0.16	-161.10	0.97	-63.30	0.97	-63.30	0.16	-161.10
7050	0.16	-163.00	0.98	-63.90	0.98	-63.90	0.16	-163.00
7100	0.16	-164.70	0.97	-64.40	0.97	-64.40	0.16	-164.70
7150	0.17	-166.40	0.97	-64.80	0.97	-64.80	0.17	-166.40
7200	0.17	-167.70	0.98	-65.40	0.98	-65.40	0.17	-167.70
7250	0.17	-169.00	0.98	-66.00	0.98	-66.00	0.17	-169.00
7300	0.17	-170.50	0.98	-66.50	0.98	-66.50	0.17	-170.50
7350	0.17	-172.00	0.98	-67.10	0.98	-67.10	0.17	-172.00
7400	0.17	-174.10	0.98	-67.60	0.98	-67.60	0.17	-174.10
7450	0.17	-176.10	0.97	-68.20	0.97	-68.20	0.17	-176.10
7500	0.17	-176.70	0.97	-68.80	0.97	-68.80	0.17	-176.70
7550	0.17	-177.40	0.98	-69.40	0.98	-69.40	0.17	-177.40
7600	0.17	1.10	0.97	-70.00	0.97	-70.00	0.17	1.10
7650	0.17	179.60	0.97	-70.50	0.97	-70.50	0.17	179.60
7700	0.17	179.00	0.97	-71.00	0.97	-71.00	0.17	179.00
7750	0.17	178.50	0.97	-71.60	0.97	-71.60	0.17	178.50
7800	0.17	177.10	0.97	-72.20	0.97	-72.20	0.17	177.10
7850	0.17	175.80	0.97	-72.80	0.97	-72.80	0.17	175.80
7900	0.17	175.70	0.97	-73.40	0.97	-73.40	0.17	175.70
7950	0.17	175.50	0.97	-74.00	0.97	-74.00	0.17	175.50
8000	0.17	175.20	0.97	-74.60	0.97	-74.60	0.17	175.20
8050	0.17	174.90	0.97	-75.20	0.97	-75.20	0.17	174.90
8100	0.17	174.70	0.97	-75.80	0.97	-75.80	0.17	174.70
8150	0.17	174.50	0.98	-76.30	0.98	-76.30	0.17	174.50
8200	0.17	174.90	0.97	-76.90	0.97	-76.90	0.17	174.90
8250	0.17	175.30	0.97	-77.50	0.97	-77.50	0.17	175.30
8300	0.17	175.90	0.97	-78.10	0.97	-78.10	0.17	175.90
8350	0.17	176.40	0.98	-78.70	0.98	-78.70	0.17	176.40
8400	0.17	176.80	0.97	-79.40	0.97	-79.40	0.17	176.80
8450	0.17	177.20	0.97	-80.10	0.97	-80.10	0.17	177.20
8500	0.17	-1.30	0.97	-80.70	0.97	-80.70	0.17	-1.30
8550	0.17	-179.80	0.97	-81.40	0.97	-81.40	0.17	-179.80
8600	0.17	-179.80	0.97	-82.10	0.97	-82.10	0.17	-179.80
8650	0.17	-179.80	0.97	-82.80	0.97	-82.80	0.17	-179.80
8700	0.17	-178.60	0.97	-83.40	0.97	-83.40	0.17	-178.60
8750	0.18	-177.40	0.97	-84.10	0.97	-84.10	0.18	-177.40
8800	0.18	-177.80	0.97	-84.50	0.97	-84.50	0.18	-177.80
8850	0.18	-178.30	0.97	-84.90	0.97	-84.90	0.18	-178.30
8900	0.18	-177.90	0.97	-85.70	0.97	-85.70	0.18	-177.90
8950	0.19	-177.50	0.96	-86.60	0.96	-86.60	0.19	-177.50
9000	0.19	-177.50	0.96	-87.20	0.96	-87.20	0.19	-177.50
9050	0.20	-177.60	0.96	-87.80	0.96	-87.80	0.20	-177.60
9100	0.20	-177.50	0.96	-88.40	0.96	-88.40	0.20	-177.50
9150	0.21	-177.40	0.96	-89.10	0.96	-89.10	0.21	-177.40
9200	0.22	-178.10	0.96	-90.00	0.96	-90.00	0.22	-178.10
9250	0.22	-178.70	0.96	-90.90	0.96	-90.90	0.22	-178.70
9300	0.23	-178.00	0.96	-91.40	0.96	-91.40	0.23	-178.00
9350	0.23	-177.20	0.96	-91.80	0.96	-91.80	0.23	-177.20
9400	0.24	-177.10	0.95	-92.50	0.95	-92.50	0.24	-177.10
9450	0.25	-176.90	0.95	-93.10	0.95	-93.10	0.25	-176.90
9500	0.25	-177.20	0.95	-94.00	0.95	-94.00	0.25	-177.20
9550	0.25	-177.50	0.94	-94.80	0.94	-94.80	0.25	-177.50
9600	0.26	-177.00	0.94	-95.50	0.94	-95.50	0.26	-177.00
9650	0.27	-176.50	0.94	-96.20	0.94	-96.20	0.27	-176.50
9700	0.28	-177.00	0.94	-96.80	0.94	-96.80	0.28	-177.00
9750	0.29	-177.50	0.94	-97.50	0.94	-97.50	0.29	-177.50
9800	0.29	-176.40	0.93	-98.10	0.93	-98.10	0.29	-176.40
9850	0.29	-175.40	0.93	-98.80	0.93	-98.80	0.29	-175.40
9900	0.30	-175.70	0.93	-99.30	0.93	-99.30	0.30	-175.70
9950	0.31	-176.00	0.93	-99.80	0.93	-99.80	0.31	-176.00
10000	0.32	-177.30	0.92	-100.70	0.92	-100.70	0.32	-177.30
10050	0.32	-178.70	0.92	-101.50	0.92	-101.50	0.32	-178.70
10100	0.33	-178.10	0.92	-102.00	0.92	-102.00	0.33	-178.10
10150	0.34	-177.50	0.91	-102.40	0.91	-102.40	0.34	-177.50
10200	0.35	0.80	0.91	-103.30	0.91	-103.30	0.35	0.80
10250	0.36	179.00	0.91	-104.10	0.91	-104.10	0.36	179.00
10300	0.37	178.30	0.90	-105.00	0.90	-105.00	0.37	178.30
10350	0.38	177.50	0.90	-105.80	0.90	-105.80	0.38	177.50
10400	0.38	176.10	0.90	-106.60	0.90	-106.60	0.38	176.10
10450	0.39	174.70	0.89	-107.40	0.89	-107.40	0.39	174.70
10500	0.40	173.40	0.89	-108.30	0.89	-108.30	0.40	173.40
10550	0.41	172.20	0.89	-109.20	0.89	-109.20	0.41	172.20
10600	0.41	170.20	0.88	-109.80	0.88	-109.80	0.41	170.20
10650	0.41	168.30	0.87	-110.40	0.87	-110.40	0.41	168.30
10700	0.43	167.10	0.87	-111.30	0.87	-111.30	0.43	167.10
10750	0.44	165.90	0.87	-112.20	0.87	-112.20	0.44	165.90
10800	0.44	165.10	0.87	-112.70	0.87	-112.70	0.44	165.10
10850	0.45	164.20	0.86	-113.10	0.86	-113.10	0.45	164.20
10900	0.45	161.60	0.85	-114.00	0.85	-114.00	0.45	161.60
10950	0.46	159.00	0.84	-114.90	0.84	-114.90	0.46	159.00
11000	0.47	158.40	0.84	-115.50	0.84	-115.50	0.47	158.40
11050	0.47	157.90	0.85	-116.10	0.85	-116.10	0.47	157.90
11100	0.48	155.50	0.83	-117.10	0.83	-117.10	0.48	155.50
11150	0.49	153.20	0.82	-118.00	0.82	-118.00	0.49	153.20
11200	0.49	151.20	0.82	-118.70	0.82	-118.70	0.49	151.20
11250	0.50	149.10	0.81	-119.40	0.81	-119.40	0.50	149.10
11300	0.50	146.70	0.80	-120.00	0.80	-120.00	0.50	146.70
11350	0.51	144.30	0.78	-120.50	0.78	-120.50	0.51	144.30
11400	0.50	140.40	0.76	-120.30	0.76	-120.30	0.50	140.40
11450	0.49	136.40	0.74	-120.10	0.74	-120.10	0.49	136.40
11500	0.46	135.30	0.75	-118.20	0.75	-118.20	0.46	135.30
11550	0.43	134.20	0.76	-116.40	0.76	-116.40	0.43	134.20
11600	0.43	135.90	0.79	-117.40	0.79	-117.40	0.43	135.90
11650	0.43	137.70	0.81	-118.40	0.81	-118.40	0.43	137.70
11700	0.45	137.60	0.82	-119.90	0.82	-119.90	0.45	137.60
11750	0.46	137.50	0.82	-121.30	0.82	-121.30	0.46	137.50
11800	0.47	136.40	0.82	-122.40	0.82	-122.40	0.47	136.40
11850	0.49	135.20	0.81	-123.60	0.81	-123.60	0.49	135.20
11900	0.50	134.60	0.81	-124.80	0.81	-124.80	0.50	134.60
11950	0.52	133.90	0.81	-126.10	0.81	-126.10	0.52	133.90
12000	0.52	132.80	0.80	-126.80	0.80	-126.80	0.52	132.80
12050	0.53	131.60	0.79	-127.50	0.79	-127.50	0.53	131.60
12100	0.54	130.50	0.79	-128.50	0.79	-128.50	0.54	130.50
12150	0.55	129.30	0.78	-129.50	0.78	-129.50	0.55	129.30
12200	0.56	128.50	0.78	-130.20	0.78	-130.20	0.56	128.50
12250	0.57	127.60	0.77	-131.00	0.77	-131.00	0.57	127.60
12300	0.57	126.70	0.76	-132.10	0.76	-132.10	0.57	126.70
12350	0.58	125.80	0.75	-133.20	0.75	-133.20	0.58	125.80
12400	0.58	124.80	0.75	-134.00	0.75	-134.00	0.58	124.80
12450	0.59	123.80	0.75	-134.80	0.75	-134.80	0.59	123.80
12500	0.60	122.10	0.74	-136.00	0.74	-136.00	0.60	122.10
12550	0.60	120.40	0.73	-137.20	0.73	-137.20	0.60	120.40
12600	0.61	119.70	0.73	-138.20	0.73	-138.20	0.61	119.70
12650	0.61	119.00	0.72	-139.20	0.72	-139.20	0.61	119.00
12700	0.62	117.60	0.71	-140.10	0.71	-140.10	0.62	117.60
12750	0.62	116.10	0.70	-141.00	0.70	-141.00	0.62	116.10
12800	0.63	114.10	0.69	-142.60	0.69	-142.60	0.63	114.10
12850	0.63	112.10	0.68	-144.20	0.68	-144.20	0.63	112.10
12900	0.64	111.00	0.67	-144.90	0.67	-144.90	0.64	111.00
12950	0.65	109.90	0.66	-145.60	0.66	-145.60	0.65	109.90
13000	0.66	108.10	0.65	-147.20	0.65	-147.20	0.66	108.10
13050	0.66	106.30	0.63	-148.70	0.63	-148.70	0.66	106.30
13100	0.67	104.70	0.62	-149.50	0.62	-149.50	0.67	104.70
13150	0.68	103.20	0.60	-150.30	0.60	-150.30	0.68	103.20
13200	0.69	101.60	0.59	-151.20	0.59	-151.20	0.69	101.60
13250	0.70	100.10	0.57	-152.10	0.57	-152.10	0.70	100.10
13300	0.69	99.70	0.56	-153.70	0.56	-153.70	0.69	99.70
13350	0.69	99.30	0.55	-155.20	0.55	-155.20	0.69	99.30
13400	0.71	95.80	0.53	-156.20	0.53	-156.20	0.71	95.80
13450	0.73	92.30	0.51	-157.20	0.51	-157.20	0.73	92.30
13500	0.74	90.50	0.49	-158.30	0.49	-158.30	0.74	90.50
13550	0.75	88.70	0.47	-159.50	0.47	-159.50	0.75	88.70
13600	0.76	86.40	0.45	-160.70	0.45	-160.70	0.76	86.40
13650	0.77	84.00	0.43	-161.80	0.43	-161.80	0.77	84.00
13700	0.78	81.70	0.41	-162.70	0.41	-162.70	0.78	81.70
13750	0.78	79.50	0.39	-163.60	0.39	-163.60	0.78	79.50
13800	0.79	76.60	0.36	-164.00	0.36	-164.00	0.79	76.60
13850	0.79	73.80	0.34	-164.40	0.34	-164.40	0.79	73.80
13900	0.80	71.00	0.31	-164.10	0.31	-164.10	0.80	71.00
13950	0.81	68.10	0.29	-163.80	0.29	-163.80	0.81	68.10
14000	0.81	64.90	0.26	-162.50	0.26	-162.50	0.81	64.90
14050	0.81	61.80	0.23	-161.20	0.23	-161.20	0.81	61.80
14100	0.82	58.70	0.21	-157.10	0.21	-157.10	0.82	58.70
14150	0.83	55.60	0.19	-152.90	0.19	-152.90	0.83	55.60
14200	0.83	52.50	0.17	-145.00	0.17	-145.00	0.83	52.50
14250	0.84	49.40	0.15	-137.00	0.15	-137.00	0.84	49.40
14300	0.84	46.00	0.15	-125.40	0.15	-125.40	0.84	46.00
14350	0.84	42.50	0.14	-113.70	0.14	-113.70	0.84	42.50
14400	0.84	39.80	0.16	-103.80	0.16	-103.80	0.84	39.80
14450	0.84	37.20	0.17	-93.80	0.17	-93.80	0.84	37.20
14500	0.84	34.20	0.19	-88.60	0.19	-88.60	0.84	34.20
14550	0.83	31.20	0.22	-83.40	0.22	-83.40	0.83	31.20
14600	0.83	28.90	0.25	-81.10	0.25	-81.10	0.83	28.90
14650	0.83	26.60	0.27	-78.80	0.27	-78.80	0.83	26.60
14700	0.82	23.80	0.30	-78.40	0.30	-78.40	0.82	23.80
14750	0.80	21.00	0.33	-78.00	0.33	-78.00	0.80	21.00
14800	0.80	18.60	0.35	-78.60	0.35	-78.60	0.80	18.60
14850	0.80	16.30	0.38	-79.10	0.38	-79.10	0.80	16.30
14900	0.78	14.90	0.41	-79.50	0.41	-79.50	0.78	14.90
14950	0.77	13.50	0.44	-80.00	0.44	-80.00	0.77	13.50
15000	0.75	10.50	0.46	-81.50	0.46	-81.50	0.75	10.50
15050	0.74	7.60	0.48	-83.10	0.48	-83.10	0.74	7.60
15100	0.72	6.30	0.50	-83.90	0.50	-83.90	0.72	6.30
15150	0.71	5.00	0.52	-84.60	0.52	-84.60	0.71	5.00
15200	0.70	3.10	0.55	-85.80	0.55	-85.80	0.70	3.10
15250	0.68	1.10	0.57	-87.00	0.57	-87.00	0.68	1.10
15300	0.67	-1.20	0.58	-88.70	0.58	-88.70	0.67	-1.20
15350	0.67	-3.50	0.60	-90.30	0.60	-90.30	0.67	-3.50
15400	0.64	-4.90	0.61	-91.20	0.61	-91.20	0.64	-4.90
15450	0.62	-6.30	0.62	-92.00	0.62	-92.00	0.62	-6.30
15500	0.62	-7.20	0.64	-93.50	0.64	-93.50	0.62	-7.20
15550	0.62	-8.10	0.66	-95.10	0.66	-95.10	0.62	-8.10
15600	0.60	-9.60	0.67	-96.10	0.67	-96.10	0.60	-9.60
15650	0.59	-11.00	0.68	-97.00	0.68	-97.00	0.59	-11.00
15700	0.58	-11.90	0.69	-98.30	0.69	-98.30	0.58	-11.90
15750	0.57	-12.70	0.70	-99.60	0.70	-99.60	0.57	-12.70
15800	0.56	-13.30	0.71	-100.30	0.71	-100.30	0.56	-13.30
15850	0.54	-13.80	0.71	-100.90	0.71	-100.90	0.54	-13.80
15900	0.53	-14.90	0.72	-101.70	0.72	-101.70	0.53	-14.90
15950	0.52	-16.10	0.73	-102.40	0.73	-102.40	0.52	-16.10
16000	0.51	-16.30	0.75	-103.10	0.75	-103.10	0.51	-16.30
16050	0.49	-16.60	0.77	-103.70	0.77	-103.70	0.49	-16.60
16100	0.47	-18.00	0.78	-104.90	0.78	-104.90	0.47	-18.00
16150	0.45	-19.50	0.79	-106.10	0.79	-106.10	0.45	-19.50
16200	0.43	-20.50	0.80	-107.20	0.80	-107.20	0.43	-20.50
16250	0.41	-21.50	0.81	-108.30	0.81	-108.30	0.41	-21.50
16300	0.38	-23.30	0.83	-109.70	0.83	-109.70	0.38	-23.30
16350	0.35	-25.00	0.84	-111.10	0.84	-111.10	0.35	-25.00
16400	0.33	-25.80	0.85	-112.50	0.85	-112.50	0.33	-25.80
16450	0.31	-26.50	0.85	-113.80	0.85	-113.80	0.31	-26.50
16500	0.29	-29.10	0.86	-114.80	0.86	-114.80	0.29	-29.10
16550	0.27	-31.80	0.86	-115.70	0.86	-115.70	0.27	-31.80
16600	0.26	-33.60	0.87	-116.80	0.87	-116.80	0.26	-33.60
16650	0.25	-35.40	0.88	-117.80	0.88	-117.80	0.25	-35.40
16700	0.24	-38.70	0.89	-118.80	0.89	-118.80	0.24	-38.70
16750	0.22	-41.90	0.90	-119.80	0.90	-119.80	0.22	-41.90
16800	0.21	-44.90	0.91	-121.00	0.91	-121.00	0.21	-44.90
16850	0.19	-47.80	0.91	-122.20	0.91	-122.20	0.19	-47.80
16900	0.18	-50.10	0.92	-123.40	0.92	-123.40	0.18	-50.10
16950	0.17	-52.40	0.92	-124.60	0.92	-124.60	0.17	-52.40
17000	0.15	-53.70	0.93	-125.80	0.93	-125.80	0.15	-53.70
17050	0.13	-55.00	0.94	-127.00	0.94	-127.00	0.13	-55.00
17100	0.12	-54.10	0.94	-128.30	0.94	-128.30	0.12	-54.10
17150	0.11	-53.10	0.94	-129.60	0.94	-129.60	0.11	-53.10
17200	0.09	-47.30	0.94	-130.60	0.94	-130.60	0.09	-47.30
17250	0.07	-41.50	0.94	-131.70	0.94	-131.70	0.07	-41.50
17300	0.05	-30.70	0.95	-132.80	0.95	-132.80	0.05	-30.70
17350	0.04	-19.80	0.95	-134.00	0.95	-134.00	0.04	-19.80
17400	0.04	6.40	0.95	-135.00	0.95	-135.00	0.04	6.40
17450	0.04	32.70	0.95	-136.00	0.95	-136.00	0.04	32.70
17500	0.05	48.20	0.95	-137.20	0.95	-137.20	0.05	48.20
17550	0.06	63.80	0.95	-138.30	0.95	-138.30	0.06	63.80
17600	0.07	70.80	0.95	-139.50	0.95	-139.50	0.07	70.80
17650	0.08	77.80	0.95	-140.60	0.95	-140.60	0.08	77.80
17700	0.10	81.90	0.95	-141.60	0.95	-141.60	0.10	81.90
17750	0.11	86.00	0.95	-142.50	0.95	-142.50	0.11	86.00
17800	0.12	87.20	0.95	-143.60	0.95	-143.60	0.12	87.20
17850	0.12	88.30	0.95	-144.60	0.95	-144.60	0.12	88.30
17900	0.13	89.90	0.95	-145.60	0.95	-145.60	0.13	89.90
17950	0.15	91.40	0.94	-146.60	0.94	-146.60	0.15	91.40
18000	0.15	93.00	0.94	-147.70	0.94	-147.70	0.15	93.00
18050	0.15	94.60	0.94	-148.80	0.94	-148.80	0.15	94.60
18100	0.15	94.90	0.94	-149.80	0.94	-149.80	0.15	94.90
18150	0.15	95.20	0.94	-150.70	0.94	-150.70	0.15	95.20
18200	0.15	93.00	0.94	-151.90	0.94	-151.90	0.15	93.00
18250	0.15	90.80	0.94	-153.00	0.94	-153.00	0.15	90.80
18300	0.15	89.60	0.94	-153.90	0.94	-153.90	0.15	89.60
18350	0.15	88.40	0.94	-154.80	0.94	-154.80	0.15	88.40
18400	0.15	84.10	0.94	-155.90	0.94	-155.90	0.15	84.10
18450	0.16	79.70	0.93	-157.00	0.93	-157.00	0.16	79.70
18500	0.16	80.20	0.93	-158.00	0.93	-158.00	0.16	80.20
18550	0.17	80.70	0.93	-159.00	0.93	-159.00	0.17	80.70
18600	0.18	78.90	0.93	-159.90	0.93	-159.90	0.18	78.90
18650	0.19	77.10	0.93	-160.80	0.93	-160.80	0.19	77.10
