#	mhz	s	ma	r	50

50	0.81	154.80	0.42	57.20	0.42	57.20	0.81	154.80
100	0.67	141.10	0.61	44.90	0.61	44.90	0.67	141.10
150	0.54	127.50	0.79	32.60	0.79	32.60	0.54	127.50
200	0.45	121.40	0.84	26.90	0.84	26.90	0.45	121.40
250	0.37	115.30	0.90	21.30	0.90	21.30	0.37	115.30
300	0.32	111.80	0.92	17.70	0.92	17.70	0.32	111.80
350	0.27	108.30	0.94	14.20	0.94	14.20	0.27	108.30
400	0.23	105.70	0.95	12.00	0.95	12.00	0.23	105.70
450	0.20	103.10	0.96	9.80	0.96	9.80	0.20	103.10
500	0.18	100.80	0.97	7.60	0.97	7.60	0.18	100.80
550	0.15	98.50	0.98	5.40	0.98	5.40	0.15	98.50
600	0.14	98.10	0.98	4.10	0.98	4.10	0.14	98.10
650	0.12	97.60	0.98	2.80	0.98	2.80	0.12	97.60
700	0.11	96.40	0.98	1.70	0.98	1.70	0.11	96.40
750	0.10	95.30	0.99	0.60	0.99	0.60	0.10	95.30
800	0.09	95.00	0.99	-0.50	0.99	-0.50	0.09	95.00
850	0.08	94.80	0.99	-1.50	0.99	-1.50	0.08	94.80
900	0.07	94.80	0.99	-2.40	0.99	-2.40	0.07	94.80
950	0.06	94.90	0.99	-3.30	0.99	-3.30	0.06	94.90
1000	0.05	95.90	0.99	-4.20	0.99	-4.20	0.05	95.90
1050	0.05	96.90	0.99	-5.10	0.99	-5.10	0.05	96.90
1100	0.04	99.70	0.99	-5.90	0.99	-5.90	0.04	99.70
1150	0.03	102.60	0.99	-6.70	0.99	-6.70	0.03	102.60
1200	0.03	107.40	0.99	-7.50	0.99	-7.50	0.03	107.40
1250	0.02	112.30	0.99	-8.30	0.99	-8.30	0.02	112.30
1300	0.02	129.20	0.99	-9.00	0.99	-9.00	0.02	129.20
1350	0.01	146.20	0.99	-9.80	0.99	-9.80	0.01	146.20
1400	0.01	-7.20	0.99	-10.50	0.99	-10.50	0.01	-7.20
1450	0.01	-160.60	0.99	-11.20	0.99	-11.20	0.01	-160.60
1500	0.02	-149.10	0.99	-12.00	0.99	-12.00	0.02	-149.10
1550	0.02	-137.60	0.99	-12.80	0.99	-12.80	0.02	-137.60
1600	0.03	-133.50	0.99	-13.50	0.99	-13.50	0.03	-133.50
1650	0.03	-129.40	0.99	-14.20	0.99	-14.20	0.03	-129.40
1700	0.04	-128.70	0.99	-15.00	0.99	-15.00	0.04	-128.70
1750	0.05	-128.00	0.99	-15.70	0.99	-15.70	0.05	-128.00
1800	0.05	-126.30	0.99	-16.40	0.99	-16.40	0.05	-126.30
1850	0.06	-124.60	0.99	-17.10	0.99	-17.10	0.06	-124.60
1900	0.06	-124.20	0.99	-17.80	0.99	-17.80	0.06	-124.20
1950	0.07	-123.80	0.99	-18.40	0.99	-18.40	0.07	-123.80
2000	0.07	-124.10	0.99	-19.20	0.99	-19.20	0.07	-124.10
2050	0.08	-124.40	0.99	-20.00	0.99	-20.00	0.08	-124.40
2100	0.08	-124.10	0.99	-20.60	0.99	-20.60	0.08	-124.10
2150	0.09	-123.90	0.99	-21.30	0.99	-21.30	0.09	-123.90
2200	0.09	-124.90	0.99	-22.00	0.99	-22.00	0.09	-124.90
2250	0.10	-125.80	0.99	-22.70	0.99	-22.70	0.10	-125.80
2300	0.11	-125.70	0.99	-23.40	0.99	-23.40	0.11	-125.70
2350	0.11	-125.50	0.99	-24.00	0.99	-24.00	0.11	-125.50
2400	0.12	-126.20	0.98	-24.80	0.98	-24.80	0.12	-126.20
2450	0.13	-126.80	0.98	-25.60	0.98	-25.60	0.13	-126.80
2500	0.13	-126.80	0.98	-26.20	0.98	-26.20	0.13	-126.80
2550	0.14	-126.80	0.98	-26.90	0.98	-26.90	0.14	-126.80
2600	0.14	-127.10	0.98	-27.50	0.98	-27.50	0.14	-127.10
2650	0.15	-127.30	0.98	-28.10	0.98	-28.10	0.15	-127.30
2700	0.16	-127.30	0.98	-28.80	0.98	-28.80	0.16	-127.30
2750	0.16	-127.20	0.97	-29.40	0.97	-29.40	0.16	-127.20
2800	0.17	-127.40	0.98	-30.10	0.98	-30.10	0.17	-127.40
2850	0.17	-127.60	0.98	-30.70	0.98	-30.70	0.17	-127.60
2900	0.18	-127.90	0.98	-31.50	0.98	-31.50	0.18	-127.90
2950	0.18	-128.30	0.97	-32.40	0.97	-32.40	0.18	-128.30
3000	0.19	-128.40	0.97	-33.00	0.97	-33.00	0.19	-128.40
3050	0.19	-128.40	0.97	-33.50	0.97	-33.50	0.19	-128.40
3100	0.20	-128.90	0.97	-34.30	0.97	-34.30	0.20	-128.90
3150	0.20	-129.30	0.96	-35.10	0.96	-35.10	0.20	-129.30
3200	0.21	-129.30	0.96	-35.70	0.96	-35.70	0.21	-129.30
3250	0.21	-129.20	0.96	-36.30	0.96	-36.30	0.21	-129.20
3300	0.22	-129.70	0.96	-37.10	0.96	-37.10	0.22	-129.70
3350	0.22	-130.10	0.96	-37.80	0.96	-37.80	0.22	-130.10
3400	0.23	-130.80	0.96	-38.50	0.96	-38.50	0.23	-130.80
3450	0.24	-131.40	0.96	-39.20	0.96	-39.20	0.24	-131.40
3500	0.24	-131.60	0.96	-39.80	0.96	-39.80	0.24	-131.60
3550	0.24	-131.90	0.95	-40.50	0.95	-40.50	0.24	-131.90
3600	0.25	-131.60	0.96	-41.00	0.96	-41.00	0.25	-131.60
3650	0.25	-131.20	0.96	-41.60	0.96	-41.60	0.25	-131.20
3700	0.26	-131.60	0.96	-42.50	0.96	-42.50	0.26	-131.60
3750	0.26	-132.00	0.95	-43.30	0.95	-43.30	0.26	-132.00
3800	0.27	-132.00	0.95	-43.90	0.95	-43.90	0.27	-132.00
3850	0.28	-131.90	0.95	-44.50	0.95	-44.50	0.28	-131.90
3900	0.28	-132.40	0.95	-45.40	0.95	-45.40	0.28	-132.40
3950	0.28	-132.90	0.95	-46.30	0.95	-46.30	0.28	-132.90
4000	0.29	-132.90	0.94	-46.90	0.94	-46.90	0.29	-132.90
4050	0.29	-133.00	0.94	-47.50	0.94	-47.50	0.29	-133.00
4100	0.30	-133.30	0.94	-48.20	0.94	-48.20	0.30	-133.30
4150	0.30	-133.70	0.94	-48.90	0.94	-48.90	0.30	-133.70
4200	0.31	-134.30	0.94	-49.80	0.94	-49.80	0.31	-134.30
4250	0.32	-134.90	0.94	-50.60	0.94	-50.60	0.32	-134.90
4300	0.32	-135.50	0.94	-51.20	0.94	-51.20	0.32	-135.50
4350	0.32	-136.00	0.93	-51.70	0.93	-51.70	0.32	-136.00
4400	0.33	-136.60	0.93	-52.60	0.93	-52.60	0.33	-136.60
4450	0.33	-137.20	0.93	-53.50	0.93	-53.50	0.33	-137.20
4500	0.34	-138.10	0.93	-54.40	0.93	-54.40	0.34	-138.10
4550	0.34	-139.00	0.93	-55.20	0.93	-55.20	0.34	-139.00
4600	0.35	-140.50	0.92	-56.30	0.92	-56.30	0.35	-140.50
4650	0.36	-142.00	0.92	-57.40	0.92	-57.40	0.36	-142.00
4700	0.36	-143.20	0.91	-58.20	0.91	-58.20	0.36	-143.20
4750	0.37	-144.40	0.91	-58.90	0.91	-58.90	0.37	-144.40
4800	0.38	-145.80	0.90	-59.80	0.90	-59.80	0.38	-145.80
4850	0.38	-147.20	0.90	-60.70	0.90	-60.70	0.38	-147.20
4900	0.39	-149.10	0.89	-61.80	0.89	-61.80	0.39	-149.10
4950	0.41	-150.90	0.89	-63.00	0.89	-63.00	0.41	-150.90
5000	0.41	-152.60	0.88	-64.00	0.88	-64.00	0.41	-152.60
5050	0.42	-154.40	0.87	-65.00	0.87	-65.00	0.42	-154.40
5100	0.44	-156.40	0.86	-66.10	0.86	-66.10	0.44	-156.40
5150	0.45	-158.30	0.85	-67.10	0.85	-67.10	0.45	-158.30
5200	0.46	-160.70	0.84	-68.50	0.84	-68.50	0.46	-160.70
5250	0.48	-163.10	0.82	-69.80	0.82	-69.80	0.48	-163.10
5300	0.50	-166.40	0.80	-71.30	0.80	-71.30	0.50	-166.40
5350	0.52	-169.80	0.77	-72.90	0.77	-72.90	0.52	-169.80
5400	0.53	-174.20	0.73	-74.10	0.73	-74.10	0.53	-174.20
5450	0.55	-178.60	0.70	-75.30	0.70	-75.30	0.55	-178.60
5500	0.56	-5.20	0.63	-74.50	0.63	-74.50	0.56	-5.20
5550	0.57	168.20	0.57	-73.80	0.57	-73.80	0.57	168.20
5600	0.55	158.40	0.54	-65.50	0.54	-65.50	0.55	158.40
5650	0.53	148.60	0.50	-57.30	0.50	-57.30	0.53	148.60
5700	0.44	140.00	0.57	-50.20	0.57	-50.20	0.44	140.00
5750	0.36	131.50	0.64	-43.20	0.64	-43.20	0.36	131.50
5800	0.28	133.60	0.72	-45.00	0.72	-45.00	0.28	133.60
5850	0.20	135.70	0.80	-46.80	0.80	-46.80	0.20	135.70
5900	0.18	150.10	0.84	-49.70	0.84	-49.70	0.18	150.10
5950	0.16	164.50	0.87	-52.70	0.87	-52.70	0.16	164.50
6000	0.19	-3.80	0.89	-55.30	0.89	-55.30	0.19	-3.80
6050	0.21	-172.10	0.90	-57.90	0.90	-57.90	0.21	-172.10
6100	0.23	-170.40	0.91	-59.70	0.91	-59.70	0.23	-170.40
6150	0.25	-168.60	0.91	-61.50	0.91	-61.50	0.25	-168.60
6200	0.27	-168.80	0.91	-63.10	0.91	-63.10	0.27	-168.80
6250	0.29	-169.00	0.91	-64.80	0.91	-64.80	0.29	-169.00
6300	0.31	-169.80	0.91	-66.00	0.91	-66.00	0.31	-169.80
6350	0.33	-170.50	0.90	-67.30	0.90	-67.30	0.33	-170.50
6400	0.34	-171.00	0.90	-68.50	0.90	-68.50	0.34	-171.00
6450	0.35	-171.40	0.90	-69.70	0.90	-69.70	0.35	-171.40
6500	0.36	-172.20	0.89	-70.70	0.89	-70.70	0.36	-172.20
6550	0.37	-173.00	0.89	-71.80	0.89	-71.80	0.37	-173.00
6600	0.38	-174.20	0.89	-72.70	0.89	-72.70	0.38	-174.20
6650	0.39	-175.40	0.89	-73.70	0.89	-73.70	0.39	-175.40
6700	0.40	-176.10	0.88	-74.40	0.88	-74.40	0.40	-176.10
6750	0.41	-176.70	0.88	-75.10	0.88	-75.10	0.41	-176.70
6800	0.42	-177.90	0.88	-76.10	0.88	-76.10	0.42	-177.90
6850	0.43	-179.10	0.88	-77.10	0.88	-77.10	0.43	-179.10
6900	0.43	0.00	0.87	-77.90	0.87	-77.90	0.43	0.00
6950	0.43	179.20	0.87	-78.60	0.87	-78.60	0.43	179.20
7000	0.44	177.80	0.87	-79.60	0.87	-79.60	0.44	177.80
7050	0.45	176.30	0.87	-80.60	0.87	-80.60	0.45	176.30
7100	0.46	175.40	0.86	-81.30	0.86	-81.30	0.46	175.40
7150	0.46	174.40	0.86	-82.10	0.86	-82.10	0.46	174.40
7200	0.47	173.20	0.86	-83.10	0.86	-83.10	0.47	173.20
7250	0.47	171.90	0.86	-84.10	0.86	-84.10	0.47	171.90
7300	0.48	170.70	0.85	-85.00	0.85	-85.00	0.48	170.70
7350	0.48	169.50	0.85	-85.90	0.85	-85.90	0.48	169.50
7400	0.49	168.00	0.85	-86.70	0.85	-86.70	0.49	168.00
7450	0.49	166.50	0.84	-87.60	0.84	-87.60	0.49	166.50
7500	0.50	165.50	0.84	-88.60	0.84	-88.60	0.50	165.50
7550	0.51	164.40	0.83	-89.60	0.83	-89.60	0.51	164.40
7600	0.51	163.10	0.83	-90.40	0.83	-90.40	0.51	163.10
7650	0.51	161.80	0.82	-91.20	0.82	-91.20	0.51	161.80
7700	0.52	160.70	0.82	-92.20	0.82	-92.20	0.52	160.70
7750	0.52	159.50	0.82	-93.10	0.82	-93.10	0.52	159.50
7800	0.53	158.10	0.81	-94.20	0.81	-94.20	0.53	158.10
7850	0.54	156.70	0.81	-95.30	0.81	-95.30	0.54	156.70
7900	0.55	155.70	0.80	-96.20	0.80	-96.20	0.55	155.70
7950	0.55	154.70	0.80	-97.10	0.80	-97.10	0.55	154.70
8000	0.56	153.60	0.79	-98.10	0.79	-98.10	0.56	153.60
8050	0.57	152.50	0.79	-99.10	0.79	-99.10	0.57	152.50
8100	0.57	151.00	0.78	-100.30	0.78	-100.30	0.57	151.00
8150	0.58	149.50	0.78	-101.50	0.78	-101.50	0.58	149.50
8200	0.59	148.50	0.77	-102.60	0.77	-102.60	0.59	148.50
8250	0.60	147.40	0.76	-103.60	0.76	-103.60	0.60	147.40
8300	0.60	146.10	0.75	-105.00	0.75	-105.00	0.60	146.10
8350	0.61	144.90	0.75	-106.30	0.75	-106.30	0.61	144.90
8400	0.62	143.70	0.74	-107.40	0.74	-107.40	0.62	143.70
8450	0.63	142.60	0.72	-108.60	0.72	-108.60	0.63	142.60
8500	0.63	141.30	0.71	-110.00	0.71	-110.00	0.63	141.30
8550	0.64	140.10	0.70	-111.40	0.70	-111.40	0.64	140.10
8600	0.65	138.70	0.69	-112.70	0.69	-112.70	0.65	138.70
8650	0.66	137.40	0.68	-113.90	0.68	-113.90	0.66	137.40
8700	0.67	136.30	0.66	-115.20	0.66	-115.20	0.67	136.30
8750	0.68	135.10	0.64	-116.50	0.64	-116.50	0.68	135.10
8800	0.69	133.30	0.63	-117.60	0.63	-117.60	0.69	133.30
8850	0.71	131.50	0.62	-118.70	0.62	-118.70	0.71	131.50
8900	0.71	130.40	0.60	-120.10	0.60	-120.10	0.71	130.40
8950	0.72	129.20	0.58	-121.50	0.58	-121.50	0.72	129.20
9000	0.74	127.70	0.56	-122.70	0.56	-122.70	0.74	127.70
9050	0.75	126.10	0.54	-123.80	0.54	-123.80	0.75	126.10
9100	0.77	124.50	0.51	-124.80	0.51	-124.80	0.77	124.50
9150	0.79	122.90	0.49	-125.90	0.49	-125.90	0.79	122.90
9200	0.79	120.10	0.47	-127.00	0.47	-127.00	0.79	120.10
9250	0.79	117.40	0.44	-128.20	0.44	-128.20	0.79	117.40
9300	0.79	116.30	0.41	-127.50	0.41	-127.50	0.79	116.30
9350	0.79	115.20	0.37	-126.90	0.37	-126.90	0.79	115.20
9400	0.80	112.60	0.34	-125.40	0.34	-125.40	0.80	112.60
9450	0.81	110.00	0.31	-123.90	0.31	-123.90	0.81	110.00
9500	0.79	107.80	0.28	-118.90	0.28	-118.90	0.79	107.80
9550	0.78	105.60	0.25	-113.80	0.25	-113.80	0.78	105.60
9600	0.77	103.10	0.25	-104.90	0.25	-104.90	0.77	103.10
9650	0.77	100.50	0.23	-95.90	0.23	-95.90	0.77	100.50
9700	0.74	97.60	0.25	-86.40	0.25	-86.40	0.74	97.60
9750	0.71	94.60	0.27	-76.90	0.27	-76.90	0.71	94.60
9800	0.67	92.10	0.31	-72.00	0.31	-72.00	0.67	92.10
9850	0.63	89.60	0.35	-67.20	0.35	-67.20	0.63	89.60
9900	0.59	87.20	0.41	-67.40	0.41	-67.40	0.59	87.20
9950	0.54	84.90	0.47	-67.70	0.47	-67.70	0.54	84.90
10000	0.48	84.10	0.52	-70.10	0.52	-70.10	0.48	84.10
10050	0.42	83.20	0.57	-72.60	0.57	-72.60	0.42	83.20
10100	0.37	88.00	0.61	-76.30	0.61	-76.30	0.37	88.00
10150	0.32	92.80	0.65	-79.90	0.65	-79.90	0.32	92.80
10200	0.30	101.20	0.68	-84.10	0.68	-84.10	0.30	101.20
10250	0.28	109.60	0.70	-88.30	0.70	-88.30	0.28	109.60
10300	0.30	118.30	0.71	-92.30	0.71	-92.30	0.30	118.30
10350	0.31	127.00	0.71	-96.40	0.71	-96.40	0.31	127.00
10400	0.35	131.10	0.72	-99.80	0.72	-99.80	0.35	131.10
10450	0.38	135.20	0.72	-103.30	0.72	-103.30	0.38	135.20
10500	0.42	135.70	0.71	-106.60	0.71	-106.60	0.42	135.70
10550	0.46	136.20	0.70	-109.90	0.70	-109.90	0.46	136.20
10600	0.48	135.60	0.69	-112.20	0.69	-112.20	0.48	135.60
10650	0.51	134.90	0.67	-114.50	0.67	-114.50	0.51	134.90
10700	0.54	133.80	0.67	-117.10	0.67	-117.10	0.54	133.80
10750	0.58	132.80	0.65	-119.80	0.65	-119.80	0.58	132.80
10800	0.60	132.10	0.64	-121.60	0.64	-121.60	0.60	132.10
10850	0.62	131.40	0.62	-123.40	0.62	-123.40	0.62	131.40
10900	0.64	129.00	0.61	-125.50	0.61	-125.50	0.64	129.00
10950	0.66	126.50	0.59	-127.60	0.59	-127.60	0.66	126.50
11000	0.68	125.10	0.58	-129.60	0.58	-129.60	0.68	125.10
11050	0.70	123.70	0.57	-131.60	0.57	-131.60	0.70	123.70
11100	0.72	121.30	0.54	-133.20	0.54	-133.20	0.72	121.30
11150	0.74	119.00	0.52	-134.80	0.52	-134.80	0.74	119.00
11200	0.75	116.80	0.51	-136.50	0.51	-136.50	0.75	116.80
11250	0.76	114.50	0.49	-138.20	0.49	-138.20	0.76	114.50
11300	0.78	112.60	0.47	-139.50	0.47	-139.50	0.78	112.60
11350	0.79	110.70	0.46	-140.80	0.46	-140.80	0.79	110.70
11400	0.80	108.10	0.44	-142.50	0.44	-142.50	0.80	108.10
11450	0.81	105.50	0.41	-144.20	0.41	-144.20	0.81	105.50
11500	0.82	103.70	0.40	-145.00	0.40	-145.00	0.82	103.70
11550	0.83	101.90	0.38	-145.80	0.38	-145.80	0.83	101.90
11600	0.83	99.60	0.36	-146.90	0.36	-146.90	0.83	99.60
11650	0.84	97.40	0.34	-148.10	0.34	-148.10	0.84	97.40
11700	0.85	95.50	0.32	-148.60	0.32	-148.60	0.85	95.50
11750	0.86	93.60	0.30	-149.10	0.30	-149.10	0.86	93.60
11800	0.87	92.20	0.28	-148.90	0.28	-148.90	0.87	92.20
11850	0.87	90.70	0.26	-148.70	0.26	-148.70	0.87	90.70
11900	0.87	89.30	0.24	-148.80	0.24	-148.80	0.87	89.30
11950	0.87	87.80	0.22	-148.90	0.22	-148.90	0.87	87.80
12000	0.89	86.80	0.20	-147.10	0.20	-147.10	0.89	86.80
12050	0.90	85.70	0.19	-145.30	0.19	-145.30	0.90	85.70
12100	0.90	83.60	0.17	-143.50	0.17	-143.50	0.90	83.60
12150	0.90	81.50	0.15	-141.70	0.15	-141.70	0.90	81.50
12200	0.90	80.20	0.14	-136.70	0.14	-136.70	0.90	80.20
12250	0.91	79.00	0.12	-131.70	0.12	-131.70	0.91	79.00
12300	0.90	77.60	0.11	-122.90	0.11	-122.90	0.90	77.60
12350	0.90	76.30	0.10	-114.10	0.10	-114.10	0.90	76.30
12400	0.90	73.90	0.10	-102.20	0.10	-102.20	0.90	73.90
12450	0.91	71.60	0.10	-90.40	0.10	-90.40	0.91	71.60
12500	0.90	70.00	0.10	-79.90	0.10	-79.90	0.90	70.00
12550	0.90	68.40	0.11	-69.40	0.11	-69.40	0.90	68.40
12600	0.89	66.70	0.13	-63.90	0.13	-63.90	0.89	66.70
12650	0.88	64.90	0.15	-58.40	0.15	-58.40	0.88	64.90
12700	0.88	63.00	0.17	-55.60	0.17	-55.60	0.88	63.00
12750	0.88	61.10	0.19	-52.70	0.19	-52.70	0.88	61.10
12800	0.87	59.00	0.21	-52.20	0.21	-52.20	0.87	59.00
12850	0.86	56.90	0.23	-51.60	0.23	-51.60	0.86	56.90
12900	0.86	55.40	0.25	-51.50	0.25	-51.50	0.86	55.40
12950	0.86	53.90	0.28	-51.40	0.28	-51.40	0.86	53.90
13000	0.84	52.20	0.29	-52.00	0.29	-52.00	0.84	52.20
13050	0.82	50.40	0.31	-52.60	0.31	-52.60	0.82	50.40
13100	0.81	48.70	0.34	-53.60	0.34	-53.60	0.81	48.70
13150	0.81	46.90	0.36	-54.50	0.36	-54.50	0.81	46.90
13200	0.80	45.40	0.38	-55.60	0.38	-55.60	0.80	45.40
13250	0.79	43.80	0.41	-56.70	0.41	-56.70	0.79	43.80
13300	0.75	43.80	0.42	-58.70	0.42	-58.70	0.75	43.80
13350	0.72	43.70	0.44	-60.70	0.44	-60.70	0.72	43.70
13400	0.72	40.50	0.47	-62.30	0.47	-62.30	0.72	40.50
13450	0.73	37.20	0.49	-64.00	0.49	-64.00	0.73	37.20
13500	0.70	35.90	0.50	-65.90	0.50	-65.90	0.70	35.90
13550	0.68	34.50	0.52	-67.80	0.52	-67.80	0.68	34.50
13600	0.67	32.40	0.54	-70.20	0.54	-70.20	0.67	32.40
13650	0.66	30.30	0.56	-72.50	0.56	-72.50	0.66	30.30
13700	0.64	29.00	0.57	-74.40	0.57	-74.40	0.64	29.00
13750	0.62	27.60	0.59	-76.30	0.59	-76.30	0.62	27.60
13800	0.60	25.60	0.60	-78.60	0.60	-78.60	0.60	25.60
13850	0.58	23.50	0.62	-80.90	0.62	-80.90	0.58	23.50
13900	0.57	21.90	0.63	-83.20	0.63	-83.20	0.57	21.90
13950	0.55	20.30	0.64	-85.40	0.64	-85.40	0.55	20.30
14000	0.53	19.40	0.65	-87.90	0.65	-87.90	0.53	19.40
14050	0.51	18.60	0.66	-90.40	0.66	-90.40	0.51	18.60
14100	0.50	17.80	0.66	-93.00	0.66	-93.00	0.50	17.80
14150	0.47	17.00	0.67	-95.60	0.67	-95.60	0.47	17.00
14200	0.46	18.20	0.67	-98.50	0.67	-98.50	0.46	18.20
14250	0.45	19.40	0.66	-101.50	0.66	-101.50	0.45	19.40
14300	0.44	20.80	0.66	-104.50	0.66	-104.50	0.44	20.80
14350	0.43	22.20	0.65	-107.50	0.65	-107.50	0.43	22.20
14400	0.44	25.30	0.63	-110.50	0.63	-110.50	0.44	25.30
14450	0.44	28.40	0.61	-113.40	0.61	-113.40	0.44	28.40
14500	0.47	30.50	0.58	-115.90	0.58	-115.90	0.47	30.50
14550	0.48	32.60	0.55	-118.40	0.55	-118.40	0.48	32.60
14600	0.52	33.40	0.51	-119.60	0.51	-119.60	0.52	33.40
14650	0.56	34.10	0.47	-120.80	0.47	-120.80	0.56	34.10
14700	0.59	32.80	0.44	-119.90	0.44	-119.90	0.59	32.80
14750	0.62	31.40	0.40	-119.10	0.40	-119.10	0.62	31.40
14800	0.65	29.00	0.38	-115.50	0.38	-115.50	0.65	29.00
14850	0.68	26.60	0.35	-111.90	0.35	-111.90	0.68	26.60
14900	0.70	24.90	0.35	-106.30	0.35	-106.30	0.70	24.90
14950	0.71	23.10	0.34	-100.80	0.34	-100.80	0.71	23.10
15000	0.72	19.70	0.35	-97.20	0.35	-97.20	0.72	19.70
15050	0.73	16.20	0.37	-93.60	0.37	-93.60	0.73	16.20
15100	0.73	14.60	0.39	-91.20	0.39	-91.20	0.73	14.60
15150	0.72	12.90	0.41	-88.80	0.41	-88.80	0.72	12.90
15200	0.71	10.70	0.43	-88.30	0.43	-88.30	0.71	10.70
15250	0.71	8.50	0.45	-87.80	0.45	-87.80	0.71	8.50
15300	0.70	6.30	0.47	-88.70	0.47	-88.70	0.70	6.30
15350	0.70	4.10	0.49	-89.70	0.49	-89.70	0.70	4.10
15400	0.68	3.20	0.50	-90.10	0.50	-90.10	0.68	3.20
15450	0.66	2.30	0.50	-90.50	0.50	-90.50	0.66	2.30
15500	0.67	2.30	0.51	-91.30	0.51	-91.30	0.67	2.30
15550	0.67	2.40	0.52	-92.20	0.52	-92.20	0.67	2.40
15600	0.67	1.40	0.53	-92.10	0.53	-92.10	0.67	1.40
15650	0.67	0.40	0.54	-92.10	0.54	-92.10	0.67	0.40
15700	0.67	-0.50	0.55	-92.70	0.55	-92.70	0.67	-0.50
15750	0.66	-1.30	0.56	-93.30	0.56	-93.30	0.66	-1.30
15800	0.65	-1.90	0.57	-93.60	0.57	-93.60	0.65	-1.90
15850	0.64	-2.40	0.58	-93.90	0.58	-93.90	0.64	-2.40
15900	0.63	-3.10	0.59	-94.80	0.59	-94.80	0.63	-3.10
15950	0.62	-3.70	0.59	-95.80	0.59	-95.80	0.62	-3.70
16000	0.61	-3.10	0.60	-96.60	0.60	-96.60	0.61	-3.10
16050	0.59	-2.50	0.61	-97.40	0.61	-97.40	0.59	-2.50
16100	0.58	-1.90	0.61	-98.70	0.61	-98.70	0.58	-1.90
16150	0.56	-1.20	0.61	-100.00	0.61	-100.00	0.56	-1.20
16200	0.55	0.00	0.61	-100.70	0.61	-100.70	0.55	0.00
16250	0.54	1.30	0.61	-101.40	0.61	-101.40	0.54	1.30
16300	0.53	2.70	0.60	-101.70	0.60	-101.70	0.53	2.70
16350	0.52	4.00	0.60	-102.00	0.60	-102.00	0.52	4.00
16400	0.54	4.90	0.59	-101.50	0.59	-101.50	0.54	4.90
16450	0.55	5.80	0.58	-100.90	0.58	-100.90	0.55	5.80
16500	0.56	3.50	0.59	-99.30	0.59	-99.30	0.56	3.50
16550	0.57	1.20	0.60	-97.70	0.60	-97.70	0.57	1.20
16600	0.57	-1.10	0.62	-97.30	0.62	-97.30	0.57	-1.10
16650	0.58	-3.40	0.64	-96.90	0.64	-96.90	0.58	-3.40
16700	0.57	-6.30	0.67	-97.40	0.67	-97.40	0.57	-6.30
16750	0.56	-9.10	0.69	-97.90	0.69	-97.90	0.56	-9.10
16800	0.55	-11.40	0.70	-98.70	0.70	-98.70	0.55	-11.40
16850	0.54	-13.70	0.72	-99.60	0.72	-99.60	0.54	-13.70
16900	0.53	-15.80	0.73	-100.50	0.73	-100.50	0.53	-15.80
16950	0.52	-18.00	0.75	-101.40	0.75	-101.40	0.52	-18.00
17000	0.51	-19.60	0.76	-102.50	0.76	-102.50	0.51	-19.60
17050	0.50	-21.30	0.78	-103.70	0.78	-103.70	0.50	-21.30
17100	0.49	-22.00	0.79	-104.90	0.79	-104.90	0.49	-22.00
17150	0.47	-22.70	0.80	-106.10	0.80	-106.10	0.47	-22.70
17200	0.46	-23.40	0.81	-107.10	0.81	-107.10	0.46	-23.40
17250	0.44	-24.00	0.82	-108.10	0.82	-108.10	0.44	-24.00
17300	0.43	-24.00	0.83	-109.30	0.83	-109.30	0.43	-24.00
17350	0.42	-24.00	0.84	-110.50	0.84	-110.50	0.42	-24.00
17400	0.41	-24.30	0.84	-111.60	0.84	-111.60	0.41	-24.30
17450	0.39	-24.60	0.85	-112.70	0.85	-112.70	0.39	-24.60
17500	0.38	-23.80	0.86	-114.10	0.86	-114.10	0.38	-23.80
17550	0.36	-23.00	0.86	-115.60	0.86	-115.60	0.36	-23.00
17600	0.34	-22.60	0.87	-117.10	0.87	-117.10	0.34	-22.60
17650	0.33	-22.30	0.87	-118.50	0.87	-118.50	0.33	-22.30
17700	0.31	-20.90	0.87	-119.80	0.87	-119.80	0.31	-20.90
17750	0.29	-19.50	0.88	-121.00	0.88	-121.00	0.29	-19.50
17800	0.28	-19.70	0.88	-122.60	0.88	-122.60	0.28	-19.70
17850	0.28	-20.00	0.87	-124.10	0.87	-124.10	0.28	-20.00
17900	0.26	-17.20	0.87	-125.30	0.87	-125.30	0.26	-17.20
17950	0.25	-14.30	0.86	-126.40	0.86	-126.40	0.25	-14.30
18000	0.25	-13.80	0.85	-127.70	0.85	-127.70	0.25	-13.80
18050	0.25	-13.20	0.85	-129.00	0.85	-129.00	0.25	-13.20
18100	0.25	-12.90	0.83	-130.00	0.83	-130.00	0.25	-12.90
18150	0.25	-12.60	0.82	-131.10	0.82	-131.10	0.25	-12.60
18200	0.27	-11.70	0.81	-131.70	0.81	-131.70	0.27	-11.70
18250	0.28	-10.90	0.80	-132.30	0.80	-132.30	0.28	-10.90
18300	0.30	-12.10	0.79	-132.40	0.79	-132.40	0.30	-12.10
18350	0.32	-13.30	0.78	-132.50	0.78	-132.50	0.32	-13.30
18400	0.34	-14.50	0.76	-131.90	0.76	-131.90	0.34	-14.50
18450	0.37	-15.70	0.75	-131.30	0.75	-131.30	0.37	-15.70
18500	0.38	-17.80	0.76	-130.50	0.76	-130.50	0.38	-17.80
18550	0.40	-20.00	0.77	-129.80	0.77	-129.80	0.40	-20.00
18600	0.41	-21.60	0.78	-129.60	0.78	-129.60	0.41	-21.60
