#	mhz	s	ma	r	50

50	0.93	171.40	0.14	74.00	0.14	74.00	0.93	171.40
100	0.91	164.00	0.26	68.30	0.26	68.30	0.91	164.00
150	0.89	156.60	0.38	62.60	0.38	62.60	0.89	156.60
200	0.84	150.80	0.47	57.30	0.47	57.30	0.84	150.80
250	0.79	145.10	0.55	52.10	0.55	52.10	0.79	145.10
300	0.74	140.10	0.61	47.20	0.61	47.20	0.74	140.10
350	0.69	135.10	0.68	42.30	0.68	42.30	0.69	135.10
400	0.65	131.40	0.72	38.80	0.72	38.80	0.65	131.40
450	0.60	127.70	0.76	35.30	0.76	35.30	0.60	127.70
500	0.55	122.60	0.80	31.10	0.80	31.10	0.55	122.60
550	0.50	117.60	0.85	26.90	0.85	26.90	0.50	117.60
600	0.47	115.60	0.86	24.60	0.86	24.60	0.47	115.60
650	0.44	113.50	0.88	22.20	0.88	22.20	0.44	113.50
700	0.42	111.00	0.89	20.30	0.89	20.30	0.42	111.00
750	0.39	108.50	0.90	18.40	0.90	18.40	0.39	108.50
800	0.37	107.20	0.91	16.60	0.91	16.60	0.37	107.20
850	0.35	105.80	0.92	14.90	0.92	14.90	0.35	105.80
900	0.34	104.30	0.93	13.40	0.93	13.40	0.34	104.30
950	0.32	102.80	0.93	11.90	0.93	11.90	0.32	102.80
1000	0.30	101.60	0.94	10.60	0.94	10.60	0.30	101.60
1050	0.29	100.40	0.94	9.20	0.94	9.20	0.29	100.40
1100	0.27	99.00	0.95	8.00	0.95	8.00	0.27	99.00
1150	0.26	97.50	0.95	6.80	0.95	6.80	0.26	97.50
1200	0.25	96.40	0.95	5.80	0.95	5.80	0.25	96.40
1250	0.24	95.20	0.96	4.70	0.96	4.70	0.24	95.20
1300	0.23	93.80	0.96	3.70	0.96	3.70	0.23	93.80
1350	0.22	92.40	0.97	2.70	0.97	2.70	0.22	92.40
1400	0.21	91.60	0.97	1.80	0.97	1.80	0.21	91.60
1450	0.20	90.80	0.97	0.80	0.97	0.80	0.20	90.80
1500	0.19	89.80	0.97	-0.10	0.97	-0.10	0.19	89.80
1550	0.18	88.80	0.97	-1.10	0.97	-1.10	0.18	88.80
1600	0.18	87.70	0.97	-1.90	0.97	-1.90	0.18	87.70
1650	0.17	86.60	0.98	-2.80	0.98	-2.80	0.17	86.60
1700	0.16	86.30	0.98	-3.60	0.98	-3.60	0.16	86.30
1750	0.15	85.90	0.98	-4.50	0.98	-4.50	0.15	85.90
1800	0.14	84.80	0.98	-5.20	0.98	-5.20	0.14	84.80
1850	0.14	83.70	0.98	-6.00	0.98	-6.00	0.14	83.70
1900	0.13	82.80	0.98	-6.70	0.98	-6.70	0.13	82.80
1950	0.12	81.80	0.98	-7.40	0.98	-7.40	0.12	81.80
2000	0.12	81.40	0.98	-8.30	0.98	-8.30	0.12	81.40
2050	0.11	81.00	0.98	-9.10	0.98	-9.10	0.11	81.00
2100	0.11	80.40	0.99	-9.80	0.99	-9.80	0.11	80.40
2150	0.10	79.90	0.99	-10.40	0.99	-10.40	0.10	79.90
2200	0.09	80.20	0.99	-11.20	0.99	-11.20	0.09	80.20
2250	0.09	80.50	0.99	-12.00	0.99	-12.00	0.09	80.50
2300	0.08	80.30	0.99	-12.60	0.99	-12.60	0.08	80.30
2350	0.08	80.20	0.99	-13.20	0.99	-13.20	0.08	80.20
2400	0.07	80.60	0.99	-14.00	0.99	-14.00	0.07	80.60
2450	0.06	81.00	0.99	-14.70	0.99	-14.70	0.06	81.00
2500	0.06	81.50	0.99	-15.40	0.99	-15.40	0.06	81.50
2550	0.05	82.10	0.99	-16.10	0.99	-16.10	0.05	82.10
2600	0.05	83.20	0.99	-16.70	0.99	-16.70	0.05	83.20
2650	0.04	84.30	0.99	-17.30	0.99	-17.30	0.04	84.30
2700	0.04	87.00	0.99	-17.90	0.99	-17.90	0.04	87.00
2750	0.03	89.60	0.99	-18.50	0.99	-18.50	0.03	89.60
2800	0.03	92.20	0.99	-19.10	0.99	-19.10	0.03	92.20
2850	0.02	94.80	0.99	-19.70	0.99	-19.70	0.02	94.80
2900	0.02	105.20	0.99	-20.60	0.99	-20.60	0.02	105.20
2950	0.01	115.60	0.99	-21.40	0.99	-21.40	0.01	115.60
3000	0.01	134.90	0.99	-21.90	0.99	-21.90	0.01	134.90
3050	0.01	154.30	0.99	-22.50	0.99	-22.50	0.01	154.30
3100	0.01	-2.70	0.99	-23.20	0.99	-23.20	0.01	-2.70
3150	0.01	-159.70	0.98	-24.00	0.98	-24.00	0.01	-159.70
3200	0.02	-151.80	0.99	-24.40	0.99	-24.40	0.02	-151.80
3250	0.02	-143.90	0.99	-24.90	0.99	-24.90	0.02	-143.90
3300	0.02	-141.80	0.99	-25.60	0.99	-25.60	0.02	-141.80
3350	0.03	-139.70	0.99	-26.40	0.99	-26.40	0.03	-139.70
3400	0.03	-137.10	0.99	-26.90	0.99	-26.90	0.03	-137.10
3450	0.04	-134.50	0.99	-27.50	0.99	-27.50	0.04	-134.50
3500	0.04	-133.80	0.99	-28.00	0.99	-28.00	0.04	-133.80
3550	0.04	-133.10	0.99	-28.60	0.99	-28.60	0.04	-133.10
3600	0.05	-131.90	0.99	-29.20	0.99	-29.20	0.05	-131.90
3650	0.05	-130.80	0.99	-29.70	0.99	-29.70	0.05	-130.80
3700	0.05	-129.80	0.99	-30.40	0.99	-30.40	0.05	-129.80
3750	0.05	-128.70	0.99	-31.20	0.99	-31.20	0.05	-128.70
3800	0.06	-127.10	0.99	-31.60	0.99	-31.60	0.06	-127.10
3850	0.06	-125.60	0.99	-32.10	0.99	-32.10	0.06	-125.60
3900	0.06	-125.30	0.99	-32.90	0.99	-32.90	0.06	-125.30
3950	0.07	-125.00	0.99	-33.70	0.99	-33.70	0.07	-125.00
4000	0.07	-123.80	0.99	-34.20	0.99	-34.20	0.07	-123.80
4050	0.08	-122.60	0.99	-34.60	0.99	-34.60	0.08	-122.60
4100	0.08	-122.10	0.99	-35.20	0.99	-35.20	0.08	-122.10
4150	0.08	-121.70	0.99	-35.80	0.99	-35.80	0.08	-121.70
4200	0.08	-121.50	0.99	-36.40	0.99	-36.40	0.08	-121.50
4250	0.09	-121.30	0.99	-37.10	0.99	-37.10	0.09	-121.30
4300	0.09	-121.20	0.99	-37.50	0.99	-37.50	0.09	-121.20
4350	0.09	-121.10	0.99	-37.90	0.99	-37.90	0.09	-121.10
4400	0.09	-120.60	0.99	-38.60	0.99	-38.60	0.09	-120.60
4450	0.09	-120.00	0.99	-39.30	0.99	-39.30	0.09	-120.00
4500	0.09	-120.00	0.99	-40.00	0.99	-40.00	0.09	-120.00
4550	0.10	-120.10	0.99	-40.60	0.99	-40.60	0.10	-120.10
4600	0.10	-120.60	0.99	-41.40	0.99	-41.40	0.10	-120.60
4650	0.10	-121.20	0.99	-42.10	0.99	-42.10	0.10	-121.20
4700	0.10	-122.40	0.99	-42.60	0.99	-42.60	0.10	-122.40
4750	0.10	-123.60	0.99	-43.00	0.99	-43.00	0.10	-123.60
4800	0.10	-124.30	0.98	-43.60	0.98	-43.60	0.10	-124.30
4850	0.11	-125.00	0.98	-44.20	0.98	-44.20	0.11	-125.00
4900	0.11	-126.70	0.98	-44.90	0.98	-44.90	0.11	-126.70
4950	0.11	-128.40	0.99	-45.50	0.99	-45.50	0.11	-128.40
5000	0.12	-129.40	0.98	-46.10	0.98	-46.10	0.12	-129.40
5050	0.12	-130.50	0.98	-46.80	0.98	-46.80	0.12	-130.50
5100	0.12	-131.60	0.98	-47.30	0.98	-47.30	0.12	-131.60
5150	0.13	-132.70	0.98	-47.80	0.98	-47.80	0.13	-132.70
5200	0.13	-133.90	0.98	-48.30	0.98	-48.30	0.13	-133.90
5250	0.13	-135.10	0.98	-48.70	0.98	-48.70	0.13	-135.10
5300	0.14	-136.00	0.98	-49.50	0.98	-49.50	0.14	-136.00
5350	0.14	-136.90	0.98	-50.20	0.98	-50.20	0.14	-136.90
5400	0.14	-138.10	0.98	-50.90	0.98	-50.90	0.14	-138.10
5450	0.14	-139.30	0.98	-51.50	0.98	-51.50	0.14	-139.30
5500	0.15	-139.90	0.98	-52.00	0.98	-52.00	0.15	-139.90
5550	0.15	-140.50	0.98	-52.60	0.98	-52.60	0.15	-140.50
5600	0.16	-142.10	0.98	-53.20	0.98	-53.20	0.16	-142.10
5650	0.16	-143.80	0.98	-53.80	0.98	-53.80	0.16	-143.80
5700	0.16	-144.50	0.98	-54.40	0.98	-54.40	0.16	-144.50
5750	0.17	-145.20	0.98	-55.00	0.98	-55.00	0.17	-145.20
5800	0.17	-146.50	0.97	-55.60	0.97	-55.60	0.17	-146.50
5850	0.17	-147.80	0.97	-56.20	0.97	-56.20	0.17	-147.80
5900	0.17	-149.10	0.97	-56.70	0.97	-56.70	0.17	-149.10
5950	0.17	-150.50	0.97	-57.20	0.97	-57.20	0.17	-150.50
6000	0.19	-150.20	0.97	-58.00	0.97	-58.00	0.19	-150.20
6050	0.21	-149.90	0.97	-58.80	0.97	-58.80	0.21	-149.90
6100	0.21	-151.50	0.97	-59.20	0.97	-59.20	0.21	-151.50
6150	0.21	-153.20	0.97	-59.60	0.97	-59.60	0.21	-153.20
6200	0.22	-155.00	0.97	-60.20	0.97	-60.20	0.22	-155.00
6250	0.22	-156.70	0.97	-60.90	0.97	-60.90	0.22	-156.70
6300	0.22	-158.30	0.96	-61.40	0.96	-61.40	0.22	-158.30
6350	0.23	-159.90	0.96	-61.90	0.96	-61.90	0.23	-159.90
6400	0.23	-160.80	0.96	-62.50	0.96	-62.50	0.23	-160.80
6450	0.24	-161.70	0.96	-63.10	0.96	-63.10	0.24	-161.70
6500	0.24	-162.60	0.95	-63.70	0.95	-63.70	0.24	-162.60
6550	0.24	-163.60	0.95	-64.20	0.95	-64.20	0.24	-163.60
6600	0.25	-165.20	0.95	-64.80	0.95	-64.80	0.25	-165.20
6650	0.25	-166.80	0.95	-65.40	0.95	-65.40	0.25	-166.80
6700	0.25	-167.50	0.95	-65.70	0.95	-65.70	0.25	-167.50
6750	0.26	-168.20	0.95	-66.10	0.95	-66.10	0.26	-168.20
6800	0.26	-169.40	0.95	-66.70	0.95	-66.70	0.26	-169.40
6850	0.26	-170.60	0.95	-67.40	0.95	-67.40	0.26	-170.60
6900	0.26	-171.60	0.95	-67.90	0.95	-67.90	0.26	-171.60
6950	0.26	-172.70	0.95	-68.40	0.95	-68.40	0.26	-172.70
7000	0.27	-174.20	0.95	-69.10	0.95	-69.10	0.27	-174.20
7050	0.27	-175.70	0.95	-69.70	0.95	-69.70	0.27	-175.70
7100	0.27	-176.70	0.95	-70.20	0.95	-70.20	0.27	-176.70
7150	0.28	-177.60	0.95	-70.70	0.95	-70.70	0.28	-177.60
7200	0.28	1.20	0.95	-71.40	0.95	-71.40	0.28	1.20
7250	0.28	180.00	0.95	-72.10	0.95	-72.10	0.28	180.00
7300	0.28	178.80	0.95	-72.70	0.95	-72.70	0.28	178.80
7350	0.28	177.50	0.94	-73.40	0.94	-73.40	0.28	177.50
7400	0.29	175.90	0.94	-74.00	0.94	-74.00	0.29	175.90
7450	0.29	174.20	0.94	-74.50	0.94	-74.50	0.29	174.20
7500	0.29	173.40	0.94	-75.20	0.94	-75.20	0.29	173.40
7550	0.29	172.60	0.94	-75.90	0.94	-75.90	0.29	172.60
7600	0.29	171.30	0.94	-76.40	0.94	-76.40	0.29	171.30
7650	0.29	170.10	0.94	-77.00	0.94	-77.00	0.29	170.10
7700	0.29	169.30	0.94	-77.70	0.94	-77.70	0.29	169.30
7750	0.29	168.50	0.94	-78.30	0.94	-78.30	0.29	168.50
7800	0.30	167.20	0.94	-79.10	0.94	-79.10	0.30	167.20
7850	0.30	165.90	0.94	-79.90	0.94	-79.90	0.30	165.90
7900	0.30	165.50	0.94	-80.50	0.94	-80.50	0.30	165.50
7950	0.31	165.10	0.94	-81.10	0.94	-81.10	0.31	165.10
8000	0.31	164.40	0.94	-81.90	0.94	-81.90	0.31	164.40
8050	0.31	163.80	0.94	-82.60	0.94	-82.60	0.31	163.80
8100	0.31	163.00	0.94	-83.30	0.94	-83.30	0.31	163.00
8150	0.31	162.30	0.94	-84.10	0.94	-84.10	0.31	162.30
8200	0.31	162.00	0.93	-84.80	0.93	-84.80	0.31	162.00
8250	0.32	161.80	0.93	-85.60	0.93	-85.60	0.32	161.80
8300	0.32	161.50	0.93	-86.40	0.93	-86.40	0.32	161.50
8350	0.32	161.20	0.93	-87.20	0.93	-87.20	0.32	161.20
8400	0.33	160.80	0.93	-88.10	0.93	-88.10	0.33	160.80
8450	0.33	160.40	0.92	-88.90	0.92	-88.90	0.33	160.40
8500	0.33	160.40	0.92	-89.90	0.92	-89.90	0.33	160.40
8550	0.33	160.40	0.92	-90.80	0.92	-90.80	0.33	160.40
8600	0.34	159.80	0.92	-91.70	0.92	-91.70	0.34	159.80
8650	0.35	159.20	0.92	-92.60	0.92	-92.60	0.35	159.20
8700	0.35	159.10	0.91	-93.60	0.91	-93.60	0.35	159.10
8750	0.36	159.00	0.90	-94.50	0.90	-94.50	0.36	159.00
8800	0.36	158.10	0.90	-95.20	0.90	-95.20	0.36	158.10
8850	0.37	157.10	0.90	-95.90	0.90	-95.90	0.37	157.10
8900	0.38	156.80	0.90	-97.10	0.90	-97.10	0.38	156.80
8950	0.39	156.50	0.89	-98.30	0.89	-98.30	0.39	156.50
9000	0.40	156.10	0.88	-99.20	0.88	-99.20	0.40	156.10
9050	0.41	155.60	0.88	-100.20	0.88	-100.20	0.41	155.60
9100	0.42	155.30	0.88	-101.20	0.88	-101.20	0.42	155.30
9150	0.44	154.90	0.87	-102.30	0.87	-102.30	0.44	154.90
9200	0.45	153.50	0.87	-103.70	0.87	-103.70	0.45	153.50
9250	0.46	152.20	0.86	-105.20	0.86	-105.20	0.46	152.20
9300	0.47	152.30	0.85	-106.10	0.85	-106.10	0.47	152.30
9350	0.47	152.40	0.83	-106.90	0.83	-106.90	0.47	152.40
9400	0.49	151.50	0.83	-108.20	0.83	-108.20	0.49	151.50
9450	0.51	150.60	0.82	-109.40	0.82	-109.40	0.51	150.60
9500	0.52	149.80	0.80	-110.70	0.80	-110.70	0.52	149.80
9550	0.52	149.00	0.79	-112.00	0.79	-112.00	0.52	149.00
9600	0.54	148.30	0.78	-113.30	0.78	-113.30	0.54	148.30
9650	0.56	147.60	0.76	-114.60	0.76	-114.60	0.56	147.60
9700	0.58	146.30	0.75	-115.90	0.75	-115.90	0.58	146.30
9750	0.59	145.00	0.73	-117.20	0.73	-117.20	0.59	145.00
9800	0.60	144.20	0.71	-118.40	0.71	-118.40	0.60	144.20
9850	0.60	143.50	0.69	-119.60	0.69	-119.60	0.60	143.50
9900	0.63	141.90	0.67	-120.90	0.67	-120.90	0.63	141.90
9950	0.65	140.40	0.65	-122.20	0.65	-122.20	0.65	140.40
10000	0.66	137.60	0.62	-123.70	0.62	-123.70	0.66	137.60
10050	0.67	134.80	0.59	-125.30	0.59	-125.30	0.67	134.80
10100	0.69	133.60	0.57	-126.10	0.57	-126.10	0.69	133.60
10150	0.71	132.40	0.54	-127.00	0.54	-127.00	0.71	132.40
10200	0.73	128.90	0.50	-128.20	0.50	-128.20	0.73	128.90
10250	0.75	125.50	0.47	-129.40	0.47	-129.40	0.75	125.50
10300	0.76	122.00	0.43	-129.80	0.43	-129.80	0.76	122.00
10350	0.77	118.50	0.38	-130.30	0.38	-130.30	0.77	118.50
10400	0.77	115.20	0.34	-128.00	0.34	-128.00	0.77	115.20
10450	0.77	111.90	0.30	-125.70	0.30	-125.70	0.77	111.90
10500	0.78	107.30	0.26	-119.30	0.26	-119.30	0.78	107.30
10550	0.79	102.70	0.23	-113.00	0.23	-113.00	0.79	102.70
10600	0.77	98.90	0.22	-99.80	0.22	-99.80	0.77	98.90
10650	0.76	95.10	0.21	-86.50	0.21	-86.50	0.76	95.10
10700	0.75	90.50	0.23	-75.60	0.23	-75.60	0.75	90.50
10750	0.75	85.80	0.25	-64.60	0.25	-64.60	0.75	85.80
10800	0.73	81.60	0.30	-58.70	0.30	-58.70	0.73	81.60
10850	0.70	77.30	0.35	-52.90	0.35	-52.90	0.70	77.30
10900	0.67	71.80	0.41	-52.20	0.41	-52.20	0.67	71.80
10950	0.65	66.40	0.47	-51.60	0.47	-51.60	0.65	66.40
11000	0.60	61.30	0.53	-54.00	0.53	-54.00	0.60	61.30
11050	0.56	56.10	0.59	-56.40	0.59	-56.40	0.56	56.10
11100	0.51	51.80	0.64	-58.70	0.64	-58.70	0.51	51.80
11150	0.47	47.60	0.69	-61.00	0.69	-61.00	0.47	47.60
11200	0.43	43.30	0.72	-64.10	0.72	-64.10	0.43	43.30
11250	0.39	39.10	0.76	-67.20	0.76	-67.20	0.39	39.10
11300	0.35	36.00	0.79	-69.90	0.79	-69.90	0.35	36.00
11350	0.31	32.80	0.82	-72.50	0.82	-72.50	0.31	32.80
11400	0.28	31.40	0.84	-74.90	0.84	-74.90	0.28	31.40
11450	0.25	30.00	0.85	-77.40	0.85	-77.40	0.25	30.00
11500	0.21	29.50	0.87	-79.60	0.87	-79.60	0.21	29.50
11550	0.18	28.90	0.89	-81.90	0.89	-81.90	0.18	28.90
11600	0.16	30.60	0.90	-83.90	0.90	-83.90	0.16	30.60
11650	0.14	32.40	0.91	-85.90	0.91	-85.90	0.14	32.40
11700	0.12	38.90	0.92	-87.80	0.92	-87.80	0.12	38.90
11750	0.10	45.40	0.92	-89.70	0.92	-89.70	0.10	45.40
11800	0.09	56.90	0.93	-91.20	0.93	-91.20	0.09	56.90
11850	0.09	68.50	0.93	-92.70	0.93	-92.70	0.09	68.50
11900	0.09	85.10	0.93	-94.30	0.93	-94.30	0.09	85.10
11950	0.09	101.70	0.94	-95.90	0.94	-95.90	0.09	101.70
12000	0.10	107.80	0.94	-97.30	0.94	-97.30	0.10	107.80
12050	0.11	113.80	0.94	-98.70	0.94	-98.70	0.11	113.80
12100	0.12	118.50	0.94	-100.10	0.94	-100.10	0.12	118.50
12150	0.14	123.20	0.94	-101.50	0.94	-101.50	0.14	123.20
12200	0.15	125.00	0.94	-102.60	0.94	-102.60	0.15	125.00
12250	0.17	126.80	0.94	-103.70	0.94	-103.70	0.17	126.80
12300	0.18	128.00	0.94	-105.00	0.94	-105.00	0.18	128.00
12350	0.19	129.30	0.93	-106.30	0.93	-106.30	0.19	129.30
12400	0.19	129.70	0.94	-107.30	0.94	-107.30	0.19	129.70
12450	0.20	130.10	0.94	-108.30	0.94	-108.30	0.20	130.10
12500	0.21	128.20	0.94	-109.50	0.94	-109.50	0.21	128.20
12550	0.22	126.20	0.93	-110.70	0.93	-110.70	0.22	126.20
12600	0.22	127.40	0.93	-111.70	0.93	-111.70	0.22	127.40
12650	0.23	128.60	0.93	-112.70	0.93	-112.70	0.23	128.60
12700	0.23	126.80	0.93	-113.60	0.93	-113.60	0.23	126.80
12750	0.24	125.00	0.93	-114.60	0.93	-114.60	0.24	125.00
12800	0.25	124.10	0.92	-115.80	0.92	-115.80	0.25	124.10
12850	0.25	123.10	0.92	-117.10	0.92	-117.10	0.25	123.10
12900	0.26	122.00	0.92	-117.80	0.92	-117.80	0.26	122.00
12950	0.27	120.80	0.92	-118.60	0.92	-118.60	0.27	120.80
13000	0.28	120.70	0.91	-119.80	0.91	-119.80	0.28	120.70
13050	0.28	120.50	0.91	-121.00	0.91	-121.00	0.28	120.50
13100	0.29	119.50	0.91	-121.70	0.91	-121.70	0.29	119.50
13150	0.30	118.40	0.90	-122.50	0.90	-122.50	0.30	118.40
13200	0.31	117.50	0.90	-123.20	0.90	-123.20	0.31	117.50
13250	0.31	116.60	0.90	-123.90	0.90	-123.90	0.31	116.60
13300	0.32	117.40	0.90	-125.20	0.90	-125.20	0.32	117.40
13350	0.32	118.30	0.89	-126.50	0.89	-126.50	0.32	118.30
13400	0.34	115.40	0.89	-127.40	0.89	-127.40	0.34	115.40
13450	0.35	112.40	0.89	-128.40	0.89	-128.40	0.35	112.40
13500	0.36	111.90	0.88	-129.30	0.88	-129.30	0.36	111.90
13550	0.37	111.30	0.88	-130.30	0.88	-130.30	0.37	111.30
13600	0.37	110.00	0.88	-131.30	0.88	-131.30	0.37	110.00
13650	0.37	108.80	0.88	-132.30	0.88	-132.30	0.37	108.80
13700	0.38	107.90	0.88	-133.40	0.88	-133.40	0.38	107.90
13750	0.39	107.00	0.87	-134.40	0.87	-134.40	0.39	107.00
13800	0.39	105.80	0.87	-135.40	0.87	-135.40	0.39	105.80
13850	0.39	104.70	0.87	-136.30	0.87	-136.30	0.39	104.70
13900	0.40	103.60	0.87	-137.30	0.87	-137.30	0.40	103.60
13950	0.40	102.50	0.87	-138.30	0.87	-138.30	0.40	102.50
14000	0.41	100.50	0.86	-139.70	0.86	-139.70	0.41	100.50
14050	0.41	98.40	0.86	-141.00	0.86	-141.00	0.41	98.40
14100	0.42	97.50	0.85	-142.00	0.85	-142.00	0.42	97.50
14150	0.43	96.60	0.84	-143.00	0.84	-143.00	0.43	96.60
14200	0.44	94.80	0.84	-144.40	0.84	-144.40	0.44	94.80
14250	0.45	92.90	0.83	-145.80	0.83	-145.80	0.45	92.90
14300	0.46	91.10	0.82	-147.10	0.82	-147.10	0.46	91.10
14350	0.46	89.30	0.82	-148.40	0.82	-148.40	0.46	89.30
14400	0.48	88.00	0.81	-149.70	0.81	-149.70	0.48	88.00
14450	0.49	86.60	0.80	-151.10	0.80	-151.10	0.49	86.60
14500	0.50	84.70	0.79	-152.50	0.79	-152.50	0.50	84.70
14550	0.51	82.80	0.77	-153.80	0.77	-153.80	0.51	82.80
14600	0.53	81.60	0.76	-155.10	0.76	-155.10	0.53	81.60
14650	0.55	80.30	0.75	-156.30	0.75	-156.30	0.55	80.30
14700	0.56	78.80	0.74	-158.00	0.74	-158.00	0.56	78.80
14750	0.57	77.30	0.73	-159.70	0.73	-159.70	0.57	77.30
14800	0.59	75.40	0.71	-161.30	0.71	-161.30	0.59	75.40
14850	0.61	73.40	0.69	-162.90	0.69	-162.90	0.61	73.40
14900	0.62	73.00	0.67	-164.10	0.67	-164.10	0.62	73.00
14950	0.63	72.60	0.65	-165.20	0.65	-165.20	0.63	72.60
15000	0.65	70.20	0.64	-167.00	0.64	-167.00	0.65	70.20
15050	0.67	67.80	0.62	-168.70	0.62	-168.70	0.67	67.80
15100	0.67	66.70	0.59	-169.70	0.59	-169.70	0.67	66.70
15150	0.68	65.70	0.57	-170.80	0.57	-170.80	0.68	65.70
15200	0.69	64.10	0.55	-171.70	0.55	-171.70	0.69	64.10
15250	0.71	62.60	0.52	-172.60	0.52	-172.60	0.71	62.60
15300	0.71	60.10	0.50	-173.30	0.50	-173.30	0.71	60.10
15350	0.73	57.70	0.48	-173.90	0.48	-173.90	0.73	57.70
15400	0.71	55.70	0.45	-173.70	0.45	-173.70	0.71	55.70
15450	0.70	53.60	0.43	-173.50	0.43	-173.50	0.70	53.60
15500	0.71	53.60	0.41	-173.30	0.41	-173.30	0.71	53.60
15550	0.74	53.50	0.41	-173.00	0.41	-173.00	0.74	53.50
15600	0.74	52.30	0.39	-173.70	0.39	-173.70	0.74	52.30
15650	0.75	51.10	0.37	-174.40	0.37	-174.40	0.75	51.10
15700	0.77	49.60	0.35	-175.30	0.35	-175.30	0.77	49.60
15750	0.79	48.20	0.32	-176.20	0.32	-176.20	0.79	48.20
15800	0.80	46.90	0.30	-175.50	0.30	-175.50	0.80	46.90
15850	0.80	45.70	0.27	-174.80	0.27	-174.80	0.80	45.70
15900	0.82	43.50	0.24	-172.70	0.24	-172.70	0.82	43.50
15950	0.83	41.30	0.22	-170.60	0.22	-170.60	0.83	41.30
16000	0.83	40.40	0.20	-164.10	0.20	-164.10	0.83	40.40
16050	0.83	39.60	0.18	-157.70	0.18	-157.70	0.83	39.60
16100	0.83	38.00	0.17	-148.30	0.17	-148.30	0.83	38.00
16150	0.83	36.40	0.16	-139.00	0.16	-139.00	0.83	36.40
16200	0.81	35.10	0.17	-130.70	0.17	-130.70	0.81	35.10
16250	0.79	33.80	0.19	-122.40	0.19	-122.40	0.79	33.80
16300	0.77	33.90	0.21	-120.40	0.21	-120.40	0.77	33.90
16350	0.75	33.90	0.23	-118.30	0.23	-118.30	0.75	33.90
16400	0.75	34.70	0.23	-119.60	0.23	-119.60	0.75	34.70
16450	0.76	35.40	0.23	-120.80	0.23	-120.80	0.76	35.40
16500	0.76	34.10	0.22	-117.00	0.22	-117.00	0.76	34.10
16550	0.77	32.80	0.21	-113.10	0.21	-113.10	0.77	32.80
16600	0.79	30.60	0.22	-105.60	0.22	-105.60	0.79	30.60
16650	0.81	28.40	0.23	-98.20	0.23	-98.20	0.81	28.40
16700	0.81	25.20	0.25	-93.70	0.25	-93.70	0.81	25.20
16750	0.81	22.00	0.28	-89.10	0.28	-89.10	0.81	22.00
16800	0.79	18.80	0.31	-87.80	0.31	-87.80	0.79	18.80
16850	0.78	15.50	0.34	-86.50	0.34	-86.50	0.78	15.50
16900	0.77	12.30	0.38	-86.70	0.38	-86.70	0.77	12.30
16950	0.76	9.10	0.41	-86.90	0.41	-86.90	0.76	9.10
17000	0.75	6.20	0.44	-87.80	0.44	-87.80	0.75	6.20
17050	0.73	3.40	0.47	-88.70	0.47	-88.70	0.73	3.40
17100	0.71	1.20	0.50	-90.20	0.50	-90.20	0.71	1.20
17150	0.70	-1.00	0.53	-91.60	0.53	-91.60	0.70	-1.00
17200	0.68	-3.10	0.56	-93.00	0.56	-93.00	0.68	-3.10
17250	0.66	-5.20	0.59	-94.40	0.59	-94.40	0.66	-5.20
17300	0.64	-6.80	0.62	-96.00	0.62	-96.00	0.64	-6.80
17350	0.63	-8.30	0.64	-97.70	0.64	-97.70	0.63	-8.30
17400	0.60	-10.30	0.67	-99.30	0.67	-99.30	0.60	-10.30
17450	0.58	-12.20	0.69	-101.00	0.69	-101.00	0.58	-12.20
17500	0.56	-13.40	0.72	-103.10	0.72	-103.10	0.56	-13.40
17550	0.53	-14.50	0.74	-105.30	0.74	-105.30	0.53	-14.50
17600	0.50	-15.90	0.76	-107.40	0.76	-107.40	0.50	-15.90
17650	0.48	-17.40	0.78	-109.50	0.78	-109.50	0.48	-17.40
17700	0.45	-18.00	0.80	-111.40	0.80	-111.40	0.45	-18.00
17750	0.42	-18.70	0.82	-113.30	0.82	-113.30	0.42	-18.70
17800	0.40	-20.90	0.83	-115.50	0.83	-115.50	0.40	-20.90
17850	0.37	-23.10	0.84	-117.70	0.84	-117.70	0.37	-23.10
17900	0.34	-22.70	0.85	-119.40	0.85	-119.40	0.34	-22.70
17950	0.31	-22.20	0.85	-121.00	0.85	-121.00	0.31	-22.20
18000	0.30	-24.10	0.86	-122.90	0.86	-122.90	0.30	-24.10
18050	0.28	-25.90	0.87	-124.80	0.87	-124.80	0.28	-25.90
18100	0.26	-27.50	0.88	-126.40	0.88	-126.40	0.26	-27.50
18150	0.25	-29.00	0.88	-128.10	0.88	-128.10	0.25	-29.00
18200	0.24	-29.00	0.89	-129.60	0.89	-129.60	0.24	-29.00
18250	0.23	-29.00	0.89	-131.20	0.89	-131.20	0.23	-29.00
18300	0.23	-30.20	0.90	-132.80	0.90	-132.80	0.23	-30.20
18350	0.22	-31.30	0.90	-134.40	0.90	-134.40	0.22	-31.30
18400	0.22	-29.20	0.90	-135.70	0.90	-135.70	0.22	-29.20
18450	0.22	-27.10	0.90	-137.00	0.90	-137.00	0.22	-27.10
18500	0.21	-26.60	0.91	-138.40	0.91	-138.40	0.21	-26.60
18550	0.20	-26.20	0.91	-139.80	0.91	-139.80	0.20	-26.20
18600	0.20	-22.80	0.92	-141.10	0.92	-141.10	0.20	-22.80
