#	mhz	s	ma	r	50			
50	0.07	75.10	0.99	-2.60	0.99	-2.60	0.07	75.10
100	0.14	73.80	0.97	-6.30	0.97	-6.30	0.14	73.80
150	0.20	72.50	0.96	-10.00	0.96	-10.00	0.20	72.50
200	0.26	69.80	0.94	-13.50	0.94	-13.50	0.26	69.80
250	0.32	67.00	0.93	-17.00	0.93	-17.00	0.32	67.00
300	0.37	63.80	0.90	-20.40	0.90	-20.40	0.37	63.80
350	0.42	60.60	0.88	-23.80	0.88	-23.80	0.42	60.60
400	0.47	57.50	0.85	-26.80	0.85	-26.80	0.47	57.50
450	0.51	54.40	0.83	-29.90	0.83	-29.90	0.51	54.40
500	0.59	53.50	0.79	-34.50	0.79	-34.50	0.59	53.50
550	0.66	52.70	0.75	-39.10	0.75	-39.10	0.66	52.70
600	0.69	50.10	0.71	-41.70	0.71	-41.70	0.69	50.10
650	0.71	47.60	0.68	-44.20	0.68	-44.20	0.71	47.60
700	0.74	45.70	0.65	-46.90	0.65	-46.90	0.74	45.70
750	0.78	43.80	0.62	-49.50	0.62	-49.50	0.78	43.80
800	0.79	41.20	0.59	-51.60	0.59	-51.60	0.79	41.20
850	0.80	38.50	0.56	-53.70	0.56	-53.70	0.80	38.50
900	0.83	36.50	0.53	-55.70	0.53	-55.70	0.83	36.50
950	0.86	34.40	0.50	-57.60	0.50	-57.60	0.86	34.40
1000	0.88	32.40	0.47	-59.50	0.47	-59.50	0.88	32.40
1050	0.89	30.40	0.44	-61.50	0.44	-61.50	0.89	30.40
1100	0.90	28.60	0.41	-63.40	0.41	-63.40	0.90	28.60
1150	0.92	26.80	0.39	-65.30	0.39	-65.30	0.92	26.80
1200	0.93	25.30	0.36	-66.60	0.36	-66.60	0.93	25.30
1250	0.94	23.80	0.34	-67.90	0.34	-67.90	0.94	23.80
1300	0.95	21.80	0.31	-69.70	0.31	-69.70	0.95	21.80
1350	0.96	19.80	0.29	-71.50	0.29	-71.50	0.96	19.80
1400	0.96	18.50	0.26	-72.40	0.26	-72.40	0.96	18.50
1450	0.97	17.20	0.24	-73.30	0.24	-73.30	0.97	17.20
1500	0.97	15.30	0.22	-74.70	0.22	-74.70	0.97	15.30
1550	0.98	13.40	0.19	-76.10	0.19	-76.10	0.98	13.40
1600	0.98	11.80	0.17	-76.90	0.17	-76.90	0.98	11.80
1650	0.98	10.20	0.15	-77.80	0.15	-77.80	0.98	10.20
1700	0.98	8.90	0.13	-78.30	0.13	-78.30	0.98	8.90
1750	0.98	7.50	0.11	-78.70	0.11	-78.70	0.98	7.50
1800	0.99	5.90	0.09	-78.50	0.09	-78.50	0.99	5.90
1850	1.00	4.40	0.07	-78.20	0.07	-78.20	1.00	4.40
1900	0.99	2.90	0.05	-74.40	0.05	-74.40	0.99	2.90
1950	0.99	1.50	0.04	-70.60	0.04	-70.60	0.99	1.50
2000	0.99	0.10	0.02	-27.20	0.02	-27.20	0.99	0.10
2050	0.99	-1.30	0.01	16.20	0.01	16.20	0.99	-1.30
2100	0.99	-2.40	0.03	43.30	0.03	43.30	0.99	-2.40
2150	0.99	-3.50	0.04	70.30	0.04	70.30	0.99	-3.50
2200	0.98	-5.10	0.06	72.80	0.06	72.80	0.98	-5.10
2250	0.98	-6.70	0.08	75.20	0.08	75.20	0.98	-6.70
2300	0.98	-7.60	0.09	75.80	0.09	75.80	0.98	-7.60
2350	0.98	-8.50	0.11	76.40	0.11	76.40	0.98	-8.50
2400	0.98	-10.00	0.12	75.80	0.12	75.80	0.98	-10.00
2450	0.98	-11.50	0.14	75.30	0.14	75.30	0.98	-11.50
2500	0.98	-12.60	0.16	74.70	0.16	74.70	0.98	-12.60
2550	0.97	-13.70	0.17	74.10	0.17	74.10	0.97	-13.70
2600	0.97	-14.60	0.19	73.50	0.19	73.50	0.97	-14.60
2650	0.97	-15.50	0.20	73.00	0.20	73.00	0.97	-15.50
2700	0.96	-16.60	0.22	72.20	0.22	72.20	0.96	-16.60
2750	0.96	-17.70	0.23	71.40	0.23	71.40	0.96	-17.70
2800	0.96	-18.70	0.25	70.80	0.25	70.80	0.96	-18.70
2850	0.95	-19.60	0.26	70.20	0.26	70.20	0.95	-19.60
2900	0.95	-20.60	0.27	69.20	0.27	69.20	0.95	-20.60
2950	0.95	-21.50	0.28	68.20	0.28	68.20	0.95	-21.50
3000	0.94	-22.30	0.30	67.50	0.30	67.50	0.94	-22.30
3050	0.94	-23.10	0.31	66.70	0.31	66.70	0.94	-23.10
3100	0.93	-24.10	0.32	66.10	0.32	66.10	0.93	-24.10
3150	0.93	-25.20	0.33	65.40	0.33	65.40	0.93	-25.20
3200	0.92	-25.70	0.35	64.80	0.35	64.80	0.92	-25.70
3250	0.92	-26.10	0.36	64.20	0.36	64.20	0.92	-26.10
3300	0.92	-26.90	0.37	63.40	0.37	63.40	0.92	-26.90
3350	0.91	-27.60	0.38	62.50	0.38	62.50	0.91	-27.60
3400	0.91	-28.40	0.39	62.00	0.39	62.00	0.91	-28.40
3450	0.90	-29.30	0.40	61.60	0.40	61.60	0.90	-29.30
3500	0.89	-30.10	0.42	60.80	0.42	60.80	0.89	-30.10
3550	0.89	-30.90	0.43	60.10	0.43	60.10	0.89	-30.90
3600	0.88	-31.40	0.44	59.50	0.44	59.50	0.88	-31.40
3650	0.88	-32.00	0.45	58.90	0.45	58.90	0.88	-32.00
3700	0.87	-33.00	0.46	58.20	0.46	58.20	0.87	-33.00
3750	0.87	-34.00	0.47	57.50	0.47	57.50	0.87	-34.00
3800	0.87	-34.70	0.48	57.00	0.48	57.00	0.87	-34.70
3850	0.86	-35.30	0.48	56.50	0.48	56.50	0.86	-35.30
3900	0.85	-36.30	0.49	55.50	0.49	55.50	0.85	-36.30
3950	0.85	-37.30	0.50	54.50	0.50	54.50	0.85	-37.30
4000	0.84	-38.00	0.51	54.10	0.51	54.10	0.84	-38.00
4050	0.83	-38.80	0.52	53.60	0.52	53.60	0.83	-38.80
4100	0.82	-39.40	0.53	53.00	0.53	53.00	0.82	-39.40
4150	0.82	-40.10	0.53	52.40	0.53	52.40	0.82	-40.10
4200	0.82	-41.00	0.54	51.90	0.54	51.90	0.82	-41.00
4250	0.82	-42.00	0.55	51.40	0.55	51.40	0.82	-42.00
4300	0.81	-42.70	0.56	51.00	0.56	51.00	0.81	-42.70
4350	0.80	-43.40	0.56	50.50	0.56	50.50	0.80	-43.40
4400	0.80	-44.30	0.57	49.80	0.57	49.80	0.80	-44.30
4450	0.80	-45.20	0.58	49.10	0.58	49.10	0.80	-45.20
4500	0.79	-45.60	0.58	48.70	0.58	48.70	0.79	-45.60
4550	0.78	-46.00	0.59	48.30	0.59	48.30	0.78	-46.00
4600	0.78	-47.10	0.60	47.50	0.60	47.50	0.78	-47.10
4650	0.78	-48.20	0.61	46.70	0.61	46.70	0.78	-48.20
4700	0.77	-49.00	0.62	46.20	0.62	46.20	0.77	-49.00
4750	0.76	-49.80	0.62	45.70	0.62	45.70	0.76	-49.80
4800	0.75	-50.70	0.63	45.00	0.63	45.00	0.75	-50.70
4850	0.74	-51.60	0.63	44.30	0.63	44.30	0.74	-51.60
4900	0.74	-52.20	0.64	43.80	0.64	43.80	0.74	-52.20
4950	0.74	-52.70	0.65	43.30	0.65	43.30	0.74	-52.70
5000	0.73	-53.80	0.65	42.10	0.65	42.10	0.73	-53.80
5050	0.71	-54.80	0.65	40.90	0.65	40.90	0.71	-54.80
5100	0.70	-54.30	0.65	40.90	0.65	40.90	0.70	-54.30
5150	0.69	-53.80	0.64	40.90	0.64	40.90	0.69	-53.80
5200	0.70	-54.00	0.65	41.10	0.65	41.10	0.70	-54.00
5250	0.70	-54.30	0.66	41.40	0.66	41.40	0.70	-54.30
5300	0.71	-55.60	0.68	40.30	0.68	40.30	0.71	-55.60
5350	0.71	-57.00	0.69	39.30	0.69	39.30	0.71	-57.00
5400	0.70	-57.30	0.69	38.80	0.69	38.80	0.70	-57.30
5450	0.69	-57.60	0.69	38.30	0.69	38.30	0.69	-57.60
5500	0.68	-58.10	0.70	37.70	0.70	37.70	0.68	-58.10
5550	0.68	-58.60	0.71	37.10	0.71	37.10	0.68	-58.60
5600	0.67	-59.00	0.71	36.50	0.71	36.50	0.67	-59.00
5650	0.66	-59.40	0.72	35.90	0.72	35.90	0.66	-59.40
5700	0.66	-59.70	0.72	35.50	0.72	35.50	0.66	-59.70
5750	0.65	-60.00	0.73	35.00	0.73	35.00	0.65	-60.00
5800	0.64	-60.00	0.73	34.40	0.73	34.40	0.64	-60.00
5850	0.64	-60.10	0.73	33.90	0.73	33.90	0.64	-60.10
5900	0.63	-60.00	0.74	33.50	0.74	33.50	0.63	-60.00
5950	0.63	-59.90	0.74	33.10	0.74	33.10	0.63	-59.90
6000	0.62	-61.20	0.75	31.90	0.75	31.90	0.62	-61.20
6050	0.61	-62.50	0.76	30.70	0.76	30.70	0.61	-62.50
6100	0.60	-62.40	0.77	30.50	0.77	30.50	0.60	-62.40
6150	0.59	-62.30	0.77	30.20	0.77	30.20	0.59	-62.30
6200	0.59	-62.10	0.77	29.40	0.77	29.40	0.59	-62.10
6250	0.58	-61.90	0.78	28.70	0.78	28.70	0.58	-61.90
6300	0.57	-62.00	0.78	28.10	0.78	28.10	0.57	-62.00
6350	0.57	-62.10	0.79	27.60	0.79	27.60	0.57	-62.10
6400	0.56	-61.70	0.79	26.90	0.79	26.90	0.56	-61.70
6450	0.55	-61.30	0.80	26.30	0.80	26.30	0.55	-61.30
6500	0.54	-61.20	0.80	25.60	0.80	25.60	0.54	-61.20
6550	0.54	-61.20	0.80	25.00	0.80	25.00	0.54	-61.20
6600	0.53	-60.90	0.81	24.20	0.81	24.20	0.53	-60.90
6650	0.52	-60.60	0.81	23.50	0.81	23.50	0.52	-60.60
6700	0.51	-60.30	0.81	23.00	0.81	23.00	0.51	-60.30
6750	0.50	-59.90	0.82	22.50	0.82	22.50	0.50	-59.90
6800	0.49	-59.90	0.82	21.70	0.82	21.70	0.49	-59.90
6850	0.48	-59.90	0.83	20.90	0.83	20.90	0.48	-59.90
6900	0.47	-59.80	0.83	20.00	0.83	20.00	0.47	-59.80
6950	0.46	-59.80	0.84	19.10	0.84	19.10	0.46	-59.80
7000	0.44	-59.50	0.84	18.20	0.84	18.20	0.44	-59.50
7050	0.43	-59.20	0.85	17.20	0.85	17.20	0.43	-59.20
7100	0.41	-59.10	0.85	16.20	0.85	16.20	0.41	-59.10
7150	0.40	-59.10	0.85	15.10	0.85	15.10	0.40	-59.10
7200	0.38	-58.40	0.86	13.90	0.86	13.90	0.38	-58.40
7250	0.36	-57.70	0.86	12.70	0.86	12.70	0.36	-57.70
7300	0.34	-57.10	0.86	11.10	0.86	11.10	0.34	-57.10
7350	0.32	-56.60	0.87	9.60	0.87	9.60	0.32	-56.60
7400	0.29	-54.00	0.86	7.70	0.86	7.70	0.29	-54.00
7450	0.26	-51.40	0.86	5.70	0.86	5.70	0.26	-51.40
7500	0.24	-45.80	0.86	3.40	0.86	3.40	0.24	-45.80
7550	0.22	-40.20	0.85	1.00	0.85	1.00	0.22	-40.20
7600	0.21	-27.80	0.83	-1.90	0.83	-1.90	0.21	-27.80
7650	0.20	-15.40	0.81	-4.80	0.81	-4.80	0.20	-15.40
7700	0.24	-4.60	0.78	-8.10	0.78	-8.10	0.24	-4.60
7750	0.27	6.20	0.74	-11.40	0.74	-11.40	0.27	6.20
7800	0.34	8.60	0.68	-14.40	0.68	-14.40	0.34	8.60
7850	0.40	11.00	0.62	-17.40	0.62	-17.40	0.40	11.00
7900	0.48	6.90	0.54	-17.80	0.54	-17.80	0.48	6.90
7950	0.56	2.80	0.46	-18.30	0.46	-18.30	0.56	2.80
8000	0.61	-3.00	0.40	-11.60	0.40	-11.60	0.61	-3.00
8050	0.66	-8.80	0.34	-4.90	0.34	-4.90	0.66	-8.80
8100	0.69	-14.40	0.34	7.00	0.34	7.00	0.69	-14.40
8150	0.71	-20.00	0.33	18.80	0.33	18.80	0.71	-20.00
8200	0.72	-24.80	0.37	25.10	0.37	25.10	0.72	-24.80
8250	0.73	-29.60	0.41	31.30	0.41	31.30	0.73	-29.60
8300	0.72	-33.30	0.45	33.30	0.45	33.30	0.72	-33.30
8350	0.72	-37.00	0.49	35.30	0.49	35.30	0.72	-37.00
8400	0.71	-40.00	0.52	35.10	0.52	35.10	0.71	-40.00
8450	0.70	-43.10	0.56	35.00	0.56	35.00	0.70	-43.10
8500	0.69	-45.40	0.58	34.60	0.58	34.60	0.69	-45.40
8550	0.68	-47.70	0.61	34.20	0.61	34.20	0.68	-47.70
8600	0.67	-49.60	0.63	33.20	0.63	33.20	0.67	-49.60
8650	0.66	-51.40	0.66	32.20	0.66	32.20	0.66	-51.40
8700	0.65	-52.90	0.67	31.40	0.67	31.40	0.65	-52.90
8750	0.64	-54.40	0.69	30.60	0.69	30.60	0.64	-54.40
8800	0.63	-55.50	0.70	30.10	0.70	30.10	0.63	-55.50
8850	0.61	-56.60	0.71	29.60	0.71	29.60	0.61	-56.60
8900	0.60	-57.30	0.72	28.80	0.72	28.80	0.60	-57.30
8950	0.59	-58.10	0.74	28.10	0.74	28.10	0.59	-58.10
9000	0.59	-58.80	0.74	27.50	0.74	27.50	0.59	-58.80
9050	0.58	-59.60	0.75	26.90	0.75	26.90	0.58	-59.60
9100	0.57	-60.50	0.76	26.40	0.76	26.40	0.57	-60.50
9150	0.56	-61.30	0.77	25.90	0.77	25.90	0.56	-61.30
9200	0.55	-62.40	0.78	25.60	0.78	25.60	0.55	-62.40
9250	0.54	-63.60	0.79	25.30	0.79	25.30	0.54	-63.60
9300	0.53	-63.80	0.80	24.60	0.80	24.60	0.53	-63.80
9350	0.52	-64.00	0.80	23.90	0.80	23.90	0.52	-64.00
9400	0.52	-64.70	0.81	23.70	0.81	23.70	0.52	-64.70
9450	0.51	-65.50	0.81	23.40	0.81	23.40	0.51	-65.50
9500	0.50	-65.70	0.82	22.70	0.82	22.70	0.50	-65.70
9550	0.49	-66.00	0.83	21.90	0.83	21.90	0.49	-66.00
9600	0.48	-66.40	0.83	21.40	0.83	21.40	0.48	-66.40
9650	0.48	-66.70	0.84	20.80	0.84	20.80	0.48	-66.70
9700	0.47	-67.40	0.85	20.40	0.85	20.40	0.47	-67.40
9750	0.46	-68.00	0.85	20.00	0.85	20.00	0.46	-68.00
9800	0.46	-67.90	0.86	19.40	0.86	19.40	0.46	-67.90
9850	0.45	-67.80	0.86	18.80	0.86	18.80	0.45	-67.80
9900	0.44	-67.90	0.86	18.50	0.86	18.50	0.44	-67.90
9950	0.43	-68.00	0.86	18.30	0.86	18.30	0.43	-68.00
10000	0.43	-68.50	0.87	17.90	0.87	17.90	0.43	-68.50
10050	0.42	-69.00	0.87	17.50	0.87	17.50	0.42	-69.00
10100	0.41	-68.80	0.87	17.10	0.87	17.10	0.41	-68.80
10150	0.41	-68.60	0.88	16.70	0.88	16.70	0.41	-68.60
10200	0.40	-68.90	0.88	16.40	0.88	16.40	0.40	-68.90
10250	0.39	-69.20	0.89	16.00	0.89	16.00	0.39	-69.20
10300	0.38	-69.70	0.89	15.70	0.89	15.70	0.38	-69.70
10350	0.38	-70.20	0.88	15.40	0.88	15.40	0.38	-70.20
10400	0.37	-71.30	0.89	14.80	0.89	14.80	0.37	-71.30
10450	0.36	-72.40	0.90	14.20	0.90	14.20	0.36	-72.40
10500	0.36	-72.60	0.90	14.00	0.90	14.00	0.36	-72.60
10550	0.36	-72.70	0.90	13.70	0.90	13.70	0.36	-72.70
10600	0.35	-74.10	0.91	13.20	0.91	13.20	0.35	-74.10
10650	0.34	-75.50	0.91	12.60	0.91	12.60	0.34	-75.50
10700	0.33	-75.60	0.91	12.30	0.91	12.30	0.33	-75.60
10750	0.33	-75.60	0.92	12.10	0.92	12.10	0.33	-75.60
10800	0.33	-76.90	0.92	11.80	0.92	11.80	0.33	-76.90
10850	0.33	-78.10	0.92	11.60	0.92	11.60	0.33	-78.10
10900	0.32	-79.20	0.92	11.00	0.92	11.00	0.32	-79.20
10950	0.31	-80.30	0.92	10.40	0.92	10.40	0.31	-80.30
11000	0.31	-81.00	0.92	10.30	0.92	10.30	0.31	-81.00
11050	0.30	-81.70	0.92	10.10	0.92	10.10	0.30	-81.70
11100	0.31	-82.50	0.92	9.70	0.92	9.70	0.31	-82.50
11150	0.31	-83.40	0.93	9.30	0.93	9.30	0.31	-83.40
11200	0.30	-83.00	0.92	9.10	0.92	9.10	0.30	-83.00
11250	0.30	-82.70	0.92	8.80	0.92	8.80	0.30	-82.70
11300	0.30	-83.50	0.92	8.30	0.92	8.30	0.30	-83.50
11350	0.29	-84.40	0.93	7.90	0.93	7.90	0.29	-84.40
11400	0.29	-83.60	0.93	7.80	0.93	7.80	0.29	-83.60
11450	0.29	-82.80	0.93	7.80	0.93	7.80	0.29	-82.80
11500	0.28	-83.70	0.93	7.20	0.93	7.20	0.28	-83.70
11550	0.28	-84.70	0.93	6.70	0.93	6.70	0.28	-84.70
11600	0.28	-84.50	0.93	6.50	0.93	6.50	0.28	-84.50
11650	0.27	-84.30	0.94	6.20	0.94	6.20	0.27	-84.30
11700	0.27	-84.60	0.94	5.80	0.94	5.80	0.27	-84.60
11750	0.26	-84.90	0.94	5.40	0.94	5.40	0.26	-84.90
11800	0.25	-85.40	0.94	5.10	0.94	5.10	0.25	-85.40
11850	0.25	-86.00	0.94	4.80	0.94	4.80	0.25	-86.00
11900	0.24	-87.00	0.94	4.50	0.94	4.50	0.24	-87.00
11950	0.23	-88.10	0.94	4.30	0.94	4.30	0.23	-88.10
12000	0.23	-89.30	0.94	3.60	0.94	3.60	0.23	-89.30
12050	0.23	-90.40	0.94	3.00	0.94	3.00	0.23	-90.40
12100	0.23	-91.20	0.94	2.70	0.94	2.70	0.23	-91.20
12150	0.22	-92.10	0.94	2.40	0.94	2.40	0.22	-92.10
12200	0.22	-92.80	0.94	2.00	0.94	2.00	0.22	-92.80
12250	0.22	-93.40	0.94	1.70	0.94	1.70	0.22	-93.40
12300	0.21	-93.10	0.94	1.30	0.94	1.30	0.21	-93.10
12350	0.21	-92.70	0.94	0.80	0.94	0.80	0.21	-92.70
12400	0.21	-93.20	0.93	0.60	0.93	0.60	0.21	-93.20
12450	0.21	-93.80	0.93	0.30	0.93	0.30	0.21	-93.80
12500	0.21	-92.40	0.93	-0.10	0.93	-0.10	0.21	-92.40
12550	0.20	-91.10	0.94	-0.50	0.94	-0.50	0.20	-91.10
12600	0.21	-90.60	0.93	-0.80	0.93	-0.80	0.21	-90.60
12650	0.21	-90.20	0.93	-1.10	0.93	-1.10	0.21	-90.20
12700	0.20	-87.70	0.93	-1.50	0.93	-1.50	0.20	-87.70
12750	0.20	-85.10	0.93	-1.90	0.93	-1.90	0.20	-85.10
12800	0.19	-83.70	0.93	-2.30	0.93	-2.30	0.19	-83.70
12850	0.19	-82.30	0.93	-2.70	0.93	-2.70	0.19	-82.30
12900	0.18	-79.50	0.93	-3.20	0.93	-3.20	0.18	-79.50
12950	0.18	-76.80	0.93	-3.70	0.93	-3.70	0.18	-76.80
13000	0.17	-74.70	0.93	-4.20	0.93	-4.20	0.17	-74.70
13050	0.17	-72.70	0.93	-4.70	0.93	-4.70	0.17	-72.70
13100	0.16	-68.50	0.92	-5.30	0.92	-5.30	0.16	-68.50
13150	0.16	-64.30	0.92	-5.90	0.92	-5.90	0.16	-64.30
13200	0.15	-59.90	0.91	-6.50	0.91	-6.50	0.15	-59.90
13250	0.14	-55.50	0.91	-7.00	0.91	-7.00	0.14	-55.50
13300	0.14	-48.20	0.90	-8.00	0.90	-8.00	0.14	-48.20
13350	0.13	-40.80	0.89	-9.10	0.89	-9.10	0.13	-40.80
13400	0.14	-34.80	0.88	-10.10	0.88	-10.10	0.14	-34.80
13450	0.14	-28.80	0.87	-11.10	0.87	-11.10	0.14	-28.80
13500	0.16	-23.10	0.85	-12.00	0.85	-12.00	0.16	-23.10
13550	0.17	-17.50	0.83	-12.80	0.83	-12.80	0.17	-17.50
13600	0.20	-15.50	0.80	-13.60	0.80	-13.60	0.20	-15.50
13650	0.22	-13.60	0.78	-14.40	0.78	-14.40	0.22	-13.60
13700	0.25	-15.00	0.74	-14.20	0.74	-14.20	0.25	-15.00
13750	0.29	-16.40	0.71	-14.00	0.71	-14.00	0.29	-16.40
13800	0.32	-20.40	0.68	-12.10	0.68	-12.10	0.32	-20.40
13850	0.36	-24.30	0.64	-10.20	0.64	-10.20	0.36	-24.30
13900	0.39	-29.60	0.63	-6.70	0.63	-6.70	0.39	-29.60
13950	0.41	-34.90	0.62	-3.20	0.62	-3.20	0.41	-34.90
14000	0.43	-39.40	0.63	0.00	0.63	0.00	0.43	-39.40
14050	0.44	-43.90	0.64	3.30	0.64	3.30	0.44	-43.90
14100	0.44	-48.50	0.67	4.90	0.67	4.90	0.44	-48.50
14150	0.45	-53.10	0.69	6.50	0.69	6.50	0.45	-53.10
14200	0.44	-55.70	0.72	6.90	0.72	6.90	0.44	-55.70
14250	0.44	-58.20	0.74	7.30	0.74	7.30	0.44	-58.20
14300	0.43	-60.60	0.76	7.30	0.76	7.30	0.43	-60.60
14350	0.42	-63.10	0.79	7.20	0.79	7.20	0.42	-63.10
14400	0.41	-64.50	0.80	6.60	0.80	6.60	0.41	-64.50
14450	0.40	-65.90	0.82	6.00	0.82	6.00	0.40	-65.90
14500	0.39	-66.60	0.83	5.70	0.83	5.70	0.39	-66.60
14550	0.38	-67.30	0.84	5.50	0.84	5.50	0.38	-67.30
14600	0.37	-67.70	0.85	4.80	0.85	4.80	0.37	-67.70
14650	0.35	-68.20	0.86	4.20	0.86	4.20	0.35	-68.20
14700	0.34	-69.10	0.87	3.60	0.87	3.60	0.34	-69.10
14750	0.33	-70.00	0.88	3.10	0.88	3.10	0.33	-70.00
14800	0.32	-69.80	0.89	2.60	0.89	2.60	0.32	-69.80
14850	0.31	-69.70	0.89	2.00	0.89	2.00	0.31	-69.70
14900	0.31	-70.00	0.90	1.60	0.90	1.60	0.31	-70.00
14950	0.30	-70.40	0.91	1.10	0.91	1.10	0.30	-70.40
15000	0.29	-70.70	0.91	0.60	0.91	0.60	0.29	-70.70
15050	0.28	-71.00	0.91	0.10	0.91	0.10	0.28	-71.00
15100	0.27	-70.40	0.92	-0.20	0.92	-0.20	0.27	-70.40
15150	0.27	-69.80	0.92	-0.50	0.92	-0.50	0.27	-69.80
15200	0.26	-69.90	0.93	-0.80	0.93	-0.80	0.26	-69.90
15250	0.26	-70.00	0.93	-1.00	0.93	-1.00	0.26	-70.00
15300	0.25	-69.20	0.93	-1.70	0.93	-1.70	0.25	-69.20
15350	0.25	-68.50	0.93	-2.30	0.93	-2.30	0.25	-68.50
15400	0.24	-67.30	0.93	-2.50	0.93	-2.50	0.24	-67.30
15450	0.24	-66.10	0.93	-2.70	0.93	-2.70	0.24	-66.10
15500	0.23	-64.40	0.94	-3.20	0.94	-3.20	0.23	-64.40
15550	0.23	-62.70	0.94	-3.70	0.94	-3.70	0.23	-62.70
15600	0.23	-61.00	0.94	-4.00	0.94	-4.00	0.23	-61.00
15650	0.23	-59.30	0.94	-4.20	0.94	-4.20	0.23	-59.30
15700	0.22	-57.10	0.94	-4.60	0.94	-4.60	0.22	-57.10
15750	0.22	-54.80	0.94	-5.10	0.94	-5.10	0.22	-54.80
15800	0.21	-52.50	0.94	-5.20	0.94	-5.20	0.21	-52.50
15850	0.20	-50.30	0.94	-5.40	0.94	-5.40	0.20	-50.30
15900	0.20	-48.00	0.94	-5.70	0.94	-5.70	0.20	-48.00
15950	0.20	-45.80	0.94	-6.10	0.94	-6.10	0.20	-45.80
16000	0.19	-42.00	0.94	-6.30	0.94	-6.30	0.19	-42.00
16050	0.19	-38.10	0.95	-6.50	0.95	-6.50	0.19	-38.10
16100	0.18	-36.40	0.94	-6.90	0.94	-6.90	0.18	-36.40
16150	0.17	-34.80	0.94	-7.40	0.94	-7.40	0.17	-34.80
16200	0.17	-31.90	0.94	-7.60	0.94	-7.60	0.17	-31.90
16250	0.16	-29.10	0.94	-7.80	0.94	-7.80	0.16	-29.10
16300	0.16	-28.80	0.94	-8.00	0.94	-8.00	0.16	-28.80
16350	0.15	-28.50	0.94	-8.30	0.94	-8.30	0.15	-28.50
16400	0.14	-27.20	0.94	-8.40	0.94	-8.40	0.14	-27.20
16450	0.14	-25.80	0.94	-8.60	0.94	-8.60	0.14	-25.80
16500	0.13	-29.30	0.93	-8.50	0.93	-8.50	0.13	-29.30
16550	0.13	-32.80	0.93	-8.50	0.93	-8.50	0.13	-32.80
16600	0.12	-31.60	0.94	-8.70	0.94	-8.70	0.12	-31.60
16650	0.12	-30.40	0.94	-9.00	0.94	-9.00	0.12	-30.40
16700	0.11	-33.80	0.95	-9.00	0.95	-9.00	0.11	-33.80
16750	0.11	-37.20	0.95	-9.10	0.95	-9.10	0.11	-37.20
16800	0.11	-38.00	0.95	-9.20	0.95	-9.20	0.11	-38.00
16850	0.10	-38.70	0.95	-9.30	0.95	-9.30	0.10	-38.70
16900	0.10	-38.00	0.95	-9.50	0.95	-9.50	0.10	-38.00
16950	0.10	-37.40	0.95	-9.70	0.95	-9.70	0.10	-37.40
17000	0.10	-37.70	0.95	-10.00	0.95	-10.00	0.10	-37.70
17050	0.09	-38.00	0.96	-10.30	0.96	-10.30	0.09	-38.00
17100	0.09	-34.90	0.95	-10.60	0.95	-10.60	0.09	-34.90
17150	0.10	-31.70	0.95	-10.80	0.95	-10.80	0.10	-31.70
17200	0.09	-29.30	0.95	-10.90	0.95	-10.90	0.09	-29.30
17250	0.09	-26.80	0.95	-11.00	0.95	-11.00	0.09	-26.80
17300	0.09	-23.50	0.95	-11.10	0.95	-11.10	0.09	-23.50
17350	0.08	-20.30	0.95	-11.20	0.95	-11.20	0.08	-20.30
17400	0.07	-17.90	0.95	-11.40	0.95	-11.40	0.07	-17.90
17450	0.06	-15.40	0.95	-11.50	0.95	-11.50	0.06	-15.40
17500	0.06	-9.10	0.95	-11.80	0.95	-11.80	0.06	-9.10
17550	0.06	-2.80	0.96	-12.10	0.96	-12.10	0.06	-2.80
17600	0.06	7.00	0.96	-12.40	0.96	-12.40	0.06	7.00
17650	0.05	16.90	0.96	-12.70	0.96	-12.70	0.05	16.90
17700	0.05	26.50	0.96	-13.00	0.96	-13.00	0.05	26.50
17750	0.05	36.10	0.96	-13.30	0.96	-13.30	0.05	36.10
17800	0.04	41.90	0.96	-13.60	0.96	-13.60	0.04	41.90
17850	0.04	47.70	0.96	-14.00	0.96	-14.00	0.04	47.70
17900	0.04	59.00	0.96	-14.30	0.96	-14.30	0.04	59.00
17950	0.04	70.40	0.96	-14.50	0.96	-14.50	0.04	70.40
18000	0.04	74.50	0.96	-15.00	0.96	-15.00	0.04	74.50
18050	0.04	78.70	0.96	-15.40	0.96	-15.40	0.04	78.70
18100	0.03	83.00	0.96	-15.70	0.96	-15.70	0.03	83.00
18150	0.03	87.30	0.96	-16.00	0.96	-16.00	0.03	87.30
18200	0.03	84.10	0.96	-16.40	0.96	-16.40	0.03	84.10
18250	0.03	80.80	0.96	-16.80	0.96	-16.80	0.03	80.80
18300	0.02	72.20	0.96	-17.10	0.96	-17.10	0.02	72.20
18350	0.02	63.60	0.96	-17.40	0.96	-17.40	0.02	63.60
18400	0.03	50.00	0.96	-17.70	0.96	-17.70	0.03	50.00
18450	0.03	36.40	0.96	-18.00	0.96	-18.00	0.03	36.40
18500	0.04	32.20	0.95	-18.20	0.95	-18.20	0.04	32.20
18550	0.04	28.00	0.95	-18.40	0.95	-18.40	0.04	28.00
18600	0.05	32.20	0.96	-18.60	0.96	-18.60	0.05	32.20
18650	0.06	36.30	0.96	-18.80	0.96	-18.80	0.06	36.30
18700	0.06	32.90	0.95	-19.30	0.95	-19.30	0.06	32.90
18750	0.05	29.60	0.95	-19.80	0.95	-19.80	0.05	29.60
18800	0.06	32.10	0.95	-20.00	0.95	-20.00	0.06	32.10
18850	0.07	34.70	0.95	-20.20	0.95	-20.20	0.07	34.70
18900	0.07	36.60	0.94	-20.70	0.94	-20.70	0.07	36.60
18950	0.07	38.50	0.94	-21.10	0.94	-21.10	0.07	38.50
19000	0.07	43.80	0.94	-21.20	0.94	-21.20	0.07	43.80
19050	0.06	49.20	0.93	-21.20	0.93	-21.20	0.06	49.20
19100	0.07	44.20	0.93	-21.40	0.93	-21.40	0.07	44.20
19150	0.08	39.30	0.93	-21.60	0.93	-21.60	0.08	39.30
19200	0.08	32.70	0.93	-21.80	0.93	-21.80	0.08	32.70
19250	0.08	26.20	0.93	-22.00	0.93	-22.00	0.08	26.20
19300	0.09	20.20	0.93	-22.40	0.93	-22.40	0.09	20.20
19350	0.09	14.30	0.93	-22.70	0.93	-22.70	0.09	14.30
19400	0.10	10.00	0.93	-23.50	0.93	-23.50	0.10	10.00
19450	0.10	5.80	0.93	-24.20	0.93	-24.20	0.10	5.80
19500	0.12	0.20	0.92	-24.50	0.92	-24.50	0.12	0.20
