#	mhz	s	ma	r	50

50	0.96	178.30	0.02	77.60	0.02	77.60	0.96	178.30
100	0.98	176.80	0.04	79.00	0.04	79.00	0.98	176.80
150	1.00	175.20	0.06	80.40	0.06	80.40	1.00	175.20
200	0.99	174.00	0.08	79.90	0.08	79.90	0.99	174.00
250	0.98	172.80	0.09	79.50	0.09	79.50	0.98	172.80
300	0.98	171.00	0.11	78.10	0.11	78.10	0.98	171.00
350	0.98	169.20	0.13	76.70	0.13	76.70	0.98	169.20
400	0.98	168.00	0.15	75.90	0.15	75.90	0.98	168.00
450	0.97	166.80	0.16	75.00	0.16	75.00	0.97	166.80
500	0.96	164.10	0.19	73.50	0.19	73.50	0.96	164.10
550	0.96	161.40	0.22	72.10	0.22	72.10	0.96	161.40
600	0.96	160.00	0.24	70.60	0.24	70.60	0.96	160.00
650	0.96	158.60	0.25	69.00	0.25	69.00	0.96	158.60
700	0.95	156.80	0.27	68.00	0.27	68.00	0.95	156.80
750	0.94	155.00	0.29	66.90	0.29	66.90	0.94	155.00
800	0.94	153.60	0.30	65.30	0.30	65.30	0.94	153.60
850	0.94	152.30	0.32	63.80	0.32	63.80	0.94	152.30
900	0.93	150.70	0.33	62.40	0.33	62.40	0.93	150.70
950	0.92	149.10	0.35	61.10	0.35	61.10	0.92	149.10
1000	0.91	147.60	0.36	59.70	0.36	59.70	0.91	147.60
1050	0.90	146.00	0.38	58.30	0.38	58.30	0.90	146.00
1100	0.90	144.40	0.39	57.20	0.39	57.20	0.90	144.40
1150	0.89	142.80	0.41	56.10	0.41	56.10	0.89	142.80
1200	0.88	141.40	0.42	54.70	0.42	54.70	0.88	141.40
1250	0.88	139.90	0.43	53.40	0.43	53.40	0.88	139.90
1300	0.87	138.30	0.44	52.40	0.44	52.40	0.87	138.30
1350	0.87	136.80	0.46	51.50	0.46	51.50	0.87	136.80
1400	0.86	135.40	0.47	50.10	0.47	50.10	0.86	135.40
1450	0.85	134.00	0.48	48.80	0.48	48.80	0.85	134.00
1500	0.85	132.50	0.49	47.70	0.49	47.70	0.85	132.50
1550	0.84	130.90	0.50	46.70	0.50	46.70	0.84	130.90
1600	0.84	129.50	0.51	45.50	0.51	45.50	0.84	129.50
1650	0.83	128.20	0.53	44.40	0.53	44.40	0.83	128.20
1700	0.82	126.80	0.54	43.30	0.54	43.30	0.82	126.80
1750	0.82	125.40	0.55	42.10	0.55	42.10	0.82	125.40
1800	0.81	124.40	0.56	41.30	0.56	41.30	0.81	124.40
1850	0.81	123.40	0.57	40.50	0.57	40.50	0.81	123.40
1900	0.80	121.90	0.57	39.40	0.57	39.40	0.80	121.90
1950	0.79	120.50	0.58	38.40	0.58	38.40	0.79	120.50
2000	0.79	119.30	0.59	37.20	0.59	37.20	0.79	119.30
2050	0.78	118.20	0.60	36.10	0.60	36.10	0.78	118.20
2100	0.77	117.30	0.61	35.20	0.61	35.20	0.77	117.30
2150	0.76	116.30	0.62	34.40	0.62	34.40	0.76	116.30
2200	0.76	115.20	0.63	33.30	0.63	33.30	0.76	115.20
2250	0.76	114.10	0.63	32.30	0.63	32.30	0.76	114.10
2300	0.75	113.30	0.64	31.40	0.64	31.40	0.75	113.30
2350	0.73	112.50	0.65	30.60	0.65	30.60	0.73	112.50
2400	0.73	111.70	0.65	29.70	0.65	29.70	0.73	111.70
2450	0.73	111.00	0.66	28.80	0.66	28.80	0.73	111.00
2500	0.72	110.20	0.67	27.80	0.67	27.80	0.72	110.20
2550	0.71	109.50	0.68	26.80	0.68	26.80	0.71	109.50
2600	0.71	108.70	0.69	26.00	0.69	26.00	0.71	108.70
2650	0.70	107.90	0.69	25.10	0.69	25.10	0.70	107.90
2700	0.69	107.40	0.70	24.30	0.70	24.30	0.69	107.40
2750	0.69	107.00	0.71	23.40	0.71	23.40	0.69	107.00
2800	0.68	106.20	0.71	22.50	0.71	22.50	0.68	106.20
2850	0.67	105.50	0.72	21.70	0.72	21.70	0.67	105.50
2900	0.67	104.90	0.73	20.60	0.73	20.60	0.67	104.90
2950	0.66	104.40	0.73	19.50	0.73	19.50	0.66	104.40
3000	0.65	104.00	0.74	18.70	0.74	18.70	0.65	104.00
3050	0.65	103.50	0.75	17.90	0.75	17.90	0.65	103.50
3100	0.64	102.40	0.75	16.70	0.75	16.70	0.64	102.40
3150	0.63	101.30	0.75	15.60	0.75	15.60	0.63	101.30
3200	0.63	101.10	0.76	15.00	0.76	15.00	0.63	101.10
3250	0.62	101.00	0.77	14.40	0.77	14.40	0.62	101.00
3300	0.62	100.40	0.77	13.40	0.77	13.40	0.62	100.40
3350	0.61	99.80	0.78	12.30	0.78	12.30	0.61	99.80
3400	0.60	99.20	0.78	11.50	0.78	11.50	0.60	99.20
3450	0.60	98.50	0.79	10.80	0.79	10.80	0.60	98.50
3500	0.59	98.30	0.79	10.10	0.79	10.10	0.59	98.30
3550	0.58	98.10	0.79	9.40	0.79	9.40	0.58	98.10
3600	0.57	97.80	0.80	8.50	0.80	8.50	0.57	97.80
3650	0.57	97.40	0.81	7.60	0.81	7.60	0.57	97.40
3700	0.56	96.80	0.81	6.70	0.81	6.70	0.56	96.80
3750	0.55	96.10	0.81	5.80	0.81	5.80	0.55	96.10
3800	0.55	95.60	0.82	5.10	0.82	5.10	0.55	95.60
3850	0.54	95.10	0.82	4.30	0.82	4.30	0.54	95.10
3900	0.54	94.40	0.83	3.40	0.83	3.40	0.54	94.40
3950	0.53	93.70	0.83	2.40	0.83	2.40	0.53	93.70
4000	0.52	93.10	0.84	1.70	0.84	1.70	0.52	93.10
4050	0.52	92.50	0.84	0.90	0.84	0.90	0.52	92.50
4100	0.51	91.60	0.85	0.00	0.85	0.00	0.51	91.60
4150	0.51	90.70	0.85	-0.90	0.85	-0.90	0.51	90.70
4200	0.50	89.70	0.85	-1.70	0.85	-1.70	0.50	89.70
4250	0.50	88.80	0.85	-2.50	0.85	-2.50	0.50	88.80
4300	0.49	87.80	0.86	-3.20	0.86	-3.20	0.49	87.80
4350	0.48	86.80	0.86	-3.90	0.86	-3.90	0.48	86.80
4400	0.48	85.80	0.86	-4.70	0.86	-4.70	0.48	85.80
4450	0.47	84.70	0.87	-5.60	0.87	-5.60	0.47	84.70
4500	0.47	83.30	0.87	-6.60	0.87	-6.60	0.47	83.30
4550	0.46	81.90	0.87	-7.70	0.87	-7.70	0.46	81.90
4600	0.46	80.70	0.87	-8.40	0.87	-8.40	0.46	80.70
4650	0.46	79.50	0.88	-9.10	0.88	-9.10	0.46	79.50
4700	0.45	78.40	0.88	-9.80	0.88	-9.80	0.45	78.40
4750	0.44	77.20	0.88	-10.50	0.88	-10.50	0.44	77.20
4800	0.44	75.90	0.88	-11.20	0.88	-11.20	0.44	75.90
4850	0.43	74.70	0.88	-12.00	0.88	-12.00	0.43	74.70
4900	0.43	73.50	0.89	-12.70	0.89	-12.70	0.43	73.50
4950	0.43	72.30	0.89	-13.40	0.89	-13.40	0.43	72.30
5000	0.42	71.10	0.89	-14.20	0.89	-14.20	0.42	71.10
5050	0.42	70.00	0.89	-14.90	0.89	-14.90	0.42	70.00
5100	0.41	68.50	0.90	-15.70	0.90	-15.70	0.41	68.50
5150	0.41	67.10	0.90	-16.60	0.90	-16.60	0.41	67.10
5200	0.40	66.50	0.90	-17.20	0.90	-17.20	0.40	66.50
5250	0.39	65.80	0.90	-17.70	0.90	-17.70	0.39	65.80
5300	0.39	64.50	0.90	-18.40	0.90	-18.40	0.39	64.50
5350	0.39	63.20	0.91	-19.00	0.91	-19.00	0.39	63.20
5400	0.38	62.00	0.91	-19.90	0.91	-19.90	0.38	62.00
5450	0.38	60.80	0.91	-20.80	0.91	-20.80	0.38	60.80
5500	0.37	59.80	0.92	-21.40	0.92	-21.40	0.37	59.80
5550	0.37	58.80	0.92	-22.00	0.92	-22.00	0.37	58.80
5600	0.37	57.70	0.92	-22.80	0.92	-22.80	0.37	57.70
5650	0.36	56.60	0.92	-23.60	0.92	-23.60	0.36	56.60
5700	0.35	55.80	0.93	-24.40	0.93	-24.40	0.35	55.80
5750	0.35	54.90	0.93	-25.20	0.93	-25.20	0.35	54.90
5800	0.34	53.80	0.93	-25.90	0.93	-25.90	0.34	53.80
5850	0.34	52.70	0.93	-26.50	0.93	-26.50	0.34	52.70
5900	0.34	52.40	0.93	-27.10	0.93	-27.10	0.34	52.40
5950	0.33	52.20	0.93	-27.70	0.93	-27.70	0.33	52.20
6000	0.32	50.40	0.94	-28.20	0.94	-28.20	0.32	50.40
6050	0.31	48.60	0.94	-28.80	0.94	-28.80	0.31	48.60
6100	0.31	48.40	0.94	-29.30	0.94	-29.30	0.31	48.40
6150	0.30	48.30	0.94	-29.80	0.94	-29.80	0.30	48.30
6200	0.30	48.30	0.94	-30.50	0.94	-30.50	0.30	48.30
6250	0.29	48.20	0.95	-31.20	0.95	-31.20	0.29	48.20
6300	0.29	48.30	0.95	-31.80	0.95	-31.80	0.29	48.30
6350	0.28	48.40	0.95	-32.40	0.95	-32.40	0.28	48.40
6400	0.27	48.30	0.95	-33.10	0.95	-33.10	0.27	48.30
6450	0.27	48.10	0.95	-33.70	0.95	-33.70	0.27	48.10
6500	0.26	47.70	0.95	-34.40	0.95	-34.40	0.26	47.70
6550	0.26	47.30	0.95	-35.10	0.95	-35.10	0.26	47.30
6600	0.25	47.50	0.95	-35.80	0.95	-35.80	0.25	47.50
6650	0.25	47.70	0.95	-36.50	0.95	-36.50	0.25	47.70
6700	0.24	47.70	0.95	-37.00	0.95	-37.00	0.24	47.70
6750	0.24	47.70	0.95	-37.50	0.95	-37.50	0.24	47.70
6800	0.23	47.50	0.96	-38.00	0.96	-38.00	0.23	47.50
6850	0.23	47.30	0.96	-38.60	0.96	-38.60	0.23	47.30
6900	0.23	47.20	0.96	-39.30	0.96	-39.30	0.23	47.20
6950	0.23	47.00	0.96	-40.10	0.96	-40.10	0.23	47.00
7000	0.23	47.10	0.96	-40.70	0.96	-40.70	0.23	47.10
7050	0.22	47.20	0.96	-41.40	0.96	-41.40	0.22	47.20
7100	0.22	47.40	0.96	-42.00	0.96	-42.00	0.22	47.40
7150	0.22	47.60	0.96	-42.60	0.96	-42.60	0.22	47.60
7200	0.22	47.40	0.96	-43.20	0.96	-43.20	0.22	47.40
7250	0.21	47.10	0.96	-43.80	0.96	-43.80	0.21	47.10
7300	0.21	47.00	0.97	-44.40	0.97	-44.40	0.21	47.00
7350	0.21	46.90	0.97	-44.90	0.97	-44.90	0.21	46.90
7400	0.21	46.80	0.97	-45.60	0.97	-45.60	0.21	46.80
7450	0.21	46.60	0.97	-46.30	0.97	-46.30	0.21	46.60
7500	0.21	46.00	0.97	-46.90	0.97	-46.90	0.21	46.00
7550	0.21	45.40	0.97	-47.40	0.97	-47.40	0.21	45.40
7600	0.21	44.40	0.97	-48.10	0.97	-48.10	0.21	44.40
7650	0.21	43.50	0.97	-48.70	0.97	-48.70	0.21	43.50
7700	0.21	42.40	0.97	-49.30	0.97	-49.30	0.21	42.40
7750	0.21	41.30	0.97	-50.00	0.97	-50.00	0.21	41.30
7800	0.21	40.70	0.97	-50.50	0.97	-50.50	0.21	40.70
7850	0.21	40.20	0.97	-51.10	0.97	-51.10	0.21	40.20
7900	0.21	38.30	0.97	-51.70	0.97	-51.70	0.21	38.30
7950	0.21	36.40	0.97	-52.30	0.97	-52.30	0.21	36.40
8000	0.21	35.20	0.97	-53.00	0.97	-53.00	0.21	35.20
8050	0.21	34.00	0.97	-53.60	0.97	-53.60	0.21	34.00
8100	0.20	32.20	0.97	-54.20	0.97	-54.20	0.20	32.20
8150	0.20	30.50	0.97	-54.70	0.97	-54.70	0.20	30.50
8200	0.20	28.70	0.96	-55.20	0.96	-55.20	0.20	28.70
8250	0.20	27.00	0.96	-55.70	0.96	-55.70	0.20	27.00
8300	0.20	25.10	0.96	-56.30	0.96	-56.30	0.20	25.10
8350	0.20	23.30	0.97	-56.80	0.97	-56.80	0.20	23.30
8400	0.20	21.60	0.97	-57.40	0.97	-57.40	0.20	21.60
8450	0.20	19.90	0.97	-58.00	0.97	-58.00	0.20	19.90
8500	0.20	17.60	0.97	-58.50	0.97	-58.50	0.20	17.60
8550	0.21	15.30	0.96	-59.00	0.96	-59.00	0.21	15.30
8600	0.21	13.80	0.97	-59.50	0.97	-59.50	0.21	13.80
8650	0.21	12.40	0.97	-60.10	0.97	-60.10	0.21	12.40
8700	0.21	10.80	0.97	-60.70	0.97	-60.70	0.21	10.80
8750	0.21	9.20	0.97	-61.20	0.97	-61.20	0.21	9.20
8800	0.21	8.10	0.97	-61.60	0.97	-61.60	0.21	8.10
8850	0.21	7.00	0.97	-62.00	0.97	-62.00	0.21	7.00
8900	0.21	6.40	0.97	-62.60	0.97	-62.60	0.21	6.40
8950	0.21	5.90	0.97	-63.20	0.97	-63.20	0.21	5.90
9000	0.21	5.00	0.96	-63.70	0.96	-63.70	0.21	5.00
9050	0.21	4.10	0.96	-64.30	0.96	-64.30	0.21	4.10
9100	0.21	3.40	0.97	-64.90	0.97	-64.90	0.21	3.40
9150	0.21	2.80	0.97	-65.50	0.97	-65.50	0.21	2.80
9200	0.21	1.10	0.96	-66.10	0.96	-66.10	0.21	1.10
9250	0.20	-0.60	0.96	-66.60	0.96	-66.60	0.20	-0.60
9300	0.20	-1.00	0.97	-66.90	0.97	-66.90	0.20	-1.00
9350	0.20	-1.50	0.97	-67.30	0.97	-67.30	0.20	-1.50
9400	0.20	-3.50	0.97	-67.80	0.97	-67.80	0.20	-3.50
9450	0.20	-5.50	0.97	-68.30	0.97	-68.30	0.20	-5.50
9500	0.19	-6.10	0.97	-68.80	0.97	-68.80	0.19	-6.10
9550	0.19	-6.70	0.97	-69.40	0.97	-69.40	0.19	-6.70
9600	0.19	-8.70	0.97	-70.00	0.97	-70.00	0.19	-8.70
9650	0.19	-10.60	0.97	-70.70	0.97	-70.70	0.19	-10.60
9700	0.18	-11.90	0.97	-71.10	0.97	-71.10	0.18	-11.90
9750	0.18	-13.10	0.97	-71.50	0.97	-71.50	0.18	-13.10
9800	0.18	-14.70	0.97	-72.00	0.97	-72.00	0.18	-14.70
9850	0.18	-16.20	0.97	-72.60	0.97	-72.60	0.18	-16.20
9900	0.18	-17.40	0.97	-73.10	0.97	-73.10	0.18	-17.40
9950	0.18	-18.50	0.97	-73.70	0.97	-73.70	0.18	-18.50
10000	0.17	-20.30	0.97	-74.20	0.97	-74.20	0.17	-20.30
10050	0.17	-22.10	0.97	-74.60	0.97	-74.60	0.17	-22.10
10100	0.17	-24.10	0.97	-75.10	0.97	-75.10	0.17	-24.10
10150	0.16	-26.00	0.97	-75.60	0.97	-75.60	0.16	-26.00
10200	0.16	-27.50	0.98	-76.20	0.98	-76.20	0.16	-27.50
10250	0.16	-29.00	0.98	-76.80	0.98	-76.80	0.16	-29.00
10300	0.15	-31.90	0.97	-77.30	0.97	-77.30	0.15	-31.90
10350	0.15	-34.80	0.97	-77.90	0.97	-77.90	0.15	-34.80
10400	0.15	-37.00	0.97	-78.40	0.97	-78.40	0.15	-37.00
10450	0.14	-39.10	0.98	-79.00	0.98	-79.00	0.14	-39.10
10500	0.14	-41.00	0.98	-79.60	0.98	-79.60	0.14	-41.00
10550	0.14	-42.90	0.98	-80.20	0.98	-80.20	0.14	-42.90
10600	0.13	-45.10	0.98	-80.70	0.98	-80.70	0.13	-45.10
10650	0.12	-47.30	0.98	-81.30	0.98	-81.30	0.12	-47.30
10700	0.12	-49.60	0.98	-81.90	0.98	-81.90	0.12	-49.60
10750	0.12	-51.90	0.99	-82.50	0.99	-82.50	0.12	-51.90
10800	0.12	-55.20	0.99	-82.90	0.99	-82.90	0.12	-55.20
10850	0.11	-58.60	0.98	-83.30	0.98	-83.30	0.11	-58.60
10900	0.10	-61.30	0.98	-84.00	0.98	-84.00	0.10	-61.30
10950	0.10	-64.10	0.98	-84.80	0.98	-84.80	0.10	-64.10
11000	0.09	-67.60	0.99	-85.30	0.99	-85.30	0.09	-67.60
11050	0.09	-71.00	0.99	-85.80	0.99	-85.80	0.09	-71.00
11100	0.09	-75.30	0.99	-86.40	0.99	-86.40	0.09	-75.30
11150	0.09	-79.50	0.99	-86.90	0.99	-86.90	0.09	-79.50
11200	0.09	-80.50	0.99	-87.50	0.99	-87.50	0.09	-80.50
11250	0.08	-81.50	0.99	-88.00	0.99	-88.00	0.08	-81.50
11300	0.09	-85.80	0.99	-88.60	0.99	-88.60	0.09	-85.80
11350	0.09	-90.10	0.99	-89.20	0.99	-89.20	0.09	-90.10
11400	0.08	-89.10	0.99	-89.70	0.99	-89.70	0.08	-89.10
11450	0.08	-88.10	0.99	-90.20	0.99	-90.20	0.08	-88.10
11500	0.07	-91.20	0.99	-90.80	0.99	-90.80	0.07	-91.20
11550	0.07	-94.20	0.99	-91.40	0.99	-91.40	0.07	-94.20
11600	0.07	-95.10	0.99	-92.00	0.99	-92.00	0.07	-95.10
11650	0.06	-95.90	0.99	-92.50	0.99	-92.50	0.06	-95.90
11700	0.06	-98.30	0.99	-93.00	0.99	-93.00	0.06	-98.30
11750	0.05	-100.80	0.99	-93.60	0.99	-93.60	0.05	-100.80
11800	0.04	-105.60	0.99	-94.00	0.99	-94.00	0.04	-105.60
11850	0.04	-110.50	0.99	-94.50	0.99	-94.50	0.04	-110.50
11900	0.04	-123.80	0.99	-95.00	0.99	-95.00	0.04	-123.80
11950	0.04	-137.20	0.99	-95.50	0.99	-95.50	0.04	-137.20
12000	0.04	-144.10	0.99	-96.10	0.99	-96.10	0.04	-144.10
12050	0.04	-151.00	0.99	-96.70	0.99	-96.70	0.04	-151.00
12100	0.04	-158.20	0.99	-97.20	0.99	-97.20	0.04	-158.20
12150	0.04	-165.40	0.98	-97.70	0.98	-97.70	0.04	-165.40
12200	0.04	-169.80	0.98	-98.10	0.98	-98.10	0.04	-169.80
12250	0.04	-174.10	0.99	-98.60	0.99	-98.60	0.04	-174.10
12300	0.05	-176.50	0.98	-99.20	0.98	-99.20	0.05	-176.50
12350	0.05	-178.80	0.98	-99.80	0.98	-99.80	0.05	-178.80
12400	0.05	-178.30	0.98	-100.20	0.98	-100.20	0.05	-178.30
12450	0.04	-177.90	0.99	-100.60	0.99	-100.60	0.04	-177.90
12500	0.04	-6.60	0.99	-101.30	0.99	-101.30	0.04	-6.60
12550	0.04	164.60	0.99	-101.90	0.99	-101.90	0.04	164.60
12600	0.04	167.20	0.99	-102.30	0.99	-102.30	0.04	167.20
12650	0.04	169.90	0.99	-102.80	0.99	-102.80	0.04	169.90
12700	0.03	167.20	0.99	-103.30	0.99	-103.30	0.03	167.20
12750	0.03	164.50	0.99	-103.80	0.99	-103.80	0.03	164.50
12800	0.02	153.60	0.99	-104.40	0.99	-104.40	0.02	153.60
12850	0.02	142.80	0.99	-105.00	0.99	-105.00	0.02	142.80
12900	0.02	135.10	0.99	-105.40	0.99	-105.40	0.02	135.10
12950	0.02	127.40	0.98	-105.80	0.98	-105.80	0.02	127.40
13000	0.02	124.40	0.99	-106.40	0.99	-106.40	0.02	124.40
13050	0.02	121.40	0.99	-107.00	0.99	-107.00	0.02	121.40
13100	0.02	118.30	0.99	-107.40	0.99	-107.40	0.02	118.30
13150	0.02	115.30	0.98	-107.90	0.98	-107.90	0.02	115.30
13200	0.03	109.30	0.98	-108.20	0.98	-108.20	0.03	109.30
13250	0.03	103.40	0.98	-108.50	0.98	-108.50	0.03	103.40
13300	0.03	103.90	0.98	-109.30	0.98	-109.30	0.03	103.90
13350	0.03	104.40	0.98	-110.10	0.98	-110.10	0.03	104.40
13400	0.04	97.90	0.98	-110.70	0.98	-110.70	0.04	97.90
13450	0.04	91.40	0.98	-111.30	0.98	-111.30	0.04	91.40
13500	0.05	93.80	0.98	-111.80	0.98	-111.80	0.05	93.80
13550	0.05	96.10	0.98	-112.30	0.98	-112.30	0.05	96.10
13600	0.05	91.50	0.98	-112.90	0.98	-112.90	0.05	91.50
13650	0.05	86.90	0.98	-113.40	0.98	-113.40	0.05	86.90
13700	0.04	85.70	0.98	-114.00	0.98	-114.00	0.04	85.70
13750	0.04	84.50	0.98	-114.50	0.98	-114.50	0.04	84.50
13800	0.04	82.20	0.98	-114.90	0.98	-114.90	0.04	82.20
13850	0.03	80.00	0.98	-115.40	0.98	-115.40	0.03	80.00
13900	0.03	72.60	0.98	-115.80	0.98	-115.80	0.03	72.60
13950	0.03	65.30	0.98	-116.30	0.98	-116.30	0.03	65.30
14000	0.03	56.20	0.98	-116.90	0.98	-116.90	0.03	56.20
14050	0.03	47.00	0.98	-117.50	0.98	-117.50	0.03	47.00
14100	0.02	32.20	0.98	-117.90	0.98	-117.90	0.02	32.20
14150	0.02	17.50	0.98	-118.40	0.98	-118.40	0.02	17.50
14200	0.02	11.80	0.98	-119.00	0.98	-119.00	0.02	11.80
14250	0.03	6.20	0.98	-119.60	0.98	-119.60	0.03	6.20
14300	0.03	-0.10	0.98	-120.10	0.98	-120.10	0.03	-0.10
14350	0.03	-6.40	0.98	-120.60	0.98	-120.60	0.03	-6.40
14400	0.03	-10.80	0.98	-121.30	0.98	-121.30	0.03	-10.80
14450	0.03	-15.20	0.98	-122.00	0.98	-122.00	0.03	-15.20
14500	0.03	-12.70	0.98	-122.40	0.98	-122.40	0.03	-12.70
14550	0.04	-10.30	0.98	-122.70	0.98	-122.70	0.04	-10.30
14600	0.03	-6.80	0.98	-123.30	0.98	-123.30	0.03	-6.80
14650	0.03	-3.40	0.98	-123.90	0.98	-123.90	0.03	-3.40
14700	0.03	-8.30	0.98	-124.60	0.98	-124.60	0.03	-8.30
14750	0.02	-13.20	0.98	-125.20	0.98	-125.20	0.02	-13.20
14800	0.02	-4.00	0.98	-125.80	0.98	-125.80	0.02	-4.00
14850	0.02	5.20	0.98	-126.40	0.98	-126.40	0.02	5.20
14900	0.01	10.80	0.98	-126.90	0.98	-126.90	0.01	10.80
14950	0.00	16.50	0.98	-127.50	0.98	-127.50	0.00	16.50
15000	0.01	91.10	0.98	-128.10	0.98	-128.10	0.01	91.10
15050	0.01	165.70	0.98	-128.70	0.98	-128.70	0.01	165.70
15100	0.01	-2.50	0.98	-129.20	0.98	-129.20	0.01	-2.50
15150	0.02	-170.80	0.98	-129.60	0.98	-129.60	0.02	-170.80
15200	0.03	-173.40	0.99	-130.10	0.99	-130.10	0.03	-173.40
15250	0.04	-176.00	0.99	-130.50	0.99	-130.50	0.04	-176.00
15300	0.04	-172.70	0.99	-131.20	0.99	-131.20	0.04	-172.70
15350	0.04	-169.40	0.98	-131.90	0.98	-131.90	0.04	-169.40
15400	0.05	-170.10	0.98	-132.50	0.98	-132.50	0.05	-170.10
15450	0.05	-170.90	0.98	-133.20	0.98	-133.20	0.05	-170.90
15500	0.05	-175.20	0.98	-133.70	0.98	-133.70	0.05	-175.20
15550	0.06	-179.50	0.98	-134.30	0.98	-134.30	0.06	-179.50
15600	0.06	-1.50	0.98	-134.90	0.98	-134.90	0.06	-1.50
15650	0.07	176.50	0.98	-135.50	0.98	-135.50	0.07	176.50
15700	0.07	171.10	0.98	-136.20	0.98	-136.20	0.07	171.10
15750	0.08	165.70	0.98	-136.90	0.98	-136.90	0.08	165.70
15800	0.09	161.40	0.98	-137.40	0.98	-137.40	0.09	161.40
15850	0.10	157.10	0.97	-137.90	0.97	-137.90	0.10	157.10
15900	0.10	152.50	0.97	-138.70	0.97	-138.70	0.10	152.50
15950	0.11	147.90	0.97	-139.50	0.97	-139.50	0.11	147.90
16000	0.13	144.40	0.97	-140.10	0.97	-140.10	0.13	144.40
16050	0.14	140.90	0.97	-140.60	0.97	-140.60	0.14	140.90
16100	0.16	139.10	0.96	-141.40	0.96	-141.40	0.16	139.10
16150	0.17	137.20	0.96	-142.30	0.96	-142.30	0.17	137.20
16200	0.19	135.30	0.96	-143.00	0.96	-143.00	0.19	135.30
16250	0.20	133.40	0.95	-143.70	0.95	-143.70	0.20	133.40
16300	0.22	133.10	0.95	-144.40	0.95	-144.40	0.22	133.10
16350	0.23	132.80	0.94	-145.00	0.94	-145.00	0.23	132.80
16400	0.25	133.10	0.94	-145.50	0.94	-145.50	0.25	133.10
16450	0.26	133.50	0.94	-145.90	0.94	-145.90	0.26	133.50
16500	0.27	133.10	0.93	-146.40	0.93	-146.40	0.27	133.10
16550	0.28	132.80	0.93	-146.90	0.93	-146.90	0.28	132.80
16600	0.29	131.90	0.93	-147.60	0.93	-147.60	0.29	131.90
16650	0.29	130.90	0.93	-148.30	0.93	-148.30	0.29	130.90
16700	0.30	130.60	0.93	-148.70	0.93	-148.70	0.30	130.60
16750	0.31	130.30	0.93	-149.20	0.93	-149.20	0.31	130.30
16800	0.31	128.30	0.93	-149.90	0.93	-149.90	0.31	128.30
16850	0.32	126.30	0.93	-150.70	0.93	-150.70	0.32	126.30
16900	0.32	124.20	0.93	-151.40	0.93	-151.40	0.32	124.20
16950	0.32	122.10	0.93	-152.20	0.93	-152.20	0.32	122.10
17000	0.33	119.60	0.93	-152.80	0.93	-152.80	0.33	119.60
17050	0.33	117.10	0.92	-153.50	0.92	-153.50	0.33	117.10
17100	0.34	114.60	0.92	-154.30	0.92	-154.30	0.34	114.60
17150	0.34	112.20	0.92	-155.20	0.92	-155.20	0.34	112.20
17200	0.35	109.30	0.91	-155.60	0.91	-155.60	0.35	109.30
17250	0.35	106.40	0.91	-156.00	0.91	-156.00	0.35	106.40
17300	0.37	104.70	0.91	-156.80	0.91	-156.80	0.37	104.70
17350	0.37	102.90	0.90	-157.50	0.90	-157.50	0.37	102.90
17400	0.38	101.10	0.90	-158.00	0.90	-158.00	0.38	101.10
17450	0.39	99.30	0.89	-158.50	0.89	-158.50	0.39	99.30
17500	0.40	98.10	0.89	-159.00	0.89	-159.00	0.40	98.10
17550	0.40	96.90	0.89	-159.50	0.89	-159.50	0.40	96.90
17600	0.41	96.00	0.89	-160.20	0.89	-160.20	0.41	96.00
17650	0.42	95.10	0.88	-160.80	0.88	-160.80	0.42	95.10
17700	0.43	94.50	0.88	-161.20	0.88	-161.20	0.43	94.50
17750	0.44	93.90	0.88	-161.60	0.88	-161.60	0.44	93.90
17800	0.43	93.40	0.88	-162.30	0.88	-162.30	0.43	93.40
17850	0.43	92.90	0.88	-163.00	0.88	-163.00	0.43	92.90
17900	0.44	92.70	0.88	-163.70	0.88	-163.70	0.44	92.70
17950	0.44	92.40	0.88	-164.40	0.88	-164.40	0.44	92.40
18000	0.44	92.50	0.88	-165.20	0.88	-165.20	0.44	92.50
18050	0.44	92.60	0.88	-166.10	0.88	-166.10	0.44	92.60
18100	0.43	92.10	0.88	-166.80	0.88	-166.80	0.43	92.10
18150	0.43	91.60	0.88	-167.60	0.88	-167.60	0.43	91.60
18200	0.42	90.50	0.88	-168.60	0.88	-168.60	0.42	90.50
18250	0.42	89.40	0.88	-169.60	0.88	-169.60	0.42	89.40
18300	0.42	88.20	0.87	-170.30	0.87	-170.30	0.42	88.20
18350	0.42	87.00	0.87	-170.90	0.87	-170.90	0.42	87.00
18400	0.42	84.90	0.87	-172.00	0.87	-172.00	0.42	84.90
18450	0.42	82.90	0.87	-173.20	0.87	-173.20	0.42	82.90
18500	0.43	82.70	0.86	-173.80	0.86	-173.80	0.43	82.70
18550	0.43	82.60	0.86	-174.40	0.86	-174.40	0.43	82.60
18600	0.44	81.20	0.86	-175.30	0.86	-175.30	0.44	81.20
18650	0.45	79.80	0.86	-176.20	0.86	-176.20	0.45	79.80
18700	0.45	79.20	0.86	-177.30	0.86	-177.30	0.45	79.20
18750	0.46	78.70	0.85	-178.40	0.85	-178.40	0.46	78.70
18800	0.47	77.90	0.85	0.70	0.85	0.70	0.47	77.90
18850	0.48	77.20	0.84	179.90	0.84	179.90	0.48	77.20
18900	0.49	77.20	0.84	178.70	0.84	178.70	0.49	77.20
18950	0.50	77.30	0.83	177.50	0.83	177.50	0.50	77.30
