! P/N: L-07C56NJV4T								
! Measured by Marlon								
! Oct. 13, 2003								
! Measure with Series-through-Fixture								
#	mhz	s	ma	r	50
0	0.00000	90.0000	0.99999	0.00000	0.99999	0.00000	0.00000	90.0000			
50	0.17585	65.5221	0.93568	-9.05987	0.93568	-9.05987	0.17585	65.5221
70	0.23228	63.37632	0.91811	-13.1583	0.91811	-13.1583	0.23228	63.37632
90	0.28491	62.09395	0.89806	-16.38503	0.89806	-16.38503	0.28491	62.09395
110	0.33839	60.48919	0.88103	-19.36967	0.88103	-19.36967	0.33839	60.48919
130	0.39101	58.30919	0.86508	-22.46677	0.86508	-22.46677	0.39101	58.30919
150	0.43465	56.23406	0.84079	-25.7559	0.84079	-25.7559	0.43465	56.23406
170	0.47934	54.40625	0.81595	-28.33597	0.81595	-28.33597	0.47934	54.40625
190	0.51902	52.00347	0.79452	-31.17985	0.79452	-31.17985	0.51902	52.00347
210	0.55566	49.85116	0.76998	-33.79611	0.76998	-33.79611	0.55566	49.85116
230	0.59105	47.99052	0.74407	-36.08406	0.74407	-36.08406	0.59105	47.99052
250	0.62683	45.67854	0.72682	-38.33369	0.72682	-38.33369	0.62683	45.67854
270	0.64738	43.37386	0.69539	-41.07866	0.69539	-41.07866	0.64738	43.37386
290	0.6758	41.90273	0.67046	-42.85045	0.67046	-42.85045	0.6758	41.90273
310	0.70487	40.22227	0.64873	-44.84832	0.64873	-44.84832	0.70487	40.22227
330	0.72932	38.12387	0.62621	-47.15672	0.62621	-47.15672	0.72932	38.12387
350	0.74586	36.23317	0.59829	-48.7452	0.59829	-48.7452	0.74586	36.23317
370	0.76938	34.75718	0.57966	-50.52086	0.57966	-50.52086	0.76938	34.75718
390	0.78885	33.13997	0.55758	-52.48976	0.55758	-52.48976	0.78885	33.13997
410	0.80536	31.80986	0.53421	-54.11369	0.53421	-54.11369	0.80536	31.80986
430	0.82085	30.61658	0.51235	-55.39581	0.51235	-55.39581	0.82085	30.61658
450	0.83801	28.83127	0.49548	-56.88056	0.49548	-56.88056	0.83801	28.83127
470	0.84844	27.6387	0.47419	-58.53603	0.47419	-58.53603	0.84844	27.6387
490	0.87625	26.07978	0.43885	-61.42865	0.43885	-61.42865	0.87625	26.07978
510	0.90244	25.12312	0.41088	-63.85549	0.41088	-63.85549	0.90244	25.12312
530	0.91637	24.78628	0.39434	-65.26445	0.39434	-65.26445	0.91637	24.78628
550	0.91575	24.13581	0.37598	-66.25425	0.37598	-66.25425	0.91575	24.13581
570	0.91839	23.18578	0.36004	-67.2633	0.36004	-67.2633	0.91839	23.18578
590	0.92555	22.24507	0.34467	-68.38573	0.34467	-68.38573	0.92555	22.24507
610	0.93097	21.10245	0.32963	-69.35052	0.32963	-69.35052	0.93097	21.10245
630	0.93372	19.75659	0.31447	-70.17316	0.31447	-70.17316	0.93372	19.75659
650	0.93818	18.41609	0.29852	-71.1557	0.29852	-71.1557	0.93818	18.41609
670	0.94342	17.99572	0.28357	-72.03093	0.28357	-72.03093	0.94342	17.99572
690	0.95637	17.30525	0.2700	-72.92021	0.2700	-72.92021	0.95637	17.30525
710	0.96658	16.53606	0.25624	-73.79854	0.25624	-73.79854	0.96658	16.53606
730	0.97019	15.88745	0.24284	-74.59972	0.24284	-74.59972	0.97019	15.88745
750	0.97003	15.56657	0.2325	-75.21634	0.2325	-75.21634	0.97003	15.56657
770	0.9728	15.07141	0.21928	-76.1092	0.21928	-76.1092	0.9728	15.07141
790	0.9725	14.20338	0.2072	-76.74567	0.2072	-76.74567	0.9725	14.20338
810	0.97554	13.3571	0.19642	-77.33733	0.19642	-77.33733	0.97554	13.3571
830	0.98098	12.62908	0.18587	-77.93244	0.18587	-77.93244	0.98098	12.62908
850	0.9805	11.81775	0.17325	-78.41594	0.17325	-78.41594	0.9805	11.81775
870	0.9853	11.72462	0.16192	-78.61584	0.16192	-78.61584	0.9853	11.72462
890	0.99243	10.93784	0.15229	-79.23944	0.15229	-79.23944	0.99243	10.93784
910	0.994	10.23751	0.14247	-79.97473	0.14247	-79.97473	0.994	10.23751
930	0.991	9.94177	0.13185	-80.4786	0.13185	-80.4786	0.991	9.94177
950	0.99333	9.90683	0.12113	-80.37689	0.12113	-80.37689	0.99333	9.90683
970	0.99439	8.82753	0.11274	-80.74973	0.11274	-80.74973	0.99439	8.82753
990	0.99185	8.14738	0.10303	-81.06322	0.10303	-81.06322	0.99185	8.14738
1010	0.99141	7.61394	0.09333	-81.15841	0.09333	-81.15841	0.99141	7.61394
1030	0.99405	7.11503	0.0842	-81.06686	0.0842	-81.06686	0.99405	7.11503
1050	0.99608	6.67866	0.07544	-81.01065	0.07544	-81.01065	0.99608	6.67866
1070	0.99913	6.22744	0.06677	-80.70658	0.06677	-80.70658	0.99913	6.22744
1090	0.99724	5.71994	0.05826	-80.44616	0.05826	-80.44616	0.99724	5.71994
1110	0.99239	5.33314	0.04992	-79.73268	0.04992	-79.73268	0.99239	5.33314
1130	0.9873	5.00966	0.04181	-78.33957	0.04181	-78.33957	0.9873	5.00966
1150	0.98553	4.45776	0.0341	-76.31043	0.0341	-76.31043	0.98553	4.45776
1170	0.9831	3.6496	0.02628	-72.21867	0.02628	-72.21867	0.9831	3.6496
1190	0.98357	2.84609	0.01897	-63.72957	0.01897	-63.72957	0.98357	2.84609
1210	0.9837	2.11617	0.01283	-45.50887	0.01283	-45.50887	0.9837	2.11617
1230	0.98391	1.49283	0.00915	-13.52764	0.00915	-13.52764	0.98391	1.49283
1250	0.9883	0.97312	0.00988	34.93766	0.00988	34.93766	0.9883	0.97312
1270	0.99859	0.19462	0.01571	54.30647	0.01571	54.30647	0.99859	0.19462
1290	0.99995	-0.39481	0.02215	64.32478	0.02215	64.32478	0.99995	-0.39481
1310	0.99953	-0.59343	0.02882	69.46043	0.02882	69.46043	0.99953	-0.59343
1330	1.00166	-0.60681	0.03563	72.35051	0.03563	72.35051	1.00166	-0.60681
1350	1.00792	-1.04787	0.04275	73.80145	0.04275	73.80145	1.00792	-1.04787
1370	0.99832	-1.56376	0.04916	74.90302	0.04916	74.90302	0.99832	-1.56376
1390	0.99568	-1.97994	0.05602	75.92372	0.05602	75.92372	0.99568	-1.97994
1410	0.99758	-2.53779	0.06275	76.38719	0.06275	76.38719	0.99758	-2.53779
1430	0.99994	-3.13033	0.06911	76.51076	0.06911	76.51076	0.99994	-3.13033
1450	0.99708	-3.3022	0.07519	77.2054	0.07519	77.2054	0.99708	-3.3022
1470	1.00423	-3.71614	0.08205	77.09811	0.08205	77.09811	1.00423	-3.71614
1490	1.00199	-4.00555	0.08835	76.98895	0.08835	76.98895	1.00199	-4.00555
1510	0.99885	-4.16366	0.09446	76.86367	0.09446	76.86367	0.99885	-4.16366
1530	0.99818	-4.30138	0.10067	76.73334	0.10067	76.73334	0.99818	-4.30138
1550	0.99815	-4.64726	0.1072	76.63433	0.1072	76.63433	0.99815	-4.64726
1570	0.99599	-5.09746	0.11285	76.2404	0.11285	76.2404	0.99599	-5.09746
1590	0.98583	-5.55619	0.11881	76.26681	0.11881	76.26681	0.98583	-5.55619
1610	0.98082	-5.98909	0.12483	76.12339	0.12483	76.12339	0.98082	-5.98909
1630	0.98275	-6.45245	0.13085	75.75477	0.13085	75.75477	0.98275	-6.45245
1650	0.98213	-7.09322	0.13705	75.64039	0.13705	75.64039	0.98213	-7.09322
1670	0.98176	-7.78005	0.14249	75.27346	0.14249	75.27346	0.98176	-7.78005
1690	0.98037	-7.90184	0.14845	75.32347	0.14845	75.32347	0.98037	-7.90184
1710	0.98082	-8.07644	0.15441	75.07792	0.15441	75.07792	0.98082	-8.07644
1730	0.98185	-8.4992	0.16014	74.52458	0.16014	74.52458	0.98185	-8.4992
1750	0.97805	-8.94298	0.16566	74.35145	0.16566	74.35145	0.97805	-8.94298
1770	0.97327	-9.07764	0.17069	74.40256	0.17069	74.40256	0.97327	-9.07764
1790	0.97241	-9.68793	0.17717	73.93167	0.17717	73.93167	0.97241	-9.68793
1810	0.96957	-10.44897	0.18273	73.55434	0.18273	73.55434	0.96957	-10.44897
1830	0.96564	-11.06483	0.18749	73.49486	0.18749	73.49486	0.96564	-11.06483
1850	0.96828	-11.2685	0.19413	73.58632	0.19413	73.58632	0.96828	-11.2685
1870	0.97218	-12.11553	0.19896	72.7417	0.19896	72.7417	0.97218	-12.11553
1890	0.96931	-12.32261	0.20318	72.68292	0.20318	72.68292	0.96931	-12.32261
1910	0.96927	-12.50652	0.20828	72.68735	0.20828	72.68735	0.96927	-12.50652
1930	0.97227	-12.89635	0.21396	72.45197	0.21396	72.45197	0.97227	-12.89635
1950	0.96918	-13.33349	0.21821	72.09338	0.21821	72.09338	0.96918	-13.33349
1970	0.96551	-13.60447	0.22332	71.91887	0.22332	71.91887	0.96551	-13.60447
1990	0.96288	-13.90492	0.22799	71.51766	0.22799	71.51766	0.96288	-13.90492
2010	0.96305	-14.39455	0.23327	71.19222	0.23327	71.19222	0.96305	-14.39455
2030	0.96508	-14.98543	0.23897	70.90542	0.23897	70.90542	0.96508	-14.98543
2050	0.96531	-15.34202	0.24366	70.28053	0.24366	70.28053	0.96531	-15.34202
2070	0.96274	-15.36138	0.24778	70.44404	0.24778	70.44404	0.96274	-15.36138
2090	0.96483	-15.51202	0.2529	70.45095	0.2529	70.45095	0.96483	-15.51202
2110	0.96369	-15.93789	0.25814	70.19335	0.25814	70.19335	0.96369	-15.93789
2130	0.95865	-16.47269	0.2629	69.76061	0.2629	69.76061	0.95865	-16.47269
2150	0.95627	-16.63987	0.26694	69.43935	0.26694	69.43935	0.95627	-16.63987
2170	0.95444	-16.94397	0.27317	69.02825	0.27317	69.02825	0.95444	-16.94397
2190	0.95405	-17.21451	0.27808	68.73676	0.27808	68.73676	0.95405	-17.21451
2210	0.95253	-17.51164	0.28348	68.54875	0.28348	68.54875	0.95253	-17.51164
2230	0.95055	-17.92281	0.28933	68.32618	0.28933	68.32618	0.95055	-17.92281
2250	0.95193	-18.56274	0.29383	67.80906	0.29383	67.80906	0.95193	-18.56274
2270	0.94145	-18.62824	0.29588	67.78503	0.29588	67.78503	0.94145	-18.62824
2290	0.94309	-18.81974	0.30122	67.84454	0.30122	67.84454	0.94309	-18.81974
2310	0.9466	-19.30311	0.30803	67.45291	0.30803	67.45291	0.9466	-19.30311
2330	0.94524	-19.87385	0.31349	66.75318	0.31349	66.75318	0.94524	-19.87385
2350	0.93587	-19.95709	0.3137	66.56611	0.3137	66.56611	0.93587	-19.95709
2370	0.93882	-20.38189	0.32031	66.67305	0.32031	66.67305	0.93882	-20.38189
2390	0.93683	-20.82435	0.32552	66.25239	0.32552	66.25239	0.93683	-20.82435
2410	0.93055	-21.268	0.32866	65.60518	0.32866	65.60518	0.93055	-21.268
2430	0.92481	-21.74974	0.33154	65.23382	0.33154	65.23382	0.92481	-21.74974
2450	0.92855	-22.35985	0.33843	65.8421	0.33843	65.8421	0.92855	-22.35985
2470	0.93175	-22.36156	0.34536	65.27555	0.34536	65.27555	0.93175	-22.36156
2490	0.92926	-22.77464	0.34826	64.82298	0.34826	64.82298	0.92926	-22.77464
2510	0.92641	-23.15523	0.35155	64.5479	0.35155	64.5479	0.92641	-23.15523
2530	0.92563	-23.33182	0.35636	64.39255	0.35636	64.39255	0.92563	-23.33182
2550	0.92652	-23.40526	0.3605	64.17788	0.3605	64.17788	0.92652	-23.40526
2570	0.91872	-23.68791	0.36556	63.8581	0.36556	63.8581	0.91872	-23.68791
2590	0.91398	-23.98066	0.3695	63.57855	0.3695	63.57855	0.91398	-23.98066
2610	0.90976	-24.41283	0.37428	63.30832	0.37428	63.30832	0.90976	-24.41283
2630	0.90534	-24.87602	0.37955	63.07422	0.37955	63.07422	0.90534	-24.87602
2650	0.90182	-25.02404	0.38264	62.96083	0.38264	62.96083	0.90182	-25.02404
2670	0.90843	-25.41751	0.38766	62.57765	0.38766	62.57765	0.90843	-25.41751
2690	0.90658	-25.73132	0.39273	62.06244	0.39273	62.06244	0.90658	-25.73132
2710	0.90223	-26.32074	0.39665	61.81759	0.39665	61.81759	0.90223	-26.32074
2730	0.89881	-26.86255	0.4	61.81055	0.4	61.81055	0.89881	-26.86255
2750	0.89724	-26.35501	0.40511	61.57383	0.40511	61.57383	0.89724	-26.35501
2770	0.89965	-27.02546	0.4105	61.26539	0.4105	61.26539	0.89965	-27.02546
2790	0.89594	-27.3553	0.41398	61.03813	0.41398	61.03813	0.89594	-27.3553
2810	0.89448	-27.59602	0.41806	60.88851	0.41806	60.88851	0.89448	-27.59602
2830	0.89601	-27.75892	0.42264	60.72648	0.42264	60.72648	0.89601	-27.75892
2850	0.89368	-27.61511	0.425	60.37555	0.425	60.37555	0.89368	-27.61511
2870	0.89229	-28.20186	0.43116	60.04263	0.43116	60.04263	0.89229	-28.20186
2890	0.88563	-28.50513	0.43485	59.81709	0.43485	59.81709	0.88563	-28.50513
2910	0.88021	-28.84362	0.43836	59.55787	0.43836	59.55787	0.88021	-28.84362
2930	0.87829	-29.24881	0.4423	59.26104	0.4423	59.26104	0.87829	-29.24881
2950	0.87782	-29.46496	0.44565	59.05979	0.44565	59.05979	0.87782	-29.46496
2970	0.87505	-29.79804	0.45157	58.65865	0.45157	58.65865	0.87505	-29.79804
2990	0.8676	-30.47282	0.45557	58.36896	0.45557	58.36896	0.8676	-30.47282
3010	0.86299	-30.94111	0.45782	58.02789	0.45782	58.02789	0.86299	-30.94111
3030	0.86361	-31.08821	0.46035	57.6957	0.46035	57.6957	0.86361	-31.08821
3050	0.8667	-31.23294	0.46706	57.65572	0.46706	57.65572	0.8667	-31.23294
3070	0.86095	-31.74721	0.47145	56.90667	0.47145	56.90667	0.86095	-31.74721
3090	0.85027	-31.82351	0.47283	56.48357	0.47283	56.48357	0.85027	-31.82351
3110	0.84483	-31.84073	0.47523	56.38382	0.47523	56.38382	0.84483	-31.84073
3130	0.84646	-32.03	0.47972	56.34851	0.47972	56.34851	0.84646	-32.03
3150	0.84875	-32.47467	0.48437	55.86239	0.48437	55.86239	0.84875	-32.47467
3170	0.84218	-32.8931	0.48338	55.82453	0.48338	55.82453	0.84218	-32.8931
3190	0.84534	-32.94504	0.49069	55.9224	0.49069	55.9224	0.84534	-32.94504
3210	0.84801	-33.08414	0.49638	55.79427	0.49638	55.79427	0.84801	-33.08414
3230	0.84548	-33.40005	0.49765	55.44993	0.49765	55.44993	0.84548	-33.40005
3250	0.83859	-33.61836	0.49888	55.27071	0.49888	55.27071	0.83859	-33.61836
3270	0.83466	-33.90748	0.50446	55.07276	0.50446	55.07276	0.83466	-33.90748
3290	0.83043	-34.44184	0.50945	54.56256	0.50945	54.56256	0.83043	-34.44184
3310	0.82718	-34.8768	0.51363	54.32527	0.51363	54.32527	0.82718	-34.8768
3330	0.82642	-35.20985	0.51795	54.33125	0.51795	54.33125	0.82642	-35.20985
3350	0.82995	-35.78063	0.52457	53.93611	0.52457	53.93611	0.82995	-35.78063
3370	0.82546	-36.16604	0.52967	53.55371	0.52967	53.55371	0.82546	-36.16604
3390	0.82202	-36.34277	0.53036	53.35435	0.53036	53.35435	0.82202	-36.34277
3410	0.82041	-36.47237	0.53208	53.16826	0.53208	53.16826	0.82041	-36.47237
3430	0.81971	-36.69837	0.53692	52.87597	0.53692	52.87597	0.81971	-36.69837
3450	0.8174	-37.14627	0.54359	52.40827	0.54359	52.40827	0.8174	-37.14627
3470	0.8035	-37.43189	0.54191	52.18642	0.54191	52.18642	0.8035	-37.43189
3490	0.80003	-37.40887	0.54596	52.26334	0.54596	52.26334	0.80003	-37.40887
3510	0.80069	-37.94505	0.55261	52.0351	0.55261	52.0351	0.80069	-37.94505
3530	0.79922	-38.91593	0.5575	51.4992	0.5575	51.4992	0.79922	-38.91593
3550	0.78943	-39.20463	0.555	51.25458	0.555	51.25458	0.78943	-39.20463
3570	0.79335	-39.38099	0.56199	51.21379	0.56199	51.21379	0.79335	-39.38099
3590	0.79211	-39.85878	0.566	50.78058	0.566	50.78058	0.79211	-39.85878
3610	0.7875	-40.17925	0.56843	50.52371	0.56843	50.52371	0.7875	-40.17925
3630	0.78367	-40.30642	0.57185	50.44539	0.57185	50.44539	0.78367	-40.30642
3650	0.78706	-40.62708	0.58004	49.98137	0.58004	49.98137	0.78706	-40.62708
3670	0.77883	-41.20104	0.57959	49.3859	0.57959	49.3859	0.77883	-41.20104
3690	0.77367	-41.28838	0.58179	49.29287	0.58179	49.29287	0.77367	-41.28838
3710	0.77267	-41.61891	0.58675	49.1526	0.58675	49.1526	0.77267	-41.61891
3730	0.77244	-42.30705	0.59212	48.77403	0.59212	48.77403	0.77244	-42.30705
3750	0.76511	-42.85187	0.59309	48.32484	0.59309	48.32484	0.76511	-42.85187
3770	0.76358	-42.63356	0.59685	48.45802	0.59685	48.45802	0.76358	-42.63356
3790	0.76385	-43.19968	0.60331	48.03487	0.60331	48.03487	0.76385	-43.19968
3810	0.76004	-43.71135	0.60808	47.63226	0.60808	47.63226	0.76004	-43.71135
3830	0.75273	-43.96172	0.61032	47.4517	0.61032	47.4517	0.75273	-43.96172
3850	0.74889	-44.37592	0.61268	47.31932	0.61268	47.31932	0.74889	-44.37592
3870	0.74451	-44.60642	0.61403	47.14668	0.61403	47.14668	0.74451	-44.60642
3890	0.74266	-44.98357	0.62012	46.83191	0.62012	46.83191	0.74266	-44.98357
3910	0.74101	-45.61905	0.62544	46.35771	0.62544	46.35771	0.74101	-45.61905
3930	0.73684	-46.36005	0.62773	45.88442	0.62773	45.88442	0.73684	-46.36005
3950	0.72706	-46.78927	0.62807	45.75004	0.62807	45.75004	0.72706	-46.78927
3970	0.73035	-47.01267	0.63414	45.80357	0.63414	45.80357	0.73035	-47.01267
3990	0.72824	-47.72409	0.63711	45.26516	0.63711	45.26516	0.72824	-47.72409
4010	0.72338	-48.21184	0.63996	44.77526	0.63996	44.77526	0.72338	-48.21184
4030	0.71816	-48.45651	0.64364	44.47849	0.64364	44.47849	0.71816	-48.45651
4050	0.71475	-49.13097	0.6471	44.0236	0.6471	44.0236	0.71475	-49.13097
4070	0.71312	-49.07501	0.6503	44.00257	0.6503	44.00257	0.71312	-49.07501
4090	0.70829	-49.43045	0.65498	43.4446	0.65498	43.4446	0.70829	-49.43045
4110	0.70024	-49.92195	0.65833	43.10088	0.65833	43.10088	0.70024	-49.92195
4130	0.69279	-50.33237	0.66064	43.05903	0.66064	43.05903	0.69279	-50.33237
4150	0.69356	-50.5027	0.66524	42.74311	0.66524	42.74311	0.69356	-50.5027
4170	0.68995	-51.54808	0.67374	42.11224	0.67374	42.11224	0.68995	-51.54808
4190	0.68321	-52.33619	0.67617	41.78782	0.67617	41.78782	0.68321	-52.33619
4210	0.67698	-52.75189	0.67698	41.57007	0.67698	41.57007	0.67698	-52.75189
4230	0.67352	-53.03236	0.67894	41.26718	0.67894	41.26718	0.67352	-53.03236
4250	0.67363	-53.76709	0.6831	40.69541	0.6831	40.69541	0.67363	-53.76709
4270	0.66884	-53.83201	0.68515	40.49709	0.68515	40.49709	0.66884	-53.83201
4290	0.66422	-54.25427	0.6899	40.10462	0.6899	40.10462	0.66422	-54.25427
4310	0.65792	-54.81459	0.69373	39.64909	0.69373	39.64909	0.65792	-54.81459
4330	0.65109	-55.35298	0.69696	39.23401	0.69696	39.23401	0.65109	-55.35298
4350	0.64791	-55.76877	0.70384	38.93527	0.70384	38.93527	0.64791	-55.76877
4370	0.64264	-56.55983	0.70436	38.24169	0.70436	38.24169	0.64264	-56.55983
4390	0.63775	-57.05506	0.70598	37.88736	0.70598	37.88736	0.63775	-57.05506
4410	0.63538	-57.46924	0.71276	37.49254	0.71276	37.49254	0.63538	-57.46924
4430	0.63388	-57.88444	0.72175	37.04516	0.72175	37.04516	0.63388	-57.88444
4450	0.62779	-58.24999	0.72295	36.90086	0.72295	36.90086	0.62779	-58.24999
4470	0.62101	-58.52765	0.72498	36.37785	0.72498	36.37785	0.62101	-58.52765
4490	0.61224	-59.1665	0.72672	35.60084	0.72672	35.60084	0.61224	-59.1665
4510	0.60165	-59.52387	0.72785	35.13154	0.72785	35.13154	0.60165	-59.52387
4530	0.59241	-59.65325	0.73031	34.98917	0.73031	34.98917	0.59241	-59.65325
4550	0.59077	-60.30431	0.73824	34.65051	0.73824	34.65051	0.59077	-60.30431
4570	0.5799	-61.45817	0.74074	33.46769	0.74074	33.46769	0.5799	-61.45817
4590	0.57008	-61.96367	0.74264	33.04372	0.74264	33.04372	0.57008	-61.96367
4610	0.56385	-62.2622	0.74845	32.63239	0.74845	32.63239	0.56385	-62.2622
4630	0.55887	-62.76043	0.75563	31.9096	0.75563	31.9096	0.55887	-62.76043
4650	0.54793	-63.83027	0.75464	30.97329	0.75464	30.97329	0.54793	-63.83027
4670	0.53325	-63.96054	0.75536	30.4843	0.75536	30.4843	0.53325	-63.96054
4690	0.52395	-64.2702	0.76189	29.60312	0.76189	29.60312	0.52395	-64.2702
4710	0.51359	-64.68449	0.76566	28.62329	0.76566	28.62329	0.51359	-64.68449
4730	0.49966	-65.09202	0.7659	27.75557	0.7659	27.75557	0.49966	-65.09202
4750	0.48364	-65.3448	0.76967	27.12791	0.76967	27.12791	0.48364	-65.3448
4770	0.47077	-65.97522	0.77327	26.26066	0.77327	26.26066	0.47077	-65.97522
4790	0.45777	-66.48498	0.77794	25.18048	0.77794	25.18048	0.45777	-66.48498
4810	0.44255	-66.71777	0.77965	23.97206	0.77965	23.97206	0.44255	-66.71777
4830	0.42458	-66.69085	0.77835	22.66918	0.77835	22.66918	0.42458	-66.69085
4850	0.40491	-66.59501	0.77802	21.25469	0.77802	21.25469	0.40491	-66.59501
4870	0.38389	-65.81291	0.77584	19.87132	0.77584	19.87132	0.38389	-65.81291
4890	0.36044	-64.90064	0.77297	18.25871	0.77297	18.25871	0.36044	-64.90064
4910	0.3362	-63.1772	0.76866	16.53099	0.76866	16.53099	0.3362	-63.1772
4930	0.31221	-60.49658	0.76308	14.63804	0.76308	14.63804	0.31221	-60.49658
4950	0.28897	-57.24769	0.75728	12.36552	0.75728	12.36552	0.28897	-57.24769
4970	0.27001	-51.9977	0.73863	10.20933	0.73863	10.20933	0.27001	-51.9977
4990	0.25876	-44.62323	0.72263	7.95496	0.72263	7.95496	0.25876	-44.62323
5010	0.25978	-35.77072	0.70316	5.52069	0.70316	5.52069	0.25978	-35.77072
5030	0.27485	-26.50258	0.67598	2.96296	0.67598	2.96296	0.27485	-26.50258
5050	0.30304	-18.29719	0.63869	0.47636	0.63869	0.47636	0.30304	-18.29719
5070	0.34752	-12.77393	0.59415	-1.539	0.59415	-1.539	0.34752	-12.77393
5090	0.40297	-9.51283	0.54628	-2.6396	0.54628	-2.6396	0.40297	-9.51283
5110	0.45937	-8.61486	0.49633	-3.10016	0.49633	-3.10016	0.45937	-8.61486
5130	0.51137	-9.63828	0.44587	-2.5122	0.44587	-2.5122	0.51137	-9.63828
5150	0.55827	-11.59863	0.39679	0.21593	0.39679	0.21593	0.55827	-11.59863
5170	0.60823	-14.1046	0.36327	5.64029	0.36327	5.64029	0.60823	-14.1046
5190	0.64634	-17.49251	0.34017	11.55959	0.34017	11.55959	0.64634	-17.49251
5210	0.67482	-20.47043	0.32838	18.25961	0.32838	18.25961	0.67482	-20.47043
5230	0.69884	-22.75036	0.32833	25.25703	0.32833	25.25703	0.69884	-22.75036
5250	0.7265	-25.0483	0.33998	31.29937	0.33998	31.29937	0.7265	-25.0483
5270	0.73994	-28.6361	0.35936	35.06596	0.35936	35.06596	0.73994	-28.6361
5290	0.73823	-31.2206	0.37662	38.05954	0.37662	38.05954	0.73823	-31.2206
5310	0.74466	-32.87038	0.39809	40.54717	0.39809	40.54717	0.74466	-32.87038
5330	0.7594	-34.38921	0.42277	42.35071	0.42277	42.35071	0.7594	-34.38921
5350	0.7595	-37.31607	0.44225	42.84683	0.44225	42.84683	0.7595	-37.31607
5370	0.7476	-38.72317	0.45655	43.60625	0.45655	43.60625	0.7476	-38.72317
5390	0.75123	-39.64665	0.47659	44.19739	0.47659	44.19739	0.75123	-39.64665
