#	mhz	s	ma	r	50

50	0.96	178.30	0.02	79.30	0.02	79.30	0.96	178.30
100	0.98	176.60	0.05	80.10	0.05	80.10	0.98	176.60
150	1.00	174.80	0.07	80.80	0.07	80.80	1.00	174.80
200	0.99	173.50	0.09	80.10	0.09	80.10	0.99	173.50
250	0.98	172.30	0.11	79.40	0.11	79.40	0.98	172.30
300	0.98	170.40	0.13	77.70	0.13	77.70	0.98	170.40
350	0.98	168.50	0.15	76.00	0.15	76.00	0.98	168.50
400	0.97	167.20	0.17	74.90	0.17	74.90	0.97	167.20
450	0.96	165.80	0.19	73.80	0.19	73.80	0.96	165.80
500	0.96	163.00	0.22	72.10	0.22	72.10	0.96	163.00
550	0.95	160.20	0.25	70.30	0.25	70.30	0.95	160.20
600	0.95	158.70	0.27	68.60	0.27	68.60	0.95	158.70
650	0.94	157.20	0.29	66.90	0.29	66.90	0.94	157.20
700	0.94	155.30	0.31	65.70	0.31	65.70	0.94	155.30
750	0.93	153.50	0.33	64.40	0.33	64.40	0.93	153.50
800	0.92	152.10	0.35	62.70	0.35	62.70	0.92	152.10
850	0.92	150.70	0.36	61.10	0.36	61.10	0.92	150.70
900	0.91	149.00	0.38	59.50	0.38	59.50	0.91	149.00
950	0.89	147.30	0.40	58.00	0.40	58.00	0.89	147.30
1000	0.89	145.80	0.41	56.50	0.41	56.50	0.89	145.80
1050	0.88	144.20	0.43	55.00	0.43	55.00	0.88	144.20
1100	0.87	142.60	0.45	53.80	0.45	53.80	0.87	142.60
1150	0.87	141.00	0.46	52.60	0.46	52.60	0.87	141.00
1200	0.85	139.50	0.48	51.10	0.48	51.10	0.85	139.50
1250	0.84	138.00	0.49	49.70	0.49	49.70	0.84	138.00
1300	0.84	136.40	0.50	48.60	0.50	48.60	0.84	136.40
1350	0.84	134.80	0.52	47.60	0.52	47.60	0.84	134.80
1400	0.82	133.40	0.53	46.10	0.53	46.10	0.82	133.40
1450	0.81	132.10	0.54	44.70	0.54	44.70	0.81	132.10
1500	0.81	130.50	0.55	43.50	0.55	43.50	0.81	130.50
1550	0.80	129.00	0.57	42.40	0.57	42.40	0.80	129.00
1600	0.80	127.60	0.58	41.20	0.58	41.20	0.80	127.60
1650	0.79	126.10	0.59	40.00	0.59	40.00	0.79	126.10
1700	0.78	124.80	0.60	38.80	0.60	38.80	0.78	124.80
1750	0.77	123.40	0.61	37.60	0.61	37.60	0.77	123.40
1800	0.76	122.40	0.62	36.70	0.62	36.70	0.76	122.40
1850	0.76	121.40	0.63	35.80	0.63	35.80	0.76	121.40
1900	0.75	120.00	0.64	34.70	0.64	34.70	0.75	120.00
1950	0.74	118.60	0.65	33.60	0.65	33.60	0.74	118.60
2000	0.73	117.50	0.66	32.40	0.66	32.40	0.73	117.50
2050	0.73	116.50	0.67	31.20	0.67	31.20	0.73	116.50
2100	0.71	115.50	0.67	30.30	0.67	30.30	0.71	115.50
2150	0.70	114.50	0.68	29.40	0.68	29.40	0.70	114.50
2200	0.70	113.50	0.69	28.40	0.69	28.40	0.70	113.50
2250	0.70	112.50	0.70	27.30	0.70	27.30	0.70	112.50
2300	0.69	111.70	0.70	26.40	0.70	26.40	0.69	111.70
2350	0.67	110.90	0.71	25.50	0.71	25.50	0.67	110.90
2400	0.67	110.20	0.72	24.50	0.72	24.50	0.67	110.20
2450	0.66	109.40	0.73	23.60	0.73	23.60	0.66	109.40
2500	0.66	108.80	0.73	22.60	0.73	22.60	0.66	108.80
2550	0.65	108.10	0.74	21.60	0.74	21.60	0.65	108.10
2600	0.64	107.40	0.75	20.70	0.75	20.70	0.64	107.40
2650	0.63	106.70	0.75	19.80	0.75	19.80	0.63	106.70
2700	0.63	106.30	0.76	19.00	0.76	19.00	0.63	106.30
2750	0.62	105.90	0.77	18.10	0.77	18.10	0.62	105.90
2800	0.61	105.10	0.77	17.20	0.77	17.20	0.61	105.10
2850	0.60	104.30	0.78	16.30	0.78	16.30	0.60	104.30
2900	0.60	104.00	0.79	15.20	0.79	15.20	0.60	104.00
2950	0.59	103.60	0.79	14.10	0.79	14.10	0.59	103.60
3000	0.58	103.10	0.80	13.30	0.80	13.30	0.58	103.10
3050	0.58	102.70	0.80	12.50	0.80	12.50	0.58	102.70
3100	0.56	101.70	0.81	11.30	0.81	11.30	0.56	101.70
3150	0.55	100.80	0.81	10.10	0.81	10.10	0.55	100.80
3200	0.55	100.70	0.81	9.60	0.81	9.60	0.55	100.70
3250	0.54	100.60	0.82	9.00	0.82	9.00	0.54	100.60
3300	0.54	100.10	0.83	7.90	0.83	7.90	0.54	100.10
3350	0.53	99.60	0.83	6.90	0.83	6.90	0.53	99.60
3400	0.53	99.10	0.84	6.10	0.84	6.10	0.53	99.10
3450	0.52	98.60	0.84	5.30	0.84	5.30	0.52	98.60
3500	0.51	98.40	0.84	4.60	0.84	4.60	0.51	98.40
3550	0.50	98.30	0.85	3.90	0.85	3.90	0.50	98.30
3600	0.50	98.10	0.85	3.00	0.85	3.00	0.50	98.10
3650	0.49	98.00	0.86	2.10	0.86	2.10	0.49	98.00
3700	0.48	97.40	0.86	1.20	0.86	1.20	0.48	97.40
3750	0.47	96.80	0.86	0.40	0.86	0.40	0.47	96.80
3800	0.47	96.50	0.87	-0.40	0.87	-0.40	0.47	96.50
3850	0.46	96.10	0.87	-1.10	0.87	-1.10	0.46	96.10
3900	0.46	95.50	0.87	-2.00	0.87	-2.00	0.46	95.50
3950	0.45	94.80	0.88	-3.00	0.88	-3.00	0.45	94.80
4000	0.44	94.40	0.88	-3.70	0.88	-3.70	0.44	94.40
4050	0.44	94.10	0.88	-4.50	0.88	-4.50	0.44	94.10
4100	0.43	93.20	0.89	-5.40	0.89	-5.40	0.43	93.20
4150	0.42	92.20	0.89	-6.30	0.89	-6.30	0.42	92.20
4200	0.42	91.40	0.89	-7.10	0.89	-7.10	0.42	91.40
4250	0.41	90.60	0.90	-7.80	0.90	-7.80	0.41	90.60
4300	0.41	89.70	0.90	-8.50	0.90	-8.50	0.41	89.70
4350	0.40	88.70	0.90	-9.20	0.90	-9.20	0.40	88.70
4400	0.39	87.70	0.90	-10.00	0.90	-10.00	0.39	87.70
4450	0.39	86.70	0.91	-10.90	0.91	-10.90	0.39	86.70
4500	0.38	85.50	0.91	-11.90	0.91	-11.90	0.38	85.50
4550	0.38	84.20	0.91	-12.90	0.91	-12.90	0.38	84.20
4600	0.38	83.00	0.91	-13.70	0.91	-13.70	0.38	83.00
4650	0.37	81.70	0.91	-14.40	0.91	-14.40	0.37	81.70
4700	0.37	80.80	0.92	-15.10	0.92	-15.10	0.37	80.80
4750	0.36	79.80	0.92	-15.80	0.92	-15.80	0.36	79.80
4800	0.35	78.60	0.92	-16.50	0.92	-16.50	0.35	78.60
4850	0.35	77.30	0.92	-17.30	0.92	-17.30	0.35	77.30
4900	0.35	76.40	0.92	-18.00	0.92	-18.00	0.35	76.40
4950	0.34	75.50	0.92	-18.80	0.92	-18.80	0.34	75.50
5000	0.34	74.30	0.93	-19.50	0.93	-19.50	0.34	74.30
5050	0.33	73.20	0.93	-20.20	0.93	-20.20	0.33	73.20
5100	0.32	72.10	0.93	-21.10	0.93	-21.10	0.32	72.10
5150	0.32	71.10	0.93	-21.90	0.93	-21.90	0.32	71.10
5200	0.31	70.60	0.93	-22.50	0.93	-22.50	0.31	70.60
5250	0.31	70.10	0.93	-23.10	0.93	-23.10	0.31	70.10
5300	0.30	68.80	0.94	-23.80	0.94	-23.80	0.30	68.80
5350	0.30	67.50	0.94	-24.50	0.94	-24.50	0.30	67.50
5400	0.29	66.50	0.94	-25.40	0.94	-25.40	0.29	66.50
5450	0.29	65.50	0.94	-26.20	0.94	-26.20	0.29	65.50
5500	0.28	64.50	0.95	-26.90	0.95	-26.90	0.28	64.50
5550	0.28	63.50	0.95	-27.50	0.95	-27.50	0.28	63.50
5600	0.27	62.80	0.95	-28.30	0.95	-28.30	0.27	62.80
5650	0.27	62.20	0.95	-29.10	0.95	-29.10	0.27	62.20
5700	0.26	61.30	0.95	-29.90	0.95	-29.90	0.26	61.30
5750	0.26	60.40	0.96	-30.80	0.96	-30.80	0.26	60.40
5800	0.25	59.80	0.96	-31.40	0.96	-31.40	0.25	59.80
5850	0.25	59.20	0.95	-32.10	0.95	-32.10	0.25	59.20
5900	0.24	59.10	0.95	-32.70	0.95	-32.70	0.24	59.10
5950	0.24	59.00	0.96	-33.30	0.96	-33.30	0.24	59.00
6000	0.22	57.50	0.96	-33.90	0.96	-33.90	0.22	57.50
6050	0.21	55.90	0.97	-34.50	0.97	-34.50	0.21	55.90
6100	0.21	56.40	0.97	-35.10	0.97	-35.10	0.21	56.40
6150	0.20	56.80	0.97	-35.70	0.97	-35.70	0.20	56.80
6200	0.20	57.20	0.97	-36.40	0.97	-36.40	0.20	57.20
6250	0.19	57.50	0.97	-37.10	0.97	-37.10	0.19	57.50
6300	0.19	59.00	0.97	-37.70	0.97	-37.70	0.19	59.00
6350	0.18	60.50	0.97	-38.40	0.97	-38.40	0.18	60.50
6400	0.18	61.00	0.97	-39.10	0.97	-39.10	0.18	61.00
6450	0.17	61.50	0.97	-39.80	0.97	-39.80	0.17	61.50
6500	0.17	62.20	0.97	-40.50	0.97	-40.50	0.17	62.20
6550	0.16	62.90	0.97	-41.20	0.97	-41.20	0.16	62.90
6600	0.16	64.20	0.97	-41.90	0.97	-41.90	0.16	64.20
6650	0.16	65.40	0.97	-42.60	0.97	-42.60	0.16	65.40
6700	0.15	66.50	0.97	-43.10	0.97	-43.10	0.15	66.50
6750	0.15	67.60	0.97	-43.60	0.97	-43.60	0.15	67.60
6800	0.14	68.20	0.97	-44.20	0.97	-44.20	0.14	68.20
6850	0.14	68.90	0.98	-44.80	0.98	-44.80	0.14	68.90
6900	0.14	69.60	0.98	-45.50	0.98	-45.50	0.14	69.60
6950	0.14	70.20	0.98	-46.30	0.98	-46.30	0.14	70.20
7000	0.14	71.40	0.98	-47.00	0.98	-47.00	0.14	71.40
7050	0.14	72.60	0.98	-47.70	0.98	-47.70	0.14	72.60
7100	0.14	73.70	0.98	-48.30	0.98	-48.30	0.14	73.70
7150	0.14	74.90	0.98	-48.90	0.98	-48.90	0.14	74.90
7200	0.14	75.10	0.98	-49.50	0.98	-49.50	0.14	75.10
7250	0.14	75.30	0.98	-50.10	0.98	-50.10	0.14	75.30
7300	0.14	75.50	0.98	-50.70	0.98	-50.70	0.14	75.50
7350	0.14	75.70	0.98	-51.30	0.98	-51.30	0.14	75.70
7400	0.14	76.30	0.98	-52.00	0.98	-52.00	0.14	76.30
7450	0.14	76.90	0.98	-52.70	0.98	-52.70	0.14	76.90
7500	0.14	76.70	0.98	-53.30	0.98	-53.30	0.14	76.70
7550	0.14	76.60	0.98	-53.90	0.98	-53.90	0.14	76.60
7600	0.14	76.00	0.98	-54.50	0.98	-54.50	0.14	76.00
7650	0.14	75.50	0.98	-55.20	0.98	-55.20	0.14	75.50
7700	0.14	74.00	0.98	-55.80	0.98	-55.80	0.14	74.00
7750	0.14	72.50	0.98	-56.40	0.98	-56.40	0.14	72.50
7800	0.14	73.40	0.98	-57.00	0.98	-57.00	0.14	73.40
7850	0.14	74.30	0.98	-57.60	0.98	-57.60	0.14	74.30
7900	0.13	71.70	0.98	-58.20	0.98	-58.20	0.13	71.70
7950	0.13	69.00	0.98	-58.80	0.98	-58.80	0.13	69.00
8000	0.13	68.80	0.98	-59.50	0.98	-59.50	0.13	68.80
8050	0.13	68.50	0.98	-60.10	0.98	-60.10	0.13	68.50
8100	0.12	65.80	0.98	-60.70	0.98	-60.70	0.12	65.80
8150	0.12	63.10	0.98	-61.30	0.98	-61.30	0.12	63.10
8200	0.12	61.70	0.98	-61.80	0.98	-61.80	0.12	61.70
8250	0.11	60.30	0.98	-62.40	0.98	-62.40	0.11	60.30
8300	0.11	58.00	0.98	-62.90	0.98	-62.90	0.11	58.00
8350	0.11	55.70	0.98	-63.50	0.98	-63.50	0.11	55.70
8400	0.11	53.40	0.98	-64.10	0.98	-64.10	0.11	53.40
8450	0.10	51.20	0.98	-64.70	0.98	-64.70	0.10	51.20
8500	0.10	47.90	0.98	-65.30	0.98	-65.30	0.10	47.90
8550	0.10	44.60	0.98	-65.80	0.98	-65.80	0.10	44.60
8600	0.10	42.60	0.98	-66.50	0.98	-66.50	0.10	42.60
8650	0.10	40.50	0.98	-67.10	0.98	-67.10	0.10	40.50
8700	0.10	38.00	0.98	-67.70	0.98	-67.70	0.10	38.00
8750	0.09	35.40	0.98	-68.30	0.98	-68.30	0.09	35.40
8800	0.09	33.90	0.98	-68.80	0.98	-68.80	0.09	33.90
8850	0.09	32.40	0.98	-69.20	0.98	-69.20	0.09	32.40
8900	0.09	32.00	0.98	-69.90	0.98	-69.90	0.09	32.00
8950	0.09	31.60	0.99	-70.50	0.99	-70.50	0.09	31.60
9000	0.08	29.70	0.98	-71.20	0.98	-71.20	0.08	29.70
9050	0.08	27.70	0.98	-71.80	0.98	-71.80	0.08	27.70
9100	0.08	26.60	0.98	-72.40	0.98	-72.40	0.08	26.60
9150	0.07	25.40	0.99	-73.00	0.99	-73.00	0.07	25.40
9200	0.07	23.60	0.99	-73.70	0.99	-73.70	0.07	23.60
9250	0.06	21.70	0.98	-74.40	0.98	-74.40	0.06	21.70
9300	0.06	19.80	0.99	-74.80	0.99	-74.80	0.06	19.80
9350	0.05	17.90	0.99	-75.10	0.99	-75.10	0.05	17.90
9400	0.05	13.20	0.99	-75.70	0.99	-75.70	0.05	13.20
9450	0.04	8.60	0.98	-76.30	0.98	-76.30	0.04	8.60
9500	0.04	5.80	0.98	-76.90	0.98	-76.90	0.04	5.80
9550	0.04	3.10	0.98	-77.60	0.98	-77.60	0.04	3.10
9600	0.03	-10.30	0.99	-78.30	0.99	-78.30	0.03	-10.30
9650	0.03	-23.70	0.99	-78.90	0.99	-78.90	0.03	-23.70
9700	0.02	-39.30	0.99	-79.50	0.99	-79.50	0.02	-39.30
9750	0.02	-54.80	0.99	-80.00	0.99	-80.00	0.02	-54.80
9800	0.02	-64.10	0.99	-80.60	0.99	-80.60	0.02	-64.10
9850	0.03	-73.40	0.99	-81.20	0.99	-81.20	0.03	-73.40
9900	0.03	-86.60	0.99	-81.80	0.99	-81.80	0.03	-86.60
9950	0.03	-99.90	0.99	-82.40	0.99	-82.40	0.03	-99.90
10000	0.04	-108.50	0.99	-83.00	0.99	-83.00	0.04	-108.50
10050	0.04	-117.10	0.98	-83.60	0.98	-83.60	0.04	-117.10
10100	0.05	-121.40	0.98	-84.10	0.98	-84.10	0.05	-121.40
10150	0.05	-125.70	0.98	-84.60	0.98	-84.60	0.05	-125.70
10200	0.06	-132.80	0.99	-85.30	0.99	-85.30	0.06	-132.80
10250	0.06	-139.80	0.99	-86.00	0.99	-86.00	0.06	-139.80
10300	0.07	-142.00	0.98	-86.70	0.98	-86.70	0.07	-142.00
10350	0.08	-144.10	0.98	-87.30	0.98	-87.30	0.08	-144.10
10400	0.08	-149.50	0.98	-88.00	0.98	-88.00	0.08	-149.50
10450	0.09	-154.80	0.98	-88.70	0.98	-88.70	0.09	-154.80
10500	0.09	-156.30	0.98	-89.40	0.98	-89.40	0.09	-156.30
10550	0.10	-157.70	0.98	-90.10	0.98	-90.10	0.10	-157.70
10600	0.10	-162.80	0.98	-90.60	0.98	-90.60	0.10	-162.80
10650	0.11	-167.90	0.98	-91.20	0.98	-91.20	0.11	-167.90
10700	0.12	-169.10	0.98	-92.00	0.98	-92.00	0.12	-169.10
10750	0.12	-170.20	0.98	-92.70	0.98	-92.70	0.12	-170.20
10800	0.13	-171.30	0.98	-93.10	0.98	-93.10	0.13	-171.30
10850	0.14	-172.40	0.98	-93.50	0.98	-93.50	0.14	-172.40
10900	0.14	3.70	0.97	-94.30	0.97	-94.30	0.14	3.70
10950	0.15	179.80	0.97	-95.10	0.97	-95.10	0.15	179.80
11000	0.15	179.90	0.97	-95.60	0.97	-95.60	0.15	179.90
11050	0.16	179.90	0.98	-96.10	0.98	-96.10	0.16	179.90
11100	0.16	177.10	0.97	-96.80	0.97	-96.80	0.16	177.10
11150	0.17	174.40	0.97	-97.50	0.97	-97.50	0.17	174.40
11200	0.17	172.90	0.97	-98.10	0.97	-98.10	0.17	172.90
11250	0.17	171.30	0.97	-98.70	0.97	-98.70	0.17	171.30
11300	0.18	170.00	0.97	-99.30	0.97	-99.30	0.18	170.00
11350	0.18	168.80	0.97	-99.90	0.97	-99.90	0.18	168.80
11400	0.18	166.10	0.97	-100.70	0.97	-100.70	0.18	166.10
11450	0.18	163.40	0.97	-101.40	0.97	-101.40	0.18	163.40
11500	0.19	161.70	0.96	-102.00	0.96	-102.00	0.19	161.70
11550	0.19	159.90	0.96	-102.60	0.96	-102.60	0.19	159.90
11600	0.20	157.80	0.96	-103.30	0.96	-103.30	0.20	157.80
11650	0.20	155.60	0.96	-104.00	0.96	-104.00	0.20	155.60
11700	0.20	153.80	0.96	-104.60	0.96	-104.60	0.20	153.80
11750	0.21	152.00	0.96	-105.30	0.96	-105.30	0.21	152.00
11800	0.22	149.30	0.96	-105.70	0.96	-105.70	0.22	149.30
11850	0.22	146.60	0.95	-106.20	0.95	-106.20	0.22	146.60
11900	0.23	146.70	0.95	-106.90	0.95	-106.90	0.23	146.70
11950	0.24	146.80	0.95	-107.60	0.95	-107.60	0.24	146.80
12000	0.24	144.90	0.95	-108.10	0.95	-108.10	0.24	144.90
12050	0.25	143.00	0.95	-108.70	0.95	-108.70	0.25	143.00
12100	0.25	142.60	0.95	-109.30	0.95	-109.30	0.25	142.60
12150	0.26	142.20	0.95	-110.00	0.95	-110.00	0.26	142.20
12200	0.26	141.10	0.95	-110.50	0.95	-110.50	0.26	141.10
12250	0.27	140.00	0.94	-111.00	0.94	-111.00	0.27	140.00
12300	0.27	139.80	0.94	-111.70	0.94	-111.70	0.27	139.80
12350	0.28	139.60	0.94	-112.50	0.94	-112.50	0.28	139.60
12400	0.27	138.90	0.94	-112.90	0.94	-112.90	0.27	138.90
12450	0.27	138.30	0.94	-113.40	0.94	-113.40	0.27	138.30
12500	0.28	136.20	0.94	-114.20	0.94	-114.20	0.28	136.20
12550	0.28	134.00	0.94	-115.00	0.94	-115.00	0.28	134.00
12600	0.28	134.50	0.94	-115.60	0.94	-115.60	0.28	134.50
12650	0.28	135.00	0.94	-116.20	0.94	-116.20	0.28	135.00
12700	0.28	133.30	0.94	-116.80	0.94	-116.80	0.28	133.30
12750	0.28	131.60	0.93	-117.40	0.93	-117.40	0.28	131.60
12800	0.28	130.30	0.93	-118.30	0.93	-118.30	0.28	130.30
12850	0.28	128.90	0.93	-119.20	0.93	-119.20	0.28	128.90
12900	0.28	127.70	0.93	-119.70	0.93	-119.70	0.28	127.70
12950	0.28	126.50	0.93	-120.10	0.93	-120.10	0.28	126.50
13000	0.29	126.20	0.93	-121.00	0.93	-121.00	0.29	126.20
13050	0.29	125.80	0.93	-121.90	0.93	-121.90	0.29	125.80
13100	0.29	124.60	0.92	-122.40	0.92	-122.40	0.29	124.60
13150	0.30	123.50	0.92	-122.90	0.92	-122.90	0.30	123.50
13200	0.30	122.50	0.92	-123.40	0.92	-123.40	0.30	122.50
13250	0.30	121.40	0.92	-123.90	0.92	-123.90	0.30	121.40
13300	0.31	122.30	0.92	-124.90	0.92	-124.90	0.31	122.30
13350	0.31	123.10	0.92	-126.00	0.92	-126.00	0.31	123.10
13400	0.31	120.10	0.91	-126.70	0.91	-126.70	0.31	120.10
13450	0.32	117.10	0.91	-127.40	0.91	-127.40	0.32	117.10
13500	0.33	116.70	0.91	-128.10	0.91	-128.10	0.33	116.70
13550	0.34	116.30	0.91	-128.80	0.91	-128.80	0.34	116.30
13600	0.34	115.20	0.91	-129.60	0.91	-129.60	0.34	115.20
13650	0.34	114.00	0.91	-130.40	0.91	-130.40	0.34	114.00
13700	0.34	113.20	0.91	-131.20	0.91	-131.20	0.34	113.20
13750	0.34	112.40	0.91	-132.10	0.91	-132.10	0.34	112.40
13800	0.34	111.40	0.91	-132.80	0.91	-132.80	0.34	111.40
13850	0.34	110.50	0.90	-133.50	0.90	-133.50	0.34	110.50
13900	0.34	109.70	0.90	-134.30	0.90	-134.30	0.34	109.70
13950	0.34	108.80	0.91	-135.10	0.91	-135.10	0.34	108.80
14000	0.35	106.90	0.90	-136.20	0.90	-136.20	0.35	106.90
14050	0.35	105.10	0.90	-137.30	0.90	-137.30	0.35	105.10
14100	0.35	104.60	0.90	-138.00	0.90	-138.00	0.35	104.60
14150	0.35	104.20	0.90	-138.80	0.90	-138.80	0.35	104.20
14200	0.36	102.50	0.89	-139.90	0.89	-139.90	0.36	102.50
14250	0.37	100.90	0.89	-141.00	0.89	-141.00	0.37	100.90
14300	0.37	99.50	0.89	-142.10	0.89	-142.10	0.37	99.50
14350	0.38	98.10	0.89	-143.20	0.89	-143.20	0.38	98.10
14400	0.38	97.00	0.88	-144.30	0.88	-144.30	0.38	97.00
14450	0.39	95.80	0.87	-145.50	0.87	-145.50	0.39	95.80
14500	0.40	94.30	0.87	-146.50	0.87	-146.50	0.40	94.30
14550	0.41	92.80	0.86	-147.60	0.86	-147.60	0.41	92.80
14600	0.42	92.00	0.85	-148.60	0.85	-148.60	0.42	92.00
14650	0.44	91.10	0.85	-149.60	0.85	-149.60	0.44	91.10
14700	0.44	90.20	0.84	-151.10	0.84	-151.10	0.44	90.20
14750	0.45	89.30	0.83	-152.50	0.83	-152.50	0.45	89.30
14800	0.47	87.80	0.82	-153.90	0.82	-153.90	0.47	87.80
14850	0.49	86.30	0.82	-155.20	0.82	-155.20	0.49	86.30
14900	0.50	86.40	0.80	-156.40	0.80	-156.40	0.50	86.40
14950	0.51	86.60	0.79	-157.50	0.79	-157.50	0.51	86.60
15000	0.53	84.90	0.78	-159.10	0.78	-159.10	0.53	84.90
15050	0.55	83.10	0.77	-160.70	0.77	-160.70	0.55	83.10
15100	0.55	82.40	0.76	-161.90	0.76	-161.90	0.55	82.40
15150	0.56	81.70	0.74	-163.10	0.74	-163.10	0.56	81.70
15200	0.57	80.90	0.73	-164.20	0.73	-164.20	0.57	80.90
15250	0.59	80.00	0.71	-165.20	0.71	-165.20	0.59	80.00
15300	0.60	78.00	0.69	-166.40	0.69	-166.40	0.60	78.00
15350	0.61	75.90	0.68	-167.60	0.68	-167.60	0.61	75.90
15400	0.60	74.20	0.65	-168.50	0.65	-168.50	0.60	74.20
15450	0.59	72.40	0.63	-169.40	0.63	-169.40	0.59	72.40
15500	0.61	72.50	0.62	-169.90	0.62	-169.90	0.61	72.50
15550	0.63	72.50	0.62	-170.30	0.62	-170.30	0.63	72.50
15600	0.64	71.70	0.60	-171.50	0.60	-171.50	0.64	71.70
15650	0.65	70.90	0.59	-172.70	0.59	-172.70	0.65	70.90
15700	0.67	69.80	0.57	-174.40	0.57	-174.40	0.67	69.80
15750	0.70	68.60	0.56	-176.00	0.56	-176.00	0.70	68.60
15800	0.71	67.80	0.54	-177.20	0.54	-177.20	0.71	67.80
15850	0.72	66.90	0.51	-178.40	0.51	-178.40	0.72	66.90
15900	0.74	64.80	0.49	0.10	0.49	0.10	0.74	64.80
15950	0.76	62.70	0.46	178.70	0.46	178.70	0.76	62.70
16000	0.77	62.00	0.44	178.70	0.44	178.70	0.77	62.00
16050	0.78	61.40	0.41	178.70	0.41	178.70	0.78	61.40
16100	0.79	60.00	0.38	178.90	0.38	178.90	0.79	60.00
16150	0.80	58.70	0.36	179.10	0.36	179.10	0.80	58.70
16200	0.79	57.50	0.34	1.40	0.34	1.40	0.79	57.50
16250	0.78	56.20	0.32	-176.40	0.32	-176.40	0.78	56.20
16300	0.76	56.50	0.31	-173.20	0.31	-173.20	0.76	56.50
16350	0.75	56.90	0.31	-170.00	0.31	-170.00	0.75	56.90
16400	0.76	58.00	0.32	-170.80	0.32	-170.80	0.76	58.00
16450	0.77	59.10	0.32	-171.60	0.32	-171.60	0.77	59.10
16500	0.78	58.50	0.31	-174.20	0.31	-174.20	0.78	58.50
16550	0.79	57.90	0.29	-176.80	0.29	-176.80	0.79	57.90
16600	0.82	56.50	0.27	1.30	0.27	1.30	0.82	56.50
16650	0.85	55.10	0.25	179.30	0.25	179.30	0.85	55.10
16700	0.86	52.80	0.22	179.40	0.22	179.40	0.86	52.80
16750	0.88	50.60	0.19	179.40	0.19	179.40	0.88	50.60
16800	0.88	47.90	0.17	2.80	0.17	2.80	0.88	47.90
16850	0.89	45.20	0.14	-173.90	0.14	-173.90	0.89	45.20
16900	0.89	42.30	0.12	-164.00	0.12	-164.00	0.89	42.30
16950	0.90	39.40	0.10	-154.10	0.10	-154.10	0.90	39.40
17000	0.89	36.90	0.10	-137.70	0.10	-137.70	0.89	36.90
17050	0.89	34.50	0.09	-121.20	0.09	-121.20	0.89	34.50
17100	0.89	32.20	0.11	-108.80	0.11	-108.80	0.89	32.20
17150	0.90	29.80	0.12	-96.30	0.12	-96.30	0.90	29.80
17200	0.89	27.80	0.14	-90.20	0.14	-90.20	0.89	27.80
17250	0.89	25.80	0.17	-84.00	0.17	-84.00	0.89	25.80
17300	0.89	24.00	0.20	-81.80	0.20	-81.80	0.89	24.00
17350	0.89	22.10	0.22	-79.60	0.22	-79.60	0.89	22.10
17400	0.89	20.30	0.25	-78.70	0.25	-78.70	0.89	20.30
17450	0.89	18.50	0.28	-77.90	0.28	-77.90	0.89	18.50
17500	0.88	16.70	0.31	-78.60	0.31	-78.60	0.88	16.70
17550	0.88	14.80	0.34	-79.30	0.34	-79.30	0.88	14.80
17600	0.86	12.90	0.37	-80.60	0.37	-80.60	0.86	12.90
17650	0.85	10.90	0.40	-81.90	0.40	-81.90	0.85	10.90
17700	0.84	9.20	0.43	-83.20	0.43	-83.20	0.84	9.20
17750	0.82	7.50	0.46	-84.50	0.46	-84.50	0.82	7.50
17800	0.81	4.50	0.49	-86.80	0.49	-86.80	0.81	4.50
17850	0.79	1.60	0.52	-89.00	0.52	-89.00	0.79	1.60
17900	0.76	0.40	0.54	-90.80	0.54	-90.80	0.76	0.40
17950	0.73	-0.80	0.56	-92.50	0.56	-92.50	0.73	-0.80
18000	0.72	-3.20	0.58	-94.40	0.58	-94.40	0.72	-3.20
18050	0.70	-5.60	0.61	-96.30	0.61	-96.30	0.70	-5.60
18100	0.68	-8.00	0.63	-98.40	0.63	-98.40	0.68	-8.00
18150	0.66	-10.50	0.64	-100.40	0.64	-100.40	0.66	-10.50
18200	0.65	-12.00	0.66	-102.00	0.66	-102.00	0.65	-12.00
18250	0.64	-13.50	0.68	-103.70	0.68	-103.70	0.64	-13.50
18300	0.63	-15.70	0.69	-105.50	0.69	-105.50	0.63	-15.70
18350	0.63	-17.90	0.71	-107.30	0.71	-107.30	0.63	-17.90
18400	0.62	-18.80	0.72	-108.80	0.72	-108.80	0.62	-18.80
18450	0.61	-19.60	0.72	-110.30	0.72	-110.30	0.61	-19.60
18500	0.61	-20.50	0.74	-111.60	0.74	-111.60	0.61	-20.50
18550	0.61	-21.40	0.76	-113.00	0.76	-113.00	0.61	-21.40
18600	0.60	-21.90	0.77	-114.60	0.77	-114.60	0.60	-21.90
18650	0.60	-22.50	0.78	-116.10	0.78	-116.10	0.60	-22.50
18700	0.58	-24.40	0.78	-117.90	0.78	-117.90	0.58	-24.40
18750	0.57	-26.30	0.79	-119.60	0.79	-119.60	0.57	-26.30
18800	0.56	-26.60	0.80	-120.60	0.80	-120.60	0.56	-26.60
18850	0.56	-27.00	0.80	-121.60	0.80	-121.60	0.56	-27.00
18900	0.55	-28.70	0.81	-123.10	0.81	-123.10	0.55	-28.70
18950	0.55	-30.40	0.81	-124.60	0.81	-124.60	0.55	-30.40
19000	0.53	-33.20	0.82	-125.50	0.82	-125.50	0.53	-33.20
