#	mhz	s	ma	r	50
50	0.7513	140.47692	0.53336	44.67082	0.53336	44.67082	0.7513	140.47692
70	0.6862	132.52103	0.59783	38.24969	0.59783	38.24969	0.6862	132.52103
90	0.6211	124.56514	0.6623	31.82856	0.6623	31.82856	0.6211	124.56514
110	0.55601	116.60925	0.72676	25.40742	0.72676	25.40742	0.55601	116.60925
130	0.49091	108.65336	0.79123	18.98629	0.79123	18.98629	0.49091	108.65336
150	0.42581	100.69747	0.8557	12.56516	0.8557	12.56516	0.42581	100.69747
170	0.39464	96.17404	0.87185	9.11372	0.87185	9.11372	0.39464	96.17404
190	0.36347	91.65061	0.88799	5.66229	0.88799	5.66229	0.36347	91.65061
210	0.33229	87.12718	0.90414	2.21086	0.90414	2.21086	0.33229	87.12718
230	0.30112	82.60375	0.92028	-1.24057	0.92028	-1.24057	0.30112	82.60375
250	0.26995	78.08032	0.93643	-4.692	0.93643	-4.692	0.26995	78.08032
270	0.2542	74.20782	0.94146	-7.44289	0.94146	-7.44289	0.2542	74.20782
290	0.23844	70.33533	0.94649	-10.19378	0.94649	-10.19378	0.23844	70.33533
310	0.22269	66.46283	0.95152	-12.94467	0.95152	-12.94467	0.22269	66.46283
330	0.20694	62.59034	0.95655	-15.69556	0.95655	-15.69556	0.20694	62.59034
350	0.19119	58.71784	0.96158	-18.44645	0.96158	-18.44645	0.19119	58.71784
370	0.18238	55.04014	0.96298	-20.69292	0.96298	-20.69292	0.18238	55.04014
390	0.17357	51.36244	0.96438	-22.9394	0.96438	-22.9394	0.17357	51.36244
410	0.16476	47.68474	0.96578	-25.18588	0.96578	-25.18588	0.16476	47.68474
430	0.15595	44.00704	0.96718	-27.43235	0.96718	-27.43235	0.15595	44.00704
450	0.14715	40.32934	0.96859	-29.67883	0.96859	-29.67883	0.14715	40.32934
470	0.14107	38.54917	0.97	-31.70835	0.97	-31.70835	0.14107	38.54917
490	0.135	36.769	0.97142	-33.73788	0.97142	-33.73788	0.135	36.769
510	0.12893	34.98884	0.97283	-35.7674	0.97283	-35.7674	0.12893	34.98884
530	0.12286	33.20867	0.97425	-37.79693	0.97425	-37.79693	0.12286	33.20867
550	0.11679	31.4285	0.97566	-39.82645	0.97566	-39.82645	0.11679	31.4285
570	0.10855	27.70037	0.97629	-41.88902	0.97629	-41.88902	0.10855	27.70037
590	0.10031	23.97225	0.97691	-43.95159	0.97691	-43.95159	0.10031	23.97225
610	0.09207	20.24412	0.97753	-46.01416	0.97753	-46.01416	0.09207	20.24412
630	0.08383	16.51599	0.97815	-48.07673	0.97815	-48.07673	0.08383	16.51599
650	0.07559	12.78786	0.97877	-50.1393	0.97877	-50.1393	0.07559	12.78786
670	0.07355	10.15139	0.97904	-52.04634	0.97904	-52.04634	0.07355	10.15139
690	0.0715	7.51491	0.97931	-53.95337	0.97931	-53.95337	0.0715	7.51491
710	0.06946	4.87844	0.97958	-55.86041	0.97958	-55.86041	0.06946	4.87844
730	0.06742	2.24196	0.97985	-57.76744	0.97985	-57.76744	0.06742	2.24196
750	0.06537	-0.39451	0.98012	-59.67448	0.98012	-59.67448	0.06537	-0.39451
770	0.05933	-4.4282	0.98126	-61.56269	0.98126	-61.56269	0.05933	-4.4282
790	0.05328	-8.46189	0.98241	-63.45091	0.98241	-63.45091	0.05328	-8.46189
810	0.04724	-12.49558	0.98356	-65.33912	0.98356	-65.33912	0.04724	-12.49558
830	0.0412	-16.52927	0.9847	-67.22734	0.9847	-67.22734	0.0412	-16.52927
850	0.03515	-20.56296	0.98585	-69.11555	0.98585	-69.11555	0.03515	-20.56296
870	0.03484	-24.2058	0.98606	-71.00558	0.98606	-71.00558	0.03484	-24.2058
890	0.03453	-27.84863	0.98627	-72.8956	0.98627	-72.8956	0.03453	-27.84863
910	0.03422	-31.49147	0.98648	-74.78563	0.98648	-74.78563	0.03422	-31.49147
930	0.03391	-35.13431	0.98669	-76.67565	0.98669	-76.67565	0.03391	-35.13431
950	0.0336	-38.77714	0.9869	-78.56567	0.9869	-78.56567	0.0336	-38.77714
970	0.02927	-43.64403	0.98778	-80.34295	0.98778	-80.34295	0.02927	-43.64403
990	0.02494	-48.51091	0.98865	-82.12023	0.98865	-82.12023	0.02494	-48.51091
1010	0.0206	-53.3778	0.98953	-83.89751	0.98953	-83.89751	0.0206	-53.3778
1030	0.01627	-58.24469	0.9904	-85.67479	0.9904	-85.67479	0.01627	-58.24469
1050	0.01194	-63.11157	0.99128	-87.45206	0.99128	-87.45206	0.01194	-63.11157
1070	0.01164	-73.6234	0.99082	-89.31552	0.99082	-89.31552	0.01164	-73.6234
1090	0.01134	-84.13522	0.99037	-91.17897	0.99037	-91.17897	0.01134	-84.13522
1110	0.01105	-94.64705	0.98992	-93.04242	0.98992	-93.04242	0.01105	-94.64705
1130	0.01075	-105.15887	0.98946	-94.90588	0.98946	-94.90588	0.01075	-105.15887
1150	0.01045	-115.6707	0.98901	-96.76933	0.98901	-96.76933	0.01045	-115.6707
1170	0.01262	-62.30108	0.98819	-98.55655	0.98819	-98.55655	0.01262	-62.30108
1190	0.0148	-8.93145	0.98736	-100.34377	0.98736	-100.34377	0.0148	-8.93145
1210	0.01697	44.43817	0.98654	-102.13099	0.98654	-102.13099	0.01697	44.43817
1230	0.01915	97.80779	0.98571	-103.91821	0.98571	-103.91821	0.01915	97.80779
1250	0.02132	151.17742	0.98489	-105.70543	0.98489	-105.70543	0.02132	151.17742
1270	0.02208	152.16533	0.98479	-107.57992	0.98479	-107.57992	0.02208	152.16533
1290	0.02285	153.15324	0.98469	-109.4544	0.98469	-109.4544	0.02285	153.15324
1310	0.02361	154.14114	0.98459	-111.32888	0.98459	-111.32888	0.02361	154.14114
1330	0.02437	155.12905	0.9845	-113.20336	0.9845	-113.20336	0.02437	155.12905
1350	0.02514	156.11696	0.9844	-115.07784	0.9844	-115.07784	0.02514	156.11696
1370	0.02722	148.09466	0.98415	-116.86421	0.98415	-116.86421	0.02722	148.09466
1390	0.0293	140.07235	0.98391	-118.65058	0.98391	-118.65058	0.0293	140.07235
1410	0.03138	132.05005	0.98367	-120.43695	0.98367	-120.43695	0.03138	132.05005
1430	0.03346	124.02774	0.98343	-122.22332	0.98343	-122.22332	0.03346	124.02774
1450	0.03555	116.00544	0.98318	-124.00969	0.98318	-124.00969	0.03555	116.00544
1470	0.03629	115.43895	0.98348	-125.8109	0.98348	-125.8109	0.03629	115.43895
1490	0.03704	114.87247	0.98378	-127.6121	0.98378	-127.6121	0.03704	114.87247
1510	0.03779	114.30599	0.98409	-129.41331	0.98409	-129.41331	0.03779	114.30599
1530	0.03854	113.7395	0.98439	-131.21451	0.98439	-131.21451	0.03854	113.7395
1550	0.03929	113.17302	0.98469	-133.01572	0.98469	-133.01572	0.03929	113.17302
1570	0.04074	108.05421	0.9847	-134.78843	0.9847	-134.78843	0.04074	108.05421
1590	0.04219	102.9354	0.98472	-136.56114	0.98472	-136.56114	0.04219	102.9354
1610	0.04365	97.81659	0.98473	-138.33385	0.98473	-138.33385	0.04365	97.81659
1630	0.0451	92.69778	0.98474	-140.10656	0.98474	-140.10656	0.0451	92.69778
1650	0.04655	87.57897	0.98476	-141.87927	0.98476	-141.87927	0.04655	87.57897
1670	0.04695	85.93051	0.98437	-143.64536	0.98437	-143.64536	0.04695	85.93051
1690	0.04736	84.28205	0.98399	-145.41144	0.98399	-145.41144	0.04736	84.28205
1710	0.04776	82.63358	0.9836	-147.17753	0.9836	-147.17753	0.04776	82.63358
1730	0.04816	80.98512	0.98322	-148.94361	0.98322	-148.94361	0.04816	80.98512
1750	0.04856	79.33666	0.98283	-150.7097	0.98283	-150.7097	0.04856	79.33666
1770	0.04995	74.12291	0.98249	-152.5631	0.98249	-152.5631	0.04995	74.12291
1790	0.05134	68.90917	0.98215	-154.4165	0.98215	-154.4165	0.05134	68.90917
1810	0.05273	63.69542	0.9818	-156.2699	0.9818	-156.2699	0.05273	63.69542
1830	0.05412	58.48167	0.98146	-158.1233	0.98146	-158.1233	0.05412	58.48167
1850	0.0555	53.26793	0.98112	-159.9767	0.98112	-159.9767	0.0555	53.26793
1870	0.05721	51.66647	0.98124	-161.70372	0.98124	-161.70372	0.05721	51.66647
1890	0.05892	50.06502	0.98136	-163.43075	0.98136	-163.43075	0.05892	50.06502
1910	0.06062	48.46356	0.98149	-165.15777	0.98149	-165.15777	0.06062	48.46356
1930	0.06233	46.86211	0.98161	-166.8848	0.98161	-166.8848	0.06233	46.86211
1950	0.06404	45.26065	0.98173	-168.61183	0.98173	-168.61183	0.06404	45.26065
1970	0.06458	41.51362	0.98148	-170.43995	0.98148	-170.43995	0.06458	41.51362
1990	0.06512	37.76659	0.98123	-172.26807	0.98123	-172.26807	0.06512	37.76659
2010	0.06566	34.01956	0.98099	-174.09619	0.98099	-174.09619	0.06566	34.01956
2030	0.0662	30.27254	0.98074	-175.92432	0.98074	-175.92432	0.0662	30.27254
2050	0.06674	26.52551	0.98049	-177.75244	0.98049	-177.75244	0.06674	26.52551
2070	0.06871	24.39929	0.98006	-107.52959	0.98006	-107.52959	0.06871	24.39929
2090	0.07067	22.27308	0.97964	-37.30675	0.97964	-37.30675	0.07067	22.27308
2110	0.07264	20.14686	0.97921	32.9161	0.97921	32.9161	0.07264	20.14686
2130	0.07461	18.02065	0.97879	103.13894	0.97879	103.13894	0.07461	18.02065
2150	0.07658	15.89443	0.97836	173.36179	0.97836	173.36179	0.07658	15.89443
2170	0.0772	13.06026	0.978	171.58215	0.978	171.58215	0.0772	13.06026
2190	0.07781	10.22609	0.97763	169.80252	0.97763	169.80252	0.07781	10.22609
2210	0.07842	7.39191	0.97727	168.02289	0.97727	168.02289	0.07842	7.39191
2230	0.07904	4.55774	0.9769	166.24325	0.9769	166.24325	0.07904	4.55774
2250	0.07965	1.72357	0.97654	164.46362	0.97654	164.46362	0.07965	1.72357
2270	0.08045	-0.61729	0.97647	162.65255	0.97647	162.65255	0.08045	-0.61729
2290	0.08125	-2.95815	0.97641	160.84147	0.97641	160.84147	0.08125	-2.95815
2310	0.08206	-5.29902	0.97634	159.0304	0.97634	159.0304	0.08206	-5.29902
2330	0.08286	-7.63988	0.97628	157.21933	0.97628	157.21933	0.08286	-7.63988
2350	0.08366	-9.98074	0.97621	155.40825	0.97621	155.40825	0.08366	-9.98074
2370	0.08472	-13.58923	0.97585	153.67499	0.97585	153.67499	0.08472	-13.58923
2390	0.08578	-17.19773	0.97548	151.94173	0.97548	151.94173	0.08578	-17.19773
2410	0.08684	-20.80622	0.97511	150.20847	0.97511	150.20847	0.08684	-20.80622
2430	0.0879	-24.41471	0.97475	148.47521	0.97475	148.47521	0.0879	-24.41471
2450	0.08896	-28.02321	0.97438	146.74194	0.97438	146.74194	0.08896	-28.02321
2470	0.0911	-30.19355	0.97315	144.9999	0.97315	144.9999	0.0911	-30.19355
2490	0.09324	-32.36389	0.97191	143.25785	0.97191	143.25785	0.09324	-32.36389
2510	0.09538	-34.53423	0.97068	141.51581	0.97068	141.51581	0.09538	-34.53423
2530	0.09752	-36.70457	0.96945	139.77376	0.96945	139.77376	0.09752	-36.70457
2550	0.09966	-38.87491	0.96821	138.03171	0.96821	138.03171	0.09966	-38.87491
2570	0.10084	-41.978	0.96836	136.13208	0.96836	136.13208	0.10084	-41.978
2590	0.10202	-45.08109	0.96851	134.23245	0.96851	134.23245	0.10202	-45.08109
2610	0.1032	-48.18418	0.96866	132.33282	0.96866	132.33282	0.1032	-48.18418
2630	0.10438	-51.28727	0.96881	130.43318	0.96881	130.43318	0.10438	-51.28727
2650	0.10556	-54.39035	0.96896	128.53355	0.96896	128.53355	0.10556	-54.39035
2670	0.10727	-56.55394	0.96865	126.78214	0.96865	126.78214	0.10727	-56.55394
2690	0.10898	-58.71752	0.96835	125.03073	0.96835	125.03073	0.10898	-58.71752
2710	0.11069	-60.8811	0.96804	123.27932	0.96804	123.27932	0.11069	-60.8811
2730	0.11241	-63.04469	0.96773	121.5279	0.96773	121.5279	0.11241	-63.04469
2750	0.11412	-65.20827	0.96742	119.77649	0.96742	119.77649	0.11412	-65.20827
2770	0.11502	-68.1891	0.96747	118.10363	0.96747	118.10363	0.11502	-68.1891
2790	0.11592	-71.16993	0.96752	116.43077	0.96752	116.43077	0.11592	-71.16993
2810	0.11682	-74.15076	0.96757	114.7579	0.96757	114.7579	0.11682	-74.15076
2830	0.11773	-77.13158	0.96762	113.08504	0.96762	113.08504	0.11773	-77.13158
2850	0.11863	-80.11241	0.96767	111.41218	0.96767	111.41218	0.11863	-80.11241
2870	0.12117	-82.27098	0.9661	109.53979	0.9661	109.53979	0.12117	-82.27098
2890	0.12372	-84.42955	0.96453	107.6674	0.96453	107.6674	0.12372	-84.42955
2910	0.12626	-86.58812	0.96295	105.79501	0.96295	105.79501	0.12626	-86.58812
2930	0.1288	-88.74669	0.96138	103.92262	0.96138	103.92262	0.1288	-88.74669
2950	0.13135	-90.90526	0.95981	102.05022	0.95981	102.05022	0.13135	-90.90526
2970	0.13274	-93.63049	0.96061	100.32779	0.96061	100.32779	0.13274	-93.63049
2990	0.13414	-96.35571	0.96142	98.60535	0.96142	98.60535	0.13414	-96.35571
3010	0.13553	-99.08094	0.96222	96.88292	0.96222	96.88292	0.13553	-99.08094
3030	0.13693	-101.80617	0.96303	95.16048	0.96303	95.16048	0.13693	-101.80617
3050	0.13832	-104.5314	0.96383	93.43805	0.96383	93.43805	0.13832	-104.5314
3070	0.13946	-106.29895	0.9627	91.6832	0.9627	91.6832	0.13946	-106.29895
3090	0.1406	-108.06651	0.96158	89.92836	0.96158	89.92836	0.1406	-108.06651
3110	0.14173	-109.83407	0.96045	88.17351	0.96045	88.17351	0.14173	-109.83407
3130	0.14287	-111.60162	0.95932	86.41867	0.95932	86.41867	0.14287	-111.60162
3150	0.14401	-113.36918	0.95819	84.66382	0.95819	84.66382	0.14401	-113.36918
3170	0.14484	-116.17449	0.95927	82.9275	0.95927	82.9275	0.14484	-116.17449
3190	0.14566	-118.97979	0.96034	81.19119	0.96034	81.19119	0.14566	-118.97979
3210	0.14649	-121.7851	0.96142	79.45487	0.96142	79.45487	0.14649	-121.7851
3230	0.14732	-124.5904	0.96249	77.71856	0.96249	77.71856	0.14732	-124.5904
3250	0.14815	-127.39571	0.96357	75.98224	0.96357	75.98224	0.14815	-127.39571
3270	0.15051	-129.60801	0.96387	74.22525	0.96387	74.22525	0.15051	-129.60801
3290	0.15287	-131.82032	0.96417	72.46826	0.96417	72.46826	0.15287	-131.82032
3310	0.15523	-134.03263	0.96447	70.71127	0.96447	70.71127	0.15523	-134.03263
3330	0.15759	-136.24493	0.96477	68.95427	0.96477	68.95427	0.15759	-136.24493
3350	0.15996	-138.45724	0.96507	67.19728	0.96507	67.19728	0.15996	-138.45724
3370	0.16087	-140.91725	0.96487	65.44749	0.96487	65.44749	0.16087	-140.91725
3390	0.16179	-143.37726	0.96466	63.69771	0.96466	63.69771	0.16179	-143.37726
3410	0.16271	-145.83727	0.96446	61.94792	0.96446	61.94792	0.16271	-145.83727
3430	0.16363	-148.29728	0.96425	60.19813	0.96425	60.19813	0.16363	-148.29728
3450	0.16455	-150.75729	0.96405	58.44834	0.96405	58.44834	0.16455	-150.75729
3470	0.1656	-153.0193	0.96443	56.54417	0.96443	56.54417	0.1656	-153.0193
3490	0.16665	-155.28131	0.96481	54.64	0.96481	54.64	0.16665	-155.28131
3510	0.1677	-157.54331	0.96519	52.73583	0.96519	52.73583	0.1677	-157.54331
3530	0.16876	-159.80532	0.96557	50.83166	0.96557	50.83166	0.16876	-159.80532
3550	0.16981	-162.06733	0.96595	48.92749	0.96595	48.92749	0.16981	-162.06733
3570	0.17091	-164.75622	0.96595	47.11506	0.96595	47.11506	0.17091	-164.75622
3590	0.172	-167.44511	0.96594	45.30264	0.96594	45.30264	0.172	-167.44511
3610	0.1731	-170.134	0.96593	43.49022	0.96593	43.49022	0.1731	-170.134
3630	0.1742	-172.82289	0.96593	41.67779	0.96593	41.67779	0.1742	-172.82289
3650	0.1753	-175.51179	0.96592	39.86537	0.96592	39.86537	0.1753	-175.51179
3670	0.17641	-105.8577	0.96606	38.03864	0.96606	38.03864	0.17641	-105.8577
3690	0.17752	-36.20361	0.9662	36.2119	0.9662	36.2119	0.17752	-36.20361
3710	0.17863	33.45048	0.96634	34.38517	0.96634	34.38517	0.17863	33.45048
3730	0.17974	103.10457	0.96647	32.55844	0.96647	32.55844	0.17974	103.10457
3750	0.18086	172.75866	0.96661	30.73171	0.96661	30.73171	0.18086	172.75866
3770	0.18245	170.00245	0.96612	28.85458	0.96612	28.85458	0.18245	170.00245
3790	0.18404	167.24624	0.96563	26.97746	0.96563	26.97746	0.18404	167.24624
3810	0.18563	164.49003	0.96514	25.10034	0.96514	25.10034	0.18563	164.49003
3830	0.18722	161.73382	0.96464	23.22322	0.96464	23.22322	0.18722	161.73382
3850	0.18881	158.97761	0.96415	21.3461	0.96415	21.3461	0.18881	158.97761
3870	0.19059	156.26194	0.96379	19.49908	0.96379	19.49908	0.19059	156.26194
3890	0.19237	153.54626	0.96343	17.65206	0.96343	17.65206	0.19237	153.54626
3910	0.19415	150.83059	0.96306	15.80504	0.96306	15.80504	0.19415	150.83059
3930	0.19593	148.11491	0.9627	13.95802	0.9627	13.95802	0.19593	148.11491
3950	0.1977	145.39924	0.96234	12.111	0.96234	12.111	0.1977	145.39924
3970	0.2005	142.74618	0.96166	10.27545	0.96166	10.27545	0.2005	142.74618
3990	0.2033	140.09312	0.96099	8.4399	0.96099	8.4399	0.2033	140.09312
4010	0.20609	137.44006	0.96031	6.60435	0.96031	6.60435	0.20609	137.44006
4030	0.20889	134.78701	0.95963	4.7688	0.95963	4.7688	0.20889	134.78701
4050	0.21169	132.13395	0.95896	2.93325	0.95896	2.93325	0.21169	132.13395
4070	0.21417	129.36739	0.9574	1.12476	0.9574	1.12476	0.21417	129.36739
4090	0.21666	126.60083	0.95584	-0.68372	0.95584	-0.68372	0.21666	126.60083
4110	0.21914	123.83427	0.95429	-2.4922	0.95429	-2.4922	0.21914	123.83427
4130	0.22163	121.06771	0.95273	-4.30069	0.95273	-4.30069	0.22163	121.06771
4150	0.22412	118.30115	0.95117	-6.10917	0.95117	-6.10917	0.22412	118.30115
4170	0.22738	115.63311	0.94957	-8.02997	0.94957	-8.02997	0.22738	115.63311
4190	0.23065	112.96506	0.94797	-9.95076	0.94797	-9.95076	0.23065	112.96506
4210	0.23391	110.29702	0.94637	-11.87156	0.94637	-11.87156	0.23391	110.29702
4230	0.23718	107.62897	0.94477	-13.79236	0.94477	-13.79236	0.23718	107.62897
4250	0.24044	104.96093	0.94318	-15.71316	0.94318	-15.71316	0.24044	104.96093
4270	0.24383	102.2881	0.9425	-17.57114	0.9425	-17.57114	0.24383	102.2881
4290	0.24721	99.61528	0.94182	-19.42912	0.94182	-19.42912	0.24721	99.61528
4310	0.25059	96.94245	0.94114	-21.2871	0.94114	-21.2871	0.25059	96.94245
4330	0.25398	94.26963	0.94046	-23.14509	0.94046	-23.14509	0.25398	94.26963
4350	0.25736	91.5968	0.93979	-25.00307	0.93979	-25.00307	0.25736	91.5968
4370	0.26184	89.01815	0.93674	-26.9589	0.93674	-26.9589	0.26184	89.01815
4390	0.26631	86.4395	0.93368	-28.91473	0.93368	-28.91473	0.26631	86.4395
4410	0.27078	83.86085	0.93063	-30.87057	0.93063	-30.87057	0.27078	83.86085
4430	0.27525	81.2822	0.92758	-32.8264	0.92758	-32.8264	0.27525	81.2822
4450	0.27973	78.70355	0.92453	-34.78223	0.92453	-34.78223	0.27973	78.70355
4470	0.28377	75.78515	0.92158	-36.72984	0.92158	-36.72984	0.28377	75.78515
4490	0.2878	72.86675	0.91863	-38.67745	0.91863	-38.67745	0.2878	72.86675
4510	0.29184	69.94835	0.91568	-40.62506	0.91568	-40.62506	0.29184	69.94835
4530	0.29588	67.02995	0.91274	-42.57266	0.91274	-42.57266	0.29588	67.02995
4550	0.29992	64.11155	0.90979	-44.52027	0.90979	-44.52027	0.29992	64.11155
4570	0.30649	61.23104	0.90528	-46.54245	0.90528	-46.54245	0.30649	61.23104
4590	0.31306	58.35054	0.90078	-48.56463	0.90078	-48.56463	0.31306	58.35054
4610	0.31963	55.47004	0.89627	-50.5868	0.89627	-50.5868	0.31963	55.47004
4630	0.3262	52.58953	0.89177	-52.60898	0.89177	-52.60898	0.3262	52.58953
4650	0.33277	49.70903	0.88726	-54.63116	0.88726	-54.63116	0.33277	49.70903
4670	0.33883	46.45074	0.88055	-56.71694	0.88055	-56.71694	0.33883	46.45074
4690	0.34489	43.19245	0.87384	-58.80272	0.87384	-58.80272	0.34489	43.19245
4710	0.35095	39.93416	0.86714	-60.88851	0.86714	-60.88851	0.35095	39.93416
4730	0.357	36.67587	0.86043	-62.97429	0.86043	-62.97429	0.357	36.67587
4750	0.36306	33.41758	0.85372	-65.06007	0.85372	-65.06007	0.36306	33.41758
4770	0.37135	29.55767	0.84143	-67.05591	0.84143	-67.05591	0.37135	29.55767
4790	0.37963	25.69775	0.82914	-69.05176	0.82914	-69.05176	0.37963	25.69775
4810	0.38792	21.83784	0.81685	-71.04761	0.81685	-71.04761	0.38792	21.83784
4830	0.3962	17.97793	0.80456	-73.04345	0.80456	-73.04345	0.3962	17.97793
4850	0.40449	14.11802	0.79227	-75.0393	0.79227	-75.0393	0.40449	14.11802
4870	0.40911	8.46535	0.76744	-76.39602	0.76744	-76.39602	0.40911	8.46535
4890	0.41372	2.81268	0.74262	-77.75274	0.74262	-77.75274	0.41372	2.81268
4910	0.41834	-2.84	0.71779	-79.10946	0.71779	-79.10946	0.41834	-2.84
4930	0.42296	-8.49267	0.69296	-80.46618	0.69296	-80.46618	0.42296	-8.49267
4950	0.42758	-14.14534	0.66814	-81.82289	0.66814	-81.82289	0.42758	-14.14534
4970	0.40569	-21.37926	0.66316	-79.95511	0.66316	-79.95511	0.40569	-21.37926
4990	0.38381	-28.61318	0.65819	-78.08733	0.65819	-78.08733	0.38381	-28.61318
5010	0.36193	-35.84709	0.65321	-76.21955	0.65321	-76.21955	0.36193	-35.84709
5030	0.34005	-43.08101	0.64824	-74.35176	0.64824	-74.35176	0.34005	-43.08101
5050	0.31817	-50.31493	0.64326	-72.48398	0.64326	-72.48398	0.31817	-50.31493
5070	0.28097	-50.7327	0.6779	-73.54275	0.6779	-73.54275	0.28097	-50.7327
5090	0.24377	-51.15047	0.71255	-74.60151	0.71255	-74.60151	0.24377	-51.15047
5110	0.20657	-51.56824	0.74719	-75.66028	0.74719	-75.66028	0.20657	-51.56824
5130	0.16937	-51.98601	0.78184	-76.71904	0.78184	-76.71904	0.16937	-51.98601
5150	0.13217	-52.40378	0.81648	-77.77781	0.81648	-77.77781	0.13217	-52.40378
5170	0.13394	-44.92005	0.83136	-80.47624	0.83136	-80.47624	0.13394	-44.92005
5190	0.13571	-37.43632	0.84624	-83.17468	0.84624	-83.17468	0.13571	-37.43632
5210	0.13747	-29.95259	0.86112	-85.87311	0.86112	-85.87311	0.13747	-29.95259
5230	0.13924	-22.46886	0.876	-88.57154	0.876	-88.57154	0.13924	-22.46886
5250	0.14101	-14.98513	0.89087	-91.26998	0.89087	-91.26998	0.14101	-14.98513
5270	0.15125	-15.2711	0.89516	-93.55825	0.89516	-93.55825	0.15125	-15.2711
5290	0.16149	-15.55706	0.89945	-95.84652	0.89945	-95.84652	0.16149	-15.55706
5310	0.17172	-15.84303	0.90374	-98.13479	0.90374	-98.13479	0.17172	-15.84303
5330	0.18196	-16.12899	0.90803	-100.42306	0.90803	-100.42306	0.18196	-16.12899
5350	0.1922	-16.41495	0.91231	-102.71133	0.91231	-102.71133	0.1922	-16.41495
