#	mhz	s	ma	r	50

50	0.94	178.60	0.03	29.50	0.03	29.50	0.94	178.60
100	0.96	177.40	0.04	42.20	0.04	42.20	0.96	177.40
150	0.98	176.10	0.05	54.80	0.05	54.80	0.98	176.10
200	0.97	175.10	0.07	59.10	0.07	59.10	0.97	175.10
250	0.96	174.10	0.08	63.30	0.08	63.30	0.96	174.10
300	0.96	172.50	0.09	64.30	0.09	64.30	0.96	172.50
350	0.96	171.00	0.11	65.30	0.11	65.30	0.96	171.00
400	0.96	170.00	0.12	66.00	0.12	66.00	0.96	170.00
450	0.95	169.00	0.14	66.60	0.14	66.60	0.95	169.00
500	0.95	166.70	0.16	66.40	0.16	66.40	0.95	166.70
550	0.95	164.50	0.18	66.10	0.18	66.10	0.95	164.50
600	0.94	163.30	0.19	65.40	0.19	65.40	0.94	163.30
650	0.94	162.00	0.21	64.60	0.21	64.60	0.94	162.00
700	0.94	160.50	0.22	64.20	0.22	64.20	0.94	160.50
750	0.93	158.90	0.23	63.80	0.23	63.80	0.93	158.90
800	0.93	157.80	0.25	62.80	0.25	62.80	0.93	157.80
850	0.93	156.60	0.26	61.70	0.26	61.70	0.93	156.60
900	0.92	155.20	0.27	60.80	0.27	60.80	0.92	155.20
950	0.92	153.80	0.28	59.90	0.28	59.90	0.92	153.80
1000	0.91	152.50	0.30	58.90	0.30	58.90	0.91	152.50
1050	0.91	151.20	0.31	57.90	0.31	57.90	0.91	151.20
1100	0.90	149.80	0.32	57.20	0.32	57.20	0.90	149.80
1150	0.90	148.40	0.34	56.40	0.34	56.40	0.90	148.40
1200	0.89	147.10	0.34	55.30	0.34	55.30	0.89	147.10
1250	0.88	145.70	0.35	54.20	0.35	54.20	0.88	145.70
1300	0.89	144.30	0.37	53.50	0.37	53.50	0.89	144.30
1350	0.89	142.90	0.38	52.90	0.38	52.90	0.89	142.90
1400	0.88	141.70	0.39	51.70	0.39	51.70	0.88	141.70
1450	0.87	140.40	0.40	50.60	0.40	50.60	0.87	140.40
1500	0.87	139.10	0.41	49.80	0.41	49.80	0.87	139.10
1550	0.87	137.70	0.42	48.90	0.42	48.90	0.87	137.70
1600	0.86	136.40	0.43	48.00	0.43	48.00	0.86	136.40
1650	0.86	135.20	0.44	47.10	0.44	47.10	0.86	135.20
1700	0.85	133.90	0.45	46.10	0.45	46.10	0.85	133.90
1750	0.85	132.60	0.46	45.10	0.46	45.10	0.85	132.60
1800	0.84	131.80	0.47	44.40	0.47	44.40	0.84	131.80
1850	0.84	130.90	0.48	43.70	0.48	43.70	0.84	130.90
1900	0.84	129.50	0.49	42.80	0.49	42.80	0.84	129.50
1950	0.83	128.20	0.49	41.90	0.49	41.90	0.83	128.20
2000	0.83	127.20	0.50	40.90	0.50	40.90	0.83	127.20
2050	0.82	126.20	0.51	39.90	0.51	39.90	0.82	126.20
2100	0.81	125.30	0.52	39.10	0.52	39.10	0.81	125.30
2150	0.81	124.50	0.53	38.40	0.53	38.40	0.81	124.50
2200	0.81	123.50	0.54	37.50	0.54	37.50	0.81	123.50
2250	0.81	122.60	0.54	36.60	0.54	36.60	0.81	122.60
2300	0.80	121.80	0.55	35.80	0.55	35.80	0.80	121.80
2350	0.78	121.10	0.56	35.00	0.56	35.00	0.78	121.10
2400	0.78	120.40	0.56	34.30	0.56	34.30	0.78	120.40
2450	0.78	119.80	0.57	33.50	0.57	33.50	0.78	119.80
2500	0.78	119.10	0.58	32.60	0.58	32.60	0.78	119.10
2550	0.77	118.50	0.59	31.70	0.59	31.70	0.77	118.50
2600	0.77	117.80	0.59	30.90	0.59	30.90	0.77	117.80
2650	0.76	117.20	0.60	30.20	0.60	30.20	0.76	117.20
2700	0.76	116.80	0.61	29.40	0.61	29.40	0.76	116.80
2750	0.75	116.40	0.62	28.60	0.62	28.60	0.75	116.40
2800	0.75	115.70	0.62	27.80	0.62	27.80	0.75	115.70
2850	0.74	115.00	0.63	27.00	0.63	27.00	0.74	115.00
2900	0.74	114.60	0.64	26.00	0.64	26.00	0.74	114.60
2950	0.73	114.20	0.64	25.00	0.64	25.00	0.73	114.20
3000	0.73	113.80	0.65	24.30	0.65	24.30	0.73	113.80
3050	0.72	113.50	0.66	23.50	0.66	23.50	0.72	113.50
3100	0.71	112.40	0.66	22.40	0.66	22.40	0.71	112.40
3150	0.70	111.30	0.67	21.30	0.67	21.30	0.70	111.30
3200	0.70	111.30	0.67	20.80	0.67	20.80	0.70	111.30
3250	0.70	111.30	0.68	20.30	0.68	20.30	0.70	111.30
3300	0.69	110.70	0.69	19.20	0.69	19.20	0.69	110.70
3350	0.69	110.20	0.69	18.20	0.69	18.20	0.69	110.20
3400	0.69	109.60	0.70	17.50	0.70	17.50	0.69	109.60
3450	0.68	109.10	0.70	16.80	0.70	16.80	0.68	109.10
3500	0.67	108.90	0.70	16.10	0.70	16.10	0.67	108.90
3550	0.66	108.70	0.71	15.40	0.71	15.40	0.66	108.70
3600	0.66	108.50	0.72	14.60	0.72	14.60	0.66	108.50
3650	0.66	108.30	0.73	13.70	0.73	13.70	0.66	108.30
3700	0.65	107.70	0.73	12.90	0.73	12.90	0.65	107.70
3750	0.64	107.00	0.73	12.00	0.73	12.00	0.64	107.00
3800	0.63	106.70	0.74	11.30	0.74	11.30	0.63	106.70
3850	0.63	106.30	0.74	10.60	0.74	10.60	0.63	106.30
3900	0.62	105.70	0.75	9.70	0.75	9.70	0.62	105.70
3950	0.62	105.10	0.75	8.80	0.75	8.80	0.62	105.10
4000	0.61	104.60	0.76	8.00	0.76	8.00	0.61	104.60
4050	0.61	104.10	0.76	7.30	0.76	7.30	0.61	104.10
4100	0.60	103.20	0.77	6.40	0.77	6.40	0.60	103.20
4150	0.60	102.30	0.77	5.50	0.77	5.50	0.60	102.30
4200	0.59	101.50	0.77	4.70	0.77	4.70	0.59	101.50
4250	0.59	100.70	0.78	3.90	0.78	3.90	0.59	100.70
4300	0.58	99.80	0.78	3.20	0.78	3.20	0.58	99.80
4350	0.58	98.90	0.79	2.60	0.79	2.60	0.58	98.90
4400	0.57	97.90	0.79	1.70	0.79	1.70	0.57	97.90
4450	0.56	97.00	0.80	0.90	0.80	0.90	0.56	97.00
4500	0.56	95.60	0.80	-0.20	0.80	-0.20	0.56	95.60
4550	0.56	94.30	0.80	-1.30	0.80	-1.30	0.56	94.30
4600	0.56	93.10	0.80	-2.00	0.80	-2.00	0.56	93.10
4650	0.55	92.00	0.81	-2.60	0.81	-2.60	0.55	92.00
4700	0.55	91.00	0.81	-3.30	0.81	-3.30	0.55	91.00
4750	0.54	89.90	0.81	-4.00	0.81	-4.00	0.54	89.90
4800	0.54	88.70	0.81	-4.80	0.81	-4.80	0.54	88.70
4850	0.53	87.50	0.82	-5.50	0.82	-5.50	0.53	87.50
4900	0.53	86.40	0.82	-6.30	0.82	-6.30	0.53	86.40
4950	0.52	85.30	0.82	-7.00	0.82	-7.00	0.52	85.30
5000	0.52	84.20	0.83	-7.70	0.83	-7.70	0.52	84.20
5050	0.52	83.20	0.83	-8.40	0.83	-8.40	0.52	83.20
5100	0.51	81.80	0.83	-9.20	0.83	-9.20	0.51	81.80
5150	0.50	80.50	0.84	-10.10	0.84	-10.10	0.50	80.50
5200	0.50	79.80	0.84	-10.80	0.84	-10.80	0.50	79.80
5250	0.49	79.20	0.84	-11.40	0.84	-11.40	0.49	79.20
5300	0.49	78.10	0.84	-11.90	0.84	-11.90	0.49	78.10
5350	0.49	76.90	0.85	-12.50	0.85	-12.50	0.49	76.90
5400	0.48	75.80	0.85	-13.40	0.85	-13.40	0.48	75.80
5450	0.47	74.60	0.86	-14.40	0.86	-14.40	0.47	74.60
5500	0.47	73.70	0.86	-15.00	0.86	-15.00	0.47	73.70
5550	0.47	72.80	0.86	-15.50	0.86	-15.50	0.47	72.80
5600	0.46	71.80	0.87	-16.40	0.87	-16.40	0.46	71.80
5650	0.46	70.80	0.87	-17.20	0.87	-17.20	0.46	70.80
5700	0.45	69.90	0.87	-18.10	0.87	-18.10	0.45	69.90
5750	0.45	69.10	0.88	-18.90	0.88	-18.90	0.45	69.10
5800	0.44	68.00	0.88	-19.60	0.88	-19.60	0.44	68.00
5850	0.44	67.00	0.88	-20.30	0.88	-20.30	0.44	67.00
5900	0.43	66.60	0.88	-20.90	0.88	-20.90	0.43	66.60
5950	0.43	66.30	0.88	-21.50	0.88	-21.50	0.43	66.30
6000	0.42	65.20	0.89	-21.90	0.89	-21.90	0.42	65.20
6050	0.41	64.10	0.89	-22.30	0.89	-22.30	0.41	64.10
6100	0.41	63.80	0.89	-22.90	0.89	-22.90	0.41	63.80
6150	0.40	63.50	0.89	-23.50	0.89	-23.50	0.40	63.50
6200	0.40	63.40	0.90	-24.20	0.90	-24.20	0.40	63.40
6250	0.40	63.20	0.90	-24.90	0.90	-24.90	0.40	63.20
6300	0.39	63.20	0.90	-25.50	0.90	-25.50	0.39	63.20
6350	0.38	63.30	0.90	-26.20	0.90	-26.20	0.38	63.30
6400	0.38	63.10	0.90	-26.80	0.90	-26.80	0.38	63.10
6450	0.37	62.90	0.91	-27.50	0.91	-27.50	0.37	62.90
6500	0.37	62.60	0.91	-28.20	0.91	-28.20	0.37	62.60
6550	0.36	62.30	0.91	-29.00	0.91	-29.00	0.36	62.30
6600	0.36	62.20	0.91	-29.70	0.91	-29.70	0.36	62.20
6650	0.35	62.10	0.92	-30.50	0.92	-30.50	0.35	62.10
6700	0.35	62.10	0.92	-31.00	0.92	-31.00	0.35	62.10
6750	0.34	62.10	0.92	-31.50	0.92	-31.50	0.34	62.10
6800	0.34	61.70	0.92	-32.10	0.92	-32.10	0.34	61.70
6850	0.34	61.30	0.92	-32.60	0.92	-32.60	0.34	61.30
6900	0.33	61.00	0.92	-33.40	0.92	-33.40	0.33	61.00
6950	0.33	60.60	0.93	-34.30	0.93	-34.30	0.33	60.60
7000	0.33	60.50	0.93	-34.90	0.93	-34.90	0.33	60.50
7050	0.33	60.30	0.93	-35.60	0.93	-35.60	0.33	60.30
7100	0.32	60.20	0.93	-36.30	0.93	-36.30	0.32	60.20
7150	0.32	60.10	0.93	-36.90	0.93	-36.90	0.32	60.10
7200	0.32	59.70	0.93	-37.60	0.93	-37.60	0.32	59.70
7250	0.31	59.30	0.93	-38.20	0.93	-38.20	0.31	59.30
7300	0.31	58.90	0.93	-38.70	0.93	-38.70	0.31	58.90
7350	0.32	58.60	0.93	-39.30	0.93	-39.30	0.32	58.60
7400	0.31	58.10	0.93	-40.00	0.93	-40.00	0.31	58.10
7450	0.31	57.70	0.94	-40.80	0.94	-40.80	0.31	57.70
7500	0.31	57.10	0.94	-41.40	0.94	-41.40	0.31	57.10
7550	0.31	56.50	0.94	-42.00	0.94	-42.00	0.31	56.50
7600	0.31	55.50	0.94	-42.60	0.94	-42.60	0.31	55.50
7650	0.31	54.60	0.94	-43.20	0.94	-43.20	0.31	54.60
7700	0.31	53.40	0.94	-43.90	0.94	-43.90	0.31	53.40
7750	0.31	52.30	0.94	-44.60	0.94	-44.60	0.31	52.30
7800	0.31	51.80	0.94	-45.20	0.94	-45.20	0.31	51.80
7850	0.31	51.20	0.93	-45.70	0.93	-45.70	0.31	51.20
7900	0.31	49.50	0.94	-46.30	0.94	-46.30	0.31	49.50
7950	0.31	47.80	0.94	-46.90	0.94	-46.90	0.31	47.80
8000	0.31	46.70	0.94	-47.60	0.94	-47.60	0.31	46.70
8050	0.31	45.60	0.94	-48.20	0.94	-48.20	0.31	45.60
8100	0.30	44.00	0.94	-48.80	0.94	-48.80	0.30	44.00
8150	0.30	42.40	0.94	-49.50	0.94	-49.50	0.30	42.40
8200	0.30	41.10	0.94	-49.90	0.94	-49.90	0.30	41.10
8250	0.30	39.70	0.94	-50.30	0.94	-50.30	0.30	39.70
8300	0.30	38.30	0.94	-50.90	0.94	-50.90	0.30	38.30
8350	0.30	36.80	0.94	-51.50	0.94	-51.50	0.30	36.80
8400	0.30	35.40	0.94	-52.00	0.94	-52.00	0.30	35.40
8450	0.30	34.00	0.94	-52.60	0.94	-52.60	0.30	34.00
8500	0.30	32.30	0.94	-53.00	0.94	-53.00	0.30	32.30
8550	0.30	30.70	0.94	-53.50	0.94	-53.50	0.30	30.70
8600	0.30	29.50	0.94	-54.10	0.94	-54.10	0.30	29.50
8650	0.30	28.40	0.94	-54.60	0.94	-54.60	0.30	28.40
8700	0.31	27.20	0.94	-55.10	0.94	-55.10	0.31	27.20
8750	0.31	26.00	0.94	-55.60	0.94	-55.60	0.31	26.00
8800	0.31	24.90	0.94	-56.00	0.94	-56.00	0.31	24.90
8850	0.31	23.80	0.94	-56.40	0.94	-56.40	0.31	23.80
8900	0.31	23.60	0.94	-57.00	0.94	-57.00	0.31	23.60
8950	0.31	23.40	0.94	-57.50	0.94	-57.50	0.31	23.40
9000	0.31	22.70	0.94	-58.10	0.94	-58.10	0.31	22.70
9050	0.31	21.90	0.94	-58.60	0.94	-58.60	0.31	21.90
9100	0.31	21.50	0.94	-59.20	0.94	-59.20	0.31	21.50
9150	0.31	21.00	0.94	-59.80	0.94	-59.80	0.31	21.00
9200	0.30	20.00	0.94	-60.30	0.94	-60.30	0.30	20.00
9250	0.30	18.90	0.93	-60.90	0.93	-60.90	0.30	18.90
9300	0.29	18.90	0.94	-61.10	0.94	-61.10	0.29	18.90
9350	0.29	18.90	0.94	-61.40	0.94	-61.40	0.29	18.90
9400	0.29	17.70	0.94	-61.90	0.94	-61.90	0.29	17.70
9450	0.29	16.50	0.94	-62.40	0.94	-62.40	0.29	16.50
9500	0.28	16.40	0.94	-62.90	0.94	-62.90	0.28	16.40
9550	0.28	16.20	0.94	-63.30	0.94	-63.30	0.28	16.20
9600	0.28	15.10	0.94	-63.90	0.94	-63.90	0.28	15.10
9650	0.28	14.00	0.94	-64.60	0.94	-64.60	0.28	14.00
9700	0.27	13.70	0.94	-64.90	0.94	-64.90	0.27	13.70
9750	0.27	13.40	0.94	-65.30	0.94	-65.30	0.27	13.40
9800	0.27	12.50	0.95	-65.70	0.95	-65.70	0.27	12.50
9850	0.27	11.60	0.95	-66.10	0.95	-66.10	0.27	11.60
9900	0.26	11.20	0.95	-66.70	0.95	-66.70	0.26	11.20
9950	0.26	10.90	0.95	-67.40	0.95	-67.40	0.26	10.90
10000	0.26	10.00	0.95	-67.70	0.95	-67.70	0.26	10.00
10050	0.25	9.20	0.95	-68.00	0.95	-68.00	0.25	9.20
10100	0.25	8.30	0.95	-68.50	0.95	-68.50	0.25	8.30
10150	0.25	7.50	0.95	-69.00	0.95	-69.00	0.25	7.50
10200	0.24	7.10	0.96	-69.50	0.96	-69.50	0.24	7.10
10250	0.24	6.70	0.96	-70.00	0.96	-70.00	0.24	6.70
10300	0.24	5.00	0.95	-70.50	0.95	-70.50	0.24	5.00
10350	0.23	3.40	0.95	-71.10	0.95	-71.10	0.23	3.40
10400	0.23	2.90	0.95	-71.60	0.95	-71.60	0.23	2.90
10450	0.22	2.40	0.96	-72.00	0.96	-72.00	0.22	2.40
10500	0.22	1.00	0.96	-72.60	0.96	-72.60	0.22	1.00
10550	0.22	-0.30	0.96	-73.20	0.96	-73.20	0.22	-0.30
10600	0.21	-0.60	0.96	-73.70	0.96	-73.70	0.21	-0.60
10650	0.20	-0.90	0.97	-74.20	0.97	-74.20	0.20	-0.90
10700	0.20	-1.60	0.97	-74.80	0.97	-74.80	0.20	-1.60
10750	0.20	-2.30	0.97	-75.40	0.97	-75.40	0.20	-2.30
10800	0.19	-3.50	0.97	-75.80	0.97	-75.80	0.19	-3.50
10850	0.18	-4.70	0.97	-76.10	0.97	-76.10	0.18	-4.70
10900	0.17	-4.80	0.97	-76.80	0.97	-76.80	0.17	-4.80
10950	0.17	-4.80	0.97	-77.50	0.97	-77.50	0.17	-4.80
11000	0.16	-6.10	0.97	-78.20	0.97	-78.20	0.16	-6.10
11050	0.16	-7.50	0.97	-78.80	0.97	-78.80	0.16	-7.50
11100	0.15	-8.40	0.97	-79.30	0.97	-79.30	0.15	-8.40
11150	0.15	-9.40	0.97	-79.70	0.97	-79.70	0.15	-9.40
11200	0.15	-9.70	0.98	-80.40	0.98	-80.40	0.15	-9.70
11250	0.15	-10.10	0.98	-81.00	0.98	-81.00	0.15	-10.10
11300	0.14	-11.90	0.98	-81.60	0.98	-81.60	0.14	-11.90
11350	0.14	-13.70	0.98	-82.20	0.98	-82.20	0.14	-13.70
11400	0.14	-12.60	0.98	-82.70	0.98	-82.70	0.14	-12.60
11450	0.14	-11.40	0.97	-83.10	0.97	-83.10	0.14	-11.40
11500	0.14	-11.30	0.98	-83.80	0.98	-83.80	0.14	-11.30
11550	0.13	-11.20	0.98	-84.40	0.98	-84.40	0.13	-11.20
11600	0.13	-10.50	0.98	-84.90	0.98	-84.90	0.13	-10.50
11650	0.13	-9.90	0.98	-85.40	0.98	-85.40	0.13	-9.90
11700	0.13	-8.50	0.98	-86.00	0.98	-86.00	0.13	-8.50
11750	0.13	-7.10	0.98	-86.50	0.98	-86.50	0.13	-7.10
11800	0.13	-4.30	0.98	-86.90	0.98	-86.90	0.13	-4.30
11850	0.12	-1.40	0.98	-87.30	0.98	-87.30	0.12	-1.40
11900	0.12	0.00	0.98	-87.90	0.98	-87.90	0.12	0.00
11950	0.11	1.50	0.98	-88.40	0.98	-88.40	0.11	1.50
12000	0.10	2.80	0.98	-89.00	0.98	-89.00	0.10	2.80
12050	0.10	4.10	0.98	-89.50	0.98	-89.50	0.10	4.10
12100	0.10	4.80	0.98	-90.10	0.98	-90.10	0.10	4.80
12150	0.10	5.50	0.98	-90.70	0.98	-90.70	0.10	5.50
12200	0.09	7.30	0.98	-91.10	0.98	-91.10	0.09	7.30
12250	0.09	9.10	0.98	-91.60	0.98	-91.60	0.09	9.10
12300	0.09	9.50	0.98	-92.10	0.98	-92.10	0.09	9.50
12350	0.09	9.90	0.98	-92.70	0.98	-92.70	0.09	9.90
12400	0.09	9.00	0.98	-93.20	0.98	-93.20	0.09	9.00
12450	0.09	8.10	0.98	-93.70	0.98	-93.70	0.09	8.10
12500	0.09	10.80	0.98	-94.30	0.98	-94.30	0.09	10.80
12550	0.10	13.50	0.98	-94.80	0.98	-94.80	0.10	13.50
12600	0.10	12.20	0.98	-95.30	0.98	-95.30	0.10	12.20
12650	0.10	11.00	0.98	-95.80	0.98	-95.80	0.10	11.00
12700	0.10	10.60	0.98	-96.30	0.98	-96.30	0.10	10.60
12750	0.11	10.30	0.98	-96.80	0.98	-96.80	0.11	10.30
12800	0.11	10.70	0.98	-97.30	0.98	-97.30	0.11	10.70
12850	0.12	11.20	0.98	-97.90	0.98	-97.90	0.12	11.20
12900	0.12	12.00	0.98	-98.40	0.98	-98.40	0.12	12.00
12950	0.12	12.90	0.98	-98.90	0.98	-98.90	0.12	12.90
13000	0.12	12.30	0.98	-99.30	0.98	-99.30	0.12	12.30
13050	0.12	11.70	0.98	-99.80	0.98	-99.80	0.12	11.70
13100	0.12	12.10	0.98	-100.30	0.98	-100.30	0.12	12.10
13150	0.12	12.50	0.98	-100.80	0.98	-100.80	0.12	12.50
13200	0.13	13.20	0.98	-101.00	0.98	-101.00	0.13	13.20
13250	0.13	13.80	0.98	-101.30	0.98	-101.30	0.13	13.80
13300	0.13	16.80	0.98	-102.10	0.98	-102.10	0.13	16.80
13350	0.12	19.70	0.97	-103.00	0.97	-103.00	0.12	19.70
13400	0.13	18.70	0.97	-103.50	0.97	-103.50	0.13	18.70
13450	0.13	17.70	0.97	-104.10	0.97	-104.10	0.13	17.70
13500	0.13	18.70	0.97	-104.60	0.97	-104.60	0.13	18.70
13550	0.13	19.80	0.97	-105.10	0.97	-105.10	0.13	19.80
13600	0.13	17.20	0.97	-105.70	0.97	-105.70	0.13	17.20
13650	0.14	14.60	0.97	-106.30	0.97	-106.30	0.14	14.60
13700	0.14	13.20	0.97	-106.80	0.97	-106.80	0.14	13.20
13750	0.14	11.90	0.97	-107.30	0.97	-107.30	0.14	11.90
13800	0.14	9.10	0.97	-107.70	0.97	-107.70	0.14	9.10
13850	0.14	6.40	0.96	-108.20	0.96	-108.20	0.14	6.40
13900	0.14	3.50	0.97	-108.60	0.97	-108.60	0.14	3.50
13950	0.14	0.60	0.97	-109.00	0.97	-109.00	0.14	0.60
14000	0.15	-1.00	0.97	-109.50	0.97	-109.50	0.15	-1.00
14050	0.15	-2.60	0.97	-110.10	0.97	-110.10	0.15	-2.60
14100	0.15	-6.30	0.97	-110.50	0.97	-110.50	0.15	-6.30
14150	0.16	-10.10	0.97	-110.90	0.97	-110.90	0.16	-10.10
14200	0.16	-10.70	0.97	-111.50	0.97	-111.50	0.16	-10.70
14250	0.17	-11.40	0.97	-112.10	0.97	-112.10	0.17	-11.40
14300	0.17	-13.60	0.97	-112.50	0.97	-112.50	0.17	-13.60
14350	0.17	-15.70	0.97	-112.90	0.97	-112.90	0.17	-15.70
14400	0.17	-17.10	0.97	-113.50	0.97	-113.50	0.17	-17.10
14450	0.18	-18.40	0.97	-114.10	0.97	-114.10	0.18	-18.40
14500	0.18	-18.60	0.97	-114.40	0.97	-114.40	0.18	-18.60
14550	0.18	-18.90	0.96	-114.70	0.96	-114.70	0.18	-18.90
14600	0.18	-19.40	0.96	-115.20	0.96	-115.20	0.18	-19.40
14650	0.18	-19.80	0.96	-115.70	0.96	-115.70	0.18	-19.80
14700	0.18	-21.60	0.97	-116.20	0.97	-116.20	0.18	-21.60
14750	0.18	-23.50	0.97	-116.70	0.97	-116.70	0.18	-23.50
14800	0.18	-23.30	0.97	-117.20	0.97	-117.20	0.18	-23.30
14850	0.18	-23.20	0.97	-117.70	0.97	-117.70	0.18	-23.20
14900	0.17	-25.20	0.97	-118.10	0.97	-118.10	0.17	-25.20
14950	0.17	-27.20	0.97	-118.50	0.97	-118.50	0.17	-27.20
15000	0.17	-29.10	0.97	-119.00	0.97	-119.00	0.17	-29.10
15050	0.16	-31.00	0.97	-119.60	0.97	-119.60	0.16	-31.00
15100	0.16	-32.70	0.97	-119.80	0.97	-119.80	0.16	-32.70
15150	0.16	-34.40	0.97	-120.10	0.97	-120.10	0.16	-34.40
15200	0.16	-37.00	0.98	-120.40	0.98	-120.40	0.16	-37.00
15250	0.16	-39.50	0.98	-120.70	0.98	-120.70	0.16	-39.50
15300	0.16	-41.80	0.98	-121.40	0.98	-121.40	0.16	-41.80
15350	0.16	-44.20	0.98	-122.00	0.98	-122.00	0.16	-44.20
15400	0.16	-45.70	0.97	-122.30	0.97	-122.30	0.16	-45.70
15450	0.16	-47.30	0.97	-122.60	0.97	-122.60	0.16	-47.30
15500	0.16	-47.20	0.98	-123.10	0.98	-123.10	0.16	-47.20
15550	0.16	-47.10	0.98	-123.70	0.98	-123.70	0.16	-47.10
15600	0.16	-49.20	0.98	-124.00	0.98	-124.00	0.16	-49.20
15650	0.16	-51.30	0.98	-124.40	0.98	-124.40	0.16	-51.30
15700	0.15	-51.00	0.98	-124.90	0.98	-124.90	0.15	-51.00
15750	0.15	-50.60	0.98	-125.50	0.98	-125.50	0.15	-50.60
15800	0.14	-51.90	0.98	-125.80	0.98	-125.80	0.14	-51.90
15850	0.13	-53.20	0.98	-126.00	0.98	-126.00	0.13	-53.20
15900	0.13	-53.30	0.98	-126.50	0.98	-126.50	0.13	-53.30
15950	0.12	-53.50	0.98	-127.00	0.98	-127.00	0.12	-53.50
16000	0.11	-53.90	0.98	-127.40	0.98	-127.40	0.11	-53.90
16050	0.10	-54.40	0.99	-127.80	0.99	-127.80	0.10	-54.40
16100	0.08	-58.20	0.98	-128.40	0.98	-128.40	0.08	-58.20
16150	0.07	-62.00	0.98	-129.10	0.98	-129.10	0.07	-62.00
16200	0.06	-66.10	0.98	-129.70	0.98	-129.70	0.06	-66.10
16250	0.05	-70.30	0.99	-130.20	0.99	-130.20	0.05	-70.30
16300	0.04	-94.50	0.99	-130.90	0.99	-130.90	0.04	-94.50
16350	0.03	-118.70	0.99	-131.50	0.99	-131.50	0.03	-118.70
16400	0.03	-138.00	0.99	-131.90	0.99	-131.90	0.03	-138.00
16450	0.04	-157.30	0.99	-132.40	0.99	-132.40	0.04	-157.30
16500	0.05	-163.40	0.98	-132.90	0.98	-132.90	0.05	-163.40
16550	0.05	-169.50	0.98	-133.30	0.98	-133.30	0.05	-169.50
16600	0.06	3.20	0.98	-134.00	0.98	-134.00	0.06	3.20
16650	0.06	175.90	0.99	-134.60	0.99	-134.60	0.06	175.90
16700	0.07	175.30	0.99	-135.00	0.99	-135.00	0.07	175.30
16750	0.07	174.70	0.99	-135.40	0.99	-135.40	0.07	174.70
16800	0.07	169.20	0.99	-135.90	0.99	-135.90	0.07	169.20
16850	0.08	163.70	0.99	-136.50	0.99	-136.50	0.08	163.70
16900	0.08	159.80	0.99	-137.10	0.99	-137.10	0.08	159.80
16950	0.07	155.90	0.99	-137.60	0.99	-137.60	0.07	155.90
17000	0.08	148.80	0.99	-138.10	0.99	-138.10	0.08	148.80
17050	0.08	141.70	0.99	-138.70	0.99	-138.70	0.08	141.70
17100	0.08	134.60	0.99	-139.30	0.99	-139.30	0.08	134.60
17150	0.07	127.60	0.99	-140.00	0.99	-140.00	0.07	127.60
17200	0.08	119.00	0.99	-140.30	0.99	-140.30	0.08	119.00
17250	0.09	110.50	0.99	-140.70	0.99	-140.70	0.09	110.50
17300	0.10	106.10	0.99	-141.30	0.99	-141.30	0.10	106.10
17350	0.11	101.80	0.99	-141.80	0.99	-141.80	0.11	101.80
17400	0.12	98.80	0.99	-142.20	0.99	-142.20	0.12	98.80
17450	0.12	95.90	0.98	-142.60	0.98	-142.60	0.12	95.90
17500	0.13	93.70	0.98	-143.10	0.98	-143.10	0.13	93.70
17550	0.14	91.40	0.98	-143.60	0.98	-143.60	0.14	91.40
17600	0.14	90.30	0.98	-144.10	0.98	-144.10	0.14	90.30
17650	0.15	89.20	0.98	-144.60	0.98	-144.60	0.15	89.20
17700	0.16	89.10	0.98	-145.00	0.98	-145.00	0.16	89.10
17750	0.17	89.00	0.98	-145.40	0.98	-145.40	0.17	89.00
17800	0.16	88.60	0.98	-145.90	0.98	-145.90	0.16	88.60
17850	0.16	88.30	0.98	-146.50	0.98	-146.50	0.16	88.30
17900	0.16	88.60	0.98	-146.90	0.98	-146.90	0.16	88.60
17950	0.16	88.90	0.98	-147.30	0.98	-147.30	0.16	88.90
18000	0.16	89.70	0.98	-148.00	0.98	-148.00	0.16	89.70
18050	0.15	90.50	0.98	-148.60	0.98	-148.60	0.15	90.50
18100	0.14	89.70	0.98	-149.00	0.98	-149.00	0.14	89.70
18150	0.13	88.90	0.98	-149.50	0.98	-149.50	0.13	88.90
18200	0.12	85.30	0.98	-150.00	0.98	-150.00	0.12	85.30
18250	0.12	81.70	0.99	-150.60	0.99	-150.60	0.12	81.70
18300	0.11	78.50	0.99	-151.10	0.99	-151.10	0.11	78.50
18350	0.10	75.20	0.98	-151.50	0.98	-151.50	0.10	75.20
18400	0.10	67.20	0.98	-151.90	0.98	-151.90	0.10	67.20
18450	0.10	59.20	0.99	-152.40	0.99	-152.40	0.10	59.20
18500	0.10	56.80	0.99	-152.80	0.99	-152.80	0.10	56.80
18550	0.09	54.40	0.99	-153.20	0.99	-153.20	0.09	54.40
18600	0.10	51.10	0.99	-153.60	0.99	-153.60	0.10	51.10
18650	0.10	47.90	0.99	-153.90	0.99	-153.90	0.10	47.90
18700	0.10	44.20	0.99	-154.50	0.99	-154.50	0.10	44.20
18750	0.09	40.60	0.99	-155.10	0.99	-155.10	0.09	40.60
18800	0.09	41.80	0.99	-155.50	0.99	-155.50	0.09	41.80
18850	0.09	42.90	0.99	-155.90	0.99	-155.90	0.09	42.90
18900	0.09	43.20	0.99	-156.40	0.99	-156.40	0.09	43.20
18950	0.08	43.50	0.99	-157.00	0.99	-157.00	0.08	43.50
19000	0.07	45.50	0.99	-157.40	0.99	-157.40	0.07	45.50
19050	0.05	47.40	0.99	-157.90	0.99	-157.90	0.05	47.40
19100	0.05	42.70	0.99	-158.50	0.99	-158.50	0.05	42.70
19150	0.05	38.00	0.99	-159.20	0.99	-159.20	0.05	38.00
