#	mhz	s	ma	r	50
50	0.62071	131.49306	0.67202	33.68718	0.67202	33.68718	0.62071	131.49306
70	0.55701	124.20955	0.7209	27.88878	0.7209	27.88878	0.55701	124.20955
90	0.4933	116.92604	0.76977	22.09038	0.76977	22.09038	0.4933	116.92604
110	0.42959	109.64253	0.81865	16.29199	0.81865	16.29199	0.42959	109.64253
130	0.36589	102.35902	0.86753	10.49359	0.86753	10.49359	0.36589	102.35902
150	0.30218	95.07551	0.91641	4.69519	0.91641	4.69519	0.30218	95.07551
170	0.27807	91.37586	0.92604	1.6016	0.92604	1.6016	0.27807	91.37586
190	0.25396	87.67622	0.93568	-1.49199	0.93568	-1.49199	0.25396	87.67622
210	0.22984	83.97658	0.94532	-4.58558	0.94532	-4.58558	0.22984	83.97658
230	0.20573	80.27693	0.95496	-7.67917	0.95496	-7.67917	0.20573	80.27693
250	0.18162	76.57729	0.9646	-10.77277	0.9646	-10.77277	0.18162	76.57729
270	0.16947	73.07801	0.96609	-13.15835	0.96609	-13.15835	0.16947	73.07801
290	0.15733	69.57873	0.96757	-15.54393	0.96757	-15.54393	0.15733	69.57873
310	0.14518	66.07945	0.96906	-17.92951	0.96906	-17.92951	0.14518	66.07945
330	0.13304	62.58017	0.97054	-20.31509	0.97054	-20.31509	0.13304	62.58017
350	0.12089	59.08089	0.97203	-22.70067	0.97203	-22.70067	0.12089	59.08089
370	0.11438	55.50669	0.97411	-24.81168	0.97411	-24.81168	0.11438	55.50669
390	0.10788	51.93249	0.9762	-26.92268	0.9762	-26.92268	0.10788	51.93249
410	0.10137	48.35829	0.97829	-29.03368	0.97829	-29.03368	0.10137	48.35829
430	0.09486	44.7841	0.98037	-31.14468	0.98037	-31.14468	0.09486	44.7841
450	0.08835	41.2099	0.98246	-33.25568	0.98246	-33.25568	0.08835	41.2099
470	0.0839	40.66807	0.98266	-35.25098	0.98266	-35.25098	0.0839	40.66807
490	0.07945	40.12625	0.98287	-37.24627	0.98287	-37.24627	0.07945	40.12625
510	0.0750	39.58442	0.98308	-39.24157	0.98308	-39.24157	0.0750	39.58442
530	0.07055	39.0426	0.98328	-41.23686	0.98328	-41.23686	0.07055	39.0426
550	0.06611	38.50077	0.98349	-43.23216	0.98349	-43.23216	0.06611	38.50077
570	0.05889	35.56165	0.98388	-45.16299	0.98388	-45.16299	0.05889	35.56165
590	0.05168	32.62253	0.98428	-47.09382	0.98428	-47.09382	0.05168	32.62253
610	0.04447	29.6834	0.98468	-49.02465	0.98468	-49.02465	0.04447	29.6834
630	0.03726	26.74428	0.98508	-50.95548	0.98508	-50.95548	0.03726	26.74428
650	0.03004	23.80516	0.98548	-52.88631	0.98548	-52.88631	0.03004	23.80516
670	0.02884	22.61166	0.98636	-54.77832	0.98636	-54.77832	0.02884	22.61166
690	0.02764	21.41816	0.98725	-56.67033	0.98725	-56.67033	0.02764	21.41816
710	0.02644	20.22466	0.98814	-58.56234	0.98814	-58.56234	0.02644	20.22466
730	0.02524	19.03117	0.98902	-60.45434	0.98902	-60.45434	0.02524	19.03117
750	0.02404	17.83767	0.98991	-62.34635	0.98991	-62.34635	0.02404	17.83767
770	0.02072	39.86265	0.98892	-64.20996	0.98892	-64.20996	0.02072	39.86265
790	0.01741	61.88763	0.98792	-66.07358	0.98792	-66.07358	0.01741	61.88763
810	0.01409	83.91262	0.98693	-67.93719	0.98693	-67.93719	0.01409	83.91262
830	0.01077	105.9376	0.98594	-69.8008	0.98594	-69.8008	0.01077	105.9376
850	0.00745	127.96258	0.98494	-71.66442	0.98494	-71.66442	0.00745	127.96258
870	0.00735	128.13	0.9858	-73.46162	0.9858	-73.46162	0.00735	128.13
890	0.00724	128.29742	0.98665	-75.25882	0.98665	-75.25882	0.00724	128.29742
910	0.00714	128.46485	0.98751	-77.05602	0.98751	-77.05602	0.00714	128.46485
930	0.00703	128.63227	0.98836	-78.85322	0.98836	-78.85322	0.00703	128.63227
950	0.00692	128.79969	0.98922	-80.65043	0.98922	-80.65043	0.00692	128.79969
970	0.01115	128.15915	0.9885	-82.37096	0.9885	-82.37096	0.01115	128.15915
990	0.01538	127.51861	0.98778	-84.0915	0.98778	-84.0915	0.01538	127.51861
1010	0.01961	126.87807	0.98706	-85.81204	0.98706	-85.81204	0.01961	126.87807
1030	0.02383	126.23753	0.98634	-87.53257	0.98634	-87.53257	0.02383	126.23753
1050	0.02806	125.59699	0.98562	-89.25311	0.98562	-89.25311	0.02806	125.59699
1070	0.02901	124.80357	0.98544	-91.11629	0.98544	-91.11629	0.02901	124.80357
1090	0.02995	124.01015	0.98527	-92.97948	0.98527	-92.97948	0.02995	124.01015
1110	0.0309	123.21672	0.9851	-94.84267	0.9851	-94.84267	0.0309	123.21672
1130	0.03185	122.4233	0.98492	-96.70586	0.98492	-96.70586	0.03185	122.4233
1150	0.03279	121.62988	0.98475	-98.56905	0.98475	-98.56905	0.03279	121.62988
1170	0.03679	120.05059	0.98534	-100.42645	0.98534	-100.42645	0.03679	120.05059
1190	0.0408	118.4713	0.98593	-102.28386	0.98593	-102.28386	0.0408	118.4713
1210	0.0448	116.89201	0.98652	-104.14127	0.98652	-104.14127	0.0448	116.89201
1230	0.0488	115.31272	0.98711	-105.99868	0.98711	-105.99868	0.0488	115.31272
1250	0.0528	113.73343	0.9877	-107.85609	0.9877	-107.85609	0.0528	113.73343
1270	0.05225	112.9837	0.98639	-109.69129	0.98639	-109.69129	0.05225	112.9837
1290	0.0517	112.23397	0.98508	-111.52649	0.98508	-111.52649	0.0517	112.23397
1310	0.05115	111.48424	0.98377	-113.36169	0.98377	-113.36169	0.05115	111.48424
1330	0.05059	110.73451	0.98246	-115.19689	0.98246	-115.19689	0.05059	110.73451
1350	0.05004	109.98479	0.98115	-117.03209	0.98115	-117.03209	0.05004	109.98479
1370	0.05307	106.25469	0.98127	-118.82439	0.98127	-118.82439	0.05307	106.25469
1390	0.05611	102.5246	0.98139	-120.61669	0.98139	-120.61669	0.05611	102.5246
1410	0.05914	98.79451	0.98151	-122.40899	0.98151	-122.40899	0.05914	98.79451
1430	0.06217	95.06442	0.98162	-124.20129	0.98162	-124.20129	0.06217	95.06442
1450	0.0652	91.33432	0.98174	-125.99359	0.98174	-125.99359	0.0652	91.33432
1470	0.06537	90.12891	0.98159	-127.80495	0.98159	-127.80495	0.06537	90.12891
1490	0.06555	88.92349	0.98144	-129.61632	0.98144	-129.61632	0.06555	88.92349
1510	0.06572	87.71807	0.98129	-131.42768	0.98129	-131.42768	0.06572	87.71807
1530	0.0659	86.51265	0.98114	-133.23905	0.98114	-133.23905	0.0659	86.51265
1550	0.06607	85.30724	0.98099	-135.05041	0.98099	-135.05041	0.06607	85.30724
1570	0.06807	81.8774	0.981	-136.75419	0.981	-136.75419	0.06807	81.8774
1590	0.07007	78.44756	0.981	-138.45796	0.981	-138.45796	0.07007	78.44756
1610	0.07208	75.01772	0.98101	-140.16173	0.98101	-140.16173	0.07208	75.01772
1630	0.07408	71.58788	0.98102	-141.86551	0.98102	-141.86551	0.07408	71.58788
1650	0.07608	68.15805	0.98102	-143.56928	0.98102	-143.56928	0.07608	68.15805
1670	0.07632	66.41033	0.98045	-145.40715	0.98045	-145.40715	0.07632	66.41033
1690	0.07656	64.66261	0.97989	-147.24502	0.97989	-147.24502	0.07656	64.66261
1710	0.0768	62.91489	0.97932	-149.08289	0.97932	-149.08289	0.0768	62.91489
1730	0.07704	61.16717	0.97875	-150.92076	0.97875	-150.92076	0.07704	61.16717
1750	0.07728	59.41944	0.97818	-152.75864	0.97818	-152.75864	0.07728	59.41944
1770	0.07934	55.54223	0.97835	-154.57504	0.97835	-154.57504	0.07934	55.54223
1790	0.0814	51.66502	0.97851	-156.39145	0.97851	-156.39145	0.0814	51.66502
1810	0.08346	47.78781	0.97867	-158.20786	0.97867	-158.20786	0.08346	47.78781
1830	0.08552	43.9106	0.97883	-160.02427	0.97883	-160.02427	0.08552	43.9106
1850	0.08758	40.03339	0.979	-161.84067	0.979	-161.84067	0.08758	40.03339
1870	0.08923	38.4041	0.97891	-163.61321	0.97891	-163.61321	0.08923	38.4041
1890	0.09088	36.7748	0.97882	-165.38575	0.97882	-165.38575	0.09088	36.7748
1910	0.09253	35.14551	0.97873	-167.15828	0.97873	-167.15828	0.09253	35.14551
1930	0.09418	33.51621	0.97864	-168.93082	0.97864	-168.93082	0.09418	33.51621
1950	0.09583	31.88692	0.97855	-170.70336	0.97855	-170.70336	0.09583	31.88692
1970	0.09701	28.55732	0.97826	-172.52081	0.97826	-172.52081	0.09701	28.55732
1990	0.09819	25.22772	0.97797	-174.33826	0.97797	-174.33826	0.09819	25.22772
2010	0.09937	21.89812	0.97767	-176.15572	0.97767	-176.15572	0.09937	21.89812
2030	0.10056	18.56852	0.97738	-177.97317	0.97738	-177.97317	0.10056	18.56852
2050	0.10174	15.23891	0.97709	-179.79062	0.97709	-179.79062	0.10174	15.23891
2070	0.10377	13.20505	0.97684	-109.57833	0.97684	-109.57833	0.10377	13.20505
2090	0.1058	11.17118	0.9766	-39.36603	0.9766	-39.36603	0.1058	11.17118
2110	0.10783	9.13731	0.97636	30.84627	0.97636	30.84627	0.10783	9.13731
2130	0.10986	7.10344	0.97612	101.05857	0.97612	101.05857	0.10986	7.10344
2150	0.1119	5.06958	0.97587	171.27087	0.97587	171.27087	0.1119	5.06958
2170	0.11316	2.30828	0.97549	169.44234	0.97549	169.44234	0.11316	2.30828
2190	0.11443	-0.45301	0.9751	167.61382	0.9751	167.61382	0.11443	-0.45301
2210	0.1157	-3.2143	0.97471	165.7853	0.97471	165.7853	0.1157	-3.2143
2230	0.11697	-5.97559	0.97432	163.95677	0.97432	163.95677	0.11697	-5.97559
2250	0.11824	-8.73689	0.97394	162.12825	0.97394	162.12825	0.11824	-8.73689
2270	0.11899	-11.08486	0.97413	160.3097	0.97413	160.3097	0.11899	-11.08486
2290	0.11974	-13.43284	0.97431	158.49115	0.97431	158.49115	0.11974	-13.43284
2310	0.12049	-15.78082	0.9745	156.67259	0.9745	156.67259	0.12049	-15.78082
2330	0.12124	-18.1288	0.97469	154.85404	0.97469	154.85404	0.12124	-18.1288
2350	0.12199	-20.47678	0.97488	153.03549	0.97488	153.03549	0.12199	-20.47678
2370	0.12351	-23.62238	0.97355	151.30003	0.97355	151.30003	0.12351	-23.62238
2390	0.12504	-26.76798	0.97222	149.56457	0.97222	149.56457	0.12504	-26.76798
2410	0.12656	-29.91359	0.9709	147.82911	0.9709	147.82911	0.12656	-29.91359
2430	0.12809	-33.05919	0.96957	146.09366	0.96957	146.09366	0.12809	-33.05919
2450	0.12961	-36.20479	0.96824	144.3582	0.96824	144.3582	0.12961	-36.20479
2470	0.13203	-38.39873	0.9672	142.66733	0.9672	142.66733	0.13203	-38.39873
2490	0.13444	-40.59266	0.96615	140.97647	0.96615	140.97647	0.13444	-40.59266
2510	0.13686	-42.7866	0.96511	139.28561	0.96511	139.28561	0.13686	-42.7866
2530	0.13927	-44.98053	0.96407	137.59474	0.96407	137.59474	0.13927	-44.98053
2550	0.14169	-47.17447	0.96303	135.90388	0.96303	135.90388	0.14169	-47.17447
2570	0.14336	-50.09903	0.96298	133.96305	0.96298	133.96305	0.14336	-50.09903
2590	0.14504	-53.0236	0.96294	132.02223	0.96294	132.02223	0.14504	-53.0236
2610	0.14672	-55.94816	0.96289	130.0814	0.96289	130.0814	0.14672	-55.94816
2630	0.14839	-58.87273	0.96285	128.14058	0.96285	128.14058	0.14839	-58.87273
2650	0.15007	-61.79729	0.9628	126.19975	0.9628	126.19975	0.15007	-61.79729
2670	0.15164	-63.94484	0.96176	124.42046	0.96176	124.42046	0.15164	-63.94484
2690	0.15321	-66.09238	0.96071	122.64116	0.96071	122.64116	0.15321	-66.09238
2710	0.15478	-68.23992	0.95967	120.86187	0.95967	120.86187	0.15478	-68.23992
2730	0.15635	-70.38746	0.95862	119.08258	0.95862	119.08258	0.15635	-70.38746
2750	0.15791	-72.535	0.95757	117.30329	0.95757	117.30329	0.15791	-72.535
2770	0.1593	-75.39233	0.9576	115.60514	0.9576	115.60514	0.1593	-75.39233
2790	0.16069	-78.24966	0.95763	113.90699	0.95763	113.90699	0.16069	-78.24966
2810	0.16208	-81.10699	0.95766	112.20884	0.95766	112.20884	0.16208	-81.10699
2830	0.16346	-83.96431	0.95769	110.51069	0.95769	110.51069	0.16346	-83.96431
2850	0.16485	-86.82164	0.95772	108.81254	0.95772	108.81254	0.16485	-86.82164
2870	0.16756	-88.9515	0.95633	106.93959	0.95633	106.93959	0.16756	-88.9515
2890	0.17026	-91.08135	0.95494	105.06664	0.95494	105.06664	0.17026	-91.08135
2910	0.17297	-93.21121	0.95354	103.1937	0.95354	103.1937	0.17297	-93.21121
2930	0.17567	-95.34107	0.95215	101.32075	0.95215	101.32075	0.17567	-95.34107
2950	0.17838	-97.47092	0.95076	99.44781	0.95076	99.44781	0.17838	-97.47092
2970	0.18059	-100.04343	0.95076	97.67485	0.95076	97.67485	0.18059	-100.04343
2990	0.18279	-102.61594	0.95075	95.90189	0.95075	95.90189	0.18279	-102.61594
3010	0.185	-105.18845	0.95074	94.12893	0.95074	94.12893	0.185	-105.18845
3030	0.18721	-107.76097	0.95074	92.35598	0.95074	92.35598	0.18721	-107.76097
3050	0.18942	-110.33348	0.95073	90.58302	0.95073	90.58302	0.18942	-110.33348
3070	0.19123	-112.28732	0.95117	88.80033	0.95117	88.80033	0.19123	-112.28732
3090	0.19305	-114.24116	0.95161	87.01764	0.95161	87.01764	0.19305	-114.24116
3110	0.19487	-116.195	0.95205	85.23495	0.95205	85.23495	0.19487	-116.195
3130	0.19669	-118.14884	0.95249	83.45226	0.95249	83.45226	0.19669	-118.14884
3150	0.19851	-120.10269	0.95293	81.66957	0.95293	81.66957	0.19851	-120.10269
3170	0.20013	-122.88588	0.95234	79.87078	0.95234	79.87078	0.20013	-122.88588
3190	0.20176	-125.66907	0.95176	78.07199	0.95176	78.07199	0.20176	-125.66907
3210	0.20338	-128.45226	0.95118	76.2732	0.95118	76.2732	0.20338	-128.45226
3230	0.20501	-131.23544	0.9506	74.47441	0.9506	74.47441	0.20501	-131.23544
3250	0.20663	-134.01863	0.95002	72.67562	0.95002	72.67562	0.20663	-134.01863
3270	0.20955	-136.24914	0.94925	70.80732	0.94925	70.80732	0.20955	-136.24914
3290	0.21247	-138.47964	0.94847	68.93902	0.94847	68.93902	0.21247	-138.47964
3310	0.2154	-140.71014	0.9477	67.07072	0.9477	67.07072	0.2154	-140.71014
3330	0.21832	-142.94064	0.94693	65.20242	0.94693	65.20242	0.21832	-142.94064
3350	0.22124	-145.17114	0.94615	63.33412	0.94615	63.33412	0.22124	-145.17114
3370	0.2238	-147.75651	0.94656	61.5096	0.94656	61.5096	0.2238	-147.75651
3390	0.22636	-150.34188	0.94697	59.68508	0.94697	59.68508	0.22636	-150.34188
3410	0.22891	-152.92726	0.94738	57.86056	0.94738	57.86056	0.22891	-152.92726
3430	0.23147	-155.51263	0.94779	56.03603	0.94779	56.03603	0.23147	-155.51263
3450	0.23402	-158.098	0.9482	54.21151	0.9482	54.21151	0.23402	-158.098
3470	0.23707	-160.53877	0.94722	52.3063	0.94722	52.3063	0.23707	-160.53877
3490	0.24012	-162.97954	0.94624	50.40108	0.94624	50.40108	0.24012	-162.97954
3510	0.24317	-165.42031	0.94525	48.49586	0.94525	48.49586	0.24317	-165.42031
3530	0.24622	-167.86108	0.94427	46.59064	0.94427	46.59064	0.24622	-167.86108
3550	0.24927	-170.30185	0.94328	44.68542	0.94328	44.68542	0.24927	-170.30185
3570	0.25261	-101.23281	0.94166	42.64877	0.94166	42.64877	0.25261	-101.23281
3590	0.25595	-32.16377	0.94004	40.61212	0.94004	40.61212	0.25595	-32.16377
3610	0.25929	36.90527	0.93842	38.57547	0.93842	38.57547	0.25929	36.90527
3630	0.26263	105.97432	0.93681	36.53882	0.93681	36.53882	0.26263	105.97432
3650	0.26596	175.04336	0.93519	34.50217	0.93519	34.50217	0.26596	175.04336
3670	0.27082	172.12232	0.93217	32.45467	0.93217	32.45467	0.27082	172.12232
3690	0.27568	169.20128	0.92915	30.40716	0.92915	30.40716	0.27568	169.20128
3710	0.28054	166.28024	0.92613	28.35966	0.92613	28.35966	0.28054	166.28024
3730	0.28539	163.3592	0.92311	26.31216	0.92311	26.31216	0.28539	163.3592
3750	0.29025	160.43816	0.92009	24.26466	0.92009	24.26466	0.29025	160.43816
3770	0.29709	156.81703	0.91217	22.12592	0.91217	22.12592	0.29709	156.81703
3790	0.30394	153.1959	0.90425	19.98718	0.90425	19.98718	0.30394	153.1959
3810	0.31078	149.57477	0.89632	17.84844	0.89632	17.84844	0.31078	149.57477
3830	0.31762	145.95364	0.8884	15.70971	0.8884	15.70971	0.31762	145.95364
3850	0.32446	142.33251	0.88048	13.57097	0.88048	13.57097	0.32446	142.33251
3870	0.33292	137.41356	0.8617	11.48083	0.8617	11.48083	0.33292	137.41356
3890	0.34138	132.49462	0.84293	9.39069	0.84293	9.39069	0.34138	132.49462
3910	0.34984	127.57567	0.82415	7.30055	0.82415	7.30055	0.34984	127.57567
3930	0.3583	122.65673	0.80537	5.21041	0.80537	5.21041	0.3583	122.65673
3950	0.36676	117.73778	0.7866	3.12027	0.7866	3.12027	0.36676	117.73778
3970	0.36211	110.53109	0.76681	3.46255	0.76681	3.46255	0.36211	110.53109
3990	0.35746	103.3244	0.74703	3.80482	0.74703	3.80482	0.35746	103.3244
4010	0.3528	96.11771	0.72725	4.14709	0.72725	4.14709	0.3528	96.11771
4030	0.34815	88.91102	0.70747	4.48936	0.70747	4.48936	0.34815	88.91102
4050	0.3435	81.70432	0.68769	4.83163	0.68769	4.83163	0.3435	81.70432
4070	0.31422	77.42692	0.71552	4.79001	0.71552	4.79001	0.31422	77.42692
4090	0.28495	73.14951	0.74335	4.74838	0.74335	4.74838	0.28495	73.14951
4110	0.25567	68.8721	0.77118	4.70675	0.77118	4.70675	0.25567	68.8721
4130	0.22639	64.59469	0.79902	4.66513	0.79902	4.66513	0.22639	64.59469
4150	0.19711	60.31728	0.82685	4.6235	0.82685	4.6235	0.19711	60.31728
4170	0.18752	62.95418	0.84191	2.26389	0.84191	2.26389	0.18752	62.95418
4190	0.17792	65.59108	0.85697	-0.09572	0.85697	-0.09572	0.17792	65.59108
4210	0.16832	68.22798	0.87203	-2.45532	0.87203	-2.45532	0.16832	68.22798
4230	0.15873	70.86488	0.88708	-4.81493	0.88708	-4.81493	0.15873	70.86488
4250	0.14913	73.50178	0.90214	-7.17454	0.90214	-7.17454	0.14913	73.50178
4270	0.15342	74.42074	0.90785	-9.42318	0.90785	-9.42318	0.15342	74.42074
4290	0.15771	75.33969	0.91355	-11.67181	0.91355	-11.67181	0.15771	75.33969
4310	0.16201	76.25865	0.91926	-13.92045	0.91926	-13.92045	0.16201	76.25865
4330	0.1663	77.1776	0.92496	-16.16908	0.92496	-16.16908	0.1663	77.1776
4350	0.17059	78.09656	0.93067	-18.41772	0.93067	-18.41772	0.17059	78.09656
4370	0.17636	77.05964	0.93162	-20.58522	0.93162	-20.58522	0.17636	77.05964
4390	0.18213	76.02271	0.93258	-22.75272	0.93258	-22.75272	0.18213	76.02271
4410	0.1879	74.98579	0.93353	-24.92022	0.93353	-24.92022	0.1879	74.98579
4430	0.19366	73.94886	0.93449	-27.08772	0.93449	-27.08772	0.19366	73.94886
4450	0.19943	72.91194	0.93545	-29.25522	0.93545	-29.25522	0.19943	72.91194
4470	0.20387	70.96361	0.93503	-31.20261	0.93503	-31.20261	0.20387	70.96361
4490	0.2083	69.01528	0.93461	-33.15	0.93461	-33.15	0.2083	69.01528
4510	0.21274	67.06696	0.93419	-35.09739	0.93419	-35.09739	0.21274	67.06696
4530	0.21717	65.11863	0.93377	-37.04478	0.93377	-37.04478	0.21717	65.11863
4550	0.22161	63.17031	0.93336	-38.99217	0.93336	-38.99217	0.22161	63.17031
4570	0.22749	61.02197	0.93234	-41.04377	0.93234	-41.04377	0.22749	61.02197
4590	0.23337	58.87364	0.93132	-43.09537	0.93132	-43.09537	0.23337	58.87364
4610	0.23926	56.72531	0.9303	-45.14697	0.9303	-45.14697	0.23926	56.72531
4630	0.24514	54.57698	0.92928	-47.19857	0.92928	-47.19857	0.24514	54.57698
4650	0.25102	52.42865	0.92826	-49.25017	0.92826	-49.25017	0.25102	52.42865
4670	0.25461	50.19026	0.92699	-51.08241	0.92699	-51.08241	0.25461	50.19026
4690	0.25819	47.95186	0.92572	-52.91466	0.92572	-52.91466	0.25819	47.95186
4710	0.26177	45.71347	0.92445	-54.7469	0.92445	-54.7469	0.26177	45.71347
4730	0.26536	43.47508	0.92318	-56.57914	0.92318	-56.57914	0.26536	43.47508
4750	0.26894	41.23669	0.92191	-58.41138	0.92191	-58.41138	0.26894	41.23669
4770	0.27308	39.00662	0.92098	-60.2993	0.92098	-60.2993	0.27308	39.00662
4790	0.27722	36.77654	0.92005	-62.18722	0.92005	-62.18722	0.27722	36.77654
4810	0.28137	34.54647	0.91912	-64.07514	0.91912	-64.07514	0.28137	34.54647
4830	0.28551	32.31639	0.9182	-65.96306	0.9182	-65.96306	0.28551	32.31639
4850	0.28965	30.08632	0.91727	-67.85098	0.91727	-67.85098	0.28965	30.08632
4870	0.29336	27.66508	0.91617	-69.68945	0.91617	-69.68945	0.29336	27.66508
4890	0.29707	25.24385	0.91508	-71.52792	0.91508	-71.52792	0.29707	25.24385
4910	0.30078	22.82262	0.91398	-73.36639	0.91398	-73.36639	0.30078	22.82262
4930	0.30449	20.40138	0.91289	-75.20486	0.91289	-75.20486	0.30449	20.40138
4950	0.3082	17.98015	0.91179	-77.04333	0.91179	-77.04333	0.3082	17.98015
4970	0.31266	15.84299	0.91076	-78.85992	0.91076	-78.85992	0.31266	15.84299
4990	0.31712	13.70582	0.90972	-80.67651	0.90972	-80.67651	0.31712	13.70582
5010	0.32158	11.56865	0.90869	-82.49309	0.90869	-82.49309	0.32158	11.56865
5030	0.32604	9.43149	0.90765	-84.30968	0.90765	-84.30968	0.32604	9.43149
5050	0.33049	7.29432	0.90661	-86.12627	0.90661	-86.12627	0.33049	7.29432
5070	0.33298	4.97856	0.9053	-87.96129	0.9053	-87.96129	0.33298	4.97856
5090	0.33547	2.66279	0.90399	-89.79631	0.90399	-89.79631	0.33547	2.66279
5110	0.33795	0.34702	0.90268	-91.63133	0.90268	-91.63133	0.33795	0.34702
5130	0.34044	-1.96875	0.90137	-93.46635	0.90137	-93.46635	0.34044	-1.96875
5150	0.34292	-4.28451	0.90006	-95.30137	0.90006	-95.30137	0.34292	-4.28451
5170	0.34669	-6.44095	0.89781	-97.20695	0.89781	-97.20695	0.34669	-6.44095
5190	0.35046	-8.59739	0.89555	-99.11253	0.89555	-99.11253	0.35046	-8.59739
5210	0.35423	-10.75382	0.8933	-101.01811	0.8933	-101.01811	0.35423	-10.75382
5230	0.358	-12.91026	0.89105	-102.92369	0.89105	-102.92369	0.358	-12.91026
5250	0.36177	-15.06669	0.8888	-104.82928	0.8888	-104.82928	0.36177	-15.06669
5270	0.36389	-17.47115	0.88866	-106.63881	0.88866	-106.63881	0.36389	-17.47115
5290	0.36601	-19.87561	0.88853	-108.44834	0.88853	-108.44834	0.36601	-19.87561
5310	0.36813	-22.28007	0.8884	-110.25787	0.8884	-110.25787	0.36813	-22.28007
5330	0.37026	-24.68453	0.88827	-112.0674	0.88827	-112.0674	0.37026	-24.68453
5350	0.37238	-27.08899	0.88814	-113.87693	0.88814	-113.87693	0.37238	-27.08899
5370	0.37596	-29.31303	0.88563	-115.72524	0.88563	-115.72524	0.37596	-29.31303
