#	mhz	s	ma	r	50			
50	0.05	44.10	0.97	-0.700	0.97	-0.700	0.05	44.10
100	0.08	54.50	0.96	-2.500	0.96	-2.500	0.08	54.50
150	0.11	64.90	0.96	-4.300	0.96	-4.300	0.11	64.90
200	0.14	66.20	0.95	-6.200	0.95	-6.200	0.14	66.20
250	0.17	67.60	0.95	-8.100	0.95	-8.100	0.17	67.60
300	0.20	67.00	0.94	-10.10	0.94	-10.10	0.20	67.00
350	0.22	66.50	0.94	-12.00	0.94	-12.00	0.22	66.50
400	0.25	65.30	0.93	-13.70	0.93	-13.70	0.25	65.30
450	0.28	64.20	0.92	-15.50	0.92	-15.50	0.28	64.20
500	0.34	65.50	0.90	-18.30	0.90	-18.30	0.34	65.50
550	0.38	66.90	0.89	-21.20	0.89	-21.20	0.38	66.90
600	0.41	65.50	0.88	-23.00	0.88	-23.00	0.41	65.50
650	0.43	64.20	0.87	-24.70	0.87	-24.70	0.43	64.20
700	0.46	63.30	0.85	-26.60	0.85	-26.60	0.46	63.30
750	0.49	62.40	0.84	-28.40	0.84	-28.40	0.49	62.40
800	0.51	60.50	0.83	-30.00	0.83	-30.00	0.51	60.50
850	0.52	58.50	0.81	-31.70	0.81	-31.70	0.52	58.50
900	0.55	57.10	0.80	-33.30	0.80	-33.30	0.55	57.10
950	0.58	55.60	0.78	-34.90	0.78	-34.90	0.58	55.60
1000	0.60	54.00	0.76	-36.50	0.76	-36.50	0.60	54.00
1050	0.62	52.40	0.75	-38.20	0.75	-38.20	0.62	52.40
1100	0.64	51.10	0.73	-39.80	0.73	-39.80	0.64	51.10
1150	0.67	49.70	0.72	-41.50	0.72	-41.50	0.67	49.70
1200	0.68	48.40	0.70	-42.80	0.70	-42.80	0.68	48.40
1250	0.70	47.20	0.68	-44.10	0.68	-44.10	0.70	47.20
1300	0.72	45.50	0.67	-45.70	0.67	-45.70	0.72	45.50
1350	0.74	43.80	0.65	-47.30	0.65	-47.30	0.74	43.80
1400	0.75	42.50	0.63	-48.50	0.63	-48.50	0.75	42.50
1450	0.76	41.30	0.61	-49.60	0.61	-49.60	0.76	41.30
1500	0.78	39.60	0.60	-51.10	0.60	-51.10	0.78	39.60
1550	0.79	38.00	0.58	-52.60	0.58	-52.60	0.79	38.00
1600	0.80	36.40	0.56	-53.90	0.56	-53.90	0.80	36.40
1650	0.82	34.90	0.55	-55.20	0.55	-55.20	0.82	34.90
1700	0.82	33.60	0.53	-56.40	0.53	-56.40	0.82	33.60
1750	0.83	32.30	0.51	-57.60	0.51	-57.60	0.83	32.30
1800	0.85	30.90	0.50	-58.70	0.50	-58.70	0.85	30.90
1850	0.86	29.50	0.49	-59.90	0.49	-59.90	0.86	29.50
1900	0.87	28.10	0.47	-60.90	0.47	-60.90	0.87	28.10
1950	0.87	26.60	0.45	-62.00	0.45	-62.00	0.87	26.60
2000	0.88	25.30	0.44	-63.10	0.44	-63.10	0.88	25.30
2050	0.88	23.90	0.42	-64.20	0.42	-64.20	0.88	23.90
2100	0.89	22.90	0.40	-65.10	0.40	-65.10	0.89	22.90
2150	0.90	21.80	0.39	-66.00	0.39	-66.00	0.90	21.80
2200	0.91	20.20	0.37	-67.20	0.37	-67.20	0.91	20.20
2250	0.91	18.60	0.36	-68.40	0.36	-68.40	0.91	18.60
2300	0.92	17.80	0.34	-69.00	0.34	-69.00	0.92	17.80
2350	0.92	16.90	0.32	-69.60	0.32	-69.60	0.92	16.90
2400	0.93	15.50	0.31	-70.80	0.31	-70.80	0.93	15.50
2450	0.94	14.10	0.29	-71.90	0.29	-71.90	0.94	14.10
2500	0.94	12.90	0.28	-72.90	0.28	-72.90	0.94	12.90
2550	0.95	11.70	0.26	-73.80	0.26	-73.80	0.95	11.70
2600	0.95	10.80	0.25	-74.50	0.25	-74.50	0.95	10.80
2650	0.96	9.90	0.23	-75.10	0.23	-75.10	0.96	9.90
2700	0.96	8.90	0.22	-76.00	0.22	-76.00	0.96	8.90
2750	0.96	7.80	0.20	-76.80	0.20	-76.80	0.96	7.80
2800	0.97	6.70	0.19	-77.30	0.19	-77.30	0.97	6.70
2850	0.97	5.70	0.17	-77.80	0.17	-77.80	0.97	5.70
2900	0.98	4.70	0.16	-78.60	0.16	-78.60	0.98	4.70
2950	0.98	3.70	0.14	-79.30	0.14	-79.30	0.98	3.70
3000	0.98	2.80	0.13	-79.60	0.13	-79.60	0.98	2.80
3050	0.98	2.00	0.12	-79.80	0.12	-79.80	0.98	2.00
3100	0.98	0.90	0.10	-79.70	0.10	-79.70	0.98	0.90
3150	0.98	-0.30	0.09	-79.50	0.09	-79.50	0.98	-0.30
3200	0.98	-0.80	0.08	-78.40	0.08	-78.40	0.98	-0.80
3250	0.99	-1.20	0.06	-77.20	0.06	-77.20	0.99	-1.20
3300	0.99	-2.00	0.05	-73.80	0.05	-73.80	0.99	-2.00
3350	0.99	-2.90	0.04	-70.50	0.04	-70.50	0.99	-2.90
3400	0.99	-3.70	0.03	-52.00	0.03	-52.00	0.99	-3.70
3450	0.99	-4.60	0.01	-33.40	0.01	-33.40	0.99	-4.60
3500	0.99	-5.30	0.02	9.00	0.02	9.00	0.99	-5.30
3550	0.99	-6.10	0.02	51.50	0.02	51.50	0.99	-6.10
3600	0.99	-6.80	0.03	60.10	0.03	60.10	0.99	-6.80
3650	0.98	-7.50	0.04	68.60	0.04	68.60	0.98	-7.50
3700	0.99	-8.50	0.06	70.90	0.06	70.90	0.99	-8.50
3750	0.99	-9.40	0.07	73.10	0.07	73.10	0.99	-9.40
3800	0.99	-10.20	0.08	73.80	0.08	73.80	0.99	-10.20
3850	0.98	-10.90	0.09	74.50	0.09	74.50	0.98	-10.90
3900	0.98	-11.90	0.10	74.30	0.10	74.30	0.98	-11.90
3950	0.98	-13.00	0.12	74.00	0.12	74.00	0.98	-13.00
4000	0.98	-13.80	0.13	73.90	0.13	73.90	0.98	-13.80
4050	0.98	-14.60	0.14	73.70	0.14	73.70	0.98	-14.60
4100	0.97	-15.40	0.15	73.30	0.15	73.30	0.97	-15.40
4150	0.97	-16.30	0.16	72.90	0.16	72.90	0.97	-16.30
4200	0.97	-17.10	0.17	72.70	0.17	72.70	0.97	-17.10
4250	0.98	-18.00	0.18	72.50	0.18	72.50	0.98	-18.00
4300	0.97	-18.90	0.19	72.10	0.19	72.10	0.97	-18.90
4350	0.96	-19.80	0.20	71.70	0.20	71.70	0.96	-19.80
4400	0.96	-20.70	0.21	71.00	0.21	71.00	0.96	-20.70
4450	0.96	-21.60	0.22	70.40	0.22	70.40	0.96	-21.60
4500	0.96	-22.10	0.23	70.00	0.23	70.00	0.96	-22.10
4550	0.95	-22.60	0.24	69.50	0.24	69.50	0.95	-22.60
4600	0.96	-23.70	0.25	69.00	0.25	69.00	0.96	-23.70
4650	0.96	-24.70	0.26	68.40	0.26	68.40	0.96	-24.70
4700	0.96	-25.50	0.27	67.90	0.27	67.90	0.96	-25.50
4750	0.95	-26.30	0.28	67.30	0.28	67.30	0.95	-26.30
4800	0.94	-27.30	0.28	66.70	0.28	66.70	0.94	-27.30
4850	0.94	-28.20	0.29	66.00	0.29	66.00	0.94	-28.20
4900	0.94	-28.70	0.30	65.70	0.30	65.70	0.94	-28.70
4950	0.94	-29.10	0.31	65.50	0.31	65.50	0.94	-29.10
5000	0.94	-30.40	0.32	64.50	0.32	64.50	0.94	-30.40
5050	0.94	-31.70	0.33	63.40	0.33	63.40	0.94	-31.70
5100	0.92	-32.20	0.33	62.90	0.33	62.90	0.92	-32.20
5150	0.91	-32.80	0.34	62.50	0.34	62.50	0.91	-32.80
5200	0.91	-32.70	0.35	62.50	0.35	62.50	0.91	-32.70
5250	0.91	-32.60	0.35	62.50	0.35	62.50	0.91	-32.60
5300	0.92	-33.80	0.37	61.40	0.37	61.40	0.92	-33.80
5350	0.93	-35.00	0.38	60.40	0.38	60.40	0.93	-35.00
5400	0.91	-35.40	0.38	59.80	0.38	59.80	0.91	-35.40
5450	0.90	-35.70	0.39	59.20	0.39	59.20	0.90	-35.70
5500	0.90	-36.20	0.40	58.70	0.40	58.70	0.90	-36.20
5550	0.91	-36.60	0.40	58.20	0.40	58.20	0.91	-36.60
5600	0.90	-37.00	0.41	57.50	0.41	57.50	0.90	-37.00
5650	0.89	-37.40	0.42	56.80	0.42	56.80	0.89	-37.40
5700	0.88	-37.70	0.42	56.40	0.42	56.40	0.88	-37.70
5750	0.88	-37.90	0.43	56.00	0.43	56.00	0.88	-37.90
5800	0.88	-38.00	0.43	55.50	0.43	55.50	0.88	-38.00
5850	0.87	-38.10	0.44	54.90	0.44	54.90	0.87	-38.10
5900	0.87	-37.90	0.44	54.70	0.44	54.70	0.87	-37.90
5950	0.87	-37.70	0.45	54.50	0.45	54.50	0.87	-37.70
6000	0.86	-39.10	0.46	53.30	0.46	53.30	0.86	-39.10
6050	0.86	-40.50	0.48	52.10	0.48	52.10	0.86	-40.50
6100	0.85	-40.20	0.48	52.00	0.48	52.00	0.85	-40.20
6150	0.85	-39.90	0.49	51.90	0.49	51.90	0.85	-39.90
6200	0.85	-39.80	0.49	51.20	0.49	51.20	0.85	-39.80
6250	0.84	-39.60	0.50	50.50	0.50	50.50	0.84	-39.60
6300	0.84	-39.50	0.51	50.10	0.51	50.10	0.84	-39.50
6350	0.84	-39.50	0.51	49.70	0.51	49.70	0.84	-39.50
6400	0.83	-39.10	0.52	49.10	0.52	49.10	0.83	-39.10
6450	0.83	-38.80	0.52	48.60	0.52	48.60	0.83	-38.80
6500	0.82	-38.70	0.53	48.10	0.53	48.10	0.82	-38.70
6550	0.82	-38.60	0.53	47.60	0.53	47.60	0.82	-38.60
6600	0.82	-38.30	0.54	47.00	0.54	47.00	0.82	-38.30
6650	0.81	-38.10	0.54	46.50	0.54	46.50	0.81	-38.10
6700	0.81	-37.70	0.55	46.30	0.55	46.30	0.81	-37.70
6750	0.80	-37.30	0.55	46.00	0.55	46.00	0.80	-37.30
6800	0.80	-37.20	0.56	45.60	0.56	45.60	0.80	-37.20
6850	0.81	-37.20	0.57	45.30	0.57	45.30	0.81	-37.20
6900	0.80	-37.30	0.57	44.70	0.57	44.70	0.80	-37.30
6950	0.79	-37.40	0.57	44.10	0.57	44.10	0.79	-37.40
7000	0.79	-37.10	0.58	43.80	0.58	43.80	0.79	-37.10
7050	0.78	-36.80	0.58	43.40	0.58	43.40	0.78	-36.80
7100	0.77	-37.00	0.59	42.90	0.59	42.90	0.77	-37.00
7150	0.77	-37.20	0.59	42.50	0.59	42.50	0.77	-37.20
7200	0.76	-36.90	0.60	42.30	0.60	42.30	0.76	-36.90
7250	0.76	-36.70	0.60	42.10	0.60	42.10	0.76	-36.70
7300	0.76	-37.30	0.61	41.60	0.61	41.60	0.76	-37.30
7350	0.76	-37.80	0.62	41.10	0.62	41.10	0.76	-37.80
7400	0.75	-38.10	0.62	40.70	0.62	40.70	0.75	-38.10
7450	0.74	-38.40	0.62	40.30	0.62	40.30	0.74	-38.40
7500	0.74	-39.20	0.63	40.00	0.63	40.00	0.74	-39.20
7550	0.75	-39.90	0.64	39.70	0.64	39.70	0.75	-39.90
7600	0.74	-40.70	0.64	39.10	0.64	39.10	0.74	-40.70
7650	0.73	-41.50	0.65	38.40	0.65	38.40	0.73	-41.50
7700	0.72	-42.10	0.65	38.10	0.65	38.10	0.72	-42.10
7750	0.71	-42.70	0.65	37.70	0.65	37.70	0.71	-42.70
7800	0.71	-43.60	0.66	37.30	0.66	37.30	0.71	-43.60
7850	0.70	-44.50	0.67	36.90	0.67	36.90	0.70	-44.50
7900	0.70	-45.70	0.67	36.20	0.67	36.20	0.70	-45.70
7950	0.69	-47.00	0.68	35.60	0.68	35.60	0.69	-47.00
8000	0.68	-48.10	0.69	35.00	0.69	35.00	0.68	-48.10
8050	0.67	-49.30	0.69	34.40	0.69	34.40	0.67	-49.30
8100	0.67	-50.00	0.69	34.20	0.69	34.20	0.67	-50.00
8150	0.66	-50.70	0.70	34.00	0.70	34.00	0.66	-50.70
8200	0.65	-51.80	0.70	33.30	0.70	33.30	0.65	-51.80
8250	0.64	-52.90	0.71	32.60	0.71	32.60	0.64	-52.90
8300	0.64	-53.70	0.72	32.40	0.72	32.40	0.64	-53.70
8350	0.63	-54.50	0.72	32.10	0.72	32.10	0.63	-54.50
8400	0.63	-55.40	0.73	31.30	0.73	31.30	0.63	-55.40
8450	0.62	-56.30	0.73	30.60	0.73	30.60	0.62	-56.30
8500	0.61	-57.00	0.74	30.20	0.74	30.20	0.61	-57.00
8550	0.61	-57.70	0.75	29.80	0.75	29.80	0.61	-57.70
8600	0.60	-58.30	0.75	29.00	0.75	29.00	0.60	-58.30
8650	0.59	-59.00	0.76	28.30	0.76	28.30	0.59	-59.00
8700	0.59	-59.60	0.76	27.70	0.76	27.70	0.59	-59.60
8750	0.58	-60.10	0.77	27.10	0.77	27.10	0.58	-60.10
8800	0.57	-60.50	0.77	26.80	0.77	26.80	0.57	-60.50
8850	0.56	-60.90	0.77	26.50	0.77	26.50	0.56	-60.90
8900	0.55	-61.10	0.78	25.90	0.78	25.90	0.55	-61.10
8950	0.55	-61.30	0.79	25.20	0.79	25.20	0.55	-61.30
9000	0.54	-61.70	0.79	24.70	0.79	24.70	0.54	-61.70
9050	0.53	-62.10	0.79	24.20	0.79	24.20	0.53	-62.10
9100	0.52	-62.60	0.80	23.70	0.80	23.70	0.52	-62.60
9150	0.51	-63.20	0.80	23.20	0.80	23.20	0.51	-63.20
9200	0.51	-64.10	0.81	22.90	0.81	22.90	0.51	-64.10
9250	0.50	-65.00	0.81	22.50	0.81	22.50	0.50	-65.00
9300	0.49	-64.90	0.82	21.80	0.82	21.80	0.49	-64.90
9350	0.48	-64.90	0.83	21.00	0.83	21.00	0.48	-64.90
9400	0.47	-65.50	0.83	20.70	0.83	20.70	0.47	-65.50
9450	0.46	-66.20	0.83	20.30	0.83	20.30	0.46	-66.20
9500	0.45	-66.20	0.84	19.40	0.84	19.40	0.45	-66.20
9550	0.44	-66.30	0.85	18.60	0.85	18.60	0.44	-66.30
9600	0.43	-66.50	0.85	17.80	0.85	17.80	0.43	-66.50
9650	0.42	-66.80	0.86	17.00	0.86	17.00	0.42	-66.80
9700	0.41	-67.30	0.86	16.40	0.86	16.40	0.41	-67.30
9750	0.39	-67.80	0.87	15.80	0.87	15.80	0.39	-67.80
9800	0.38	-67.40	0.87	15.00	0.87	15.00	0.38	-67.40
9850	0.37	-67.00	0.88	14.10	0.88	14.10	0.37	-67.00
9900	0.36	-67.10	0.88	13.50	0.88	13.50	0.36	-67.10
9950	0.35	-67.20	0.88	12.80	0.88	12.80	0.35	-67.20
10000	0.34	-67.10	0.88	12.00	0.88	12.00	0.34	-67.10
10050	0.32	-67.00	0.89	11.30	0.89	11.30	0.32	-67.00
10100	0.31	-66.50	0.89	10.50	0.89	10.50	0.31	-66.50
10150	0.30	-66.10	0.89	9.70	0.89	9.70	0.30	-66.10
10200	0.28	-65.60	0.90	8.80	0.90	8.80	0.28	-65.60
10250	0.26	-65.20	0.90	7.90	0.90	7.90	0.26	-65.20
10300	0.25	-64.70	0.90	7.00	0.90	7.00	0.25	-64.70
10350	0.24	-64.20	0.90	6.10	0.90	6.10	0.24	-64.20
10400	0.22	-64.20	0.91	5.00	0.91	5.00	0.22	-64.20
10450	0.20	-64.10	0.91	3.90	0.91	3.90	0.20	-64.10
10500	0.19	-61.60	0.92	2.90	0.92	2.90	0.19	-61.60
10550	0.18	-59.00	0.92	1.80	0.92	1.80	0.18	-59.00
10600	0.16	-56.80	0.92	0.60	0.92	0.60	0.16	-56.80
10650	0.14	-54.60	0.92	-0.70	0.92	-0.70	0.14	-54.60
10700	0.13	-47.00	0.92	-2.00	0.92	-2.00	0.13	-47.00
10750	0.12	-39.40	0.92	-3.20	0.92	-3.20	0.12	-39.40
10800	0.11	-32.40	0.91	-4.40	0.91	-4.40	0.11	-32.40
10850	0.10	-25.40	0.91	-5.60	0.91	-5.60	0.10	-25.40
10900	0.10	-11.70	0.90	-7.30	0.90	-7.30	0.10	-11.70
10950	0.11	2.00	0.90	-9.00	0.90	-9.00	0.11	2.00
11000	0.12	9.80	0.89	-10.80	0.89	-10.80	0.12	9.80
11050	0.13	17.60	0.89	-12.60	0.89	-12.60	0.13	17.60
11100	0.16	21.80	0.88	-14.40	0.88	-14.40	0.16	21.80
11150	0.18	26.00	0.87	-16.20	0.87	-16.20	0.18	26.00
11200	0.21	27.20	0.85	-18.40	0.85	-18.40	0.21	27.20
11250	0.25	28.40	0.84	-20.70	0.84	-20.70	0.25	28.40
11300	0.28	27.90	0.82	-23.10	0.82	-23.10	0.28	27.90
11350	0.31	27.40	0.80	-25.50	0.80	-25.50	0.31	27.40
11400	0.36	26.60	0.77	-27.90	0.77	-27.90	0.36	26.60
11450	0.40	25.80	0.74	-30.40	0.74	-30.40	0.40	25.80
11500	0.44	23.40	0.71	-33.10	0.71	-33.10	0.44	23.40
11550	0.49	21.00	0.67	-35.70	0.67	-35.70	0.49	21.00
11600	0.53	18.50	0.63	-38.10	0.63	-38.10	0.53	18.50
11650	0.57	16.00	0.58	-40.60	0.58	-40.60	0.57	16.00
11700	0.62	12.80	0.54	-42.60	0.54	-42.60	0.62	12.80
11750	0.65	9.50	0.49	-44.70	0.49	-44.70	0.65	9.50
11800	0.69	6.70	0.43	-45.30	0.43	-45.30	0.69	6.70
11850	0.73	4.00	0.38	-45.90	0.38	-45.90	0.73	4.00
11900	0.74	0.60	0.33	-44.30	0.33	-44.30	0.74	0.60
11950	0.75	-2.80	0.27	-42.70	0.27	-42.70	0.75	-2.80
12000	0.78	-6.60	0.23	-35.60	0.23	-35.60	0.78	-6.60
12050	0.82	-10.30	0.20	-28.60	0.20	-28.60	0.82	-10.30
12100	0.81	-14.10	0.18	-14.50	0.18	-14.50	0.81	-14.10
12150	0.81	-17.90	0.17	-0.40	0.17	-0.40	0.81	-17.90
12200	0.81	-21.00	0.18	11.80	0.18	11.80	0.81	-21.00
12250	0.82	-24.10	0.20	24.00	0.20	24.00	0.82	-24.10
12300	0.82	-26.20	0.23	29.70	0.23	29.70	0.82	-26.20
12350	0.82	-28.30	0.26	35.50	0.26	35.50	0.82	-28.30
12400	0.81	-31.40	0.29	37.10	0.29	37.10	0.81	-31.40
12450	0.80	-34.60	0.32	38.70	0.32	38.70	0.80	-34.60
12500	0.80	-35.70	0.35	39.30	0.35	39.30	0.80	-35.70
12550	0.80	-36.70	0.38	40.00	0.38	40.00	0.80	-36.70
12600	0.79	-38.40	0.40	39.80	0.40	39.80	0.79	-38.40
12650	0.79	-40.00	0.43	39.70	0.43	39.70	0.79	-40.00
12700	0.78	-41.00	0.45	39.10	0.45	39.10	0.78	-41.00
12750	0.78	-42.10	0.47	38.40	0.47	38.40	0.78	-42.10
12800	0.77	-42.60	0.49	38.20	0.49	38.20	0.77	-42.60
12850	0.77	-43.10	0.51	37.90	0.51	37.90	0.77	-43.10
12900	0.76	-44.00	0.53	36.90	0.53	36.90	0.76	-44.00
12950	0.75	-45.00	0.54	35.90	0.54	35.90	0.75	-45.00
13000	0.75	-45.30	0.56	35.70	0.56	35.70	0.75	-45.30
13050	0.75	-45.70	0.58	35.50	0.58	35.50	0.75	-45.70
13100	0.73	-46.60	0.59	34.50	0.59	34.50	0.73	-46.60
13150	0.72	-47.40	0.60	33.50	0.60	33.50	0.72	-47.40
13200	0.71	-48.20	0.61	33.10	0.61	33.10	0.71	-48.20
13250	0.71	-49.00	0.63	32.70	0.63	32.70	0.71	-49.00
13300	0.68	-47.90	0.63	31.80	0.63	31.80	0.68	-47.90
13350	0.65	-46.80	0.64	30.90	0.64	30.90	0.65	-46.80
13400	0.66	-49.40	0.65	30.00	0.65	30.00	0.66	-49.40
13450	0.66	-51.90	0.66	29.10	0.66	29.10	0.66	-51.90
13500	0.65	-52.50	0.67	28.60	0.67	28.60	0.65	-52.50
13550	0.63	-53.20	0.68	28.10	0.68	28.10	0.63	-53.20
13600	0.63	-54.30	0.68	27.40	0.68	27.40	0.63	-54.30
13650	0.62	-55.40	0.69	26.70	0.69	26.70	0.62	-55.40
13700	0.62	-56.20	0.69	26.20	0.69	26.20	0.62	-56.20
13750	0.61	-57.10	0.70	25.60	0.70	25.60	0.61	-57.10
13800	0.61	-58.10	0.71	25.10	0.71	25.10	0.61	-58.10
13850	0.60	-59.10	0.71	24.50	0.71	24.50	0.60	-59.10
13900	0.60	-60.00	0.72	24.00	0.72	24.00	0.60	-60.00
13950	0.60	-60.90	0.72	23.50	0.72	23.50	0.60	-60.90
14000	0.59	-61.30	0.73	23.10	0.73	23.10	0.59	-61.30
14050	0.58	-61.70	0.74	22.70	0.74	22.70	0.58	-61.70
14100	0.58	-62.90	0.74	22.10	0.74	22.10	0.58	-62.90
14150	0.59	-64.10	0.75	21.50	0.75	21.50	0.59	-64.10
14200	0.58	-64.20	0.75	21.00	0.75	21.00	0.58	-64.20
14250	0.57	-64.30	0.75	20.50	0.75	20.50	0.57	-64.30
14300	0.57	-65.10	0.76	20.10	0.76	20.10	0.57	-65.10
14350	0.56	-65.90	0.76	19.80	0.76	19.80	0.56	-65.90
14400	0.56	-66.20	0.77	19.10	0.77	19.10	0.56	-66.20
14450	0.56	-66.60	0.78	18.40	0.78	18.40	0.56	-66.60
14500	0.55	-66.70	0.78	18.20	0.78	18.20	0.55	-66.70
14550	0.54	-66.90	0.79	18.00	0.79	18.00	0.54	-66.90
14600	0.53	-67.10	0.79	17.30	0.79	17.30	0.53	-67.10
14650	0.52	-67.40	0.80	16.70	0.80	16.70	0.52	-67.40
14700	0.52	-68.00	0.80	16.20	0.80	16.20	0.52	-68.00
14750	0.51	-68.60	0.81	15.80	0.81	15.80	0.51	-68.60
14800	0.50	-68.90	0.81	15.30	0.81	15.30	0.50	-68.90
14850	0.49	-69.10	0.81	14.80	0.81	14.80	0.49	-69.10
14900	0.48	-69.30	0.82	14.40	0.82	14.40	0.48	-69.30
14950	0.47	-69.40	0.83	13.90	0.83	13.90	0.47	-69.40
15000	0.46	-70.00	0.83	13.50	0.83	13.50	0.46	-70.00
15050	0.45	-70.60	0.82	13.10	0.82	13.10	0.45	-70.60
15100	0.45	-69.90	0.83	12.90	0.83	12.90	0.45	-69.90
15150	0.44	-69.30	0.84	12.60	0.84	12.60	0.44	-69.30
15200	0.44	-69.80	0.85	12.30	0.85	12.30	0.44	-69.80
15250	0.44	-70.30	0.85	12.00	0.85	12.00	0.44	-70.30
15300	0.43	-70.30	0.85	11.30	0.85	11.30	0.43	-70.30
15350	0.43	-70.20	0.85	10.50	0.85	10.50	0.43	-70.20
15400	0.42	-69.70	0.86	10.40	0.86	10.40	0.42	-69.70
15450	0.42	-69.10	0.86	10.30	0.86	10.30	0.42	-69.10
15500	0.41	-68.40	0.87	9.50	0.87	9.50	0.41	-68.40
15550	0.41	-67.60	0.87	8.80	0.87	8.80	0.41	-67.60
15600	0.40	-66.90	0.87	8.50	0.87	8.50	0.40	-66.90
15650	0.40	-66.10	0.88	8.20	0.88	8.20	0.40	-66.10
15700	0.39	-65.20	0.88	7.70	0.88	7.70	0.39	-65.20
15750	0.38	-64.30	0.88	7.10	0.88	7.10	0.38	-64.30
15800	0.37	-63.20	0.88	6.80	0.88	6.80	0.37	-63.20
15850	0.36	-62.00	0.88	6.60	0.88	6.60	0.36	-62.00
15900	0.36	-61.20	0.88	6.10	0.88	6.10	0.36	-61.20
15950	0.35	-60.40	0.89	5.70	0.89	5.70	0.35	-60.40
16000	0.34	-58.30	0.89	5.20	0.89	5.20	0.34	-58.30
16050	0.32	-56.30	0.90	4.80	0.90	4.80	0.32	-56.30
16100	0.31	-55.90	0.89	4.10	0.89	4.10	0.31	-55.90
16150	0.30	-55.50	0.89	3.40	0.89	3.40	0.30	-55.50
16200	0.29	-54.00	0.89	3.00	0.89	3.00	0.29	-54.00
16250	0.28	-52.40	0.89	2.60	0.89	2.60	0.28	-52.40
16300	0.27	-52.30	0.90	2.10	0.90	2.10	0.27	-52.30
16350	0.26	-52.30	0.90	1.50	0.90	1.50	0.26	-52.30
16400	0.25	-51.90	0.89	1.20	0.89	1.20	0.25	-51.90
16450	0.25	-51.50	0.89	1.00	0.89	1.00	0.25	-51.50
16500	0.24	-53.30	0.89	0.90	0.89	0.90	0.24	-53.30
16550	0.24	-55.20	0.88	0.80	0.88	0.80	0.24	-55.20
16600	0.23	-55.50	0.89	0.50	0.89	0.50	0.23	-55.50
16650	0.23	-55.80	0.90	0.10	0.90	0.10	0.23	-55.80
16700	0.23	-57.70	0.90	0.00	0.90	0.00	0.23	-57.70
16750	0.22	-59.60	0.90	-0.20	0.90	-0.20	0.22	-59.60
16800	0.22	-60.00	0.90	-0.40	0.90	-0.40	0.22	-60.00
16850	0.22	-60.40	0.91	-0.70	0.91	-0.70	0.22	-60.40
16900	0.21	-60.70	0.91	-1.10	0.91	-1.10	0.21	-60.70
16950	0.21	-61.00	0.91	-1.40	0.91	-1.40	0.21	-61.00
17000	0.20	-61.30	0.92	-2.00	0.92	-2.00	0.20	-61.30
17050	0.19	-61.60	0.92	-2.50	0.92	-2.50	0.19	-61.60
17100	0.19	-59.60	0.92	-3.00	0.92	-3.00	0.19	-59.60
17150	0.18	-57.50	0.92	-3.60	0.92	-3.60	0.18	-57.50
17200	0.17	-55.50	0.92	-4.10	0.92	-4.10	0.17	-55.50
17250	0.16	-53.50	0.92	-4.50	0.92	-4.50	0.16	-53.50
17300	0.15	-50.50	0.93	-5.10	0.93	-5.10	0.15	-50.50
17350	0.15	-47.50	0.93	-5.70	0.93	-5.70	0.15	-47.50
17400	0.13	-46.00	0.93	-6.30	0.93	-6.30	0.13	-46.00
17450	0.12	-44.40	0.93	-7.00	0.93	-7.00	0.12	-44.40
17500	0.12	-38.10	0.93	-7.70	0.93	-7.70	0.12	-38.10
17550	0.11	-31.80	0.93	-8.50	0.93	-8.50	0.11	-31.80
17600	0.10	-25.00	0.92	-9.30	0.92	-9.30	0.10	-25.00
17650	0.09	-18.20	0.92	-10.10	0.92	-10.10	0.09	-18.20
17700	0.09	-10.30	0.92	-10.80	0.92	-10.80	0.09	-10.30
17750	0.08	-2.50	0.92	-11.60	0.92	-11.60	0.08	-2.50
17800	0.08	3.20	0.92	-12.50	0.92	-12.50	0.08	3.20
17850	0.08	9.00	0.92	-13.40	0.92	-13.40	0.08	9.00
17900	0.08	16.70	0.91	-14.30	0.91	-14.30	0.08	16.70
17950	0.09	24.50	0.90	-15.10	0.90	-15.10	0.09	24.50
18000	0.09	27.10	0.90	-16.20	0.90	-16.20	0.09	27.10
18050	0.10	29.70	0.90	-17.30	0.90	-17.30	0.10	29.70
18100	0.11	30.20	0.89	-18.30	0.89	-18.30	0.11	30.20
18150	0.12	30.60	0.88	-19.40	0.88	-19.40	0.12	30.60
18200	0.13	30.50	0.88	-20.70	0.88	-20.70	0.13	30.50
18250	0.15	30.30	0.87	-21.90	0.87	-21.90	0.15	30.30
18300	0.17	28.00	0.86	-23.10	0.86	-23.10	0.17	28.00
18350	0.18	25.70	0.85	-24.30	0.85	-24.30	0.18	25.70
18400	0.21	24.70	0.83	-25.70	0.83	-25.70	0.21	24.70
18450	0.24	23.70	0.82	-27.10	0.82	-27.10	0.24	23.70
18500	0.26	22.80	0.80	-28.30	0.80	-28.30	0.26	22.80
18550	0.29	21.90	0.79	-29.40	0.79	-29.40	0.29	21.90
18600	0.33	21.20	0.77	-30.90	0.77	-30.90	0.33	21.20
18650	0.37	20.60	0.75	-32.40	0.75	-32.40	0.37	20.60
18700	0.39	17.60	0.72	-34.20	0.72	-34.20	0.39	17.60
18750	0.41	14.70	0.69	-36.00	0.69	-36.00	0.41	14.70
18800	0.44	12.80	0.66	-37.00	0.66	-37.00	0.44	12.80
18850	0.48	10.90	0.63	-38.10	0.63	-38.10	0.48	10.90
18900	0.51	7.50	0.58	-39.30	0.58	-39.30	0.51	7.50
18950	0.54	4.10	0.54	-40.60	0.54	-40.60	0.54	4.10
19000	0.55	0.50	0.49	-39.70	0.49	-39.70	0.55	0.50
19050	0.56	-3.10	0.45	-38.90	0.45	-38.90	0.56	-3.10
19100	0.59	-7.30	0.40	-35.50	0.40	-35.50	0.59	-7.30
19150	0.62	-11.60	0.36	-32.00	0.36	-32.00	0.62	-11.60
19200	0.63	-17.30	0.34	-25.40	0.34	-25.40	0.63	-17.30
19250	0.64	-23.00	0.31	-18.70	0.31	-18.70	0.64	-23.00
19300	0.66	-27.00	0.32	-10.70	0.32	-10.70	0.66	-27.00
19350	0.67	-31.00	0.32	-2.70	0.32	-2.70	0.67	-31.00
19400	0.68	-36.00	0.34	2.50	0.34	2.50	0.68	-36.00
19450	0.69	-41.00	0.36	7.80	0.36	7.80	0.69	-41.00
19500	0.69	-44.40	0.39	11.50	0.39	11.50	0.69	-44.40
