# MHZ S MA R 50

50	0.95	177.30	0.04	80.30	0.04	80.30	0.95	177.30
100	0.97	174.90	0.08	79.40	0.08	79.40	0.97	174.90
150	0.99	172.40	0.11	78.50	0.11	78.50	0.99	172.40
200	0.98	170.30	0.14	77.00	0.14	77.00	0.98	170.30
250	0.96	168.20	0.18	75.50	0.18	75.50	0.96	168.20
300	0.96	165.60	0.21	73.10	0.21	73.10	0.96	165.60
350	0.95	163.00	0.24	70.70	0.24	70.70	0.95	163.00
400	0.94	161.00	0.27	68.90	0.27	68.90	0.94	161.00
450	0.93	159.00	0.30	67.20	0.30	67.20	0.93	159.00
500	0.91	155.20	0.35	64.50	0.35	64.50	0.91	155.20
550	0.90	151.40	0.40	61.80	0.40	61.80	0.90	151.40
600	0.89	149.40	0.42	59.60	0.42	59.60	0.89	149.40
650	0.88	147.30	0.45	57.40	0.45	57.40	0.88	147.30
700	0.86	145.00	0.47	55.60	0.47	55.60	0.86	145.00
750	0.85	142.60	0.50	53.90	0.50	53.90	0.85	142.60
800	0.84	140.80	0.52	51.80	0.52	51.80	0.84	140.80
850	0.82	139.00	0.54	49.70	0.54	49.70	0.82	139.00
900	0.81	137.00	0.56	47.90	0.56	47.90	0.81	137.00
950	0.79	135.00	0.58	46.10	0.58	46.10	0.79	135.00
1000	0.77	133.10	0.60	44.30	0.60	44.30	0.77	133.10
1050	0.76	131.30	0.62	42.50	0.62	42.50	0.76	131.30
1100	0.75	129.40	0.63	41.00	0.63	41.00	0.75	129.40
1150	0.73	127.50	0.65	39.50	0.65	39.50	0.73	127.50
1200	0.72	125.90	0.66	37.90	0.66	37.90	0.72	125.90
1250	0.70	124.20	0.68	36.30	0.68	36.30	0.70	124.20
1300	0.69	122.40	0.69	35.10	0.69	35.10	0.69	122.40
1350	0.69	120.50	0.71	33.80	0.71	33.80	0.69	120.50
1400	0.67	119.10	0.72	32.30	0.72	32.30	0.67	119.10
1450	0.65	117.70	0.73	30.80	0.73	30.80	0.65	117.70
1500	0.65	116.00	0.74	29.60	0.74	29.60	0.65	116.00
1550	0.64	114.30	0.75	28.30	0.75	28.30	0.64	114.30
1600	0.63	112.80	0.76	27.00	0.76	27.00	0.63	112.80
1650	0.62	111.30	0.77	25.80	0.77	25.80	0.62	111.30
1700	0.60	109.90	0.78	24.50	0.78	24.50	0.60	109.90
1750	0.59	108.60	0.79	23.30	0.79	23.30	0.59	108.60
1800	0.58	107.40	0.79	22.30	0.79	22.30	0.58	107.40
1850	0.57	106.30	0.80	21.30	0.80	21.30	0.57	106.30
1900	0.56	104.80	0.81	20.20	0.81	20.20	0.56	104.80
1950	0.55	103.40	0.81	19.10	0.81	19.10	0.55	103.40
2000	0.54	102.40	0.82	18.00	0.82	18.00	0.54	102.40
2050	0.53	101.30	0.83	16.80	0.83	16.80	0.53	101.30
2100	0.52	100.30	0.83	15.90	0.83	15.90	0.52	100.30
2150	0.51	99.40	0.84	15.00	0.84	15.00	0.51	99.40
2200	0.50	98.30	0.85	14.00	0.85	14.00	0.50	98.30
2250	0.50	97.30	0.85	12.90	0.85	12.90	0.50	97.30
2300	0.49	96.60	0.86	12.00	0.86	12.00	0.49	96.60
2350	0.47	95.90	0.86	11.20	0.86	11.20	0.47	95.90
2400	0.47	95.10	0.87	10.20	0.87	10.20	0.47	95.10
2450	0.46	94.30	0.87	9.30	0.87	9.30	0.46	94.30
2500	0.45	93.70	0.88	8.30	0.88	8.30	0.45	93.70
2550	0.44	93.00	0.88	7.30	0.88	7.30	0.44	93.00
2600	0.43	92.40	0.88	6.50	0.88	6.50	0.43	92.40
2650	0.43	91.70	0.89	5.70	0.89	5.70	0.43	91.70
2700	0.42	91.30	0.89	4.80	0.89	4.80	0.42	91.30
2750	0.41	90.90	0.90	3.90	0.90	3.90	0.41	90.90
2800	0.40	90.10	0.90	3.10	0.90	3.10	0.40	90.10
2850	0.39	89.30	0.91	2.30	0.91	2.30	0.39	89.30
2900	0.38	89.10	0.91	1.30	0.91	1.30	0.38	89.10
2950	0.38	88.80	0.91	0.20	0.91	0.20	0.38	88.80
3000	0.37	88.40	0.92	-0.50	0.92	-0.50	0.37	88.40
3050	0.37	88.00	0.92	-1.30	0.92	-1.30	0.37	88.00
3100	0.35	87.10	0.92	-2.30	0.92	-2.30	0.35	87.10
3150	0.34	86.20	0.92	-3.30	0.92	-3.30	0.34	86.20
3200	0.34	86.10	0.92	-3.90	0.92	-3.90	0.34	86.10
3250	0.34	85.90	0.93	-4.50	0.93	-4.50	0.34	85.90
3300	0.33	85.60	0.93	-5.40	0.93	-5.40	0.33	85.60
3350	0.32	85.30	0.93	-6.40	0.93	-6.40	0.32	85.30
3400	0.32	84.90	0.94	-7.00	0.94	-7.00	0.32	84.90
3450	0.31	84.50	0.94	-7.70	0.94	-7.70	0.31	84.50
3500	0.30	84.40	0.94	-8.40	0.94	-8.40	0.30	84.40
3550	0.29	84.20	0.94	-9.10	0.94	-9.10	0.29	84.20
3600	0.29	84.30	0.94	-9.90	0.94	-9.90	0.29	84.30
3650	0.28	84.30	0.95	-10.70	0.95	-10.70	0.28	84.30
3700	0.28	83.70	0.95	-11.50	0.95	-11.50	0.28	83.70
3750	0.27	83.10	0.95	-12.30	0.95	-12.30	0.27	83.10
3800	0.26	82.70	0.95	-12.90	0.95	-12.90	0.26	82.70
3850	0.26	82.40	0.95	-13.60	0.95	-13.60	0.26	82.40
3900	0.25	81.70	0.95	-14.50	0.95	-14.50	0.25	81.70
3950	0.25	81.00	0.96	-15.40	0.96	-15.40	0.25	81.00
4000	0.24	80.60	0.96	-16.00	0.96	-16.00	0.24	80.60
4050	0.24	80.20	0.96	-16.70	0.96	-16.70	0.24	80.20
4100	0.23	79.30	0.96	-17.50	0.96	-17.50	0.23	79.30
4150	0.23	78.30	0.96	-18.20	0.96	-18.20	0.23	78.30
4200	0.22	77.40	0.96	-18.90	0.96	-18.90	0.22	77.40
4250	0.22	76.50	0.96	-19.60	0.96	-19.60	0.22	76.50
4300	0.22	75.50	0.96	-20.20	0.96	-20.20	0.22	75.50
4350	0.21	74.40	0.96	-20.80	0.96	-20.80	0.21	74.40
4400	0.21	73.20	0.97	-21.60	0.97	-21.60	0.21	73.20
4450	0.20	71.90	0.97	-22.30	0.97	-22.30	0.20	71.90
4500	0.20	70.70	0.97	-23.20	0.97	-23.20	0.20	70.70
4550	0.20	69.40	0.97	-24.10	0.97	-24.10	0.20	69.40
4600	0.19	67.90	0.97	-24.80	0.97	-24.80	0.19	67.90
4650	0.19	66.50	0.97	-25.50	0.97	-25.50	0.19	66.50
4700	0.18	65.60	0.97	-26.10	0.97	-26.10	0.18	65.60
4750	0.18	64.80	0.97	-26.70	0.97	-26.70	0.18	64.80
4800	0.18	63.40	0.97	-27.40	0.97	-27.40	0.18	63.40
4850	0.17	62.10	0.97	-28.10	0.97	-28.10	0.17	62.10
4900	0.17	61.30	0.97	-28.70	0.97	-28.70	0.17	61.30
4950	0.17	60.60	0.97	-29.40	0.97	-29.40	0.17	60.60
5000	0.16	59.40	0.97	-30.10	0.97	-30.10	0.16	59.40
5050	0.16	58.20	0.98	-30.80	0.98	-30.80	0.16	58.20
5100	0.15	57.30	0.98	-31.50	0.98	-31.50	0.15	57.30
5150	0.15	56.40	0.98	-32.20	0.98	-32.20	0.15	56.40
5200	0.14	56.30	0.98	-32.70	0.98	-32.70	0.14	56.30
5250	0.14	56.10	0.98	-33.20	0.98	-33.20	0.14	56.10
5300	0.13	54.30	0.98	-33.90	0.98	-33.90	0.13	54.30
5350	0.13	52.50	0.98	-34.60	0.98	-34.60	0.13	52.50
5400	0.13	51.90	0.98	-35.40	0.98	-35.40	0.13	51.90
5450	0.12	51.20	0.98	-36.10	0.98	-36.10	0.12	51.20
5500	0.12	49.70	0.98	-36.70	0.98	-36.70	0.12	49.70
5550	0.11	48.20	0.98	-37.30	0.98	-37.30	0.11	48.20
5600	0.11	48.30	0.98	-38.00	0.98	-38.00	0.11	48.30
5650	0.11	48.40	0.99	-38.80	0.99	-38.80	0.11	48.40
5700	0.10	47.40	0.99	-39.50	0.99	-39.50	0.10	47.40
5750	0.10	46.50	0.99	-40.20	0.99	-40.20	0.10	46.50
5800	0.09	46.60	0.98	-40.80	0.98	-40.80	0.09	46.60
5850	0.09	46.70	0.98	-41.40	0.98	-41.40	0.09	46.70
5900	0.09	47.80	0.98	-41.90	0.98	-41.90	0.09	47.80
5950	0.08	48.90	0.98	-42.40	0.98	-42.40	0.08	48.90
6000	0.07	44.60	0.99	-43.10	0.99	-43.10	0.07	44.60
6050	0.05	40.30	0.99	-43.80	0.99	-43.80	0.05	40.30
6100	0.05	44.40	0.99	-44.30	0.99	-44.30	0.05	44.40
6150	0.05	48.40	0.99	-44.80	0.99	-44.80	0.05	48.40
6200	0.05	53.50	0.99	-45.40	0.99	-45.40	0.05	53.50
6250	0.04	58.60	0.99	-46.10	0.99	-46.10	0.04	58.60
6300	0.04	69.20	0.99	-46.70	0.99	-46.70	0.04	69.20
6350	0.04	79.90	0.99	-47.20	0.99	-47.20	0.04	79.90
6400	0.04	88.80	0.99	-47.80	0.99	-47.80	0.04	88.80
6450	0.03	97.80	0.98	-48.50	0.98	-48.50	0.03	97.80
6500	0.03	103.60	0.98	-49.10	0.98	-49.10	0.03	103.60
6550	0.04	109.50	0.98	-49.70	0.98	-49.70	0.04	109.50
6600	0.04	115.50	0.98	-50.30	0.98	-50.30	0.04	115.50
6650	0.04	121.60	0.99	-50.90	0.99	-50.90	0.04	121.60
6700	0.05	126.30	0.98	-51.40	0.98	-51.40	0.05	126.30
6750	0.05	131.10	0.98	-51.80	0.98	-51.80	0.05	131.10
6800	0.05	132.70	0.98	-52.40	0.98	-52.40	0.05	132.70
6850	0.05	134.30	0.99	-52.90	0.99	-52.90	0.05	134.30
6900	0.06	134.60	0.99	-53.60	0.99	-53.60	0.06	134.60
6950	0.06	135.00	0.98	-54.20	0.98	-54.20	0.06	135.00
7000	0.06	135.00	0.99	-54.80	0.99	-54.80	0.06	135.00
7050	0.07	135.00	0.99	-55.50	0.99	-55.50	0.07	135.00
7100	0.07	136.00	0.99	-56.00	0.99	-56.00	0.07	136.00
7150	0.08	137.00	0.98	-56.50	0.98	-56.50	0.08	137.00
7200	0.08	136.20	0.99	-57.10	0.99	-57.10	0.08	136.20
7250	0.08	135.50	0.99	-57.70	0.99	-57.70	0.08	135.50
7300	0.08	134.50	0.99	-58.30	0.99	-58.30	0.08	134.50
7350	0.08	133.50	0.99	-58.80	0.99	-58.80	0.08	133.50
7400	0.09	132.30	0.99	-59.40	0.99	-59.40	0.09	132.30
7450	0.09	131.00	0.99	-60.00	0.99	-60.00	0.09	131.00
7500	0.09	131.10	0.99	-60.60	0.99	-60.60	0.09	131.10
7550	0.09	131.20	0.98	-61.30	0.98	-61.30	0.09	131.20
7600	0.09	129.50	0.98	-61.80	0.98	-61.80	0.09	129.50
7650	0.10	127.80	0.98	-62.40	0.98	-62.40	0.10	127.80
7700	0.09	126.20	0.98	-62.90	0.98	-62.90	0.09	126.20
7750	0.09	124.60	0.98	-63.50	0.98	-63.50	0.09	124.60
7800	0.10	125.10	0.98	-64.10	0.98	-64.10	0.10	125.10
7850	0.10	125.50	0.98	-64.70	0.98	-64.70	0.10	125.50
7900	0.10	124.30	0.98	-65.30	0.98	-65.30	0.10	124.30
7950	0.09	123.10	0.98	-65.80	0.98	-65.80	0.09	123.10
8000	0.09	123.70	0.99	-66.40	0.99	-66.40	0.09	123.70
8050	0.09	124.30	0.99	-67.10	0.99	-67.10	0.09	124.30
8100	0.09	122.50	0.99	-67.60	0.99	-67.60	0.09	122.50
8150	0.09	120.60	0.99	-68.20	0.99	-68.20	0.09	120.60
8200	0.08	122.10	0.98	-68.70	0.98	-68.70	0.08	122.10
8250	0.08	123.70	0.98	-69.30	0.98	-69.30	0.08	123.70
8300	0.08	123.10	0.98	-69.80	0.98	-69.80	0.08	123.10
8350	0.07	122.50	0.99	-70.40	0.99	-70.40	0.07	122.50
8400	0.07	124.10	0.99	-71.00	0.99	-71.00	0.07	124.10
8450	0.07	125.60	0.99	-71.60	0.99	-71.60	0.07	125.60
8500	0.06	126.10	0.99	-72.20	0.99	-72.20	0.06	126.10
8550	0.06	126.60	0.99	-72.80	0.99	-72.80	0.06	126.60
8600	0.05	127.80	0.99	-73.40	0.99	-73.40	0.05	127.80
8650	0.05	129.00	0.99	-74.10	0.99	-74.10	0.05	129.00
8700	0.05	131.00	0.99	-74.70	0.99	-74.70	0.05	131.00
8750	0.05	133.00	0.99	-75.30	0.99	-75.30	0.05	133.00
8800	0.05	134.00	0.99	-75.70	0.99	-75.70	0.05	134.00
8850	0.05	134.90	0.99	-76.10	0.99	-76.10	0.05	134.90
8900	0.05	138.50	0.99	-76.80	0.99	-76.80	0.05	138.50
8950	0.05	142.00	0.99	-77.60	0.99	-77.60	0.05	142.00
9000	0.05	145.80	0.99	-78.20	0.99	-78.20	0.05	145.80
9050	0.05	149.60	0.98	-78.80	0.98	-78.80	0.05	149.60
9100	0.05	153.40	0.99	-79.40	0.99	-79.40	0.05	153.40
9150	0.05	157.20	0.99	-80.00	0.99	-80.00	0.05	157.20
9200	0.06	160.30	0.99	-80.70	0.99	-80.70	0.06	160.30
9250	0.06	163.50	0.99	-81.50	0.99	-81.50	0.06	163.50
9300	0.06	167.20	0.99	-81.90	0.99	-81.90	0.06	167.20
9350	0.06	171.00	0.99	-82.30	0.99	-82.30	0.06	171.00
9400	0.07	174.30	0.98	-82.80	0.98	-82.80	0.07	174.30
9450	0.08	177.60	0.98	-83.40	0.98	-83.40	0.08	177.60
9500	0.08	178.70	0.98	-84.10	0.98	-84.10	0.08	178.70
9550	0.08	179.80	0.98	-84.80	0.98	-84.80	0.08	179.80
9600	0.09	2.80	0.98	-85.50	0.98	-85.50	0.09	2.80
9650	0.10	-174.30	0.98	-86.20	0.98	-86.20	0.10	-174.30
9700	0.10	-174.00	0.98	-86.70	0.98	-86.70	0.10	-174.00
9750	0.11	-173.70	0.98	-87.30	0.98	-87.30	0.11	-173.70
9800	0.11	-171.10	0.98	-87.90	0.98	-87.90	0.11	-171.10
9850	0.12	-168.60	0.98	-88.50	0.98	-88.50	0.12	-168.60
9900	0.13	-168.80	0.98	-89.00	0.98	-89.00	0.13	-168.80
9950	0.13	-169.00	0.98	-89.60	0.98	-89.60	0.13	-169.00
10000	0.14	-170.60	0.97	-90.30	0.97	-90.30	0.14	-170.60
10050	0.14	-172.30	0.97	-91.00	0.97	-91.00	0.14	-172.30
10100	0.15	-170.90	0.97	-91.40	0.97	-91.40	0.15	-170.90
10150	0.16	-169.50	0.97	-91.90	0.97	-91.90	0.16	-169.50
10200	0.17	-172.00	0.97	-92.60	0.97	-92.60	0.17	-172.00
10250	0.17	-174.60	0.97	-93.30	0.97	-93.30	0.17	-174.60
10300	0.18	-174.90	0.97	-94.00	0.97	-94.00	0.18	-174.90
10350	0.19	-175.30	0.96	-94.70	0.96	-94.70	0.19	-175.30
10400	0.19	-177.10	0.96	-95.40	0.96	-95.40	0.19	-177.10
10450	0.20	-179.00	0.96	-96.10	0.96	-96.10	0.20	-179.00
10500	0.21	-0.10	0.96	-96.80	0.96	-96.80	0.21	-0.10
10550	0.21	178.90	0.96	-97.50	0.96	-97.50	0.21	178.90
10600	0.22	176.50	0.96	-98.10	0.96	-98.10	0.22	176.50
10650	0.22	174.10	0.95	-98.60	0.95	-98.60	0.22	174.10
10700	0.23	173.30	0.95	-99.30	0.95	-99.30	0.23	173.30
10750	0.24	172.40	0.96	-100.00	0.96	-100.00	0.24	172.40
10800	0.25	172.10	0.95	-100.40	0.95	-100.40	0.25	172.10
10850	0.25	171.70	0.95	-100.80	0.95	-100.80	0.25	171.70
10900	0.26	168.90	0.94	-101.60	0.94	-101.60	0.26	168.90
10950	0.26	166.00	0.94	-102.30	0.94	-102.30	0.26	166.00
11000	0.26	165.90	0.95	-102.80	0.95	-102.80	0.26	165.90
11050	0.27	165.90	0.95	-103.30	0.95	-103.30	0.27	165.90
11100	0.28	163.70	0.94	-104.00	0.94	-104.00	0.28	163.70
11150	0.28	161.50	0.94	-104.70	0.94	-104.70	0.28	161.50
11200	0.28	160.10	0.94	-105.30	0.94	-105.30	0.28	160.10
11250	0.28	158.70	0.94	-105.90	0.94	-105.90	0.28	158.70
11300	0.29	157.50	0.94	-106.50	0.94	-106.50	0.29	157.50
11350	0.30	156.30	0.94	-107.10	0.94	-107.10	0.30	156.30
11400	0.30	154.10	0.94	-107.90	0.94	-107.90	0.30	154.10
11450	0.30	151.90	0.94	-108.70	0.94	-108.70	0.30	151.90
11500	0.30	150.40	0.93	-109.20	0.93	-109.20	0.30	150.40
11550	0.31	148.90	0.93	-109.80	0.93	-109.80	0.31	148.90
11600	0.31	147.10	0.93	-110.60	0.93	-110.60	0.31	147.10
11650	0.32	145.30	0.93	-111.30	0.93	-111.30	0.32	145.30
11700	0.32	143.70	0.93	-111.90	0.93	-111.90	0.32	143.70
11750	0.33	142.10	0.93	-112.50	0.93	-112.50	0.33	142.10
11800	0.33	140.20	0.92	-113.00	0.92	-113.00	0.33	140.20
11850	0.34	138.20	0.92	-113.50	0.92	-113.50	0.34	138.20
11900	0.34	138.00	0.92	-114.20	0.92	-114.20	0.34	138.00
11950	0.35	137.80	0.92	-115.00	0.92	-115.00	0.35	137.80
12000	0.36	136.30	0.91	-115.40	0.91	-115.40	0.36	136.30
12050	0.37	134.90	0.90	-115.90	0.90	-115.90	0.37	134.90
12100	0.37	134.20	0.90	-116.60	0.90	-116.60	0.37	134.20
12150	0.38	133.50	0.90	-117.30	0.90	-117.30	0.38	133.50
12200	0.38	132.50	0.90	-117.70	0.90	-117.70	0.38	132.50
12250	0.39	131.60	0.90	-118.20	0.90	-118.20	0.39	131.60
12300	0.39	131.20	0.90	-119.00	0.90	-119.00	0.39	131.20
12350	0.39	130.80	0.89	-119.80	0.89	-119.80	0.39	130.80
12400	0.39	130.00	0.89	-120.30	0.89	-120.30	0.39	130.00
12450	0.39	129.20	0.90	-120.70	0.90	-120.70	0.39	129.20
12500	0.39	127.40	0.89	-121.60	0.89	-121.60	0.39	127.40
12550	0.40	125.60	0.89	-122.50	0.89	-122.50	0.40	125.60
12600	0.40	125.60	0.89	-123.10	0.89	-123.10	0.40	125.60
12650	0.40	125.70	0.89	-123.80	0.89	-123.80	0.40	125.70
12700	0.40	124.10	0.88	-124.40	0.88	-124.40	0.40	124.10
12750	0.40	122.50	0.88	-125.00	0.88	-125.00	0.40	122.50
12800	0.40	121.10	0.88	-126.10	0.88	-126.10	0.40	121.10
12850	0.40	119.70	0.88	-127.10	0.88	-127.10	0.40	119.70
12900	0.41	118.60	0.87	-127.60	0.87	-127.60	0.41	118.60
12950	0.41	117.50	0.87	-128.00	0.87	-128.00	0.41	117.50
13000	0.41	116.80	0.87	-129.10	0.87	-129.10	0.41	116.80
13050	0.42	116.00	0.87	-130.10	0.87	-130.10	0.42	116.00
13100	0.42	114.80	0.86	-130.60	0.86	-130.60	0.42	114.80
13150	0.43	113.60	0.86	-131.20	0.86	-131.20	0.43	113.60
13200	0.43	112.60	0.85	-131.70	0.85	-131.70	0.43	112.60
13250	0.44	111.60	0.85	-132.20	0.85	-132.20	0.44	111.60
13300	0.44	112.20	0.85	-133.40	0.85	-133.40	0.44	112.20
13350	0.43	112.80	0.84	-134.60	0.84	-134.60	0.43	112.80
13400	0.45	109.80	0.84	-135.30	0.84	-135.30	0.45	109.80
13450	0.46	106.80	0.84	-136.00	0.84	-136.00	0.46	106.80
13500	0.47	106.10	0.83	-136.90	0.83	-136.90	0.47	106.10
13550	0.47	105.40	0.83	-137.70	0.83	-137.70	0.47	105.40
13600	0.48	104.00	0.83	-138.60	0.83	-138.60	0.48	104.00
13650	0.48	102.70	0.83	-139.50	0.83	-139.50	0.48	102.70
13700	0.48	101.50	0.82	-140.50	0.82	-140.50	0.48	101.50
13750	0.49	100.40	0.82	-141.50	0.82	-141.50	0.49	100.40
13800	0.49	99.00	0.82	-142.40	0.82	-142.40	0.49	99.00
13850	0.49	97.60	0.81	-143.30	0.81	-143.30	0.49	97.60
13900	0.50	96.30	0.81	-144.20	0.81	-144.20	0.50	96.30
13950	0.50	94.90	0.81	-145.20	0.81	-145.20	0.50	94.90
14000	0.51	92.80	0.81	-146.60	0.81	-146.60	0.51	92.80
14050	0.51	90.70	0.80	-147.90	0.80	-147.90	0.51	90.70
14100	0.52	89.50	0.79	-148.90	0.79	-148.90	0.52	89.50
14150	0.53	88.30	0.79	-149.80	0.79	-149.80	0.53	88.30
14200	0.54	86.40	0.78	-151.20	0.78	-151.20	0.54	86.40
14250	0.54	84.50	0.77	-152.60	0.77	-152.60	0.54	84.50
14300	0.55	82.40	0.76	-153.90	0.76	-153.90	0.55	82.40
14350	0.56	80.40	0.75	-155.30	0.75	-155.30	0.56	80.40
14400	0.57	78.90	0.74	-156.60	0.74	-156.60	0.57	78.90
14450	0.59	77.50	0.73	-158.00	0.73	-158.00	0.59	77.50
14500	0.60	75.50	0.71	-159.30	0.71	-159.30	0.60	75.50
14550	0.61	73.60	0.70	-160.70	0.70	-160.70	0.61	73.60
14600	0.62	72.30	0.69	-161.90	0.69	-161.90	0.62	72.30
14650	0.64	70.90	0.67	-163.10	0.67	-163.10	0.64	70.90
14700	0.65	69.20	0.66	-164.80	0.66	-164.80	0.65	69.20
14750	0.66	67.60	0.64	-166.50	0.64	-166.50	0.66	67.60
14800	0.68	65.60	0.63	-168.10	0.63	-168.10	0.68	65.60
14850	0.70	63.60	0.61	-169.80	0.61	-169.80	0.70	63.60
14900	0.71	63.00	0.59	-170.90	0.59	-170.90	0.71	63.00
14950	0.71	62.40	0.56	-171.90	0.56	-171.90	0.71	62.40
15000	0.73	59.80	0.54	-173.70	0.54	-173.70	0.73	59.80
15050	0.75	57.30	0.52	-175.40	0.52	-175.40	0.75	57.30
15100	0.75	56.10	0.50	-176.10	0.50	-176.10	0.75	56.10
15150	0.75	54.90	0.47	-176.80	0.47	-176.80	0.75	54.90
15200	0.76	53.20	0.44	-177.10	0.44	-177.10	0.76	53.20
15250	0.77	51.40	0.42	-177.30	0.42	-177.30	0.77	51.40
15300	0.77	49.00	0.40	-177.10	0.40	-177.10	0.77	49.00
15350	0.78	46.50	0.38	-176.80	0.38	-176.80	0.78	46.50
15400	0.76	44.90	0.35	-175.50	0.35	-175.50	0.76	44.90
15450	0.74	43.20	0.34	-174.20	0.34	-174.20	0.74	43.20
15500	0.76	43.30	0.33	-173.50	0.33	-173.50	0.76	43.30
15550	0.78	43.30	0.32	-172.70	0.32	-172.70	0.78	43.30
15600	0.78	42.40	0.31	-173.00	0.31	-173.00	0.78	42.40
15650	0.78	41.40	0.29	-173.30	0.29	-173.30	0.78	41.40
15700	0.80	40.20	0.27	-173.70	0.27	-173.70	0.80	40.20
15750	0.82	39.00	0.25	-174.20	0.25	-174.20	0.82	39.00
15800	0.82	38.00	0.23	-172.40	0.23	-172.40	0.82	38.00
15850	0.83	37.00	0.21	-170.50	0.21	-170.50	0.83	37.00
15900	0.84	35.00	0.19	-166.00	0.19	-166.00	0.84	35.00
15950	0.85	33.10	0.16	-161.60	0.16	-161.60	0.85	33.10
16000	0.85	32.50	0.15	-152.60	0.15	-152.60	0.85	32.50
16050	0.85	31.90	0.14	-143.60	0.14	-143.60	0.85	31.90
16100	0.84	30.50	0.15	-133.70	0.15	-133.70	0.84	30.50
16150	0.84	29.10	0.15	-123.80	0.15	-123.80	0.84	29.10
16200	0.82	28.00	0.17	-118.00	0.17	-118.00	0.82	28.00
16250	0.80	27.00	0.19	-112.30	0.19	-112.30	0.80	27.00
16300	0.78	27.30	0.21	-112.40	0.21	-112.40	0.78	27.30
16350	0.75	27.60	0.23	-112.60	0.23	-112.60	0.75	27.60
16400	0.76	28.60	0.23	-114.70	0.23	-114.70	0.76	28.60
16450	0.77	29.60	0.23	-116.90	0.23	-116.90	0.77	29.60
16500	0.78	28.50	0.21	-113.20	0.21	-113.20	0.78	28.50
16550	0.79	27.40	0.20	-109.40	0.20	-109.40	0.79	27.40
16600	0.81	25.40	0.20	-101.90	0.20	-101.90	0.81	25.40
16650	0.83	23.40	0.21	-94.50	0.21	-94.50	0.83	23.40
16700	0.83	20.50	0.24	-90.00	0.24	-90.00	0.83	20.50
16750	0.83	17.50	0.26	-85.60	0.26	-85.60	0.83	17.50
16800	0.82	14.60	0.29	-84.30	0.29	-84.30	0.82	14.60
16850	0.81	11.80	0.31	-82.90	0.31	-82.90	0.81	11.80
16900	0.81	9.00	0.34	-82.90	0.34	-82.90	0.81	9.00
16950	0.80	6.20	0.37	-82.80	0.37	-82.80	0.80	6.20
17000	0.79	3.70	0.40	-83.50	0.40	-83.50	0.79	3.70
17050	0.78	1.20	0.43	-84.10	0.43	-84.10	0.78	1.20
17100	0.77	-0.70	0.45	-85.20	0.45	-85.20	0.77	-0.70
17150	0.76	-2.70	0.47	-86.30	0.47	-86.30	0.76	-2.70
17200	0.75	-4.60	0.50	-87.30	0.50	-87.30	0.75	-4.60
17250	0.73	-6.50	0.53	-88.20	0.53	-88.20	0.73	-6.50
17300	0.72	-7.90	0.55	-89.40	0.55	-89.40	0.72	-7.90
17350	0.71	-9.40	0.57	-90.60	0.57	-90.60	0.71	-9.40
17400	0.70	-11.20	0.60	-91.90	0.60	-91.90	0.70	-11.20
17450	0.69	-13.00	0.62	-93.10	0.62	-93.10	0.69	-13.00
17500	0.67	-14.40	0.65	-95.00	0.65	-95.00	0.67	-14.40
17550	0.65	-15.80	0.67	-96.80	0.67	-96.80	0.65	-15.80
17600	0.63	-17.60	0.69	-98.70	0.69	-98.70	0.63	-17.60
17650	0.61	-19.40	0.71	-100.50	0.71	-100.50	0.61	-19.40
17700	0.58	-20.90	0.73	-102.10	0.73	-102.10	0.58	-20.90
17750	0.56	-22.30	0.75	-103.80	0.75	-103.80	0.56	-22.30
17800	0.54	-24.80	0.76	-105.80	0.76	-105.80	0.54	-24.80
17850	0.52	-27.30	0.78	-107.90	0.78	-107.90	0.52	-27.30
17900	0.49	-28.10	0.79	-109.40	0.79	-109.40	0.49	-28.10
17950	0.46	-28.90	0.79	-110.80	0.79	-110.80	0.46	-28.90
18000	0.45	-31.10	0.81	-112.50	0.81	-112.50	0.45	-31.10
18050	0.44	-33.30	0.82	-114.20	0.82	-114.20	0.44	-33.30
18100	0.42	-35.50	0.82	-115.70	0.82	-115.70	0.42	-35.50
18150	0.41	-37.80	0.83	-117.30	0.83	-117.30	0.41	-37.80
18200	0.40	-38.40	0.84	-118.60	0.84	-118.60	0.40	-38.40
18250	0.40	-39.00	0.85	-120.00	0.85	-120.00	0.40	-39.00
18300	0.40	-40.80	0.85	-121.50	0.85	-121.50	0.40	-40.80
18350	0.39	-42.70	0.86	-123.00	0.86	-123.00	0.39	-42.70
18400	0.39	-42.30	0.86	-124.10	0.86	-124.10	0.39	-42.30
18450	0.38	-41.90	0.86	-125.20	0.86	-125.20	0.38	-41.90
18500	0.38	-42.50	0.88	-126.50	0.88	-126.50	0.38	-42.50
18550	0.38	-43.10	0.88	-127.70	0.88	-127.70	0.38	-43.10
18600	0.38	-42.50	0.89	-128.90	0.89	-128.90	0.38	-42.50
18650	0.37	-41.90	0.89	-130.10	0.89	-130.10	0.37	-41.90
18700	0.36	-43.50	0.89	-131.60	0.89	-131.60	0.36	-43.50
18750	0.35	-45.10	0.89	-133.00	0.89	-133.00	0.35	-45.10
18800	0.35	-45.30	0.89	-133.90	0.89	-133.90	0.35	-45.30
18850	0.34	-45.40	0.90	-134.90	0.90	-134.90	0.34	-45.40
