#	mhz	s	ma	r	50
50	0.5157	122.7614	0.7846	26.92982	0.7846	26.92982	0.5157	122.7614
70	0.45685	116.19096	0.81799	21.42772	0.81799	21.42772	0.45685	116.19096
90	0.3980	109.62052	0.85137	15.92562	0.85137	15.92562	0.3980	109.62052
110	0.33915	103.05008	0.88476	10.42351	0.88476	10.42351	0.33915	103.05008
130	0.2803	96.47964	0.91814	4.92141	0.91814	4.92141	0.2803	96.47964
150	0.22145	89.9092	0.95153	-0.58069	0.95153	-0.58069	0.22145	89.9092
170	0.20268	86.43432	0.95545	-3.26621	0.95545	-3.26621	0.20268	86.43432
190	0.18391	82.95943	0.95937	-5.95173	0.95937	-5.95173	0.18391	82.95943
210	0.16513	79.48455	0.9633	-8.63725	0.9633	-8.63725	0.16513	79.48455
230	0.14636	76.00967	0.96722	-11.32278	0.96722	-11.32278	0.14636	76.00967
250	0.12759	72.53479	0.97114	-14.0083	0.97114	-14.0083	0.12759	72.53479
270	0.11861	68.99193	0.97439	-16.17176	0.97439	-16.17176	0.11861	68.99193
290	0.10964	65.44907	0.97763	-18.33522	0.97763	-18.33522	0.10964	65.44907
310	0.10066	61.90622	0.98087	-20.49868	0.98087	-20.49868	0.10066	61.90622
330	0.09169	58.36336	0.98412	-22.66214	0.98412	-22.66214	0.09169	58.36336
350	0.08271	54.8205	0.98736	-24.8256	0.98736	-24.8256	0.08271	54.8205
370	0.07803	50.81617	0.98696	-26.87688	0.98696	-26.87688	0.07803	50.81617
390	0.07336	46.81184	0.98657	-28.92816	0.98657	-28.92816	0.07336	46.81184
410	0.06868	42.80751	0.98617	-30.97944	0.98617	-30.97944	0.06868	42.80751
430	0.0640	38.80318	0.98578	-33.03072	0.98578	-33.03072	0.0640	38.80318
450	0.05932	34.79885	0.98538	-35.082	0.98538	-35.082	0.05932	34.79885
470	0.05547	35.47564	0.98509	-36.98015	0.98509	-36.98015	0.05547	35.47564
490	0.05162	36.15243	0.98479	-38.8783	0.98479	-38.8783	0.05162	36.15243
510	0.04777	36.82922	0.9845	-40.77645	0.9845	-40.77645	0.04777	36.82922
530	0.04392	37.50601	0.9842	-42.6746	0.9842	-42.6746	0.04392	37.50601
550	0.04007	38.18281	0.98391	-44.57275	0.98391	-44.57275	0.04007	38.18281
570	0.03337	32.66435	0.98433	-46.4976	0.98433	-46.4976	0.03337	32.66435
590	0.02666	27.14589	0.98475	-48.42245	0.98475	-48.42245	0.02666	27.14589
610	0.01995	21.62743	0.98517	-50.3473	0.98517	-50.3473	0.01995	21.62743
630	0.01324	16.10897	0.98559	-52.27216	0.98559	-52.27216	0.01324	16.10897
650	0.00654	10.59051	0.9860	-54.19701	0.9860	-54.19701	0.00654	10.59051
670	0.00572	19.16288	0.98601	-56.02905	0.98601	-56.02905	0.00572	19.16288
690	0.0049	27.73524	0.98602	-57.8611	0.98602	-57.8611	0.0049	27.73524
710	0.00409	36.30761	0.98603	-59.69314	0.98603	-59.69314	0.00409	36.30761
730	0.00327	44.87998	0.98604	-61.52519	0.98604	-61.52519	0.00327	44.87998
750	0.00245	53.45234	0.98605	-63.35723	0.98605	-63.35723	0.00245	53.45234
770	0.00698	75.89004	0.98641	-65.18687	0.98641	-65.18687	0.00698	75.89004
790	0.0115	98.32773	0.98677	-67.01651	0.98677	-67.01651	0.0115	98.32773
810	0.01603	120.76542	0.98714	-68.84615	0.98714	-68.84615	0.01603	120.76542
830	0.02055	143.20311	0.9875	-70.67579	0.9875	-70.67579	0.02055	143.20311
850	0.02507	165.6408	0.98786	-72.50543	0.98786	-72.50543	0.02507	165.6408
870	0.02481	162.83627	0.98848	-74.28919	0.98848	-74.28919	0.02481	162.83627
890	0.02456	160.03175	0.98909	-76.07295	0.98909	-76.07295	0.02456	160.03175
910	0.0243	157.22723	0.98971	-77.8567	0.98971	-77.8567	0.0243	157.22723
930	0.02404	154.4227	0.99032	-79.64046	0.99032	-79.64046	0.02404	154.4227
950	0.02378	151.61818	0.99094	-81.42421	0.99094	-81.42421	0.02378	151.61818
970	0.02771	147.78011	0.98943	-83.16	0.98943	-83.16	0.02771	147.78011
990	0.03163	143.94204	0.98792	-84.89578	0.98792	-84.89578	0.03163	143.94204
1010	0.03555	140.10398	0.98642	-86.63156	0.98642	-86.63156	0.03555	140.10398
1030	0.03947	136.26591	0.98491	-88.36734	0.98491	-88.36734	0.03947	136.26591
1050	0.0434	132.42784	0.9834	-90.10313	0.9834	-90.10313	0.0434	132.42784
1070	0.04398	130.3604	0.98303	-91.98598	0.98303	-91.98598	0.04398	130.3604
1090	0.04457	128.29295	0.98265	-93.86883	0.98265	-93.86883	0.04457	128.29295
1110	0.04516	126.22551	0.98228	-95.75168	0.98228	-95.75168	0.04516	126.22551
1130	0.04575	124.15807	0.9819	-97.63453	0.9819	-97.63453	0.04575	124.15807
1150	0.04634	122.09063	0.98153	-99.51738	0.98153	-99.51738	0.04634	122.09063
1170	0.04997	120.15655	0.98253	-101.32018	0.98253	-101.32018	0.04997	120.15655
1190	0.05361	118.22246	0.98352	-103.12297	0.98352	-103.12297	0.05361	118.22246
1210	0.05724	116.28838	0.98452	-104.92576	0.98452	-104.92576	0.05724	116.28838
1230	0.06087	114.3543	0.98552	-106.72856	0.98552	-106.72856	0.06087	114.3543
1250	0.06451	112.42022	0.98651	-108.53135	0.98651	-108.53135	0.06451	112.42022
1270	0.06336	111.34978	0.98522	-110.33438	0.98522	-110.33438	0.06336	111.34978
1290	0.06222	110.27934	0.98393	-112.13741	0.98393	-112.13741	0.06222	110.27934
1310	0.06107	109.2089	0.98264	-113.94043	0.98264	-113.94043	0.06107	109.2089
1330	0.05993	108.13845	0.98135	-115.74346	0.98135	-115.74346	0.05993	108.13845
1350	0.05879	107.06801	0.98006	-117.54648	0.98006	-117.54648	0.05879	107.06801
1370	0.0615	103.6985	0.98046	-119.33283	0.98046	-119.33283	0.0615	103.6985
1390	0.06422	100.32899	0.98087	-121.11917	0.98087	-121.11917	0.06422	100.32899
1410	0.06694	96.95948	0.98127	-122.90551	0.98127	-122.90551	0.06694	96.95948
1430	0.06966	93.58997	0.98168	-124.69186	0.98168	-124.69186	0.06966	93.58997
1450	0.07237	90.22046	0.98208	-126.4782	0.98208	-126.4782	0.07237	90.22046
1470	0.07194	88.98089	0.98219	-128.24295	0.98219	-128.24295	0.07194	88.98089
1490	0.0715	87.74132	0.9823	-130.00771	0.9823	-130.00771	0.0715	87.74132
1510	0.07106	86.50175	0.98242	-131.77247	0.98242	-131.77247	0.07106	86.50175
1530	0.07062	85.26218	0.98253	-133.53722	0.98253	-133.53722	0.07062	85.26218
1550	0.07019	84.02262	0.98264	-135.30198	0.98264	-135.30198	0.07019	84.02262
1570	0.07207	80.8523	0.98205	-137.12035	0.98205	-137.12035	0.07207	80.8523
1590	0.07395	77.68199	0.98145	-138.93873	0.98145	-138.93873	0.07395	77.68199
1610	0.07583	74.51168	0.98086	-140.7571	0.98086	-140.7571	0.07583	74.51168
1630	0.07771	71.34137	0.98026	-142.57548	0.98026	-142.57548	0.07771	71.34137
1650	0.07959	68.17105	0.97967	-144.39385	0.97967	-144.39385	0.07959	68.17105
1670	0.0798	66.33303	0.97956	-146.16789	0.97956	-146.16789	0.0798	66.33303
1690	0.08001	64.495	0.97945	-147.94193	0.97945	-147.94193	0.08001	64.495
1710	0.08022	62.65698	0.97935	-149.71597	0.97935	-149.71597	0.08022	62.65698
1730	0.08043	60.81896	0.97924	-151.49	0.97924	-151.49	0.08043	60.81896
1750	0.08064	58.98093	0.97913	-153.26404	0.97913	-153.26404	0.08064	58.98093
1770	0.08297	55.35946	0.97943	-155.03814	0.97943	-155.03814	0.08297	55.35946
1790	0.0853	51.73799	0.97973	-156.81224	0.97973	-156.81224	0.0853	51.73799
1810	0.08763	48.11652	0.98003	-158.58635	0.98003	-158.58635	0.08763	48.11652
1830	0.08996	44.49505	0.98034	-160.36045	0.98034	-160.36045	0.08996	44.49505
1850	0.09229	40.87358	0.98064	-162.13455	0.98064	-162.13455	0.09229	40.87358
1870	0.09416	39.21382	0.9801	-163.94568	0.9801	-163.94568	0.09416	39.21382
1890	0.09603	37.55405	0.97957	-165.75682	0.97957	-165.75682	0.09603	37.55405
1910	0.0979	35.89429	0.97904	-167.56795	0.97904	-167.56795	0.0979	35.89429
1930	0.09977	34.23453	0.9785	-169.37909	0.9785	-169.37909	0.09977	34.23453
1950	0.10165	32.57476	0.97797	-171.19022	0.97797	-171.19022	0.10165	32.57476
1970	0.10308	29.25132	0.97732	-101.0042	0.97732	-101.0042	0.10308	29.25132
1990	0.10452	25.92787	0.97668	-30.81818	0.97668	-30.81818	0.10452	25.92787
2010	0.10596	22.60442	0.97603	39.36785	0.97603	39.36785	0.10596	22.60442
2030	0.1074	19.28098	0.97539	109.55387	0.97539	109.55387	0.1074	19.28098
2050	0.10884	15.95753	0.97474	179.73989	0.97474	179.73989	0.10884	15.95753
2070	0.11064	13.07835	0.97345	177.92255	0.97345	177.92255	0.11064	13.07835
2090	0.11245	10.19917	0.97215	176.1052	0.97215	176.1052	0.11245	10.19917
2110	0.11425	7.31999	0.97086	174.28785	0.97086	174.28785	0.11425	7.31999
2130	0.11606	4.44081	0.96956	172.47051	0.96956	172.47051	0.11606	4.44081
2150	0.11786	1.56164	0.96827	170.65316	0.96827	170.65316	0.11786	1.56164
2170	0.11733	-0.24597	0.96901	168.99858	0.96901	168.99858	0.11733	-0.24597
2190	0.11679	-2.05358	0.96976	167.344	0.96976	167.344	0.11679	-2.05358
2210	0.11626	-3.86119	0.9705	165.68942	0.9705	165.68942	0.11626	-3.86119
2230	0.11572	-5.66879	0.97125	164.03484	0.97125	164.03484	0.11572	-5.66879
2250	0.11519	-7.4764	0.97199	162.38026	0.97199	162.38026	0.11519	-7.4764
2270	0.11693	-9.91222	0.97205	160.58091	0.97205	160.58091	0.11693	-9.91222
2290	0.11868	-12.34803	0.97212	158.78155	0.97212	158.78155	0.11868	-12.34803
2310	0.12042	-14.78385	0.97218	156.98219	0.97218	156.98219	0.12042	-14.78385
2330	0.12217	-17.21967	0.97224	155.18283	0.97224	155.18283	0.12217	-17.21967
2350	0.12391	-19.65549	0.9723	153.38348	0.9723	153.38348	0.12391	-19.65549
2370	0.12571	-22.9881	0.97078	151.56541	0.97078	151.56541	0.12571	-22.9881
2390	0.1275	-26.32072	0.96925	149.74734	0.96925	149.74734	0.1275	-26.32072
2410	0.1293	-29.65333	0.96772	147.92927	0.96772	147.92927	0.1293	-29.65333
2430	0.13109	-32.98595	0.9662	146.1112	0.9662	146.1112	0.13109	-32.98595
2450	0.13289	-36.31856	0.96467	144.29312	0.96467	144.29312	0.13289	-36.31856
2470	0.13504	-38.63941	0.96555	142.44496	0.96555	142.44496	0.13504	-38.63941
2490	0.1372	-40.96025	0.96642	140.5968	0.96642	140.5968	0.1372	-40.96025
2510	0.13936	-43.28109	0.9673	138.74864	0.9673	138.74864	0.13936	-43.28109
2530	0.14152	-45.60194	0.96818	136.90047	0.96818	136.90047	0.14152	-45.60194
2550	0.14368	-47.92278	0.96906	135.05231	0.96906	135.05231	0.14368	-47.92278
2570	0.14514	-50.8815	0.9688	133.19127	0.9688	133.19127	0.14514	-50.8815
2590	0.1466	-53.84021	0.96853	131.33022	0.96853	131.33022	0.1466	-53.84021
2610	0.14807	-56.79893	0.96827	129.46917	0.96827	129.46917	0.14807	-56.79893
2630	0.14953	-59.75765	0.96801	127.60813	0.96801	127.60813	0.14953	-59.75765
2650	0.15099	-62.71636	0.96775	125.74708	0.96775	125.74708	0.15099	-62.71636
2670	0.15267	-64.7715	0.96537	124.0257	0.96537	124.0257	0.15267	-64.7715
2690	0.15434	-66.82664	0.963	122.30432	0.963	122.30432	0.15434	-66.82664
2710	0.15602	-68.88178	0.96062	120.58293	0.96062	120.58293	0.15602	-68.88178
2730	0.15769	-70.93691	0.95824	118.86155	0.95824	118.86155	0.15769	-70.93691
2750	0.15937	-72.99205	0.95586	117.14017	0.95586	117.14017	0.15937	-72.99205
2770	0.16076	-75.70047	0.95608	115.43911	0.95608	115.43911	0.16076	-75.70047
2790	0.16215	-78.40889	0.95631	113.73805	0.95631	113.73805	0.16215	-78.40889
2810	0.16355	-81.11731	0.95653	112.03699	0.95653	112.03699	0.16355	-81.11731
2830	0.16494	-83.82573	0.95675	110.33593	0.95675	110.33593	0.16494	-83.82573
2850	0.16634	-86.53416	0.95697	108.63487	0.95697	108.63487	0.16634	-86.53416
2870	0.16907	-88.81846	0.95529	106.76751	0.95529	106.76751	0.16907	-88.81846
2890	0.17181	-91.10276	0.95361	104.90015	0.95361	104.90015	0.17181	-91.10276
2910	0.17455	-93.38706	0.95192	103.03279	0.95192	103.03279	0.17455	-93.38706
2930	0.17729	-95.67136	0.95024	101.16543	0.95024	101.16543	0.17729	-95.67136
2950	0.18003	-97.95566	0.94856	99.29807	0.94856	99.29807	0.18003	-97.95566
2970	0.18303	-100.47553	0.94814	97.43698	0.94814	97.43698	0.18303	-100.47553
2990	0.18602	-102.9954	0.94771	95.57589	0.94771	95.57589	0.18602	-102.9954
3010	0.18901	-105.51526	0.94729	93.71479	0.94729	93.71479	0.18901	-105.51526
3030	0.19201	-108.03513	0.94687	91.8537	0.94687	91.8537	0.19201	-108.03513
3050	0.195	-110.555	0.94644	89.99261	0.94644	89.99261	0.195	-110.555
3070	0.19805	-112.60694	0.94564	88.16812	0.94564	88.16812	0.19805	-112.60694
3090	0.2011	-114.65888	0.94483	86.34363	0.94483	86.34363	0.2011	-114.65888
3110	0.20414	-116.71082	0.94403	84.51913	0.94403	84.51913	0.20414	-116.71082
3130	0.20719	-118.76276	0.94322	82.69464	0.94322	82.69464	0.20719	-118.76276
3150	0.21024	-120.8147	0.94242	80.87015	0.94242	80.87015	0.21024	-120.8147
3170	0.21303	-123.75324	0.94166	79.12672	0.94166	79.12672	0.21303	-123.75324
3190	0.21582	-126.69177	0.94089	77.38329	0.94089	77.38329	0.21582	-126.69177
3210	0.21861	-129.6303	0.94013	75.63985	0.94013	75.63985	0.21861	-129.6303
3230	0.2214	-132.56884	0.93936	73.89642	0.93936	73.89642	0.2214	-132.56884
3250	0.22419	-135.50737	0.9386	72.15299	0.9386	72.15299	0.22419	-135.50737
3270	0.23087	-138.29045	0.9351	70.04902	0.9351	70.04902	0.23087	-138.29045
3290	0.23755	-141.07353	0.93159	67.94506	0.93159	67.94506	0.23755	-141.07353
3310	0.24422	-143.85661	0.92809	65.84109	0.92809	65.84109	0.24422	-143.85661
3330	0.2509	-146.63969	0.92459	63.73712	0.92459	63.73712	0.2509	-146.63969
3350	0.25757	-149.42277	0.92109	61.63316	0.92109	61.63316	0.25757	-149.42277
3370	0.26493	-153.25933	0.91367	59.5763	0.91367	59.5763	0.26493	-153.25933
3390	0.27228	-157.0959	0.90625	57.51943	0.90625	57.51943	0.27228	-157.0959
3410	0.27964	-160.93247	0.89883	55.46257	0.89883	55.46257	0.27964	-160.93247
3430	0.28699	-164.76904	0.89141	53.4057	0.89141	53.4057	0.28699	-164.76904
3450	0.29435	-168.6056	0.884	51.34884	0.884	51.34884	0.29435	-168.6056
3470	0.29989	-102.78899	0.86254	49.91033	0.86254	49.91033	0.29989	-102.78899
3490	0.30544	-36.97238	0.84109	48.47183	0.84109	48.47183	0.30544	-36.97238
3510	0.31099	28.84423	0.81963	47.03332	0.81963	47.03332	0.31099	28.84423
3530	0.31654	94.66084	0.79817	45.59481	0.79817	45.59481	0.31654	94.66084
3550	0.32209	160.47746	0.77672	44.15631	0.77672	44.15631	0.32209	160.47746
3570	0.29917	153.18285	0.78313	44.66018	0.78313	44.66018	0.29917	153.18285
3590	0.27625	145.88824	0.78955	45.16406	0.78955	45.16406	0.27625	145.88824
3610	0.25333	138.59363	0.79596	45.66794	0.79596	45.66794	0.25333	138.59363
3630	0.23041	131.29903	0.80237	46.17182	0.80237	46.17182	0.23041	131.29903
3650	0.2075	124.00442	0.80879	46.6757	0.80879	46.6757	0.2075	124.00442
3670	0.19086	125.71226	0.82954	44.71576	0.82954	44.71576	0.19086	125.71226
3690	0.17422	127.4201	0.85029	42.75583	0.85029	42.75583	0.17422	127.4201
3710	0.15758	129.12793	0.87104	40.7959	0.87104	40.7959	0.15758	129.12793
3730	0.14094	130.83577	0.8918	38.83596	0.8918	38.83596	0.14094	130.83577
3750	0.1243	132.54361	0.91255	36.87603	0.91255	36.87603	0.1243	132.54361
3770	0.12621	133.82446	0.91863	34.6493	0.91863	34.6493	0.12621	133.82446
3790	0.12813	135.1053	0.92471	32.42257	0.92471	32.42257	0.12813	135.1053
3810	0.13004	136.38615	0.93079	30.19584	0.93079	30.19584	0.13004	136.38615
3830	0.13196	137.667	0.93687	27.96911	0.93687	27.96911	0.13196	137.667
3850	0.13387	138.94785	0.94295	25.74238	0.94295	25.74238	0.13387	138.94785
3870	0.13768	137.77874	0.94484	23.67475	0.94484	23.67475	0.13768	137.77874
3890	0.14148	136.60964	0.94674	21.60712	0.94674	21.60712	0.14148	136.60964
3910	0.14529	135.44054	0.94864	19.53948	0.94864	19.53948	0.14529	135.44054
3930	0.14909	134.27143	0.95053	17.47185	0.95053	17.47185	0.14909	134.27143
3950	0.15289	133.10233	0.95243	15.40422	0.95243	15.40422	0.15289	133.10233
3970	0.15688	131.14398	0.95252	13.50355	0.95252	13.50355	0.15688	131.14398
3990	0.16087	129.18563	0.9526	11.60287	0.9526	11.60287	0.16087	129.18563
4010	0.16486	127.22727	0.95269	9.7022	0.95269	9.7022	0.16486	127.22727
4030	0.16885	125.26892	0.95278	7.80153	0.95278	7.80153	0.16885	125.26892
4050	0.17284	123.31057	0.95286	5.90085	0.95286	5.90085	0.17284	123.31057
4070	0.176	121.05038	0.95294	4.00116	0.95294	4.00116	0.176	121.05038
4090	0.17917	118.7902	0.95301	2.10147	0.95301	2.10147	0.17917	118.7902
4110	0.18234	116.53001	0.95309	0.20177	0.95309	0.20177	0.18234	116.53001
4130	0.18551	114.26982	0.95316	-1.69792	0.95316	-1.69792	0.18551	114.26982
4150	0.18868	112.00964	0.95323	-3.59762	0.95323	-3.59762	0.18868	112.00964
4170	0.19204	109.78843	0.95269	-5.48402	0.95269	-5.48402	0.19204	109.78843
4190	0.19541	107.56722	0.95214	-7.37043	0.95214	-7.37043	0.19541	107.56722
4210	0.19877	105.34602	0.95159	-9.25683	0.95159	-9.25683	0.19877	105.34602
4230	0.20214	103.12481	0.95104	-11.14323	0.95104	-11.14323	0.20214	103.12481
4250	0.2055	100.9036	0.9505	-13.02964	0.9505	-13.02964	0.2055	100.9036
4270	0.20882	98.58668	0.95082	-14.93746	0.95082	-14.93746	0.20882	98.58668
4290	0.21214	96.26975	0.95115	-16.84527	0.95115	-16.84527	0.21214	96.26975
4310	0.21546	93.95282	0.95147	-18.75309	0.95147	-18.75309	0.21546	93.95282
4330	0.21877	91.6359	0.9518	-20.66091	0.9518	-20.66091	0.21877	91.6359
4350	0.22209	89.31897	0.95213	-22.56873	0.95213	-22.56873	0.22209	89.31897
4370	0.22519	87.17573	0.95033	-24.48754	0.95033	-24.48754	0.22519	87.17573
4390	0.22829	85.03248	0.94854	-26.40635	0.94854	-26.40635	0.22829	85.03248
4410	0.23139	82.88924	0.94675	-28.32516	0.94675	-28.32516	0.23139	82.88924
4430	0.23449	80.74599	0.94496	-30.24398	0.94496	-30.24398	0.23449	80.74599
4450	0.2376	78.60275	0.94317	-32.16279	0.94317	-32.16279	0.2376	78.60275
4470	0.24013	76.1156	0.94158	-33.98486	0.94158	-33.98486	0.24013	76.1156
4490	0.24266	73.62844	0.93999	-35.80694	0.93999	-35.80694	0.24266	73.62844
4510	0.24519	71.14129	0.9384	-37.62901	0.9384	-37.62901	0.24519	71.14129
4530	0.24772	68.65414	0.9368	-39.45109	0.9368	-39.45109	0.24772	68.65414
4550	0.25025	66.16698	0.93521	-41.27316	0.93521	-41.27316	0.25025	66.16698
4570	0.25474	63.85796	0.93375	-43.14572	0.93375	-43.14572	0.25474	63.85796
4590	0.25922	61.54893	0.9323	-45.01828	0.9323	-45.01828	0.25922	61.54893
4610	0.2637	59.2399	0.93084	-46.89083	0.93084	-46.89083	0.2637	59.2399
4630	0.26819	56.93088	0.92938	-48.76339	0.92938	-48.76339	0.26819	56.93088
4650	0.27267	54.62185	0.92792	-50.63595	0.92792	-50.63595	0.27267	54.62185
4670	0.27565	52.1676	0.92598	-52.48897	0.92598	-52.48897	0.27565	52.1676
4690	0.27863	49.71334	0.92404	-54.34199	0.92404	-54.34199	0.27863	49.71334
4710	0.28161	47.25909	0.9221	-56.19502	0.9221	-56.19502	0.28161	47.25909
4730	0.28459	44.80484	0.92016	-58.04804	0.92016	-58.04804	0.28459	44.80484
4750	0.28757	42.35058	0.91821	-59.90106	0.91821	-59.90106	0.28757	42.35058
4770	0.29128	40.03208	0.9173	-61.67735	0.9173	-61.67735	0.29128	40.03208
4790	0.29499	37.71357	0.91639	-63.45363	0.91639	-63.45363	0.29499	37.71357
4810	0.2987	35.39506	0.91547	-65.22992	0.91547	-65.22992	0.2987	35.39506
4830	0.30241	33.07655	0.91456	-67.00621	0.91456	-67.00621	0.30241	33.07655
4850	0.30612	30.75805	0.91365	-68.78249	0.91365	-68.78249	0.30612	30.75805
4870	0.30939	28.22586	0.91179	-70.50492	0.91179	-70.50492	0.30939	28.22586
4890	0.31265	25.69368	0.90992	-72.22735	0.90992	-72.22735	0.31265	25.69368
4910	0.31591	23.16149	0.90806	-73.94978	0.90806	-73.94978	0.31591	23.16149
4930	0.31918	20.62931	0.9062	-75.67221	0.9062	-75.67221	0.31918	20.62931
4950	0.32244	18.09712	0.90434	-77.39465	0.90434	-77.39465	0.32244	18.09712
4970	0.32549	15.79211	0.9037	-79.23504	0.9037	-79.23504	0.32549	15.79211
4990	0.32854	13.48709	0.90306	-81.07544	0.90306	-81.07544	0.32854	13.48709
5010	0.33159	11.18208	0.90243	-82.91583	0.90243	-82.91583	0.33159	11.18208
5030	0.33465	8.87707	0.90179	-84.75623	0.90179	-84.75623	0.33465	8.87707
5050	0.3377	6.57205	0.90116	-86.59662	0.90116	-86.59662	0.3377	6.57205
5070	0.33962	4.36307	0.89994	-88.34621	0.89994	-88.34621	0.33962	4.36307
5090	0.34154	2.15409	0.89873	-90.09581	0.89873	-90.09581	0.34154	2.15409
5110	0.34346	-0.05489	0.89752	-91.8454	0.89752	-91.8454	0.34346	-0.05489
5130	0.34538	-2.26387	0.89631	-93.59499	0.89631	-93.59499	0.34538	-2.26387
5150	0.34729	-4.47285	0.8951	-95.34458	0.8951	-95.34458	0.34729	-4.47285
5170	0.3506	-6.49125	0.89409	-97.19746	0.89409	-97.19746	0.3506	-6.49125
5190	0.3539	-8.50965	0.89307	-99.05034	0.89307	-99.05034	0.3539	-8.50965
5210	0.35721	-10.52806	0.89206	-100.90322	0.89206	-100.90322	0.35721	-10.52806
5230	0.36051	-12.54646	0.89105	-102.75609	0.89105	-102.75609	0.36051	-12.54646
5250	0.36382	-14.56487	0.89004	-104.60897	0.89004	-104.60897	0.36382	-14.56487
5270	0.36613	-17.06365	0.88942	-106.46959	0.88942	-106.46959	0.36613	-17.06365
5290	0.36844	-19.56242	0.88879	-108.3302	0.88879	-108.3302	0.36844	-19.56242
5310	0.37075	-22.0612	0.88817	-110.19082	0.88817	-110.19082	0.37075	-22.0612
5330	0.37307	-24.55998	0.88754	-112.05143	0.88754	-112.05143	0.37307	-24.55998
5350	0.37538	-27.05876	0.88692	-113.91205	0.88692	-113.91205	0.37538	-27.05876
5370	0.37851	-29.26318	0.88507	-115.6853	0.88507	-115.6853	0.37851	-29.26318
