#	mhz	s	ma	r	50

50	0.95	176.70	0.05	78.90	0.05	78.90	0.95	176.70
100	0.97	173.70	0.09	77.80	0.09	77.80	0.97	173.70
150	0.98	170.70	0.14	76.70	0.14	76.70	0.98	170.70
200	0.97	168.10	0.18	74.70	0.18	74.70	0.97	168.10
250	0.95	165.50	0.22	72.70	0.22	72.70	0.95	165.50
300	0.94	162.50	0.26	69.80	0.26	69.80	0.94	162.50
350	0.93	159.50	0.30	67.00	0.30	67.00	0.93	159.50
400	0.92	157.00	0.34	64.80	0.34	64.80	0.92	157.00
450	0.90	154.60	0.38	62.70	0.38	62.70	0.90	154.60
500	0.88	150.30	0.43	59.40	0.43	59.40	0.88	150.30
550	0.86	146.00	0.48	56.10	0.48	56.10	0.86	146.00
600	0.84	143.70	0.51	53.70	0.51	53.70	0.84	143.70
650	0.82	141.50	0.54	51.30	0.54	51.30	0.82	141.50
700	0.80	138.90	0.56	49.30	0.56	49.30	0.80	138.90
750	0.78	136.30	0.59	47.30	0.59	47.30	0.78	136.30
800	0.77	134.40	0.61	45.10	0.61	45.10	0.77	134.40
850	0.75	132.50	0.63	42.90	0.63	42.90	0.75	132.50
900	0.73	130.40	0.65	41.00	0.65	41.00	0.73	130.40
950	0.71	128.30	0.67	39.10	0.67	39.10	0.71	128.30
1000	0.69	126.40	0.69	37.20	0.69	37.20	0.69	126.40
1050	0.68	124.50	0.71	35.40	0.71	35.40	0.68	124.50
1100	0.66	122.60	0.72	33.80	0.72	33.80	0.66	122.60
1150	0.64	120.60	0.74	32.20	0.74	32.20	0.64	120.60
1200	0.63	119.00	0.75	30.60	0.75	30.60	0.63	119.00
1250	0.61	117.40	0.76	29.00	0.76	29.00	0.61	117.40
1300	0.60	115.50	0.78	27.70	0.78	27.70	0.60	115.50
1350	0.59	113.60	0.79	26.40	0.79	26.40	0.59	113.60
1400	0.57	112.20	0.80	24.90	0.80	24.90	0.57	112.20
1450	0.56	110.90	0.81	23.50	0.81	23.50	0.56	110.90
1500	0.55	109.20	0.82	22.20	0.82	22.20	0.55	109.20
1550	0.53	107.50	0.82	20.90	0.82	20.90	0.53	107.50
1600	0.52	106.00	0.83	19.70	0.83	19.70	0.52	106.00
1650	0.51	104.50	0.84	18.40	0.84	18.40	0.51	104.50
1700	0.50	103.30	0.85	17.20	0.85	17.20	0.50	103.30
1750	0.49	102.00	0.86	16.00	0.86	16.00	0.49	102.00
1800	0.48	100.80	0.86	15.00	0.86	15.00	0.48	100.80
1850	0.47	99.70	0.87	14.00	0.87	14.00	0.47	99.70
1900	0.46	98.30	0.87	13.00	0.87	13.00	0.46	98.30
1950	0.44	97.00	0.88	11.90	0.88	11.90	0.44	97.00
2000	0.43	96.00	0.88	10.80	0.88	10.80	0.43	96.00
2050	0.42	95.00	0.89	9.70	0.89	9.70	0.42	95.00
2100	0.41	94.00	0.89	8.80	0.89	8.80	0.41	94.00
2150	0.40	93.00	0.90	7.90	0.90	7.90	0.40	93.00
2200	0.40	92.10	0.90	6.80	0.90	6.80	0.40	92.10
2250	0.39	91.20	0.91	5.80	0.91	5.80	0.39	91.20
2300	0.38	90.50	0.91	5.00	0.91	5.00	0.38	90.50
2350	0.36	89.80	0.91	4.10	0.91	4.10	0.36	89.80
2400	0.36	89.00	0.92	3.20	0.92	3.20	0.36	89.00
2450	0.35	88.30	0.92	2.30	0.92	2.30	0.35	88.30
2500	0.34	87.80	0.92	1.30	0.92	1.30	0.34	87.80
2550	0.33	87.30	0.93	0.40	0.93	0.40	0.33	87.30
2600	0.32	86.60	0.93	-0.40	0.93	-0.40	0.32	86.60
2650	0.31	86.00	0.93	-1.20	0.93	-1.20	0.31	86.00
2700	0.31	85.70	0.94	-2.10	0.94	-2.10	0.31	85.70
2750	0.30	85.30	0.94	-2.90	0.94	-2.90	0.30	85.30
2800	0.29	84.60	0.94	-3.70	0.94	-3.70	0.29	84.60
2850	0.28	83.80	0.95	-4.50	0.95	-4.50	0.28	83.80
2900	0.27	83.70	0.95	-5.50	0.95	-5.50	0.27	83.70
2950	0.27	83.50	0.95	-6.50	0.95	-6.50	0.27	83.50
3000	0.26	83.20	0.95	-7.20	0.95	-7.20	0.26	83.20
3050	0.25	82.80	0.95	-8.00	0.95	-8.00	0.25	82.80
3100	0.24	82.00	0.95	-9.00	0.95	-9.00	0.24	82.00
3150	0.23	81.20	0.95	-10.00	0.95	-10.00	0.23	81.20
3200	0.23	81.10	0.96	-10.50	0.96	-10.50	0.23	81.10
3250	0.22	81.00	0.96	-11.00	0.96	-11.00	0.22	81.00
3300	0.22	80.80	0.96	-12.00	0.96	-12.00	0.22	80.80
3350	0.21	80.70	0.96	-12.90	0.96	-12.90	0.21	80.70
3400	0.21	80.40	0.96	-13.60	0.96	-13.60	0.21	80.40
3450	0.20	80.10	0.97	-14.20	0.97	-14.20	0.20	80.10
3500	0.19	80.10	0.97	-14.90	0.97	-14.90	0.19	80.10
3550	0.19	80.10	0.97	-15.60	0.97	-15.60	0.19	80.10
3600	0.18	80.40	0.97	-16.30	0.97	-16.30	0.18	80.40
3650	0.17	80.70	0.97	-17.10	0.97	-17.10	0.17	80.70
3700	0.17	80.10	0.97	-17.90	0.97	-17.90	0.17	80.10
3750	0.16	79.50	0.97	-18.70	0.97	-18.70	0.16	79.50
3800	0.16	79.20	0.98	-19.30	0.98	-19.30	0.16	79.20
3850	0.15	78.90	0.98	-19.90	0.98	-19.90	0.15	78.90
3900	0.15	78.30	0.98	-20.80	0.98	-20.80	0.15	78.30
3950	0.14	77.70	0.98	-21.70	0.98	-21.70	0.14	77.70
4000	0.14	77.30	0.98	-22.40	0.98	-22.40	0.14	77.30
4050	0.13	76.90	0.98	-23.00	0.98	-23.00	0.13	76.90
4100	0.13	75.80	0.98	-23.70	0.98	-23.70	0.13	75.80
4150	0.12	74.60	0.98	-24.50	0.98	-24.50	0.12	74.60
4200	0.12	73.70	0.98	-25.20	0.98	-25.20	0.12	73.70
4250	0.11	72.70	0.98	-25.90	0.98	-25.90	0.11	72.70
4300	0.11	71.40	0.98	-26.40	0.98	-26.40	0.11	71.40
4350	0.10	70.10	0.98	-27.00	0.98	-27.00	0.10	70.10
4400	0.10	68.40	0.98	-27.70	0.98	-27.70	0.10	68.40
4450	0.09	66.70	0.99	-28.50	0.99	-28.50	0.09	66.70
4500	0.09	65.20	0.99	-29.30	0.99	-29.30	0.09	65.20
4550	0.09	63.70	0.99	-30.10	0.99	-30.10	0.09	63.70
4600	0.09	61.80	0.99	-30.90	0.99	-30.90	0.09	61.80
4650	0.08	59.90	0.99	-31.60	0.99	-31.60	0.08	59.90
4700	0.08	59.10	0.99	-32.20	0.99	-32.20	0.08	59.10
4750	0.07	58.30	0.99	-32.80	0.99	-32.80	0.07	58.30
4800	0.07	56.60	0.99	-33.50	0.99	-33.50	0.07	56.60
4850	0.07	54.90	0.99	-34.20	0.99	-34.20	0.07	54.90
4900	0.06	54.40	0.99	-34.90	0.99	-34.90	0.06	54.40
4950	0.06	53.90	0.99	-35.50	0.99	-35.50	0.06	53.90
5000	0.05	52.60	0.99	-36.20	0.99	-36.20	0.05	52.60
5050	0.05	51.20	0.99	-37.00	0.99	-37.00	0.05	51.20
5100	0.05	50.80	0.99	-37.60	0.99	-37.60	0.05	50.80
5150	0.04	50.30	0.99	-38.20	0.99	-38.20	0.04	50.30
5200	0.04	51.60	0.99	-38.80	0.99	-38.80	0.04	51.60
5250	0.03	52.90	0.99	-39.30	0.99	-39.30	0.03	52.90
5300	0.03	49.40	0.99	-40.00	0.99	-40.00	0.03	49.40
5350	0.02	45.90	0.99	-40.80	0.99	-40.80	0.02	45.90
5400	0.02	47.30	0.99	-41.50	0.99	-41.50	0.02	47.30
5450	0.01	48.70	0.99	-42.20	0.99	-42.20	0.01	48.70
5500	0.01	39.90	0.99	-42.90	0.99	-42.90	0.01	39.90
5550	0.01	31.10	0.99	-43.50	0.99	-43.50	0.01	31.10
5600	0.00	95.20	0.99	-44.20	0.99	-44.20	0.00	95.20
5650	0.00	159.40	0.99	-44.90	0.99	-44.90	0.00	159.40
5700	0.01	2.40	0.99	-45.60	0.99	-45.60	0.01	2.40
5750	0.01	-154.60	0.99	-46.30	0.99	-46.30	0.01	-154.60
5800	0.01	-157.30	0.99	-46.90	0.99	-46.90	0.01	-157.30
5850	0.02	-159.90	0.99	-47.50	0.99	-47.50	0.02	-159.90
5900	0.02	-162.70	0.99	-48.00	0.99	-48.00	0.02	-162.70
5950	0.03	-165.40	0.99	-48.60	0.99	-48.60	0.03	-165.40
6000	0.04	-155.50	0.99	-49.40	0.99	-49.40	0.04	-155.50
6050	0.06	-145.60	0.99	-50.10	0.99	-50.10	0.06	-145.60
6100	0.06	-149.60	0.99	-50.60	0.99	-50.60	0.06	-149.60
6150	0.06	-153.60	0.99	-51.10	0.99	-51.10	0.06	-153.60
6200	0.07	-156.90	0.99	-51.70	0.99	-51.70	0.07	-156.90
6250	0.07	-160.10	0.99	-52.40	0.99	-52.40	0.07	-160.10
6300	0.08	-163.40	0.99	-53.00	0.99	-53.00	0.08	-163.40
6350	0.09	-166.60	0.98	-53.60	0.98	-53.60	0.09	-166.60
6400	0.09	-167.00	0.98	-54.20	0.98	-54.20	0.09	-167.00
6450	0.10	-167.40	0.98	-54.80	0.98	-54.80	0.10	-167.40
6500	0.10	-168.80	0.98	-55.40	0.98	-55.40	0.10	-168.80
6550	0.11	-170.30	0.98	-56.10	0.98	-56.10	0.11	-170.30
6600	0.11	-172.20	0.98	-56.70	0.98	-56.70	0.11	-172.20
6650	0.12	-174.10	0.98	-57.30	0.98	-57.30	0.12	-174.10
6700	0.12	-174.80	0.98	-57.70	0.98	-57.70	0.12	-174.80
6750	0.13	-175.50	0.97	-58.10	0.97	-58.10	0.13	-175.50
6800	0.13	-176.80	0.98	-58.70	0.98	-58.70	0.13	-176.80
6850	0.14	-178.10	0.98	-59.40	0.98	-59.40	0.14	-178.10
6900	0.14	0.60	0.98	-60.00	0.98	-60.00	0.14	0.60
6950	0.14	179.30	0.98	-60.50	0.98	-60.50	0.14	179.30
7000	0.14	177.40	0.98	-61.20	0.98	-61.20	0.14	177.40
7050	0.15	175.50	0.98	-61.90	0.98	-61.90	0.15	175.50
7100	0.15	174.50	0.98	-62.40	0.98	-62.40	0.15	174.50
7150	0.16	173.40	0.97	-62.90	0.97	-62.90	0.16	173.40
7200	0.16	172.20	0.98	-63.60	0.98	-63.60	0.16	172.20
7250	0.16	170.90	0.98	-64.20	0.98	-64.20	0.16	170.90
7300	0.16	169.50	0.98	-64.80	0.98	-64.80	0.16	169.50
7350	0.16	168.10	0.97	-65.40	0.97	-65.40	0.16	168.10
7400	0.17	166.30	0.97	-66.00	0.97	-66.00	0.17	166.30
7450	0.17	164.40	0.97	-66.60	0.97	-66.60	0.17	164.40
7500	0.17	163.90	0.97	-67.30	0.97	-67.30	0.17	163.90
7550	0.17	163.30	0.97	-68.00	0.97	-68.00	0.17	163.30
7600	0.17	161.90	0.97	-68.50	0.97	-68.50	0.17	161.90
7650	0.17	160.50	0.97	-69.10	0.97	-69.10	0.17	160.50
7700	0.17	159.60	0.97	-69.70	0.97	-69.70	0.17	159.60
7750	0.17	158.60	0.97	-70.30	0.97	-70.30	0.17	158.60
7800	0.18	157.80	0.97	-71.00	0.97	-71.00	0.18	157.80
7850	0.18	156.90	0.97	-71.70	0.97	-71.70	0.18	156.90
7900	0.18	156.70	0.97	-72.20	0.97	-72.20	0.18	156.70
7950	0.18	156.40	0.97	-72.80	0.97	-72.80	0.18	156.40
8000	0.18	156.20	0.97	-73.50	0.97	-73.50	0.18	156.20
8050	0.18	156.00	0.97	-74.10	0.97	-74.10	0.18	156.00
8100	0.18	155.40	0.97	-74.80	0.97	-74.80	0.18	155.40
8150	0.18	154.80	0.97	-75.40	0.97	-75.40	0.18	154.80
8200	0.18	155.40	0.97	-76.00	0.97	-76.00	0.18	155.40
8250	0.18	156.00	0.97	-76.70	0.97	-76.70	0.18	156.00
8300	0.18	156.10	0.97	-77.30	0.97	-77.30	0.18	156.10
8350	0.18	156.10	0.97	-77.90	0.97	-77.90	0.18	156.10
8400	0.18	156.70	0.97	-78.60	0.97	-78.60	0.18	156.70
8450	0.18	157.30	0.97	-79.30	0.97	-79.30	0.18	157.30
8500	0.18	158.00	0.97	-80.00	0.97	-80.00	0.18	158.00
8550	0.17	158.70	0.97	-80.70	0.97	-80.70	0.17	158.70
8600	0.18	158.90	0.97	-81.50	0.97	-81.50	0.18	158.90
8650	0.18	159.10	0.97	-82.20	0.97	-82.20	0.18	159.10
8700	0.18	159.70	0.97	-83.00	0.97	-83.00	0.18	159.70
8750	0.18	160.40	0.97	-83.70	0.97	-83.70	0.18	160.40
8800	0.18	160.10	0.97	-84.10	0.97	-84.10	0.18	160.10
8850	0.18	159.80	0.97	-84.60	0.97	-84.60	0.18	159.80
8900	0.19	160.30	0.97	-85.50	0.97	-85.50	0.19	160.30
8950	0.19	160.70	0.96	-86.40	0.96	-86.40	0.19	160.70
9000	0.20	161.30	0.96	-87.00	0.96	-87.00	0.20	161.30
9050	0.20	161.90	0.96	-87.70	0.96	-87.70	0.20	161.90
9100	0.21	162.30	0.96	-88.40	0.96	-88.40	0.21	162.30
9150	0.21	162.70	0.96	-89.10	0.96	-89.10	0.21	162.70
9200	0.22	162.60	0.96	-90.10	0.96	-90.10	0.22	162.60
9250	0.22	162.40	0.96	-91.10	0.96	-91.10	0.22	162.40
9300	0.23	163.50	0.96	-91.60	0.96	-91.60	0.23	163.50
9350	0.23	164.50	0.95	-92.10	0.95	-92.10	0.23	164.50
9400	0.24	165.10	0.95	-92.80	0.95	-92.80	0.24	165.10
9450	0.25	165.60	0.95	-93.50	0.95	-93.50	0.25	165.60
9500	0.25	165.70	0.95	-94.30	0.95	-94.30	0.25	165.70
9550	0.26	165.80	0.94	-95.20	0.94	-95.20	0.26	165.80
9600	0.27	166.70	0.94	-95.90	0.94	-95.90	0.27	166.70
9650	0.28	167.50	0.94	-96.70	0.94	-96.70	0.28	167.50
9700	0.29	167.40	0.94	-97.40	0.94	-97.40	0.29	167.40
9750	0.29	167.30	0.94	-98.20	0.94	-98.20	0.29	167.30
9800	0.30	168.20	0.93	-98.80	0.93	-98.80	0.30	168.20
9850	0.30	169.10	0.93	-99.50	0.93	-99.50	0.30	169.10
9900	0.31	169.10	0.93	-100.20	0.93	-100.20	0.31	169.10
9950	0.32	169.10	0.93	-100.80	0.93	-100.80	0.32	169.10
10000	0.33	167.70	0.92	-101.70	0.92	-101.70	0.33	167.70
10050	0.33	166.30	0.91	-102.60	0.91	-102.60	0.33	166.30
10100	0.34	167.20	0.91	-103.10	0.91	-103.10	0.34	167.20
10150	0.35	168.20	0.91	-103.60	0.91	-103.60	0.35	168.20
10200	0.36	166.40	0.91	-104.50	0.91	-104.50	0.36	166.40
10250	0.37	164.70	0.90	-105.40	0.90	-105.40	0.37	164.70
10300	0.38	164.00	0.90	-106.30	0.90	-106.30	0.38	164.00
10350	0.39	163.30	0.89	-107.20	0.89	-107.20	0.39	163.30
10400	0.40	162.10	0.89	-107.90	0.89	-107.90	0.40	162.10
10450	0.40	160.90	0.88	-108.70	0.88	-108.70	0.40	160.90
10500	0.41	159.60	0.88	-109.60	0.88	-109.60	0.41	159.60
10550	0.43	158.40	0.88	-110.60	0.88	-110.60	0.43	158.40
10600	0.43	156.90	0.87	-111.00	0.87	-111.00	0.43	156.90
10650	0.43	155.30	0.86	-111.50	0.86	-111.50	0.43	155.30
10700	0.44	154.40	0.86	-112.40	0.86	-112.40	0.44	154.40
10750	0.45	153.60	0.86	-113.30	0.86	-113.30	0.45	153.60
10800	0.46	153.20	0.86	-113.80	0.86	-113.80	0.46	153.20
10850	0.47	152.80	0.85	-114.20	0.85	-114.20	0.47	152.80
10900	0.47	150.60	0.84	-115.10	0.84	-115.10	0.47	150.60
10950	0.48	148.30	0.84	-116.00	0.84	-116.00	0.48	148.30
11000	0.49	147.90	0.84	-116.70	0.84	-116.70	0.49	147.90
11050	0.49	147.50	0.85	-117.40	0.85	-117.40	0.49	147.50
11100	0.50	145.50	0.83	-118.30	0.83	-118.30	0.50	145.50
11150	0.51	143.50	0.82	-119.20	0.82	-119.20	0.51	143.50
11200	0.51	142.10	0.82	-119.90	0.82	-119.90	0.51	142.10
11250	0.52	140.60	0.82	-120.70	0.82	-120.70	0.52	140.60
11300	0.52	139.30	0.82	-121.50	0.82	-121.50	0.52	139.30
11350	0.53	138.00	0.81	-122.20	0.81	-122.20	0.53	138.00
11400	0.54	136.00	0.81	-123.30	0.81	-123.30	0.54	136.00
11450	0.54	134.00	0.80	-124.50	0.80	-124.50	0.54	134.00
11500	0.55	132.60	0.80	-125.10	0.80	-125.10	0.55	132.60
11550	0.56	131.20	0.79	-125.70	0.79	-125.70	0.56	131.20
11600	0.56	129.40	0.79	-126.80	0.79	-126.80	0.56	129.40
11650	0.57	127.50	0.78	-127.80	0.78	-127.80	0.57	127.50
11700	0.58	126.10	0.77	-128.60	0.77	-128.60	0.58	126.10
11750	0.58	124.70	0.77	-129.40	0.77	-129.40	0.58	124.70
11800	0.59	123.20	0.76	-130.00	0.76	-130.00	0.59	123.20
11850	0.60	121.80	0.75	-130.60	0.75	-130.60	0.60	121.80
11900	0.61	121.10	0.75	-131.70	0.75	-131.70	0.61	121.10
11950	0.62	120.40	0.74	-132.80	0.74	-132.80	0.62	120.40
12000	0.63	119.30	0.73	-133.20	0.73	-133.20	0.63	119.30
12050	0.64	118.20	0.72	-133.60	0.72	-133.60	0.64	118.20
12100	0.64	117.00	0.72	-134.70	0.72	-134.70	0.64	117.00
12150	0.65	115.80	0.71	-135.80	0.71	-135.80	0.65	115.80
12200	0.66	114.90	0.70	-136.40	0.70	-136.40	0.66	114.90
12250	0.67	114.00	0.70	-137.00	0.70	-137.00	0.67	114.00
12300	0.67	113.20	0.69	-138.10	0.69	-138.10	0.67	113.20
12350	0.67	112.40	0.68	-139.20	0.68	-139.20	0.67	112.40
12400	0.68	111.20	0.67	-140.00	0.67	-140.00	0.68	111.20
12450	0.69	110.00	0.67	-140.90	0.67	-140.90	0.69	110.00
12500	0.69	108.30	0.66	-142.00	0.66	-142.00	0.69	108.30
12550	0.70	106.70	0.65	-143.20	0.65	-143.20	0.70	106.70
12600	0.70	106.00	0.64	-144.30	0.64	-144.30	0.70	106.00
12650	0.70	105.20	0.63	-145.40	0.63	-145.40	0.70	105.20
12700	0.71	103.70	0.62	-146.30	0.62	-146.30	0.71	103.70
12750	0.72	102.10	0.61	-147.10	0.61	-147.10	0.72	102.10
12800	0.72	100.30	0.60	-148.80	0.60	-148.80	0.72	100.30
12850	0.73	98.40	0.58	-150.40	0.58	-150.40	0.73	98.40
12900	0.74	97.30	0.57	-151.10	0.57	-151.10	0.74	97.30
12950	0.75	96.10	0.56	-151.80	0.56	-151.80	0.75	96.10
13000	0.75	94.60	0.55	-153.30	0.55	-153.30	0.75	94.60
13050	0.75	93.00	0.53	-154.80	0.53	-154.80	0.75	93.00
13100	0.76	91.50	0.52	-155.50	0.52	-155.50	0.76	91.50
13150	0.76	90.10	0.50	-156.30	0.50	-156.30	0.76	90.10
13200	0.77	88.60	0.49	-157.10	0.49	-157.10	0.77	88.60
13250	0.78	87.20	0.47	-157.90	0.47	-157.90	0.78	87.20
13300	0.77	87.10	0.46	-159.40	0.46	-159.40	0.77	87.10
13350	0.76	87.00	0.44	-160.90	0.44	-160.90	0.76	87.00
13400	0.79	83.70	0.43	-161.70	0.43	-161.70	0.79	83.70
13450	0.81	80.40	0.41	-162.60	0.41	-162.60	0.81	80.40
13500	0.81	78.80	0.39	-163.50	0.39	-163.50	0.81	78.80
13550	0.82	77.30	0.38	-164.40	0.38	-164.40	0.82	77.30
13600	0.83	75.00	0.36	-165.40	0.36	-165.40	0.83	75.00
13650	0.84	72.80	0.34	-166.40	0.34	-166.40	0.84	72.80
13700	0.84	71.00	0.32	-167.10	0.32	-167.10	0.84	71.00
13750	0.85	69.10	0.30	-167.80	0.30	-167.80	0.85	69.10
13800	0.85	66.60	0.28	-168.20	0.28	-168.20	0.85	66.60
13850	0.86	64.10	0.27	-168.70	0.27	-168.70	0.86	64.10
13900	0.86	61.60	0.25	-168.70	0.25	-168.70	0.86	61.60
13950	0.87	59.20	0.22	-168.60	0.22	-168.60	0.87	59.20
14000	0.87	56.40	0.20	-167.70	0.20	-167.70	0.87	56.40
14050	0.88	53.70	0.18	-166.80	0.18	-166.80	0.88	53.70
14100	0.88	51.10	0.16	-163.40	0.16	-163.40	0.88	51.10
14150	0.89	48.60	0.14	-159.90	0.14	-159.90	0.89	48.60
14200	0.89	46.10	0.12	-152.50	0.12	-152.50	0.89	46.10
14250	0.89	43.60	0.10	-145.00	0.10	-145.00	0.89	43.60
14300	0.89	40.60	0.10	-131.90	0.10	-131.90	0.89	40.60
14350	0.89	37.60	0.09	-118.70	0.09	-118.70	0.89	37.60
14400	0.90	35.60	0.10	-105.40	0.10	-105.40	0.90	35.60
14450	0.91	33.70	0.11	-92.10	0.11	-92.10	0.91	33.70
14500	0.90	31.30	0.12	-84.90	0.12	-84.90	0.90	31.30
14550	0.89	29.00	0.14	-77.80	0.14	-77.80	0.89	29.00
14600	0.90	27.20	0.16	-74.50	0.16	-74.50	0.90	27.20
14650	0.90	25.30	0.18	-71.30	0.18	-71.30	0.90	25.30
14700	0.89	23.20	0.21	-70.40	0.21	-70.40	0.89	23.20
14750	0.88	21.10	0.23	-69.50	0.23	-69.50	0.88	21.10
14800	0.88	19.00	0.25	-69.70	0.25	-69.70	0.88	19.00
14850	0.88	16.90	0.27	-69.90	0.27	-69.90	0.88	16.90
14900	0.87	16.10	0.29	-70.10	0.29	-70.10	0.87	16.10
14950	0.86	15.30	0.31	-70.20	0.31	-70.20	0.86	15.30
15000	0.85	12.60	0.34	-71.70	0.34	-71.70	0.85	12.60
15050	0.84	10.00	0.35	-73.20	0.35	-73.20	0.84	10.00
15100	0.83	9.30	0.38	-74.00	0.38	-74.00	0.83	9.30
15150	0.81	8.60	0.39	-74.80	0.39	-74.80	0.81	8.60
15200	0.80	7.10	0.41	-76.40	0.41	-76.40	0.80	7.10
15250	0.79	5.50	0.43	-77.90	0.43	-77.90	0.79	5.50
15300	0.78	3.90	0.44	-80.10	0.44	-80.10	0.78	3.90
15350	0.77	2.20	0.46	-82.20	0.46	-82.20	0.77	2.20
15400	0.75	1.80	0.46	-83.20	0.46	-83.20	0.75	1.80
15450	0.72	1.40	0.46	-84.20	0.46	-84.20	0.72	1.40
15500	0.73	1.70	0.47	-85.40	0.47	-85.40	0.73	1.70
15550	0.74	2.00	0.48	-86.50	0.48	-86.50	0.74	2.00
15600	0.74	1.30	0.48	-86.40	0.48	-86.40	0.74	1.30
15650	0.74	0.60	0.49	-86.30	0.49	-86.30	0.74	0.60
15700	0.74	-0.30	0.50	-86.60	0.50	-86.60	0.74	-0.30
15750	0.74	-1.10	0.51	-87.00	0.51	-87.00	0.74	-1.10
15800	0.73	-1.80	0.52	-87.00	0.52	-87.00	0.73	-1.80
15850	0.73	-2.50	0.53	-87.00	0.53	-87.00	0.73	-2.50
15900	0.72	-3.60	0.54	-87.70	0.54	-87.70	0.72	-3.60
15950	0.71	-4.70	0.56	-88.30	0.56	-88.30	0.71	-4.70
16000	0.70	-4.90	0.57	-88.80	0.57	-88.80	0.70	-4.90
16050	0.69	-5.20	0.59	-89.30	0.59	-89.30	0.69	-5.20
16100	0.67	-6.00	0.61	-90.70	0.61	-90.70	0.67	-6.00
16150	0.65	-6.90	0.62	-92.10	0.62	-92.10	0.65	-6.90
16200	0.63	-7.10	0.63	-93.40	0.63	-93.40	0.63	-7.10
16250	0.61	-7.40	0.64	-94.70	0.64	-94.70	0.61	-7.40
16300	0.58	-7.10	0.65	-96.20	0.65	-96.20	0.58	-7.10
16350	0.56	-6.90	0.66	-97.70	0.66	-97.70	0.56	-6.90
16400	0.56	-6.10	0.65	-98.40	0.65	-98.40	0.56	-6.10
16450	0.56	-5.30	0.65	-99.10	0.65	-99.10	0.56	-5.30
16500	0.55	-7.60	0.66	-98.90	0.66	-98.90	0.55	-7.60
16550	0.55	-9.80	0.67	-98.70	0.67	-98.70	0.55	-9.80
16600	0.54	-11.80	0.69	-99.60	0.69	-99.60	0.54	-11.80
16650	0.52	-13.70	0.71	-100.60	0.71	-100.60	0.52	-13.70
16700	0.51	-16.00	0.73	-102.10	0.73	-102.10	0.51	-16.00
16750	0.49	-18.20	0.75	-103.60	0.75	-103.60	0.49	-18.20
16800	0.46	-19.60	0.75	-105.40	0.75	-105.40	0.46	-19.60
16850	0.44	-21.00	0.76	-107.10	0.76	-107.10	0.44	-21.00
16900	0.42	-21.40	0.77	-109.10	0.77	-109.10	0.42	-21.40
16950	0.40	-21.80	0.77	-111.00	0.77	-111.00	0.40	-21.80
17000	0.38	-20.10	0.77	-113.10	0.77	-113.10	0.38	-20.10
17050	0.35	-18.50	0.77	-115.30	0.77	-115.30	0.35	-18.50
17100	0.35	-13.80	0.75	-117.40	0.75	-117.40	0.35	-13.80
17150	0.34	-9.20	0.74	-119.60	0.74	-119.60	0.34	-9.20
17200	0.35	-4.10	0.71	-120.60	0.71	-120.60	0.35	-4.10
17250	0.37	0.90	0.68	-121.60	0.68	-121.60	0.37	0.90
17300	0.41	2.40	0.65	-120.70	0.65	-120.70	0.41	2.40
17350	0.44	3.90	0.62	-119.70	0.62	-119.70	0.44	3.90
17400	0.48	1.40	0.61	-116.50	0.61	-116.50	0.48	1.40
17450	0.51	-1.00	0.60	-113.20	0.60	-113.20	0.51	-1.00
17500	0.52	-4.30	0.62	-111.10	0.62	-111.10	0.52	-4.30
17550	0.53	-7.60	0.65	-108.90	0.65	-108.90	0.53	-7.60
17600	0.53	-11.20	0.68	-108.60	0.68	-108.60	0.53	-11.20
17650	0.52	-14.70	0.71	-108.30	0.71	-108.30	0.52	-14.70
17700	0.50	-17.40	0.74	-109.00	0.74	-109.00	0.50	-17.40
17750	0.48	-20.10	0.77	-109.60	0.77	-109.60	0.48	-20.10
17800	0.47	-23.50	0.79	-111.10	0.79	-111.10	0.47	-23.50
17850	0.45	-26.90	0.81	-112.60	0.81	-112.60	0.45	-26.90
17900	0.43	-28.10	0.82	-113.70	0.82	-113.70	0.43	-28.10
17950	0.40	-29.30	0.83	-114.90	0.83	-114.90	0.40	-29.30
18000	0.39	-31.80	0.84	-116.30	0.84	-116.30	0.39	-31.80
18050	0.38	-34.30	0.85	-117.70	0.85	-117.70	0.38	-34.30
18100	0.37	-36.70	0.86	-118.90	0.86	-118.90	0.37	-36.70
18150	0.36	-39.10	0.87	-120.20	0.87	-120.20	0.36	-39.10
18200	0.36	-39.70	0.87	-121.30	0.87	-121.30	0.36	-39.70
18250	0.36	-40.30	0.88	-122.40	0.88	-122.40	0.36	-40.30
18300	0.36	-42.00	0.89	-123.60	0.89	-123.60	0.36	-42.00
18350	0.36	-43.70	0.89	-124.80	0.89	-124.80	0.36	-43.70
18400	0.36	-43.20	0.89	-125.60	0.89	-125.60	0.36	-43.20
18450	0.36	-42.60	0.89	-126.50	0.89	-126.50	0.36	-42.60
18500	0.36	-43.20	0.90	-127.50	0.90	-127.50	0.36	-43.20
18550	0.37	-43.70	0.91	-128.50	0.91	-128.50	0.37	-43.70
18600	0.36	-43.10	0.91	-129.40	0.91	-129.40	0.36	-43.10
18650	0.36	-42.40	0.92	-130.30	0.92	-130.30	0.36	-42.40
18700	0.36	-43.90	0.91	-131.50	0.91	-131.50	0.36	-43.90
18750	0.36	-45.50	0.91	-132.70	0.91	-132.70	0.36	-45.50
18800	0.35	-45.40	0.92	-133.30	0.92	-133.30	0.35	-45.40
18850	0.35	-45.40	0.92	-134.00	0.92	-134.00	0.35	-45.40
