! P/N: L-07CR10JV4								
! Measured by Marlon								
! Oct. 13, 2003							
! Measure with Series-through-Fixture								
#	mhz	s	ma	r	50
0	0.00000	90.0000	0.99999	0.00000	0.99999	0.00000	0.00000	90.0000			
50	0.30366	64.08905	0.89333	-16.15349	0.89333	-16.15349	0.30366	64.08905
70	0.39461	57.86111	0.85544	-22.49588	0.85544	-22.49588	0.39461	57.86111
90	0.47327	53.82063	0.81196	-27.59328	0.81196	-27.59328	0.47327	53.82063
110	0.54717	50.26112	0.77216	-32.4461	0.77216	-32.4461	0.54717	50.26112
130	0.61461	46.50452	0.73336	-37.26624	0.73336	-37.26624	0.61461	46.50452
150	0.66465	42.90121	0.68092	-41.47701	0.68092	-41.47701	0.66465	42.90121
170	0.71326	40.16101	0.64488	-44.38174	0.64488	-44.38174	0.71326	40.16101
190	0.74842	37.08808	0.60795	-47.84642	0.60795	-47.84642	0.74842	37.08808
210	0.77935	34.52916	0.56935	-50.90643	0.56935	-50.90643	0.77935	34.52916
230	0.81054	32.3915	0.53195	-53.3352	0.53195	-53.3352	0.81054	32.3915
250	0.84187	29.64287	0.5023	-55.64423	0.5023	-55.64423	0.84187	29.64287
270	0.8481	27.47365	0.46683	-58.20383	0.46683	-58.20383	0.8481	27.47365
290	0.86789	26.02379	0.43899	-60.14704	0.43899	-60.14704	0.86789	26.02379
310	0.88829	24.33898	0.4130	-62.09495	0.4130	-62.09495	0.88829	24.33898
330	0.90158	22.34652	0.38616	-64.00503	0.38616	-64.00503	0.90158	22.34652
350	0.90539	20.85532	0.3588	-65.17108	0.3588	-65.17108	0.90539	20.85532
370	0.92031	19.26561	0.34034	-66.89634	0.34034	-66.89634	0.92031	19.26561
390	0.92988	17.78958	0.31852	-68.70081	0.31852	-68.70081	0.92988	17.78958
410	0.93931	16.70624	0.29694	-69.93577	0.29694	-69.93577	0.93931	16.70624
430	0.94976	15.79051	0.27783	-70.71363	0.27783	-70.71363	0.94976	15.79051
450	0.9584	14.31324	0.26204	-71.90795	0.26204	-71.90795	0.9584	14.31324
470	0.9589	13.58151	0.24454	-73.40406	0.24454	-73.40406	0.9589	13.58151
490	0.9706	12.76878	0.21723	-75.45492	0.21723	-75.45492	0.9706	12.76878
510	0.98318	12.19645	0.19554	-77.17277	0.19554	-77.17277	0.98318	12.19645
530	0.98964	11.87207	0.18255	-78.20096	0.18255	-78.20096	0.98964	11.87207
550	0.98638	11.48932	0.16899	-78.71391	0.16899	-78.71391	0.98638	11.48932
570	0.98404	10.91679	0.15678	-79.41447	0.15678	-79.41447	0.98404	10.91679
590	0.98343	10.36183	0.14453	-80.29927	0.14453	-80.29927	0.98343	10.36183
610	0.98523	9.50024	0.1328	-80.67318	0.1328	-80.67318	0.98523	9.50024
630	0.98797	8.37439	0.12167	-80.77089	0.12167	-80.77089	0.98797	8.37439
650	0.98801	7.39326	0.11079	-81.7569	0.11079	-81.7569	0.98801	7.39326
670	0.99224	7.30198	0.09947	-81.87417	0.09947	-81.87417	0.99224	7.30198
690	1.00183	6.75787	0.08946	-82.0338	0.08946	-82.0338	1.00183	6.75787
710	1.0068	6.14635	0.07972	-82.21161	0.07972	-82.21161	1.0068	6.14635
730	1.00508	5.7436	0.07004	-82.33971	0.07004	-82.33971	1.00508	5.7436
750	1.00248	5.71649	0.06109	-82.30654	0.06109	-82.30654	1.00248	5.71649
770	1.00071	5.26871	0.0521	-82.26252	0.0521	-82.26252	1.00071	5.26871
790	0.99966	4.60997	0.04339	-81.07044	0.04339	-81.07044	0.99966	4.60997
810	1.0014	3.96564	0.03513	-79.31461	0.03513	-79.31461	1.0014	3.96564
830	1.00406	3.35491	0.02721	-76.89756	0.02721	-76.89756	1.00406	3.35491
850	1.00188	2.59083	0.01931	-73.04	0.01931	-73.04	1.00188	2.59083
870	1.00214	2.78579	0.0119	-59.72657	0.0119	-59.72657	1.00214	2.78579
890	1.00844	2.29235	0.00772	-15.102	0.00772	-15.102	1.00844	2.29235
910	1.00927	1.83835	0.00863	31.23003	0.00863	31.23003	1.00927	1.83835
930	1.00396	1.70078	0.01403	61.56488	0.01403	61.56488	1.00396	1.70078
950	1.00264	1.70581	0.02076	70.09693	0.02076	70.09693	1.00264	1.70581
970	1.00553	0.71094	0.02774	73.81087	0.02774	73.81087	1.00553	0.71094
990	1.00115	0.18909	0.03454	76.04464	0.03454	76.04464	1.00115	0.18909
1010	0.99739	-0.19225	0.0414	77.29713	0.0414	77.29713	0.99739	-0.19225
1030	0.99751	-0.51319	0.0483	77.9848	0.0483	77.9848	0.99751	-0.51319
1050	1.00012	-0.60143	0.05489	78.44173	0.05489	78.44173	1.00012	-0.60143
1070	1.00402	-1.11694	0.06129	78.60332	0.06129	78.60332	1.00402	-1.11694
1090	0.99989	-1.53867	0.06776	78.77112	0.06776	78.77112	0.99989	-1.53867
1110	0.99404	-1.89646	0.0743	78.73469	0.0743	78.73469	0.99404	-1.89646
1130	0.98952	-2.24084	0.08072	78.49095	0.08072	78.49095	0.98952	-2.24084
1150	0.9861	-2.64298	0.08671	78.24415	0.08671	78.24415	0.9861	-2.64298
1170	0.98184	-3.2829	0.0927	78.36026	0.0927	78.36026	0.98184	-3.2829
1190	0.97859	-3.93914	0.09917	78.25205	0.09917	78.25205	0.97859	-3.93914
1210	0.97896	-4.71393	0.10533	77.99937	0.10533	77.99937	0.97896	-4.71393
1230	0.98311	-5.39696	0.11092	77.73107	0.11092	77.73107	0.98311	-5.39696
1250	0.98881	-5.46531	0.11623	77.62498	0.11623	77.62498	0.98881	-5.46531
1270	0.99369	-6.21583	0.12249	77.60407	0.12249	77.60407	0.99369	-6.21583
1290	0.99319	-6.69998	0.12793	77.25632	0.12793	77.25632	0.99319	-6.69998
1310	0.99157	-6.76166	0.13306	76.9298	0.13306	76.9298	0.99157	-6.76166
1330	0.99271	-6.66307	0.13845	76.6611	0.13845	76.6611	0.99271	-6.66307
1350	1.00013	-7.08468	0.14477	76.17541	0.14477	76.17541	1.00013	-7.08468
1370	0.98847	-7.54968	0.14965	75.83687	0.14965	75.83687	0.98847	-7.54968
1390	0.98509	-7.84379	0.15581	75.7628	0.15581	75.7628	0.98509	-7.84379
1410	0.98641	-8.26653	0.16132	75.45643	0.16132	75.45643	0.98641	-8.26653
1430	0.98847	-8.78354	0.16593	75.03275	0.16593	75.03275	0.98847	-8.78354
1450	0.98695	-9.0266	0.17099	75.21844	0.17099	75.21844	0.98695	-9.0266
1470	0.99087	-9.39929	0.17659	74.70191	0.17659	74.70191	0.99087	-9.39929
1490	0.99001	-9.51031	0.18185	74.28473	0.18185	74.28473	0.99001	-9.51031
1510	0.98742	-9.5398	0.18627	73.99615	0.18627	73.99615	0.98742	-9.5398
1530	0.98524	-9.63748	0.19046	73.76804	0.19046	73.76804	0.98524	-9.63748
1550	0.98467	-9.9227	0.1961	73.43484	0.1961	73.43484	0.98467	-9.9227
1570	0.97916	-10.58862	0.20121	73.08605	0.20121	73.08605	0.97916	-10.58862
1590	0.97154	-10.8198	0.20639	72.72753	0.20639	72.72753	0.97154	-10.8198
1610	0.96773	-11.1307	0.21163	72.41665	0.21163	72.41665	0.96773	-11.1307
1630	0.9675	-11.68661	0.21684	72.15513	0.21684	72.15513	0.9675	-11.68661
1650	0.96454	-12.30367	0.22187	71.88903	0.22187	71.88903	0.96454	-12.30367
1670	0.96395	-12.86459	0.22642	71.54237	0.22642	71.54237	0.96395	-12.86459
1690	0.96362	-12.92696	0.23154	71.36691	0.23154	71.36691	0.96362	-12.92696
1710	0.96384	-13.18333	0.23706	71.07476	0.23706	71.07476	0.96384	-13.18333
1730	0.96288	-13.68298	0.2425	70.6863	0.2425	70.6863	0.96288	-13.68298
1750	0.95698	-13.83195	0.24712	70.53014	0.24712	70.53014	0.95698	-13.83195
1770	0.95199	-13.88476	0.25209	70.59412	0.25209	70.59412	0.95199	-13.88476
1790	0.95183	-14.54031	0.25717	70.03642	0.25717	70.03642	0.95183	-14.54031
1810	0.95073	-15.12032	0.26119	69.5886	0.26119	69.5886	0.95073	-15.12032
1830	0.94819	-15.52815	0.26511	69.49366	0.26511	69.49366	0.94819	-15.52815
1850	0.94898	-16.24885	0.27196	69.50604	0.27196	69.50604	0.94898	-16.24885
1870	0.95213	-16.8631	0.27691	68.51658	0.27691	68.51658	0.95213	-16.8631
1890	0.94881	-16.99998	0.27925	68.50413	0.27925	68.50413	0.94881	-16.99998
1910	0.9477	-17.04117	0.28344	68.59805	0.28344	68.59805	0.9477	-17.04117
1930	0.94971	-17.32682	0.28977	68.35327	0.28977	68.35327	0.94971	-17.32682
1950	0.94795	-18.15555	0.29438	67.75023	0.29438	67.75023	0.94795	-18.15555
1970	0.94408	-18.38423	0.29915	67.62415	0.29915	67.62415	0.94408	-18.38423
1990	0.9445	-18.7309	0.30322	67.2644	0.30322	67.2644	0.9445	-18.7309
2010	0.94469	-19.11649	0.30839	66.90203	0.30839	66.90203	0.94469	-19.11649
2030	0.94292	-19.54985	0.31467	66.53436	0.31467	66.53436	0.94292	-19.54985
2050	0.94023	-20.12769	0.32026	65.92498	0.32026	65.92498	0.94023	-20.12769
2070	0.93672	-20.13168	0.32314	65.72885	0.32314	65.72885	0.93672	-20.13168
2090	0.93929	-20.16135	0.32816	65.61591	0.32816	65.61591	0.93929	-20.16135
2110	0.9379	-20.57364	0.33408	65.28695	0.33408	65.28695	0.9379	-20.57364
2130	0.931	-21.2367	0.34004	64.78181	0.34004	64.78181	0.931	-21.2367
2150	0.92554	-21.52988	0.34553	64.47943	0.34553	64.47943	0.92554	-21.52988
2170	0.92413	-21.90204	0.35068	63.7967	0.35068	63.7967	0.92413	-21.90204
2190	0.92167	-22.35732	0.3564	63.20193	0.3564	63.20193	0.92167	-22.35732
2210	0.91575	-22.86318	0.36285	62.64793	0.36285	62.64793	0.91575	-22.86318
2230	0.90789	-23.43135	0.37007	61.92338	0.37007	61.92338	0.90789	-23.43135
2250	0.90362	-24.1179	0.3779	60.65283	0.3779	60.65283	0.90362	-24.1179
2270	0.88489	-24.4186	0.38005	59.34758	0.38005	59.34758	0.88489	-24.4186
2290	0.86987	-24.31115	0.38183	57.54731	0.38183	57.54731	0.86987	-24.31115
2310	0.85536	-23.70439	0.37699	55.30777	0.37699	55.30777	0.85536	-23.70439
2330	0.84556	-22.52326	0.36236	53.74072	0.36236	53.74072	0.84556	-22.52326
2350	0.85205	-20.7088	0.33792	55.01391	0.33792	55.01391	0.85205	-20.7088
2370	0.87452	-20.41435	0.33803	58.34922	0.33803	58.34922	0.87452	-20.41435
2390	0.89043	-21.28162	0.34631	60.20338	0.34631	60.20338	0.89043	-21.28162
2410	0.89683	-22.43378	0.35625	61.06706	0.35625	61.06706	0.89683	-22.43378
2430	0.89662	-23.31894	0.36464	61.46948	0.36464	61.46948	0.89662	-23.31894
2450	0.8985	-23.71016	0.37156	61.97845	0.37156	61.97845	0.8985	-23.71016
2470	0.90472	-24.43516	0.38175	61.90473	0.38175	61.90473	0.90472	-24.43516
2490	0.90392	-25.09713	0.38826	61.47686	0.38826	61.47686	0.90392	-25.09713
2510	0.90192	-25.56389	0.39344	61.18036	0.39344	61.18036	0.90192	-25.56389
2530	0.90079	-25.81837	0.39878	61.06048	0.39878	61.06048	0.90079	-25.81837
2550	0.89882	-25.95865	0.40487	60.72223	0.40487	60.72223	0.89882	-25.95865
2570	0.89499	-26.52704	0.40883	60.24863	0.40883	60.24863	0.89499	-26.52704
2590	0.89001	-26.81978	0.41475	60.24905	0.41475	60.24905	0.89001	-26.81978
2610	0.88513	-27.20416	0.42168	60.02544	0.42168	60.02544	0.88513	-27.20416
2630	0.88146	-27.77262	0.42769	59.5341	0.42769	59.5341	0.88146	-27.77262
2650	0.87989	-28.34275	0.42985	59.38575	0.42985	59.38575	0.87989	-28.34275
2670	0.88119	-28.58795	0.43936	59.37226	0.43936	59.37226	0.88119	-28.58795
2690	0.87956	-28.97681	0.44472	58.90629	0.44472	58.90629	0.87956	-28.97681
2710	0.87534	-29.47483	0.44768	58.42657	0.44768	58.42657	0.87534	-29.47483
2730	0.87017	-29.82829	0.45076	58.17083	0.45076	58.17083	0.87017	-29.82829
2750	0.86704	-29.56428	0.45726	58.1758	0.45726	58.1758	0.86704	-29.56428
2770	0.86822	-30.30848	0.46233	57.60706	0.46233	57.60706	0.86822	-30.30848
2790	0.86785	-30.88102	0.46648	57.249	0.46648	57.249	0.86785	-30.88102
2810	0.86532	-31.21897	0.47024	56.99126	0.47024	56.99126	0.86532	-31.21897
2830	0.86198	-31.30187	0.47425	56.71437	0.47425	56.71437	0.86198	-31.30187
2850	0.86118	-31.15179	0.47927	56.2897	0.47927	56.2897	0.86118	-31.15179
2870	0.85774	-31.87827	0.48665	56.07557	0.48665	56.07557	0.85774	-31.87827
2890	0.85091	-32.26354	0.49032	55.71645	0.49032	55.71645	0.85091	-32.26354
2910	0.84456	-32.58184	0.49331	55.37945	0.49331	55.37945	0.84456	-32.58184
2930	0.8405	-32.93381	0.49723	55.10028	0.49723	55.10028	0.8405	-32.93381
2950	0.83847	-33.24645	0.50227	54.78324	0.50227	54.78324	0.83847	-33.24645
2970	0.8356	-33.72402	0.50881	54.43858	0.50881	54.43858	0.8356	-33.72402
2990	0.83068	-34.39533	0.51282	53.92332	0.51282	53.92332	0.83068	-34.39533
3010	0.82565	-34.85798	0.51484	53.53398	0.51484	53.53398	0.82565	-34.85798
3030	0.82305	-35.06179	0.51788	53.36588	0.51788	53.36588	0.82305	-35.06179
3050	0.82606	-35.30884	0.52746	53.31309	0.52746	53.31309	0.82606	-35.30884
3070	0.81996	-35.75914	0.53261	52.52739	0.53261	52.52739	0.81996	-35.75914
3090	0.81228	-35.98926	0.53481	51.85646	0.53481	51.85646	0.81228	-35.98926
3110	0.80758	-36.27443	0.53916	51.66948	0.53916	51.66948	0.80758	-36.27443
3130	0.80557	-36.73294	0.54615	51.67369	0.54615	51.67369	0.80557	-36.73294
3150	0.80105	-37.32611	0.55161	50.91444	0.55161	50.91444	0.80105	-37.32611
3170	0.79136	-37.83814	0.55262	50.65007	0.55262	50.65007	0.79136	-37.83814
3190	0.79187	-38.08451	0.56118	50.35854	0.56118	50.35854	0.79187	-38.08451
3210	0.79031	-38.47189	0.56771	49.94108	0.56771	49.94108	0.79031	-38.47189
3230	0.78337	-38.94842	0.5694	49.47208	0.5694	49.47208	0.78337	-38.94842
3250	0.7767	-39.00366	0.57025	49.19916	0.57025	49.19916	0.7767	-39.00366
3270	0.76971	-39.30492	0.57756	48.7337	0.57756	48.7337	0.76971	-39.30492
3290	0.76307	-40.02915	0.58246	48.20297	0.58246	48.20297	0.76307	-40.02915
3310	0.75714	-40.69124	0.58784	47.73904	0.58784	47.73904	0.75714	-40.69124
3330	0.75246	-41.18655	0.59507	47.30832	0.59507	47.30832	0.75246	-41.18655
3350	0.74978	-41.79099	0.60397	46.71165	0.60397	46.71165	0.74978	-41.79099
3370	0.7452	-42.28502	0.60861	45.79004	0.60861	45.79004	0.7452	-42.28502
3390	0.73753	-42.67203	0.61128	45.46254	0.61128	45.46254	0.73753	-42.67203
3410	0.73056	-43.03198	0.61544	45.12943	0.61544	45.12943	0.73056	-43.03198
3430	0.72504	-43.49465	0.62213	44.48196	0.62213	44.48196	0.72504	-43.49465
3450	0.71869	-44.23959	0.62996	43.50232	0.62996	43.50232	0.71869	-44.23959
3470	0.70076	-44.51692	0.62948	43.171	0.62948	43.171	0.70076	-44.51692
3490	0.6929	-44.83181	0.63702	42.78148	0.63702	42.78148	0.6929	-44.83181
3510	0.68534	-45.57454	0.64662	42.08131	0.64662	42.08131	0.68534	-45.57454
3530	0.67396	-46.60767	0.65344	41.11055	0.65344	41.11055	0.67396	-46.60767
3550	0.66036	-47.26607	0.65372	40.2018	0.65372	40.2018	0.66036	-47.26607
3570	0.65581	-47.80516	0.66339	39.38393	0.66339	39.38393	0.65581	-47.80516
3590	0.64565	-48.68915	0.66927	38.23771	0.66927	38.23771	0.64565	-48.68915
3610	0.63163	-49.23483	0.67399	37.16689	0.67399	37.16689	0.63163	-49.23483
3630	0.6159	-49.44318	0.67982	36.23771	0.67982	36.23771	0.6159	-49.44318
3650	0.60098	-49.99941	0.68872	35.17879	0.68872	35.17879	0.60098	-49.99941
3670	0.57923	-50.71947	0.69121	33.54928	0.69121	33.54928	0.57923	-50.71947
3690	0.5558	-51.03842	0.69606	32.28066	0.69606	32.28066	0.5558	-51.03842
3710	0.53463	-51.31746	0.703	30.68013	0.703	30.68013	0.53463	-51.31746
3730	0.5137	-51.5742	0.70922	28.59549	0.70922	28.59549	0.5137	-51.5742
3750	0.48509	-51.48261	0.70938	26.41513	0.70938	26.41513	0.48509	-51.48261
3770	0.45673	-50.80677	0.7081	24.6882	0.7081	24.6882	0.45673	-50.80677
3790	0.42869	-49.27038	0.70916	22.00803	0.70916	22.00803	0.42869	-49.27038
3810	0.39682	-46.39556	0.70444	19.22433	0.70444	19.22433	0.39682	-46.39556
3830	0.36367	-41.93688	0.6924	16.49929	0.6924	16.49929	0.36367	-41.93688
3850	0.33857	-35.88138	0.67803	13.30756	0.67803	13.30756	0.33857	-35.88138
3870	0.32759	-27.38737	0.65078	10.19602	0.65078	10.19602	0.32759	-27.38737
3890	0.33777	-18.38111	0.62057	6.81813	0.62057	6.81813	0.33777	-18.38111
3910	0.36836	-10.67278	0.58157	3.4387	0.58157	3.4387	0.36836	-10.67278
3930	0.41481	-5.33212	0.53271	0.47948	0.53271	0.47948	0.41481	-5.33212
3950	0.46878	-2.68843	0.47768	-1.48081	0.47768	-1.48081	0.46878	-2.68843
3970	0.53214	-2.48852	0.42127	-1.22036	0.42127	-1.22036	0.53214	-2.48852
3990	0.59382	-4.0831	0.36954	0.69247	0.36954	0.69247	0.59382	-4.0831
4010	0.64596	-6.35199	0.32531	4.68674	0.32531	4.68674	0.64596	-6.35199
4030	0.68768	-8.7857	0.2918	10.85317	0.2918	10.85317	0.68768	-8.7857
4050	0.72509	-11.48539	0.27256	18.94415	0.27256	18.94415	0.72509	-11.48539
4070	0.7514	-13.96606	0.27146	27.53579	0.27146	27.53579	0.7514	-13.96606
4090	0.77187	-16.46988	0.28166	34.32145	0.28166	34.32145	0.77187	-16.46988
4110	0.78395	-18.99688	0.2966	39.74417	0.2966	39.74417	0.78395	-18.99688
4130	0.7906	-21.29189	0.3134	44.02856	0.3134	44.02856	0.7906	-21.29189
4150	0.80029	-22.84457	0.33288	47.18076	0.33288	47.18076	0.80029	-22.84457
4170	0.8059	-25.36608	0.358	48.80476	0.358	48.80476	0.8059	-25.36608
4190	0.80388	-27.54125	0.37579	49.77609	0.37579	49.77609	0.80388	-27.54125
4210	0.80224	-29.14809	0.39174	50.5684	0.39174	50.5684	0.80224	-29.14809
4230	0.80459	-30.42569	0.40855	51.21154	0.40855	51.21154	0.80459	-30.42569
4250	0.81015	-32.07424	0.42612	51.29149	0.42612	51.29149	0.81015	-32.07424
4270	0.80508	-33.14874	0.43882	51.82175	0.43882	51.82175	0.80508	-33.14874
4290	0.80318	-34.29257	0.45449	51.64638	0.45449	51.64638	0.80318	-34.29257
4310	0.80014	-35.45327	0.4676	51.29628	0.4676	51.29628	0.80014	-35.45327
4330	0.79536	-36.55496	0.4778	51.0886	0.4778	51.0886	0.79536	-36.55496
4350	0.79189	-37.49832	0.48991	51.12671	0.48991	51.12671	0.79189	-37.49832
4370	0.79043	-38.72614	0.50089	50.61559	0.50089	50.61559	0.79043	-38.72614
4390	0.78353	-39.77759	0.5094	50.07048	0.5094	50.07048	0.78353	-39.77759
4410	0.78328	-40.56429	0.51994	49.68565	0.51994	49.68565	0.78328	-40.56429
4430	0.78845	-41.18086	0.53121	49.50345	0.53121	49.50345	0.78845	-41.18086
4450	0.78453	-41.90488	0.53606	49.41427	0.53606	49.41427	0.78453	-41.90488
4470	0.78039	-42.25691	0.54534	49.2126	0.54534	49.2126	0.78039	-42.25691
4490	0.77249	-43.196	0.55125	48.58057	0.55125	48.58057	0.77249	-43.196
4510	0.76389	-43.85274	0.55446	48.22204	0.55446	48.22204	0.76389	-43.85274
4530	0.75881	-44.1194	0.5592	48.27817	0.5592	48.27817	0.75881	-44.1194
4550	0.76275	-44.64987	0.57329	48.32745	0.57329	48.32745	0.76275	-44.64987
4570	0.75656	-46.27036	0.5793	47.08604	0.5793	47.08604	0.75656	-46.27036
4590	0.74865	-46.73667	0.58062	46.80565	0.58062	46.80565	0.74865	-46.73667
4610	0.74751	-46.86288	0.58593	46.8239	0.58593	46.8239	0.74751	-46.86288
4630	0.7506	-47.29022	0.59509	46.59781	0.59509	46.59781	0.7506	-47.29022
4650	0.74435	-48.48702	0.59906	45.7038	0.59906	45.7038	0.74435	-48.48702
4670	0.73782	-48.62301	0.60203	45.50177	0.60203	45.50177	0.73782	-48.62301
4690	0.73502	-49.05677	0.605	45.22332	0.605	45.22332	0.73502	-49.05677
4710	0.73198	-49.56899	0.61004	44.90217	0.61004	44.90217	0.73198	-49.56899
4730	0.72798	-50.08408	0.61687	44.63931	0.61687	44.63931	0.72798	-50.08408
4750	0.72555	-50.67024	0.62279	44.60295	0.62279	44.60295	0.72555	-50.67024
4770	0.71614	-51.10887	0.62364	44.27527	0.62364	44.27527	0.71614	-51.10887
4790	0.71509	-51.53571	0.62672	44.06013	0.62672	44.06013	0.71509	-51.53571
4810	0.71407	-52.0482	0.6319	43.72177	0.6319	43.72177	0.71407	-52.0482
4830	0.71008	-52.55573	0.63749	43.22524	0.63749	43.22524	0.71008	-52.55573
4850	0.70542	-52.77961	0.64032	42.7364	0.64032	42.7364	0.70542	-52.77961
4870	0.70527	-52.83508	0.64709	42.63643	0.64709	42.63643	0.70527	-52.83508
4890	0.6999	-53.5751	0.64611	42.09663	0.64611	42.09663	0.6999	-53.5751
4910	0.69337	-53.98464	0.64676	41.83336	0.64676	41.83336	0.69337	-53.98464
4930	0.68949	-54.07449	0.65196	41.78653	0.65196	41.78653	0.68949	-54.07449
4950	0.69186	-54.88127	0.65816	41.1197	0.65816	41.1197	0.69186	-54.88127
4970	0.68368	-55.43623	0.65756	41.11763	0.65756	41.11763	0.68368	-55.43623
4990	0.68203	-55.717	0.66151	40.97208	0.66151	40.97208	0.68203	-55.717
5010	0.68343	-56.15793	0.66702	40.55914	0.66702	40.55914	0.68343	-56.15793
5030	0.6835	-56.72618	0.67008	40.01917	0.67008	40.01917	0.6835	-56.72618
5050	0.67702	-56.92167	0.66568	39.75681	0.66568	39.75681	0.67702	-56.92167
5070	0.67761	-56.49983	0.67258	39.59847	0.67258	39.59847	0.67761	-56.49983
5090	0.68126	-56.77746	0.67874	39.40088	0.67874	39.40088	0.68126	-56.77746
5110	0.67619	-57.17946	0.68166	38.93324	0.68166	38.93324	0.67619	-57.17946
5130	0.66359	-57.34579	0.68212	38.42614	0.68212	38.42614	0.66359	-57.34579
5150	0.65757	-57.13153	0.68422	38.57161	0.68422	38.57161	0.65757	-57.13153
5170	0.66199	-57.70013	0.68902	38.38865	0.68902	38.38865	0.66199	-57.70013
5190	0.65671	-58.45304	0.68998	37.76723	0.68998	37.76723	0.65671	-58.45304
5210	0.64873	-58.67847	0.6904	37.23671	0.6904	37.23671	0.64873	-58.67847
5230	0.64442	-58.30717	0.69267	36.99037	0.69267	36.99037	0.64442	-58.30717
5250	0.64951	-57.91243	0.69835	36.88542	0.69835	36.88542	0.64951	-57.91243
5270	0.64153	-59.0508	0.69795	36.08521	0.69795	36.08521	0.64153	-59.0508
5290	0.62812	-59.16199	0.69669	35.86752	0.69669	35.86752	0.62812	-59.16199
5310	0.62402	-58.86049	0.70107	35.68964	0.70107	35.68964	0.62402	-58.86049
5330	0.62729	-58.87312	0.70816	35.15871	0.70816	35.15871	0.62729	-58.87312
5350	0.61932	-60.03905	0.70556	34.03167	0.70556	34.03167	0.61932	-60.03905
5370	0.60868	-59.7249	0.6997	34.36683	0.6997	34.36683	0.60868	-59.7249
5390	0.60211	-59.19866	0.70347	34.1013	0.70347	34.1013	0.60211	-59.19866
5410	0.59874	-58.80246	0.70437	33.51737	0.70437	33.51737	0.59874	-58.80246
