#	mhz	s	ma	r	50

50	0.92	168.80	0.18	72.00	0.18	72.00	0.92	168.80
100	0.88	159.60	0.32	64.60	0.32	64.60	0.88	159.60
150	0.85	150.30	0.47	57.30	0.47	57.30	0.85	150.30
200	0.78	143.60	0.56	51.30	0.56	51.30	0.78	143.60
250	0.71	136.90	0.65	45.30	0.65	45.30	0.71	136.90
300	0.65	131.40	0.70	40.30	0.70	40.30	0.65	131.40
350	0.60	125.90	0.76	35.30	0.76	35.30	0.60	125.90
400	0.55	122.00	0.80	31.90	0.80	31.90	0.55	122.00
450	0.50	118.00	0.83	28.50	0.83	28.50	0.50	118.00
500	0.46	112.90	0.86	24.60	0.86	24.60	0.46	112.90
550	0.41	107.80	0.90	20.80	0.90	20.80	0.41	107.80
600	0.38	105.80	0.91	18.60	0.91	18.60	0.38	105.80
650	0.35	103.70	0.92	16.50	0.92	16.50	0.35	103.70
700	0.33	100.90	0.93	14.90	0.93	14.90	0.33	100.90
750	0.31	98.10	0.94	13.20	0.94	13.20	0.31	98.10
800	0.29	96.80	0.94	11.60	0.94	11.60	0.29	96.80
850	0.28	95.40	0.95	10.00	0.95	10.00	0.28	95.40
900	0.26	93.70	0.95	8.70	0.95	8.70	0.26	93.70
950	0.24	92.00	0.96	7.40	0.96	7.40	0.24	92.00
1000	0.23	90.40	0.96	6.20	0.96	6.20	0.23	90.40
1050	0.22	88.70	0.96	5.00	0.96	5.00	0.22	88.70
1100	0.20	87.10	0.97	3.90	0.97	3.90	0.20	87.10
1150	0.19	85.40	0.97	2.80	0.97	2.80	0.19	85.40
1200	0.18	83.90	0.97	1.80	0.97	1.80	0.18	83.90
1250	0.17	82.40	0.97	0.80	0.97	0.80	0.17	82.40
1300	0.16	80.60	0.98	-0.10	0.98	-0.10	0.16	80.60
1350	0.16	78.90	0.98	-1.00	0.98	-1.00	0.16	78.90
1400	0.15	77.60	0.98	-1.90	0.98	-1.90	0.15	77.60
1450	0.14	76.30	0.98	-2.80	0.98	-2.80	0.14	76.30
1500	0.13	74.70	0.98	-3.60	0.98	-3.60	0.13	74.70
1550	0.12	73.10	0.98	-4.50	0.98	-4.50	0.12	73.10
1600	0.12	71.50	0.98	-5.40	0.98	-5.40	0.12	71.50
1650	0.11	70.00	0.98	-6.20	0.98	-6.20	0.11	70.00
1700	0.10	68.60	0.99	-7.00	0.99	-7.00	0.10	68.60
1750	0.09	67.30	0.99	-7.80	0.99	-7.80	0.09	67.30
1800	0.09	65.00	0.99	-8.50	0.99	-8.50	0.09	65.00
1850	0.08	62.70	0.99	-9.30	0.99	-9.30	0.08	62.70
1900	0.08	60.40	0.99	-10.00	0.99	-10.00	0.08	60.40
1950	0.07	58.00	0.99	-10.60	0.99	-10.60	0.07	58.00
2000	0.06	55.90	0.99	-11.50	0.99	-11.50	0.06	55.90
2050	0.06	53.90	0.99	-12.30	0.99	-12.30	0.06	53.90
2100	0.05	50.50	0.99	-13.00	0.99	-13.00	0.05	50.50
2150	0.05	47.10	0.99	-13.60	0.99	-13.60	0.05	47.10
2200	0.04	43.50	0.99	-14.40	0.99	-14.40	0.04	43.50
2250	0.03	39.90	0.99	-15.10	0.99	-15.10	0.03	39.90
2300	0.03	31.40	0.99	-15.70	0.99	-15.70	0.03	31.40
2350	0.03	23.00	0.99	-16.30	0.99	-16.30	0.03	23.00
2400	0.02	8.90	0.99	-17.10	0.99	-17.10	0.02	8.90
2450	0.02	-5.20	0.99	-17.90	0.99	-17.90	0.02	-5.20
2500	0.02	-23.50	0.99	-18.50	0.99	-18.50	0.02	-23.50
2550	0.02	-41.80	0.99	-19.20	0.99	-19.20	0.02	-41.80
2600	0.02	-54.90	0.99	-19.80	0.99	-19.80	0.02	-54.90
2650	0.03	-67.90	0.99	-20.40	0.99	-20.40	0.03	-67.90
2700	0.03	-75.80	0.99	-21.10	0.99	-21.10	0.03	-75.80
2750	0.03	-83.70	0.99	-21.70	0.99	-21.70	0.03	-83.70
2800	0.04	-87.30	0.99	-22.30	0.99	-22.30	0.04	-87.30
2850	0.04	-91.00	0.99	-22.90	0.99	-22.90	0.04	-91.00
2900	0.05	-93.90	0.99	-23.70	0.99	-23.70	0.05	-93.90
2950	0.05	-96.70	0.99	-24.60	0.99	-24.60	0.05	-96.70
3000	0.06	-98.40	0.99	-25.10	0.99	-25.10	0.06	-98.40
3050	0.06	-100.10	0.99	-25.70	0.99	-25.70	0.06	-100.10
3100	0.06	-101.40	0.98	-26.40	0.98	-26.40	0.06	-101.40
3150	0.07	-102.70	0.98	-27.20	0.98	-27.20	0.07	-102.70
3200	0.07	-103.40	0.98	-27.70	0.98	-27.70	0.07	-103.40
3250	0.08	-104.10	0.99	-28.20	0.99	-28.20	0.08	-104.10
3300	0.08	-105.50	0.99	-28.90	0.99	-28.90	0.08	-105.50
3350	0.08	-106.90	0.99	-29.60	0.99	-29.60	0.08	-106.90
3400	0.09	-108.00	0.99	-30.20	0.99	-30.20	0.09	-108.00
3450	0.09	-109.10	0.99	-30.80	0.99	-30.80	0.09	-109.10
3500	0.10	-109.80	0.98	-31.40	0.98	-31.40	0.10	-109.80
3550	0.10	-110.60	0.98	-32.00	0.98	-32.00	0.10	-110.60
3600	0.10	-111.00	0.99	-32.50	0.99	-32.50	0.10	-111.00
3650	0.11	-111.50	0.99	-33.10	0.99	-33.10	0.11	-111.50
3700	0.11	-112.10	0.99	-33.80	0.99	-33.80	0.11	-112.10
3750	0.12	-112.70	0.98	-34.60	0.98	-34.60	0.12	-112.70
3800	0.12	-112.60	0.98	-35.10	0.98	-35.10	0.12	-112.60
3850	0.13	-112.40	0.98	-35.60	0.98	-35.60	0.13	-112.40
3900	0.13	-113.00	0.98	-36.40	0.98	-36.40	0.13	-113.00
3950	0.13	-113.50	0.98	-37.20	0.98	-37.20	0.13	-113.50
4000	0.13	-113.40	0.98	-37.70	0.98	-37.70	0.13	-113.40
4050	0.14	-113.30	0.98	-38.20	0.98	-38.20	0.14	-113.30
4100	0.14	-113.40	0.98	-38.80	0.98	-38.80	0.14	-113.40
4150	0.14	-113.60	0.98	-39.40	0.98	-39.40	0.14	-113.60
4200	0.14	-114.20	0.98	-40.00	0.98	-40.00	0.14	-114.20
4250	0.15	-114.80	0.98	-40.70	0.98	-40.70	0.15	-114.80
4300	0.15	-115.00	0.98	-41.10	0.98	-41.10	0.15	-115.00
4350	0.15	-115.30	0.98	-41.50	0.98	-41.50	0.15	-115.30
4400	0.16	-115.60	0.98	-42.20	0.98	-42.20	0.16	-115.60
4450	0.16	-116.00	0.98	-42.90	0.98	-42.90	0.16	-116.00
4500	0.16	-116.50	0.98	-43.60	0.98	-43.60	0.16	-116.50
4550	0.16	-116.90	0.98	-44.30	0.98	-44.30	0.16	-116.90
4600	0.17	-118.10	0.98	-45.00	0.98	-45.00	0.17	-118.10
4650	0.17	-119.30	0.98	-45.80	0.98	-45.80	0.17	-119.30
4700	0.17	-120.40	0.98	-46.30	0.98	-46.30	0.17	-120.40
4750	0.17	-121.60	0.98	-46.80	0.98	-46.80	0.17	-121.60
4800	0.17	-122.40	0.97	-47.40	0.97	-47.40	0.17	-122.40
4850	0.18	-123.20	0.97	-48.00	0.97	-48.00	0.18	-123.20
4900	0.18	-124.80	0.97	-48.70	0.97	-48.70	0.18	-124.80
4950	0.18	-126.40	0.98	-49.40	0.98	-49.40	0.18	-126.40
5000	0.19	-127.50	0.97	-50.00	0.97	-50.00	0.19	-127.50
5050	0.19	-128.60	0.97	-50.70	0.97	-50.70	0.19	-128.60
5100	0.19	-129.80	0.97	-51.20	0.97	-51.20	0.19	-129.80
5150	0.19	-131.00	0.97	-51.70	0.97	-51.70	0.19	-131.00
5200	0.20	-132.30	0.97	-52.20	0.97	-52.20	0.20	-132.30
5250	0.20	-133.60	0.97	-52.70	0.97	-52.70	0.20	-133.60
5300	0.21	-134.90	0.97	-53.50	0.97	-53.50	0.21	-134.90
5350	0.21	-136.30	0.97	-54.30	0.97	-54.30	0.21	-136.30
5400	0.21	-137.40	0.96	-54.90	0.96	-54.90	0.21	-137.40
5450	0.22	-138.60	0.96	-55.50	0.96	-55.50	0.22	-138.60
5500	0.22	-139.50	0.96	-56.10	0.96	-56.10	0.22	-139.50
5550	0.22	-140.40	0.96	-56.70	0.96	-56.70	0.22	-140.40
5600	0.23	-141.90	0.96	-57.40	0.96	-57.40	0.23	-141.90
5650	0.23	-143.40	0.96	-58.00	0.96	-58.00	0.23	-143.40
5700	0.23	-144.50	0.96	-58.60	0.96	-58.60	0.23	-144.50
5750	0.24	-145.60	0.97	-59.20	0.97	-59.20	0.24	-145.60
5800	0.24	-146.90	0.96	-59.80	0.96	-59.80	0.24	-146.90
5850	0.24	-148.20	0.96	-60.40	0.96	-60.40	0.24	-148.20
5900	0.24	-149.60	0.96	-61.00	0.96	-61.00	0.24	-149.60
5950	0.25	-151.00	0.96	-61.50	0.96	-61.50	0.25	-151.00
6000	0.26	-151.30	0.95	-62.40	0.95	-62.40	0.26	-151.30
6050	0.28	-151.70	0.95	-63.20	0.95	-63.20	0.28	-151.70
6100	0.28	-153.10	0.95	-63.70	0.95	-63.70	0.28	-153.10
6150	0.28	-154.60	0.94	-64.10	0.94	-64.10	0.28	-154.60
6200	0.28	-155.80	0.94	-64.70	0.94	-64.70	0.28	-155.80
6250	0.28	-157.00	0.94	-65.30	0.94	-65.30	0.28	-157.00
6300	0.29	-158.30	0.94	-65.80	0.94	-65.80	0.29	-158.30
6350	0.30	-159.60	0.94	-66.30	0.94	-66.30	0.30	-159.60
6400	0.31	-160.70	0.94	-66.90	0.94	-66.90	0.31	-160.70
6450	0.31	-161.80	0.93	-67.50	0.93	-67.50	0.31	-161.80
6500	0.31	-162.80	0.93	-68.20	0.93	-68.20	0.31	-162.80
6550	0.32	-163.70	0.93	-68.80	0.93	-68.80	0.32	-163.70
6600	0.32	-165.30	0.93	-69.40	0.93	-69.40	0.32	-165.30
6650	0.32	-167.00	0.93	-70.00	0.93	-70.00	0.32	-167.00
6700	0.33	-167.90	0.93	-70.40	0.93	-70.40	0.33	-167.90
6750	0.33	-168.80	0.92	-70.80	0.92	-70.80	0.33	-168.80
6800	0.34	-170.00	0.92	-71.50	0.92	-71.50	0.34	-170.00
6850	0.34	-171.20	0.93	-72.20	0.93	-72.20	0.34	-171.20
6900	0.34	-172.30	0.92	-72.80	0.92	-72.80	0.34	-172.30
6950	0.34	-173.50	0.92	-73.30	0.92	-73.30	0.34	-173.50
7000	0.34	-174.90	0.92	-74.10	0.92	-74.10	0.34	-174.90
7050	0.35	-176.40	0.92	-74.80	0.92	-74.80	0.35	-176.40
7100	0.35	-177.60	0.92	-75.30	0.92	-75.30	0.35	-177.60
7150	0.35	-178.80	0.92	-75.90	0.92	-75.90	0.35	-178.80
7200	0.36	-0.10	0.92	-76.70	0.92	-76.70	0.36	-0.10
7250	0.36	178.60	0.92	-77.50	0.92	-77.50	0.36	178.60
7300	0.37	177.30	0.92	-78.20	0.92	-78.20	0.37	177.30
7350	0.37	175.90	0.91	-78.90	0.91	-78.90	0.37	175.90
7400	0.37	174.20	0.91	-79.60	0.91	-79.60	0.37	174.20
7450	0.38	172.60	0.91	-80.30	0.91	-80.30	0.38	172.60
7500	0.38	171.50	0.91	-81.20	0.91	-81.20	0.38	171.50
7550	0.38	170.50	0.90	-82.00	0.90	-82.00	0.38	170.50
7600	0.39	169.10	0.90	-82.70	0.90	-82.70	0.39	169.10
7650	0.39	167.70	0.90	-83.40	0.90	-83.40	0.39	167.70
7700	0.39	166.60	0.90	-84.20	0.90	-84.20	0.39	166.60
7750	0.39	165.50	0.90	-85.00	0.90	-85.00	0.39	165.50
7800	0.40	163.90	0.89	-86.00	0.89	-86.00	0.40	163.90
7850	0.41	162.40	0.89	-86.90	0.89	-86.90	0.41	162.40
7900	0.41	161.40	0.89	-87.70	0.89	-87.70	0.41	161.40
7950	0.41	160.40	0.89	-88.60	0.89	-88.60	0.41	160.40
8000	0.42	159.20	0.88	-89.50	0.88	-89.50	0.42	159.20
8050	0.43	158.10	0.88	-90.40	0.88	-90.40	0.43	158.10
8100	0.43	156.70	0.88	-91.50	0.88	-91.50	0.43	156.70
8150	0.44	155.30	0.88	-92.50	0.88	-92.50	0.44	155.30
8200	0.44	154.30	0.87	-93.60	0.87	-93.60	0.44	154.30
8250	0.45	153.20	0.86	-94.60	0.86	-94.60	0.45	153.20
8300	0.46	152.00	0.86	-95.90	0.86	-95.90	0.46	152.00
8350	0.47	150.90	0.85	-97.10	0.85	-97.10	0.47	150.90
8400	0.48	149.60	0.84	-98.30	0.84	-98.30	0.48	149.60
8450	0.49	148.30	0.83	-99.50	0.83	-99.50	0.49	148.30
8500	0.50	147.00	0.82	-101.00	0.82	-101.00	0.50	147.00
8550	0.50	145.70	0.81	-102.50	0.81	-102.50	0.50	145.70
8600	0.52	143.90	0.80	-104.00	0.80	-104.00	0.52	143.90
8650	0.53	142.20	0.79	-105.40	0.79	-105.40	0.53	142.20
8700	0.55	140.70	0.77	-107.00	0.77	-107.00	0.55	140.70
8750	0.56	139.20	0.75	-108.60	0.75	-108.60	0.56	139.20
8800	0.58	136.60	0.73	-110.10	0.73	-110.10	0.58	136.60
8850	0.60	134.00	0.72	-111.60	0.72	-111.60	0.60	134.00
8900	0.61	131.70	0.69	-113.50	0.69	-113.50	0.61	131.70
8950	0.63	129.40	0.66	-115.50	0.66	-115.50	0.63	129.40
9000	0.65	126.20	0.62	-117.20	0.62	-117.20	0.65	126.20
9050	0.68	123.10	0.59	-118.90	0.59	-118.90	0.68	123.10
9100	0.70	119.30	0.54	-120.30	0.54	-120.30	0.70	119.30
9150	0.73	115.50	0.50	-121.60	0.50	-121.60	0.73	115.50
9200	0.74	110.10	0.44	-121.60	0.44	-121.60	0.74	110.10
9250	0.75	104.60	0.38	-121.50	0.38	-121.50	0.75	104.60
9300	0.75	100.00	0.32	-114.40	0.32	-114.40	0.75	100.00
9350	0.75	95.30	0.27	-107.30	0.27	-107.30	0.75	95.30
9400	0.74	88.60	0.26	-91.00	0.26	-91.00	0.74	88.60
9450	0.72	81.90	0.25	-74.70	0.25	-74.70	0.72	81.90
9500	0.68	75.70	0.31	-64.60	0.31	-64.60	0.68	75.70
9550	0.64	69.40	0.37	-54.50	0.37	-54.50	0.64	69.40
9600	0.60	62.70	0.45	-54.00	0.45	-54.00	0.60	62.70
9650	0.55	56.00	0.52	-53.50	0.52	-53.50	0.55	56.00
9700	0.49	49.90	0.59	-55.80	0.59	-55.80	0.49	49.90
9750	0.43	43.70	0.66	-58.00	0.66	-58.00	0.43	43.70
9800	0.37	37.30	0.71	-61.10	0.71	-61.10	0.37	37.30
9850	0.32	30.80	0.76	-64.20	0.76	-64.20	0.32	30.80
9900	0.26	24.50	0.79	-67.60	0.79	-67.60	0.26	24.50
9950	0.21	18.20	0.83	-70.90	0.83	-70.90	0.21	18.20
10000	0.17	10.10	0.85	-73.60	0.85	-73.60	0.17	10.10
10050	0.13	1.90	0.87	-76.40	0.87	-76.40	0.13	1.90
10100	0.09	-18.60	0.88	-78.90	0.88	-78.90	0.09	-18.60
10150	0.06	-39.10	0.90	-81.40	0.90	-81.40	0.06	-39.10
10200	0.05	-79.90	0.91	-83.60	0.91	-83.60	0.05	-79.90
10250	0.05	-120.60	0.92	-85.90	0.92	-85.90	0.05	-120.60
10300	0.08	-135.50	0.91	-87.90	0.91	-87.90	0.08	-135.50
10350	0.11	-150.30	0.91	-90.00	0.91	-90.00	0.11	-150.30
10400	0.13	-158.00	0.92	-91.80	0.92	-91.80	0.13	-158.00
10450	0.16	-165.70	0.92	-93.70	0.92	-93.70	0.16	-165.70
10500	0.18	-169.30	0.92	-95.40	0.92	-95.40	0.18	-169.30
10550	0.20	-172.80	0.92	-97.10	0.92	-97.10	0.20	-172.80
10600	0.22	2.90	0.92	-98.50	0.92	-98.50	0.22	2.90
10650	0.24	178.60	0.91	-99.90	0.91	-99.90	0.24	178.60
10700	0.26	176.10	0.91	-101.50	0.91	-101.50	0.26	176.10
10750	0.28	173.50	0.91	-103.00	0.91	-103.00	0.28	173.50
10800	0.30	171.90	0.90	-104.00	0.90	-104.00	0.30	171.90
10850	0.32	170.20	0.90	-105.10	0.90	-105.10	0.32	170.20
10900	0.33	166.70	0.89	-106.40	0.89	-106.40	0.33	166.70
10950	0.34	163.20	0.88	-107.80	0.88	-107.80	0.34	163.20
11000	0.35	162.30	0.88	-108.80	0.88	-108.80	0.35	162.30
11050	0.37	161.40	0.89	-109.80	0.89	-109.80	0.37	161.40
11100	0.38	158.70	0.88	-111.00	0.88	-111.00	0.38	158.70
11150	0.40	156.00	0.87	-112.20	0.87	-112.20	0.40	156.00
11200	0.40	154.10	0.87	-113.20	0.87	-113.20	0.40	154.10
11250	0.41	152.20	0.87	-114.30	0.87	-114.30	0.41	152.20
11300	0.42	150.50	0.86	-115.30	0.86	-115.30	0.42	150.50
11350	0.43	148.80	0.86	-116.30	0.86	-116.30	0.43	148.80
11400	0.44	146.40	0.85	-117.50	0.85	-117.50	0.44	146.40
11450	0.45	144.00	0.85	-118.80	0.85	-118.80	0.45	144.00
11500	0.46	141.90	0.84	-119.70	0.84	-119.70	0.46	141.90
11550	0.47	139.90	0.84	-120.60	0.84	-120.60	0.47	139.90
11600	0.48	137.90	0.83	-121.80	0.83	-121.80	0.48	137.90
11650	0.49	135.90	0.83	-123.00	0.83	-123.00	0.49	135.90
11700	0.50	134.00	0.82	-123.90	0.82	-123.90	0.50	134.00
11750	0.51	132.20	0.82	-124.90	0.82	-124.90	0.51	132.20
11800	0.52	130.40	0.81	-125.60	0.81	-125.60	0.52	130.40
11850	0.52	128.60	0.80	-126.40	0.80	-126.40	0.52	128.60
11900	0.54	127.60	0.79	-127.60	0.79	-127.60	0.54	127.60
11950	0.55	126.60	0.79	-128.80	0.79	-128.80	0.55	126.60
12000	0.56	125.30	0.78	-129.40	0.78	-129.40	0.56	125.30
12050	0.57	124.00	0.76	-129.90	0.76	-129.90	0.57	124.00
12100	0.58	122.60	0.76	-131.00	0.76	-131.00	0.58	122.60
12150	0.59	121.20	0.76	-132.10	0.76	-132.10	0.59	121.20
12200	0.60	120.20	0.75	-132.90	0.75	-132.90	0.60	120.20
12250	0.60	119.10	0.74	-133.60	0.74	-133.60	0.60	119.10
12300	0.61	118.20	0.73	-134.80	0.73	-134.80	0.61	118.20
12350	0.61	117.20	0.72	-135.90	0.72	-135.90	0.61	117.20
12400	0.62	115.80	0.72	-136.80	0.72	-136.80	0.62	115.80
12450	0.63	114.40	0.72	-137.70	0.72	-137.70	0.63	114.40
12500	0.63	112.70	0.71	-138.90	0.71	-138.90	0.63	112.70
12550	0.64	110.90	0.70	-140.20	0.70	-140.20	0.64	110.90
12600	0.65	110.00	0.69	-141.30	0.69	-141.30	0.65	110.00
12650	0.65	109.00	0.68	-142.40	0.68	-142.40	0.65	109.00
12700	0.66	107.40	0.67	-143.30	0.67	-143.30	0.66	107.40
12750	0.66	105.90	0.66	-144.30	0.66	-144.30	0.66	105.90
12800	0.67	103.80	0.65	-145.90	0.65	-145.90	0.67	103.80
12850	0.68	101.60	0.64	-147.60	0.64	-147.60	0.68	101.60
12900	0.69	100.40	0.63	-148.40	0.63	-148.40	0.69	100.40
12950	0.70	99.10	0.62	-149.10	0.62	-149.10	0.70	99.10
13000	0.70	97.30	0.60	-150.70	0.60	-150.70	0.70	97.30
13050	0.70	95.50	0.58	-152.20	0.58	-152.20	0.70	95.50
13100	0.71	93.80	0.57	-153.10	0.57	-153.10	0.71	93.80
13150	0.71	92.10	0.56	-153.90	0.56	-153.90	0.71	92.10
13200	0.72	90.80	0.54	-154.70	0.54	-154.70	0.72	90.80
13250	0.73	89.40	0.53	-155.50	0.53	-155.50	0.73	89.40
13300	0.73	89.20	0.51	-157.00	0.51	-157.00	0.73	89.20
13350	0.72	88.90	0.50	-158.60	0.50	-158.60	0.72	88.90
13400	0.74	85.60	0.48	-159.50	0.48	-159.50	0.74	85.60
13450	0.77	82.30	0.47	-160.50	0.47	-160.50	0.77	82.30
13500	0.78	80.50	0.45	-161.60	0.45	-161.60	0.78	80.50
13550	0.79	78.70	0.43	-162.80	0.43	-162.80	0.79	78.70
13600	0.80	76.40	0.41	-164.00	0.41	-164.00	0.80	76.40
13650	0.81	74.00	0.40	-165.30	0.40	-165.30	0.81	74.00
13700	0.81	71.90	0.38	-166.20	0.38	-166.20	0.81	71.90
13750	0.81	69.70	0.35	-167.10	0.35	-167.10	0.81	69.70
13800	0.82	67.00	0.33	-167.70	0.33	-167.70	0.82	67.00
13850	0.82	64.30	0.31	-168.30	0.31	-168.30	0.82	64.30
13900	0.83	61.60	0.29	-168.40	0.29	-168.40	0.83	61.60
13950	0.84	58.80	0.27	-168.40	0.27	-168.40	0.84	58.80
14000	0.84	56.00	0.24	-167.90	0.24	-167.90	0.84	56.00
14050	0.84	53.10	0.22	-167.50	0.22	-167.50	0.84	53.10
14100	0.85	50.20	0.19	-164.80	0.19	-164.80	0.85	50.20
14150	0.86	47.30	0.17	-162.10	0.17	-162.10	0.86	47.30
14200	0.86	44.60	0.15	-156.00	0.15	-156.00	0.86	44.60
14250	0.87	41.90	0.13	-149.90	0.13	-149.90	0.87	41.90
14300	0.87	38.50	0.12	-138.10	0.12	-138.10	0.87	38.50
14350	0.87	35.20	0.11	-126.20	0.11	-126.20	0.87	35.20
14400	0.87	33.00	0.12	-112.80	0.12	-112.80	0.87	33.00
14450	0.88	30.80	0.12	-99.30	0.12	-99.30	0.88	30.80
14500	0.87	28.00	0.14	-91.40	0.14	-91.40	0.87	28.00
14550	0.86	25.20	0.16	-83.40	0.16	-83.40	0.86	25.20
14600	0.87	23.10	0.18	-79.90	0.18	-79.90	0.87	23.10
14650	0.87	21.10	0.21	-76.40	0.21	-76.40	0.87	21.10
14700	0.86	18.40	0.23	-75.50	0.23	-75.50	0.86	18.40
14750	0.84	15.80	0.26	-74.60	0.26	-74.60	0.84	15.80
14800	0.84	13.60	0.29	-74.90	0.29	-74.90	0.84	13.60
14850	0.84	11.40	0.31	-75.20	0.31	-75.20	0.84	11.40
14900	0.82	10.10	0.34	-75.50	0.34	-75.50	0.82	10.10
14950	0.81	8.70	0.37	-75.90	0.37	-75.90	0.81	8.70
15000	0.80	5.80	0.39	-77.50	0.39	-77.50	0.80	5.80
15050	0.78	2.90	0.41	-79.10	0.41	-79.10	0.78	2.90
15100	0.77	1.70	0.43	-80.00	0.43	-80.00	0.77	1.70
15150	0.75	0.40	0.46	-80.90	0.46	-80.90	0.75	0.40
15200	0.74	-1.50	0.48	-82.30	0.48	-82.30	0.74	-1.50
15250	0.73	-3.40	0.50	-83.70	0.50	-83.70	0.73	-3.40
15300	0.72	-5.70	0.52	-85.60	0.52	-85.60	0.72	-5.70
15350	0.71	-7.90	0.54	-87.50	0.54	-87.50	0.71	-7.90
15400	0.68	-9.20	0.55	-88.60	0.55	-88.60	0.68	-9.20
15450	0.66	-10.50	0.56	-89.60	0.56	-89.60	0.66	-10.50
15500	0.65	-11.50	0.58	-91.40	0.58	-91.40	0.65	-11.50
15550	0.65	-12.60	0.60	-93.20	0.60	-93.20	0.65	-12.60
15600	0.63	-14.00	0.62	-94.50	0.62	-94.50	0.63	-14.00
15650	0.62	-15.50	0.63	-95.70	0.63	-95.70	0.62	-15.50
15700	0.60	-16.50	0.64	-97.30	0.64	-97.30	0.60	-16.50
15750	0.59	-17.50	0.65	-98.90	0.65	-98.90	0.59	-17.50
15800	0.57	-18.10	0.66	-99.90	0.66	-99.90	0.57	-18.10
15850	0.55	-18.80	0.67	-100.80	0.67	-100.80	0.55	-18.80
15900	0.54	-20.20	0.69	-102.00	0.69	-102.00	0.54	-20.20
15950	0.52	-21.60	0.70	-103.10	0.70	-103.10	0.52	-21.60
16000	0.50	-22.10	0.72	-104.30	0.72	-104.30	0.50	-22.10
16050	0.48	-22.50	0.74	-105.40	0.74	-105.40	0.48	-22.50
16100	0.45	-24.60	0.75	-107.30	0.75	-107.30	0.45	-24.60
16150	0.42	-26.70	0.76	-109.10	0.76	-109.10	0.42	-26.70
16200	0.38	-27.80	0.78	-110.90	0.78	-110.90	0.38	-27.80
16250	0.35	-28.90	0.79	-112.70	0.79	-112.70	0.35	-28.90
16300	0.31	-31.10	0.81	-115.00	0.81	-115.00	0.31	-31.10
16350	0.27	-33.30	0.82	-117.20	0.82	-117.20	0.27	-33.30
16400	0.23	-33.40	0.83	-119.30	0.83	-119.30	0.23	-33.40
16450	0.19	-33.60	0.83	-121.50	0.83	-121.50	0.19	-33.60
16500	0.16	-36.10	0.83	-123.60	0.83	-123.60	0.16	-36.10
16550	0.12	-38.70	0.83	-125.60	0.83	-125.60	0.12	-38.70
16600	0.09	-31.10	0.84	-127.90	0.84	-127.90	0.09	-31.10
16650	0.05	-23.50	0.84	-130.30	0.84	-130.30	0.05	-23.50
16700	0.04	28.10	0.84	-132.50	0.84	-132.50	0.04	28.10
16750	0.04	79.70	0.84	-134.70	0.84	-134.70	0.04	79.70
16800	0.07	87.40	0.84	-137.20	0.84	-137.20	0.07	87.40
16850	0.11	95.10	0.83	-139.60	0.83	-139.60	0.11	95.10
16900	0.15	92.70	0.82	-142.20	0.82	-142.20	0.15	92.70
16950	0.18	90.30	0.81	-144.70	0.81	-144.70	0.18	90.30
17000	0.23	87.00	0.79	-147.20	0.79	-147.20	0.23	87.00
17050	0.27	83.80	0.77	-149.70	0.77	-149.70	0.27	83.80
17100	0.31	80.00	0.75	-152.40	0.75	-152.40	0.31	80.00
17150	0.35	76.30	0.73	-155.00	0.73	-155.00	0.35	76.30
17200	0.39	72.80	0.70	-157.10	0.70	-157.10	0.39	72.80
17250	0.44	69.30	0.67	-159.20	0.67	-159.20	0.44	69.30
17300	0.48	65.80	0.64	-161.40	0.64	-161.40	0.48	65.80
17350	0.52	62.40	0.61	-163.60	0.61	-163.60	0.52	62.40
17400	0.56	59.30	0.57	-164.90	0.57	-164.90	0.56	59.30
17450	0.60	56.20	0.53	-166.30	0.53	-166.30	0.60	56.20
17500	0.63	52.90	0.49	-167.20	0.49	-167.20	0.63	52.90
17550	0.66	49.60	0.45	-168.10	0.45	-168.10	0.66	49.60
17600	0.68	46.20	0.41	-167.70	0.41	-167.70	0.68	46.20
17650	0.71	42.80	0.37	-167.30	0.37	-167.30	0.71	42.80
17700	0.73	39.60	0.33	-163.90	0.33	-163.90	0.73	39.60
17750	0.75	36.30	0.29	-160.60	0.29	-160.60	0.75	36.30
17800	0.76	31.80	0.27	-153.80	0.27	-153.80	0.76	31.80
17850	0.77	27.40	0.25	-147.10	0.25	-147.10	0.77	27.40
17900	0.76	24.10	0.24	-136.90	0.24	-136.90	0.76	24.10
17950	0.76	20.90	0.24	-126.60	0.24	-126.60	0.76	20.90
18000	0.75	16.50	0.26	-119.10	0.26	-119.10	0.75	16.50
18050	0.75	12.10	0.28	-111.50	0.28	-111.50	0.75	12.10
18100	0.74	7.70	0.32	-108.30	0.32	-108.30	0.74	7.70
18150	0.72	3.40	0.35	-105.00	0.35	-105.00	0.72	3.40
18200	0.72	-0.10	0.39	-104.30	0.39	-104.30	0.72	-0.10
18250	0.71	-3.50	0.43	-103.50	0.43	-103.50	0.71	-3.50
18300	0.70	-7.50	0.47	-104.20	0.47	-104.20	0.70	-7.50
18350	0.70	-11.50	0.51	-104.90	0.51	-104.90	0.70	-11.50
18400	0.69	-13.80	0.53	-106.00	0.53	-106.00	0.69	-13.80
18450	0.68	-16.20	0.56	-107.20	0.56	-107.20	0.68	-16.20
18500	0.67	-18.10	0.59	-108.40	0.59	-108.40	0.67	-18.10
18550	0.67	-20.00	0.63	-109.70	0.63	-109.70	0.67	-20.00
18600	0.66	-21.90	0.65	-111.50	0.65	-111.50	0.66	-21.90
