#	mhz	s	ma	r	50

50	0.94	173.90	0.10	75.60	0.10	75.60	0.94	173.90
100	0.94	168.30	0.19	72.20	0.19	72.20	0.94	168.30
150	0.94	162.70	0.28	68.70	0.28	68.70	0.94	162.70
200	0.90	158.10	0.35	64.60	0.35	64.60	0.90	158.10
250	0.87	153.50	0.42	60.50	0.42	60.50	0.87	153.50
300	0.84	149.00	0.48	56.20	0.48	56.20	0.84	149.00
350	0.80	144.50	0.54	51.80	0.54	51.80	0.80	144.50
400	0.76	140.90	0.59	48.50	0.59	48.50	0.76	140.90
450	0.73	137.40	0.64	45.20	0.64	45.20	0.73	137.40
500	0.68	132.10	0.69	40.80	0.69	40.80	0.68	132.10
550	0.64	126.90	0.75	36.50	0.75	36.50	0.64	126.90
600	0.61	124.50	0.77	33.80	0.77	33.80	0.61	124.50
650	0.58	122.10	0.79	31.20	0.79	31.20	0.58	122.10
700	0.55	119.50	0.81	29.10	0.81	29.10	0.55	119.50
750	0.52	116.80	0.83	26.90	0.83	26.90	0.52	116.80
800	0.50	115.10	0.85	24.90	0.85	24.90	0.50	115.10
850	0.48	113.40	0.86	22.90	0.86	22.90	0.48	113.40
900	0.46	111.50	0.87	21.10	0.87	21.10	0.46	111.50
950	0.44	109.60	0.88	19.40	0.88	19.40	0.44	109.60
1000	0.42	108.10	0.89	17.80	0.89	17.80	0.42	108.10
1050	0.40	106.50	0.90	16.20	0.90	16.20	0.40	106.50
1100	0.38	104.90	0.91	14.80	0.91	14.80	0.38	104.90
1150	0.37	103.20	0.92	13.40	0.92	13.40	0.37	103.20
1200	0.35	101.90	0.92	12.10	0.92	12.10	0.35	101.90
1250	0.34	100.60	0.92	10.80	0.92	10.80	0.34	100.60
1300	0.33	99.00	0.93	9.70	0.93	9.70	0.33	99.00
1350	0.32	97.50	0.94	8.50	0.94	8.50	0.32	97.50
1400	0.30	96.40	0.94	7.40	0.94	7.40	0.30	96.40
1450	0.29	95.40	0.94	6.30	0.94	6.30	0.29	95.40
1500	0.28	94.10	0.94	5.20	0.94	5.20	0.28	94.10
1550	0.27	92.80	0.95	4.10	0.95	4.10	0.27	92.80
1600	0.26	91.50	0.95	3.10	0.95	3.10	0.26	91.50
1650	0.25	90.30	0.95	2.10	0.95	2.10	0.25	90.30
1700	0.24	89.50	0.96	1.20	0.96	1.20	0.24	89.50
1750	0.23	88.80	0.96	0.20	0.96	0.20	0.23	88.80
1800	0.22	87.80	0.96	-0.60	0.96	-0.60	0.22	87.80
1850	0.22	86.70	0.97	-1.50	0.97	-1.50	0.22	86.70
1900	0.21	85.60	0.97	-2.30	0.97	-2.30	0.21	85.60
1950	0.20	84.50	0.97	-3.10	0.97	-3.10	0.20	84.50
2000	0.19	83.90	0.97	-4.10	0.97	-4.10	0.19	83.90
2050	0.18	83.40	0.97	-5.00	0.97	-5.00	0.18	83.40
2100	0.17	82.60	0.97	-5.70	0.97	-5.70	0.17	82.60
2150	0.17	81.70	0.98	-6.50	0.98	-6.50	0.17	81.70
2200	0.16	81.40	0.98	-7.30	0.98	-7.30	0.16	81.40
2250	0.15	81.10	0.98	-8.20	0.98	-8.20	0.15	81.10
2300	0.14	80.50	0.98	-8.90	0.98	-8.90	0.14	80.50
2350	0.14	80.00	0.98	-9.60	0.98	-9.60	0.14	80.00
2400	0.13	79.80	0.98	-10.40	0.98	-10.40	0.13	79.80
2450	0.12	79.60	0.98	-11.20	0.98	-11.20	0.12	79.60
2500	0.12	79.60	0.98	-12.00	0.98	-12.00	0.12	79.60
2550	0.11	79.50	0.98	-12.70	0.98	-12.70	0.11	79.50
2600	0.10	79.40	0.98	-13.40	0.98	-13.40	0.10	79.40
2650	0.10	79.30	0.98	-14.10	0.98	-14.10	0.10	79.30
2700	0.09	79.60	0.98	-14.80	0.98	-14.80	0.09	79.60
2750	0.08	79.90	0.98	-15.50	0.98	-15.50	0.08	79.90
2800	0.08	79.50	0.99	-16.10	0.99	-16.10	0.08	79.50
2850	0.07	79.00	0.99	-16.80	0.99	-16.80	0.07	79.00
2900	0.07	80.20	0.99	-17.60	0.99	-17.60	0.07	80.20
2950	0.06	81.40	0.99	-18.50	0.99	-18.50	0.06	81.40
3000	0.06	82.20	0.99	-19.10	0.99	-19.10	0.06	82.20
3050	0.05	83.10	0.99	-19.70	0.99	-19.70	0.05	83.10
3100	0.05	84.10	0.99	-20.60	0.99	-20.60	0.05	84.10
3150	0.04	85.00	0.98	-21.40	0.98	-21.40	0.04	85.00
3200	0.03	86.20	0.99	-21.90	0.99	-21.90	0.03	86.20
3250	0.03	87.50	0.99	-22.40	0.99	-22.40	0.03	87.50
3300	0.03	93.00	0.99	-23.20	0.99	-23.20	0.03	93.00
3350	0.02	98.50	0.99	-23.90	0.99	-23.90	0.02	98.50
3400	0.02	110.50	0.99	-24.50	0.99	-24.50	0.02	110.50
3450	0.01	122.60	0.99	-25.10	0.99	-25.10	0.01	122.60
3500	0.01	135.70	0.99	-25.70	0.99	-25.70	0.01	135.70
3550	0.01	148.90	0.99	-26.40	0.99	-26.40	0.01	148.90
3600	0.01	-10.80	0.99	-27.00	0.99	-27.00	0.01	-10.80
3650	0.02	-170.40	0.99	-27.60	0.99	-27.60	0.02	-170.40
3700	0.02	-161.10	0.99	-28.30	0.99	-28.30	0.02	-161.10
3750	0.02	-151.90	0.99	-29.10	0.99	-29.10	0.02	-151.90
3800	0.03	-145.00	0.99	-29.60	0.99	-29.60	0.03	-145.00
3850	0.03	-138.10	0.99	-30.10	0.99	-30.10	0.03	-138.10
3900	0.03	-136.20	0.99	-30.90	0.99	-30.90	0.03	-136.20
3950	0.03	-134.20	0.99	-31.80	0.99	-31.80	0.03	-134.20
4000	0.04	-131.10	0.99	-32.30	0.99	-32.30	0.04	-131.10
4050	0.04	-127.90	0.99	-32.80	0.99	-32.80	0.04	-127.90
4100	0.04	-126.40	0.99	-33.40	0.99	-33.40	0.04	-126.40
4150	0.05	-124.90	0.99	-34.10	0.99	-34.10	0.05	-124.90
4200	0.05	-123.70	0.99	-34.70	0.99	-34.70	0.05	-123.70
4250	0.05	-122.40	0.99	-35.40	0.99	-35.40	0.05	-122.40
4300	0.06	-121.70	0.99	-35.80	0.99	-35.80	0.06	-121.70
4350	0.06	-121.10	0.99	-36.30	0.99	-36.30	0.06	-121.10
4400	0.06	-120.00	0.99	-37.00	0.99	-37.00	0.06	-120.00
4450	0.07	-118.90	0.99	-37.70	0.99	-37.70	0.07	-118.90
4500	0.07	-118.90	0.99	-38.40	0.99	-38.40	0.07	-118.90
4550	0.07	-118.90	0.99	-39.10	0.99	-39.10	0.07	-118.90
4600	0.07	-119.50	0.99	-39.90	0.99	-39.90	0.07	-119.50
4650	0.07	-120.10	0.99	-40.60	0.99	-40.60	0.07	-120.10
4700	0.08	-121.40	0.99	-41.20	0.99	-41.20	0.08	-121.40
4750	0.08	-122.60	0.99	-41.70	0.99	-41.70	0.08	-122.60
4800	0.08	-123.30	0.99	-42.30	0.99	-42.30	0.08	-123.30
4850	0.08	-123.90	0.99	-42.90	0.99	-42.90	0.08	-123.90
4900	0.09	-125.60	0.99	-43.60	0.99	-43.60	0.09	-125.60
4950	0.09	-127.40	0.99	-44.20	0.99	-44.20	0.09	-127.40
5000	0.09	-128.60	0.98	-44.90	0.98	-44.90	0.09	-128.60
5050	0.10	-129.80	0.98	-45.50	0.98	-45.50	0.10	-129.80
5100	0.10	-131.10	0.98	-46.10	0.98	-46.10	0.10	-131.10
5150	0.10	-132.50	0.98	-46.60	0.98	-46.60	0.10	-132.50
5200	0.11	-133.90	0.98	-47.10	0.98	-47.10	0.11	-133.90
5250	0.11	-135.20	0.98	-47.60	0.98	-47.60	0.11	-135.20
5300	0.12	-136.00	0.98	-48.40	0.98	-48.40	0.12	-136.00
5350	0.12	-136.80	0.98	-49.20	0.98	-49.20	0.12	-136.80
5400	0.13	-138.10	0.98	-49.80	0.98	-49.80	0.13	-138.10
5450	0.13	-139.40	0.98	-50.40	0.98	-50.40	0.13	-139.40
5500	0.13	-139.70	0.98	-51.00	0.98	-51.00	0.13	-139.70
5550	0.14	-140.00	0.98	-51.60	0.98	-51.60	0.14	-140.00
5600	0.14	-141.90	0.98	-52.30	0.98	-52.30	0.14	-141.90
5650	0.14	-143.80	0.98	-52.90	0.98	-52.90	0.14	-143.80
5700	0.14	-144.60	0.98	-53.50	0.98	-53.50	0.14	-144.60
5750	0.15	-145.30	0.99	-54.20	0.99	-54.20	0.15	-145.30
5800	0.15	-146.80	0.98	-54.70	0.98	-54.70	0.15	-146.80
5850	0.15	-148.20	0.97	-55.30	0.97	-55.30	0.15	-148.20
5900	0.16	-149.70	0.98	-55.90	0.98	-55.90	0.16	-149.70
5950	0.16	-151.10	0.98	-56.40	0.98	-56.40	0.16	-151.10
6000	0.18	-150.50	0.97	-57.20	0.97	-57.20	0.18	-150.50
6050	0.19	-149.90	0.97	-58.00	0.97	-58.00	0.19	-149.90
6100	0.20	-151.60	0.97	-58.40	0.97	-58.40	0.20	-151.60
6150	0.20	-153.30	0.97	-58.80	0.97	-58.80	0.20	-153.30
6200	0.20	-155.00	0.97	-59.50	0.97	-59.50	0.20	-155.00
6250	0.20	-156.80	0.97	-60.20	0.97	-60.20	0.20	-156.80
6300	0.21	-158.70	0.97	-60.70	0.97	-60.70	0.21	-158.70
6350	0.22	-160.50	0.96	-61.20	0.96	-61.20	0.22	-160.50
6400	0.22	-161.30	0.96	-61.80	0.96	-61.80	0.22	-161.30
6450	0.23	-162.00	0.96	-62.40	0.96	-62.40	0.23	-162.00
6500	0.23	-163.10	0.96	-63.00	0.96	-63.00	0.23	-163.10
6550	0.23	-164.20	0.95	-63.60	0.95	-63.60	0.23	-164.20
6600	0.23	-165.80	0.95	-64.20	0.95	-64.20	0.23	-165.80
6650	0.24	-167.30	0.96	-64.70	0.96	-64.70	0.24	-167.30
6700	0.24	-168.10	0.95	-65.10	0.95	-65.10	0.24	-168.10
6750	0.25	-168.90	0.95	-65.50	0.95	-65.50	0.25	-168.90
6800	0.25	-170.10	0.95	-66.10	0.95	-66.10	0.25	-170.10
6850	0.25	-171.30	0.95	-66.70	0.95	-66.70	0.25	-171.30
6900	0.25	-172.30	0.95	-67.30	0.95	-67.30	0.25	-172.30
6950	0.25	-173.30	0.95	-67.80	0.95	-67.80	0.25	-173.30
7000	0.26	-174.90	0.95	-68.50	0.95	-68.50	0.26	-174.90
7050	0.26	-176.50	0.95	-69.10	0.95	-69.10	0.26	-176.50
7100	0.26	-177.50	0.95	-69.60	0.95	-69.60	0.26	-177.50
7150	0.27	-178.40	0.95	-70.10	0.95	-70.10	0.27	-178.40
7200	0.27	0.40	0.95	-70.80	0.95	-70.80	0.27	0.40
7250	0.27	179.20	0.95	-71.40	0.95	-71.40	0.27	179.20
7300	0.27	178.00	0.95	-72.00	0.95	-72.00	0.27	178.00
7350	0.27	176.80	0.95	-72.70	0.95	-72.70	0.27	176.80
7400	0.28	175.20	0.95	-73.30	0.95	-73.30	0.28	175.20
7450	0.28	173.50	0.95	-73.90	0.95	-73.90	0.28	173.50
7500	0.28	172.80	0.95	-74.60	0.95	-74.60	0.28	172.80
7550	0.28	172.00	0.95	-75.30	0.95	-75.30	0.28	172.00
7600	0.28	170.80	0.94	-75.80	0.94	-75.80	0.28	170.80
7650	0.28	169.50	0.94	-76.40	0.94	-76.40	0.28	169.50
7700	0.28	168.70	0.94	-77.00	0.94	-77.00	0.28	168.70
7750	0.28	167.90	0.94	-77.70	0.94	-77.70	0.28	167.90
7800	0.29	166.70	0.94	-78.40	0.94	-78.40	0.29	166.70
7850	0.29	165.60	0.94	-79.10	0.94	-79.10	0.29	165.60
7900	0.29	165.10	0.94	-79.70	0.94	-79.70	0.29	165.10
7950	0.29	164.70	0.94	-80.30	0.94	-80.30	0.29	164.70
8000	0.29	164.20	0.94	-81.00	0.94	-81.00	0.29	164.20
8050	0.30	163.60	0.94	-81.60	0.94	-81.60	0.30	163.60
8100	0.29	162.90	0.94	-82.30	0.94	-82.30	0.29	162.90
8150	0.29	162.20	0.94	-83.10	0.94	-83.10	0.29	162.20
8200	0.30	162.10	0.94	-83.80	0.94	-83.80	0.30	162.10
8250	0.30	162.00	0.94	-84.40	0.94	-84.40	0.30	162.00
8300	0.30	161.70	0.94	-85.20	0.94	-85.20	0.30	161.70
8350	0.30	161.40	0.94	-85.90	0.94	-85.90	0.30	161.40
8400	0.30	161.30	0.94	-86.70	0.94	-86.70	0.30	161.30
8450	0.31	161.20	0.94	-87.40	0.94	-87.40	0.31	161.20
8500	0.31	161.30	0.94	-88.30	0.94	-88.30	0.31	161.30
8550	0.31	161.40	0.94	-89.10	0.94	-89.10	0.31	161.40
8600	0.31	161.00	0.93	-89.90	0.93	-89.90	0.31	161.00
8650	0.31	160.60	0.93	-90.70	0.93	-90.70	0.31	160.60
8700	0.32	160.70	0.93	-91.50	0.93	-91.50	0.32	160.70
8750	0.32	160.80	0.93	-92.40	0.93	-92.40	0.32	160.80
8800	0.32	160.10	0.93	-92.90	0.93	-92.90	0.32	160.10
8850	0.33	159.50	0.93	-93.40	0.93	-93.40	0.33	159.50
8900	0.34	159.40	0.92	-94.50	0.92	-94.50	0.34	159.40
8950	0.34	159.40	0.92	-95.50	0.92	-95.50	0.34	159.40
9000	0.35	159.40	0.91	-96.30	0.91	-96.30	0.35	159.40
9050	0.35	159.40	0.91	-97.00	0.91	-97.00	0.35	159.40
9100	0.37	159.30	0.91	-97.90	0.91	-97.90	0.37	159.30
9150	0.37	159.20	0.91	-98.70	0.91	-98.70	0.37	159.20
9200	0.38	158.40	0.91	-99.90	0.91	-99.90	0.38	158.40
9250	0.39	157.50	0.90	-101.00	0.90	-101.00	0.39	157.50
9300	0.39	158.10	0.90	-101.60	0.90	-101.60	0.39	158.10
9350	0.40	158.60	0.89	-102.20	0.89	-102.20	0.40	158.60
9400	0.41	158.30	0.89	-103.10	0.89	-103.10	0.41	158.30
9450	0.42	158.00	0.88	-104.10	0.88	-104.10	0.42	158.00
9500	0.43	157.60	0.87	-105.00	0.87	-105.00	0.43	157.60
9550	0.43	157.10	0.86	-106.00	0.86	-106.00	0.43	157.10
9600	0.44	156.80	0.85	-106.60	0.85	-106.60	0.44	156.80
9650	0.46	156.40	0.85	-107.30	0.85	-107.30	0.46	156.40
9700	0.46	156.00	0.84	-107.50	0.84	-107.50	0.46	156.00
9750	0.46	155.50	0.84	-107.70	0.84	-107.70	0.46	155.50
9800	0.46	156.60	0.84	-108.50	0.84	-108.50	0.46	156.60
9850	0.46	157.70	0.84	-109.30	0.84	-109.30	0.46	157.70
9900	0.47	157.80	0.83	-110.20	0.83	-110.20	0.47	157.80
9950	0.49	157.90	0.83	-111.10	0.83	-111.10	0.49	157.90
10000	0.50	156.50	0.83	-112.30	0.83	-112.30	0.50	156.50
10050	0.50	155.10	0.82	-113.40	0.82	-113.40	0.50	155.10
10100	0.51	155.70	0.81	-114.00	0.81	-114.00	0.51	155.70
10150	0.53	156.30	0.81	-114.60	0.81	-114.60	0.53	156.30
10200	0.54	154.60	0.80	-115.70	0.80	-115.70	0.54	154.60
10250	0.55	152.90	0.80	-116.90	0.80	-116.90	0.55	152.90
10300	0.56	151.80	0.79	-118.00	0.79	-118.00	0.56	151.80
10350	0.57	150.80	0.77	-119.10	0.77	-119.10	0.57	150.80
10400	0.58	149.60	0.76	-119.90	0.76	-119.90	0.58	149.60
10450	0.58	148.50	0.76	-120.70	0.76	-120.70	0.58	148.50
10500	0.60	147.00	0.75	-121.80	0.75	-121.80	0.60	147.00
10550	0.61	145.50	0.75	-122.90	0.75	-122.90	0.61	145.50
10600	0.61	144.10	0.73	-123.30	0.73	-123.30	0.61	144.10
10650	0.61	142.80	0.72	-123.70	0.72	-123.70	0.61	142.80
10700	0.62	141.80	0.72	-124.80	0.72	-124.80	0.62	141.80
10750	0.64	140.70	0.71	-125.90	0.71	-125.90	0.64	140.70
10800	0.64	140.30	0.71	-126.50	0.71	-126.50	0.64	140.30
10850	0.65	139.80	0.70	-127.10	0.70	-127.10	0.65	139.80
10900	0.66	137.60	0.69	-128.20	0.69	-128.20	0.66	137.60
10950	0.66	135.50	0.68	-129.30	0.68	-129.30	0.66	135.50
11000	0.68	134.60	0.67	-130.40	0.67	-130.40	0.68	134.60
11050	0.69	133.70	0.67	-131.50	0.67	-131.50	0.69	133.70
11100	0.70	131.60	0.66	-132.50	0.66	-132.50	0.70	131.60
11150	0.71	129.50	0.64	-133.60	0.64	-133.60	0.71	129.50
11200	0.71	127.70	0.63	-134.70	0.63	-134.70	0.71	127.70
11250	0.72	126.00	0.63	-135.80	0.63	-135.80	0.72	126.00
11300	0.73	124.40	0.62	-136.70	0.62	-136.70	0.73	124.40
11350	0.74	122.80	0.61	-137.70	0.61	-137.70	0.74	122.80
11400	0.75	120.40	0.59	-139.10	0.59	-139.10	0.75	120.40
11450	0.75	118.10	0.58	-140.60	0.58	-140.60	0.75	118.10
11500	0.76	116.50	0.57	-141.40	0.57	-141.40	0.76	116.50
11550	0.77	114.80	0.55	-142.20	0.55	-142.20	0.77	114.80
11600	0.78	112.70	0.54	-143.50	0.54	-143.50	0.78	112.70
11650	0.78	110.60	0.52	-144.80	0.52	-144.80	0.78	110.60
11700	0.79	108.90	0.51	-145.80	0.51	-145.80	0.79	108.90
11750	0.80	107.10	0.49	-146.70	0.49	-146.70	0.80	107.10
11800	0.81	105.60	0.47	-147.40	0.47	-147.40	0.81	105.60
11850	0.82	104.00	0.46	-148.10	0.46	-148.10	0.82	104.00
11900	0.83	102.70	0.44	-149.40	0.44	-149.40	0.83	102.70
11950	0.83	101.30	0.42	-150.80	0.42	-150.80	0.83	101.30
12000	0.84	100.00	0.40	-150.90	0.40	-150.90	0.84	100.00
12050	0.85	98.70	0.38	-151.00	0.38	-151.00	0.85	98.70
12100	0.86	96.70	0.37	-152.20	0.37	-152.20	0.86	96.70
12150	0.87	94.70	0.35	-153.30	0.35	-153.30	0.87	94.70
12200	0.87	93.30	0.33	-153.50	0.33	-153.50	0.87	93.30
12250	0.88	91.90	0.31	-153.70	0.31	-153.70	0.88	91.90
12300	0.88	90.50	0.28	-153.90	0.28	-153.90	0.88	90.50
12350	0.88	89.00	0.26	-154.00	0.26	-154.00	0.88	89.00
12400	0.89	86.60	0.24	-153.70	0.24	-153.70	0.89	86.60
12450	0.90	84.30	0.22	-153.40	0.22	-153.40	0.90	84.30
12500	0.90	82.30	0.19	-151.00	0.19	-151.00	0.90	82.30
12550	0.89	80.20	0.17	-148.70	0.17	-148.70	0.89	80.20
12600	0.89	78.30	0.15	-143.10	0.15	-143.10	0.89	78.30
12650	0.89	76.30	0.13	-137.50	0.13	-137.50	0.89	76.30
12700	0.89	74.00	0.11	-124.90	0.11	-124.90	0.89	74.00
12750	0.90	71.70	0.10	-112.30	0.10	-112.30	0.90	71.70
12800	0.89	69.10	0.10	-97.70	0.10	-97.70	0.89	69.10
12850	0.88	66.50	0.11	-83.10	0.11	-83.10	0.88	66.50
12900	0.89	64.50	0.13	-73.90	0.13	-73.90	0.89	64.50
12950	0.89	62.60	0.15	-64.60	0.15	-64.60	0.89	62.60
13000	0.87	60.30	0.18	-61.00	0.18	-61.00	0.87	60.30
13050	0.85	58.00	0.20	-57.30	0.20	-57.30	0.85	58.00
13100	0.85	55.70	0.23	-56.10	0.23	-56.10	0.85	55.70
13150	0.84	53.50	0.26	-55.00	0.26	-55.00	0.84	53.50
13200	0.83	51.40	0.29	-55.00	0.29	-55.00	0.83	51.40
13250	0.82	49.40	0.32	-55.00	0.32	-55.00	0.82	49.40
13300	0.79	48.70	0.35	-56.50	0.35	-56.50	0.79	48.70
13350	0.76	48.10	0.38	-58.00	0.38	-58.00	0.76	48.10
13400	0.76	44.30	0.41	-59.30	0.41	-59.30	0.76	44.30
13450	0.77	40.50	0.44	-60.60	0.44	-60.60	0.77	40.50
13500	0.75	38.60	0.46	-62.30	0.46	-62.30	0.75	38.60
13550	0.73	36.60	0.49	-64.00	0.49	-64.00	0.73	36.60
13600	0.71	34.00	0.51	-66.10	0.51	-66.10	0.71	34.00
13650	0.70	31.30	0.54	-68.20	0.54	-68.20	0.70	31.30
13700	0.69	29.40	0.56	-69.80	0.56	-69.80	0.69	29.40
13750	0.67	27.40	0.58	-71.40	0.58	-71.40	0.67	27.40
13800	0.65	24.60	0.60	-73.30	0.60	-73.30	0.65	24.60
13850	0.64	21.80	0.62	-75.20	0.62	-75.20	0.64	21.80
13900	0.63	19.20	0.64	-76.90	0.64	-76.90	0.63	19.20
13950	0.61	16.70	0.66	-78.50	0.66	-78.50	0.61	16.70
14000	0.60	14.60	0.68	-80.20	0.68	-80.20	0.60	14.60
14050	0.59	12.50	0.69	-81.90	0.69	-81.90	0.59	12.50
14100	0.57	9.70	0.70	-83.50	0.70	-83.50	0.57	9.70
14150	0.56	6.90	0.72	-85.10	0.72	-85.10	0.56	6.90
14200	0.55	5.30	0.73	-86.70	0.73	-86.70	0.55	5.30
14250	0.54	3.80	0.74	-88.40	0.74	-88.40	0.54	3.80
14300	0.52	1.30	0.75	-90.00	0.75	-90.00	0.52	1.30
14350	0.51	-1.20	0.77	-91.50	0.77	-91.50	0.51	-1.20
14400	0.50	-2.50	0.78	-93.00	0.78	-93.00	0.50	-2.50
14450	0.49	-3.80	0.79	-94.40	0.79	-94.40	0.49	-3.80
14500	0.48	-5.10	0.80	-95.70	0.80	-95.70	0.48	-5.10
14550	0.46	-6.40	0.80	-97.00	0.80	-97.00	0.46	-6.40
14600	0.45	-7.50	0.81	-98.40	0.81	-98.40	0.45	-7.50
14650	0.44	-8.60	0.82	-99.80	0.82	-99.80	0.44	-8.60
14700	0.42	-9.90	0.83	-101.30	0.83	-101.30	0.42	-9.90
14750	0.40	-11.30	0.84	-102.70	0.84	-102.70	0.40	-11.30
14800	0.39	-12.10	0.84	-104.10	0.84	-104.10	0.39	-12.10
14850	0.38	-13.00	0.85	-105.60	0.85	-105.60	0.38	-13.00
14900	0.36	-13.60	0.86	-106.80	0.86	-106.80	0.36	-13.60
14950	0.35	-14.30	0.87	-107.90	0.87	-107.90	0.35	-14.30
15000	0.33	-15.60	0.87	-109.50	0.87	-109.50	0.33	-15.60
15050	0.31	-16.90	0.87	-111.10	0.87	-111.10	0.31	-16.90
15100	0.30	-17.00	0.88	-112.20	0.88	-112.20	0.30	-17.00
15150	0.28	-17.20	0.88	-113.30	0.88	-113.30	0.28	-17.20
15200	0.26	-18.50	0.89	-114.60	0.89	-114.60	0.26	-18.50
15250	0.25	-19.90	0.90	-115.80	0.90	-115.80	0.25	-19.90
15300	0.23	-20.50	0.90	-117.40	0.90	-117.40	0.23	-20.50
15350	0.22	-21.10	0.90	-119.10	0.90	-119.10	0.22	-21.10
15400	0.20	-21.30	0.90	-120.30	0.90	-120.30	0.20	-21.30
15450	0.19	-21.50	0.90	-121.60	0.90	-121.60	0.19	-21.50
15500	0.17	-17.60	0.90	-123.10	0.90	-123.10	0.17	-17.60
15550	0.16	-13.70	0.91	-124.70	0.91	-124.70	0.16	-13.70
15600	0.14	-11.40	0.91	-126.10	0.91	-126.10	0.14	-11.40
15650	0.12	-9.10	0.91	-127.60	0.91	-127.60	0.12	-9.10
15700	0.11	1.00	0.91	-129.30	0.91	-129.30	0.11	1.00
15750	0.10	11.20	0.91	-131.00	0.91	-131.00	0.10	11.20
15800	0.10	25.80	0.90	-132.50	0.90	-132.50	0.10	25.80
15850	0.09	40.40	0.90	-134.00	0.90	-134.00	0.09	40.40
15900	0.11	52.80	0.90	-135.90	0.90	-135.90	0.11	52.80
15950	0.13	65.20	0.89	-137.80	0.89	-137.80	0.13	65.20
16000	0.15	71.90	0.88	-139.40	0.88	-139.40	0.15	71.90
16050	0.17	78.70	0.88	-141.00	0.88	-141.00	0.17	78.70
16100	0.21	82.00	0.86	-142.90	0.86	-142.90	0.21	82.00
16150	0.24	85.30	0.85	-144.90	0.85	-144.90	0.24	85.30
16200	0.27	85.40	0.84	-146.70	0.84	-146.70	0.27	85.40
16250	0.30	85.50	0.82	-148.40	0.82	-148.40	0.30	85.50
16300	0.32	86.20	0.81	-149.80	0.81	-149.80	0.32	86.20
16350	0.34	87.00	0.79	-151.20	0.79	-151.20	0.34	87.00
16400	0.37	87.20	0.78	-152.60	0.78	-152.60	0.37	87.20
16450	0.40	87.50	0.77	-154.10	0.77	-154.10	0.40	87.50
16500	0.42	86.50	0.75	-155.80	0.75	-155.80	0.42	86.50
16550	0.44	85.50	0.73	-157.60	0.73	-157.60	0.44	85.50
16600	0.48	83.80	0.71	-159.60	0.71	-159.60	0.48	83.80
16650	0.51	82.20	0.70	-161.60	0.70	-161.60	0.51	82.20
16700	0.54	79.90	0.68	-163.40	0.68	-163.40	0.54	79.90
16750	0.56	77.70	0.66	-165.30	0.66	-165.30	0.56	77.70
16800	0.59	74.60	0.63	-167.20	0.63	-167.20	0.59	74.60
16850	0.62	71.60	0.60	-169.20	0.60	-169.20	0.62	71.60
16900	0.64	67.90	0.57	-170.80	0.57	-170.80	0.64	67.90
16950	0.66	64.30	0.54	-172.50	0.54	-172.50	0.66	64.30
17000	0.68	61.00	0.51	-173.70	0.51	-173.70	0.68	61.00
17050	0.70	57.80	0.47	-174.90	0.47	-174.90	0.70	57.80
17100	0.72	54.50	0.44	-175.80	0.44	-175.80	0.72	54.50
17150	0.74	51.20	0.40	-176.80	0.40	-176.80	0.74	51.20
17200	0.75	48.30	0.37	-176.20	0.37	-176.20	0.75	48.30
17250	0.77	45.40	0.33	-175.60	0.33	-175.60	0.77	45.40
17300	0.79	42.60	0.30	-173.70	0.30	-173.70	0.79	42.60
17350	0.81	39.70	0.26	-171.70	0.26	-171.70	0.81	39.70
17400	0.82	37.10	0.23	-165.90	0.23	-165.90	0.82	37.10
17450	0.83	34.40	0.20	-160.10	0.20	-160.10	0.83	34.40
17500	0.84	31.70	0.19	-149.70	0.19	-149.70	0.84	31.70
17550	0.85	29.00	0.17	-139.40	0.17	-139.40	0.85	29.00
17600	0.85	26.20	0.18	-127.50	0.18	-127.50	0.85	26.20
17650	0.85	23.30	0.19	-115.60	0.19	-115.60	0.85	23.30
17700	0.85	20.70	0.22	-107.90	0.22	-107.90	0.85	20.70
17750	0.84	18.10	0.24	-100.30	0.24	-100.30	0.84	18.10
17800	0.83	14.20	0.28	-97.90	0.28	-97.90	0.83	14.20
17850	0.82	10.30	0.32	-95.60	0.32	-95.60	0.82	10.30
17900	0.80	8.00	0.35	-95.00	0.35	-95.00	0.80	8.00
17950	0.77	5.80	0.39	-94.50	0.39	-94.50	0.77	5.80
18000	0.75	2.50	0.42	-95.30	0.42	-95.30	0.75	2.50
18050	0.74	-0.90	0.46	-96.20	0.46	-96.20	0.74	-0.90
18100	0.72	-4.30	0.49	-97.80	0.49	-97.80	0.72	-4.30
18150	0.69	-7.60	0.52	-99.40	0.52	-99.40	0.69	-7.60
18200	0.68	-10.00	0.55	-100.90	0.55	-100.90	0.68	-10.00
18250	0.67	-12.30	0.58	-102.50	0.58	-102.50	0.67	-12.30
18300	0.66	-15.20	0.61	-104.30	0.61	-104.30	0.66	-15.20
18350	0.65	-18.10	0.63	-106.20	0.63	-106.20	0.65	-18.10
18400	0.64	-19.60	0.65	-107.80	0.65	-107.80	0.64	-19.60
18450	0.63	-21.00	0.67	-109.40	0.67	-109.40	0.63	-21.00
18500	0.63	-22.30	0.69	-110.90	0.69	-110.90	0.63	-22.30
18550	0.62	-23.60	0.72	-112.30	0.72	-112.30	0.62	-23.60
18600	0.61	-24.60	0.73	-114.10	0.73	-114.10	0.61	-24.60
18650	0.60	-25.70	0.74	-115.90	0.74	-115.90	0.60	-25.70
18700	0.59	-27.80	0.75	-117.70	0.75	-117.70	0.59	-27.80
