#	mhz	s	ma	r	50			
50	0.01	32.90	1.00	1.00	1.00	1.00	0.01	32.90
100	0.01	53.00	1.00	0.80	1.00	0.80	0.01	53.00
150	0.02	73.10	1.00	0.60	1.00	0.60	0.02	73.10
200	0.02	75.60	1.00	0.10	1.00	0.10	0.02	75.60
250	0.03	78.20	0.99	-0.30	0.99	-0.30	0.03	78.20
300	0.03	78.70	1.00	-0.70	1.00	-0.70	0.03	78.70
350	0.04	79.20	1.00	-1.20	1.00	-1.20	0.04	79.20
400	0.04	78.60	0.99	-1.50	0.99	-1.50	0.04	78.60
450	0.05	77.90	0.99	-1.80	0.99	-1.80	0.05	77.90
500	0.05	81.70	0.99	-2.40	0.99	-2.40	0.05	81.70
550	0.06	85.50	0.99	-3.00	0.99	-3.00	0.06	85.50
600	0.07	85.70	0.99	-3.40	0.99	-3.40	0.07	85.70
650	0.07	86.00	0.99	-3.80	0.99	-3.80	0.07	86.00
700	0.08	86.10	0.99	-4.20	0.99	-4.20	0.08	86.10
750	0.08	86.30	0.99	-4.60	0.99	-4.60	0.08	86.30
800	0.09	85.90	0.99	-5.00	0.99	-5.00	0.09	85.90
850	0.09	85.50	0.99	-5.40	0.99	-5.40	0.09	85.50
900	0.10	85.40	0.99	-5.80	0.99	-5.80	0.10	85.40
950	0.11	85.30	0.99	-6.20	0.99	-6.20	0.11	85.30
1000	0.11	84.90	0.99	-6.60	0.99	-6.60	0.11	84.90
1050	0.12	84.50	0.99	-7.00	0.99	-7.00	0.12	84.50
1100	0.12	84.40	0.98	-7.40	0.98	-7.40	0.12	84.40
1150	0.13	84.20	0.98	-7.80	0.98	-7.80	0.13	84.20
1200	0.13	83.80	0.98	-8.20	0.98	-8.20	0.13	83.80
1250	0.14	83.30	0.98	-8.50	0.98	-8.50	0.14	83.30
1300	0.15	82.90	0.98	-8.90	0.98	-8.90	0.15	82.90
1350	0.15	82.50	0.98	-9.30	0.98	-9.30	0.15	82.50
1400	0.16	82.10	0.98	-9.70	0.98	-9.70	0.16	82.10
1450	0.16	81.70	0.98	-10.00	0.98	-10.00	0.16	81.70
1500	0.17	81.20	0.98	-10.50	0.98	-10.50	0.17	81.20
1550	0.17	80.80	0.97	-10.90	0.97	-10.90	0.17	80.80
1600	0.18	80.10	0.97	-11.30	0.97	-11.30	0.18	80.10
1650	0.19	79.30	0.97	-11.70	0.97	-11.70	0.19	79.30
1700	0.19	79.00	0.97	-12.10	0.97	-12.10	0.19	79.00
1750	0.19	78.70	0.97	-12.50	0.97	-12.50	0.19	78.70
1800	0.20	77.80	0.97	-12.90	0.97	-12.90	0.20	77.80
1850	0.20	77.00	0.97	-13.20	0.97	-13.20	0.20	77.00
1900	0.21	76.20	0.97	-13.60	0.97	-13.60	0.21	76.20
1950	0.22	75.40	0.97	-13.90	0.97	-13.90	0.22	75.40
2000	0.22	75.00	0.96	-14.30	0.96	-14.30	0.22	75.00
2050	0.23	74.50	0.96	-14.80	0.96	-14.80	0.23	74.50
2100	0.23	74.10	0.96	-15.10	0.96	-15.10	0.23	74.10
2150	0.24	73.60	0.96	-15.40	0.96	-15.40	0.24	73.60
2200	0.24	73.00	0.96	-15.90	0.96	-15.90	0.24	73.00
2250	0.25	72.30	0.96	-16.30	0.96	-16.30	0.25	72.30
2300	0.25	71.90	0.95	-16.60	0.95	-16.60	0.25	71.90
2350	0.26	71.40	0.95	-16.80	0.95	-16.80	0.26	71.40
2400	0.26	70.70	0.95	-17.30	0.95	-17.30	0.26	70.70
2450	0.27	70.10	0.95	-17.70	0.95	-17.70	0.27	70.10
2500	0.28	69.60	0.95	-18.10	0.95	-18.10	0.28	69.60
2550	0.28	69.20	0.95	-18.50	0.95	-18.50	0.28	69.20
2600	0.29	68.70	0.94	-18.80	0.94	-18.80	0.29	68.70
2650	0.29	68.20	0.94	-19.10	0.94	-19.10	0.29	68.20
2700	0.30	67.90	0.94	-19.50	0.94	-19.50	0.30	67.90
2750	0.31	67.60	0.94	-19.90	0.94	-19.90	0.31	67.60
2800	0.31	67.00	0.94	-20.20	0.94	-20.20	0.31	67.00
2850	0.32	66.40	0.94	-20.50	0.94	-20.50	0.32	66.40
2900	0.32	65.90	0.93	-21.10	0.93	-21.10	0.32	65.90
2950	0.33	65.50	0.93	-21.70	0.93	-21.70	0.33	65.50
3000	0.34	65.20	0.93	-22.00	0.93	-22.00	0.34	65.20
3050	0.34	64.90	0.93	-22.30	0.93	-22.30	0.34	64.90
3100	0.35	63.90	0.92	-22.90	0.92	-22.90	0.35	63.90
3150	0.35	62.90	0.92	-23.50	0.92	-23.50	0.35	62.90
3200	0.36	62.90	0.92	-23.70	0.92	-23.70	0.36	62.90
3250	0.37	62.90	0.92	-23.80	0.92	-23.80	0.37	62.90
3300	0.38	62.50	0.91	-24.40	0.91	-24.40	0.38	62.50
3350	0.38	62.10	0.91	-25.00	0.91	-25.00	0.38	62.10
3400	0.39	61.60	0.91	-25.30	0.91	-25.30	0.39	61.60
3450	0.40	61.00	0.90	-25.60	0.90	-25.60	0.40	61.00
3500	0.40	60.80	0.90	-25.90	0.90	-25.90	0.40	60.80
3550	0.41	60.60	0.90	-26.30	0.90	-26.30	0.41	60.60
3600	0.41	60.30	0.90	-26.80	0.90	-26.80	0.41	60.30
3650	0.42	60.00	0.89	-27.30	0.89	-27.30	0.42	60.00
3700	0.43	59.40	0.89	-27.70	0.89	-27.70	0.43	59.40
3750	0.43	58.70	0.89	-28.20	0.89	-28.20	0.43	58.70
3800	0.44	58.20	0.88	-28.60	0.88	-28.60	0.44	58.20
3850	0.45	57.80	0.88	-29.00	0.88	-29.00	0.45	57.80
3900	0.45	57.20	0.88	-29.60	0.88	-29.60	0.45	57.20
3950	0.46	56.60	0.88	-30.20	0.88	-30.20	0.46	56.60
4000	0.47	56.10	0.87	-30.70	0.87	-30.70	0.47	56.10
4050	0.47	55.50	0.87	-31.10	0.87	-31.10	0.47	55.50
4100	0.48	54.80	0.86	-31.70	0.86	-31.70	0.48	54.80
4150	0.49	54.00	0.86	-32.30	0.86	-32.30	0.49	54.00
4200	0.50	53.20	0.86	-32.80	0.86	-32.80	0.50	53.20
4250	0.50	52.40	0.85	-33.20	0.85	-33.20	0.50	52.40
4300	0.51	51.80	0.85	-33.60	0.85	-33.60	0.51	51.80
4350	0.52	51.10	0.84	-34.10	0.84	-34.10	0.52	51.10
4400	0.52	50.30	0.84	-34.70	0.84	-34.70	0.52	50.30
4450	0.53	49.50	0.83	-35.30	0.83	-35.30	0.53	49.50
4500	0.54	48.70	0.83	-36.10	0.83	-36.10	0.54	48.70
4550	0.55	47.90	0.82	-36.80	0.82	-36.80	0.55	47.90
4600	0.56	47.00	0.81	-37.30	0.81	-37.30	0.56	47.00
4650	0.57	46.20	0.81	-37.70	0.81	-37.70	0.57	46.20
4700	0.57	45.50	0.81	-38.30	0.81	-38.30	0.57	45.50
4750	0.58	44.90	0.80	-38.80	0.80	-38.80	0.58	44.90
4800	0.58	44.00	0.79	-39.40	0.79	-39.40	0.58	44.00
4850	0.59	43.10	0.79	-40.10	0.79	-40.10	0.59	43.10
4900	0.60	42.60	0.78	-40.50	0.78	-40.50	0.60	42.60
4950	0.61	42.10	0.78	-41.00	0.78	-41.00	0.61	42.10
5000	0.62	41.20	0.77	-41.70	0.77	-41.70	0.62	41.20
5050	0.63	40.30	0.77	-42.40	0.77	-42.40	0.63	40.30
5100	0.63	39.50	0.76	-43.20	0.76	-43.20	0.63	39.50
5150	0.63	38.60	0.75	-44.00	0.75	-44.00	0.63	38.60
5200	0.64	38.50	0.75	-44.40	0.75	-44.40	0.64	38.50
5250	0.64	38.30	0.74	-44.80	0.74	-44.80	0.64	38.30
5300	0.66	37.60	0.73	-45.30	0.73	-45.30	0.66	37.60
5350	0.67	36.80	0.73	-45.80	0.73	-45.80	0.67	36.80
5400	0.67	36.00	0.72	-46.80	0.72	-46.80	0.67	36.00
5450	0.68	35.30	0.72	-47.70	0.72	-47.70	0.68	35.30
5500	0.69	34.70	0.71	-48.20	0.71	-48.20	0.69	34.70
5550	0.70	34.20	0.70	-48.70	0.70	-48.70	0.70	34.20
5600	0.70	33.60	0.70	-49.60	0.70	-49.60	0.70	33.60
5650	0.71	33.00	0.69	-50.50	0.69	-50.50	0.71	33.00
5700	0.72	32.40	0.68	-51.30	0.68	-51.30	0.72	32.40
5750	0.73	31.80	0.68	-52.20	0.68	-52.20	0.73	31.80
5800	0.73	31.30	0.66	-52.80	0.66	-52.80	0.73	31.30
5850	0.74	30.90	0.65	-53.50	0.65	-53.50	0.74	30.90
5900	0.74	30.80	0.64	-54.00	0.64	-54.00	0.74	30.80
5950	0.75	30.70	0.63	-54.60	0.63	-54.60	0.75	30.70
6000	0.75	29.80	0.63	-55.10	0.63	-55.10	0.75	29.80
6050	0.76	28.90	0.63	-55.50	0.63	-55.50	0.76	28.90
6100	0.76	28.90	0.62	-56.10	0.62	-56.10	0.76	28.90
6150	0.77	28.90	0.61	-56.70	0.61	-56.70	0.77	28.90
6200	0.78	28.90	0.60	-57.40	0.60	-57.40	0.78	28.90
6250	0.79	28.90	0.60	-58.10	0.60	-58.10	0.79	28.90
6300	0.80	28.80	0.59	-58.90	0.59	-58.90	0.80	28.80
6350	0.80	28.70	0.57	-59.60	0.57	-59.60	0.80	28.70
6400	0.81	28.60	0.56	-60.30	0.56	-60.30	0.81	28.60
6450	0.81	28.50	0.56	-61.10	0.56	-61.10	0.81	28.50
6500	0.82	28.30	0.54	-61.90	0.54	-61.90	0.82	28.30
6550	0.83	28.10	0.53	-62.70	0.53	-62.70	0.83	28.10
6600	0.83	27.80	0.52	-63.60	0.52	-63.60	0.83	27.80
6650	0.84	27.50	0.51	-64.50	0.51	-64.50	0.84	27.50
6700	0.85	27.40	0.50	-65.20	0.50	-65.20	0.85	27.40
6750	0.85	27.20	0.49	-65.80	0.49	-65.80	0.85	27.20
6800	0.86	26.90	0.48	-66.30	0.48	-66.30	0.86	26.90
6850	0.87	26.70	0.47	-66.80	0.47	-66.80	0.87	26.70
6900	0.88	25.90	0.46	-67.90	0.46	-67.90	0.88	25.90
6950	0.88	25.10	0.45	-69.00	0.45	-69.00	0.88	25.10
7000	0.88	24.80	0.43	-69.70	0.43	-69.70	0.88	24.80
7050	0.89	24.60	0.42	-70.40	0.42	-70.40	0.89	24.60
7100	0.89	23.90	0.41	-71.30	0.41	-71.30	0.89	23.90
7150	0.89	23.10	0.40	-72.10	0.40	-72.10	0.89	23.10
7200	0.90	22.70	0.38	-72.60	0.38	-72.60	0.90	22.70
7250	0.90	22.40	0.37	-73.10	0.37	-73.10	0.90	22.40
7300	0.91	21.60	0.36	-73.60	0.36	-73.60	0.91	21.60
7350	0.93	20.90	0.35	-74.10	0.35	-74.10	0.93	20.90
7400	0.92	20.00	0.33	-75.10	0.33	-75.10	0.92	20.00
7450	0.92	19.10	0.32	-76.00	0.32	-76.00	0.92	19.10
7500	0.93	18.10	0.31	-76.30	0.31	-76.30	0.93	18.10
7550	0.94	17.20	0.30	-76.70	0.30	-76.70	0.94	17.20
7600	0.94	15.90	0.28	-77.50	0.28	-77.50	0.94	15.90
7650	0.95	14.60	0.27	-78.40	0.27	-78.40	0.95	14.60
7700	0.95	13.20	0.26	-79.00	0.26	-79.00	0.95	13.20
7750	0.95	11.90	0.24	-79.50	0.24	-79.50	0.95	11.90
7800	0.95	10.90	0.23	-79.80	0.23	-79.80	0.95	10.90
7850	0.95	10.00	0.22	-80.10	0.22	-80.10	0.95	10.00
7900	0.96	8.20	0.20	-80.60	0.20	-80.60	0.96	8.20
7950	0.97	6.30	0.19	-81.10	0.19	-81.10	0.97	6.30
8000	0.96	4.70	0.18	-81.40	0.18	-81.40	0.96	4.70
8050	0.96	3.10	0.17	-81.70	0.17	-81.70	0.96	3.10
8100	0.96	1.60	0.15	-81.50	0.15	-81.50	0.96	1.60
8150	0.95	0.20	0.14	-81.20	0.14	-81.20	0.95	0.20
8200	0.95	-1.20	0.12	-80.30	0.12	-80.30	0.95	-1.20
8250	0.96	-2.60	0.11	-79.50	0.11	-79.50	0.96	-2.60
8300	0.95	-3.90	0.10	-77.40	0.10	-77.40	0.95	-3.90
8350	0.95	-5.20	0.08	-75.30	0.08	-75.30	0.95	-5.20
8400	0.96	-6.60	0.07	-70.40	0.07	-70.40	0.96	-6.60
8450	0.96	-8.10	0.06	-65.60	0.06	-65.60	0.96	-8.10
8500	0.96	-9.20	0.05	-51.80	0.05	-51.80	0.96	-9.20
8550	0.95	-10.30	0.04	-38.00	0.04	-38.00	0.95	-10.30
8600	0.95	-11.60	0.04	-16.50	0.04	-16.50	0.95	-11.60
8650	0.96	-12.80	0.04	5.00	0.04	5.00	0.96	-12.80
8700	0.96	-13.80	0.05	16.20	0.05	16.20	0.96	-13.80
8750	0.96	-14.80	0.06	27.50	0.06	27.50	0.96	-14.80
8800	0.95	-15.90	0.07	31.00	0.07	31.00	0.95	-15.90
8850	0.94	-17.00	0.08	34.60	0.08	34.60	0.94	-17.00
8900	0.94	-17.20	0.08	37.10	0.08	37.10	0.94	-17.20
8950	0.94	-17.30	0.09	39.50	0.09	39.50	0.94	-17.30
9000	0.94	-18.10	0.10	42.30	0.10	42.30	0.94	-18.10
9050	0.95	-18.80	0.10	45.10	0.10	45.10	0.95	-18.80
9100	0.95	-19.60	0.11	47.90	0.11	47.90	0.95	-19.60
9150	0.95	-20.50	0.12	50.80	0.12	50.80	0.95	-20.50
9200	0.94	-21.30	0.13	53.20	0.13	53.20	0.94	-21.30
9250	0.93	-22.20	0.14	55.70	0.14	55.70	0.93	-22.20
9300	0.93	-22.50	0.16	56.80	0.16	56.80	0.93	-22.50
9350	0.94	-22.80	0.17	57.90	0.17	57.90	0.94	-22.80
9400	0.93	-23.70	0.18	58.60	0.18	58.60	0.93	-23.70
9450	0.93	-24.70	0.19	59.30	0.19	59.30	0.93	-24.70
9500	0.93	-25.00	0.21	59.50	0.21	59.50	0.93	-25.00
9550	0.93	-25.40	0.22	59.70	0.22	59.70	0.93	-25.40
9600	0.93	-26.30	0.23	59.40	0.23	59.40	0.93	-26.30
9650	0.93	-27.10	0.25	59.10	0.25	59.10	0.93	-27.10
9700	0.92	-27.70	0.26	59.00	0.26	59.00	0.92	-27.70
9750	0.92	-28.40	0.28	59.00	0.28	59.00	0.92	-28.40
9800	0.92	-28.90	0.29	58.40	0.29	58.40	0.92	-28.90
9850	0.92	-29.30	0.30	57.80	0.30	57.80	0.92	-29.30
9900	0.91	-30.10	0.31	57.20	0.31	57.20	0.91	-30.10
9950	0.90	-30.80	0.32	56.70	0.32	56.70	0.90	-30.80
10000	0.90	-31.30	0.34	56.50	0.34	56.50	0.90	-31.30
10050	0.89	-31.80	0.35	56.40	0.35	56.40	0.89	-31.80
10100	0.89	-32.40	0.37	55.50	0.37	55.50	0.89	-32.40
10150	0.88	-33.10	0.38	54.70	0.38	54.70	0.88	-33.10
10200	0.87	-33.50	0.39	54.30	0.39	54.30	0.87	-33.50
10250	0.87	-33.90	0.41	54.00	0.41	54.00	0.87	-33.90
10300	0.87	-34.70	0.41	53.60	0.41	53.60	0.87	-34.70
10350	0.86	-35.50	0.42	53.10	0.42	53.10	0.86	-35.50
10400	0.85	-36.60	0.44	52.30	0.44	52.30	0.85	-36.60
10450	0.84	-37.70	0.46	51.40	0.46	51.40	0.84	-37.70
10500	0.84	-38.20	0.47	50.90	0.47	50.90	0.84	-38.20
10550	0.85	-38.60	0.48	50.40	0.48	50.40	0.85	-38.60
10600	0.83	-40.30	0.49	49.30	0.49	49.30	0.83	-40.30
10650	0.81	-42.00	0.50	48.20	0.50	48.20	0.81	-42.00
10700	0.81	-42.10	0.51	47.80	0.51	47.80	0.81	-42.10
10750	0.81	-42.20	0.52	47.30	0.52	47.30	0.81	-42.20
10800	0.81	-43.50	0.53	46.60	0.53	46.60	0.81	-43.50
10850	0.80	-44.80	0.54	46.00	0.54	46.00	0.80	-44.80
10900	0.79	-46.20	0.56	44.90	0.56	44.90	0.79	-46.20
10950	0.79	-47.50	0.57	43.80	0.57	43.80	0.79	-47.50
11000	0.77	-48.20	0.57	43.20	0.57	43.20	0.77	-48.20
11050	0.75	-48.90	0.57	42.50	0.57	42.50	0.75	-48.90
11100	0.75	-50.00	0.59	41.90	0.59	41.90	0.75	-50.00
11150	0.76	-51.20	0.60	41.30	0.60	41.30	0.76	-51.20
11200	0.75	-51.50	0.60	40.50	0.60	40.50	0.75	-51.50
11250	0.74	-51.90	0.61	39.80	0.61	39.80	0.74	-51.90
11300	0.73	-53.10	0.61	38.90	0.61	38.90	0.73	-53.10
11350	0.73	-54.40	0.62	38.10	0.62	38.10	0.73	-54.40
11400	0.72	-53.90	0.63	38.00	0.63	38.00	0.72	-53.90
11450	0.72	-53.40	0.63	38.00	0.63	38.00	0.72	-53.40
11500	0.71	-54.70	0.64	37.00	0.64	37.00	0.71	-54.70
11550	0.70	-56.10	0.65	36.00	0.65	36.00	0.70	-56.10
11600	0.70	-56.00	0.66	35.60	0.66	35.60	0.70	-56.00
11650	0.70	-56.00	0.67	35.30	0.67	35.30	0.70	-56.00
11700	0.69	-56.70	0.67	34.60	0.67	34.60	0.69	-56.70
11750	0.68	-57.40	0.68	33.90	0.68	33.90	0.68	-57.40
11800	0.68	-57.60	0.69	33.30	0.69	33.30	0.68	-57.60
11850	0.67	-57.80	0.69	32.80	0.69	32.80	0.67	-57.80
11900	0.66	-58.40	0.70	32.40	0.70	32.40	0.66	-58.40
11950	0.64	-58.90	0.70	32.00	0.70	32.00	0.64	-58.90
12000	0.64	-60.20	0.71	30.90	0.71	30.90	0.64	-60.20
12050	0.64	-61.40	0.72	29.70	0.72	29.70	0.64	-61.40
12100	0.63	-62.20	0.72	29.30	0.72	29.30	0.63	-62.20
12150	0.62	-62.90	0.72	28.80	0.72	28.80	0.62	-62.90
12200	0.62	-63.60	0.72	28.20	0.72	28.20	0.62	-63.60
12250	0.61	-64.30	0.73	27.60	0.73	27.60	0.61	-64.30
12300	0.61	-64.20	0.73	27.10	0.73	27.10	0.61	-64.20
12350	0.61	-64.10	0.74	26.60	0.74	26.60	0.61	-64.10
12400	0.60	-65.00	0.74	26.20	0.74	26.20	0.60	-65.00
12450	0.60	-65.90	0.74	25.80	0.74	25.80	0.60	-65.90
12500	0.60	-65.40	0.74	25.40	0.74	25.40	0.60	-65.40
12550	0.59	-64.80	0.75	25.00	0.75	25.00	0.59	-64.80
12600	0.59	-64.90	0.75	24.80	0.75	24.80	0.59	-64.90
12650	0.59	-65.10	0.75	24.50	0.75	24.50	0.59	-65.10
12700	0.59	-64.60	0.76	24.00	0.76	24.00	0.59	-64.60
12750	0.59	-64.00	0.76	23.60	0.76	23.60	0.59	-64.00
12800	0.59	-63.60	0.77	23.50	0.77	23.50	0.59	-63.60
12850	0.59	-63.20	0.77	23.40	0.77	23.40	0.59	-63.20
12900	0.58	-63.00	0.77	22.80	0.77	22.80	0.58	-63.00
12950	0.57	-62.70	0.77	22.30	0.77	22.30	0.57	-62.70
13000	0.57	-62.50	0.78	22.20	0.78	22.20	0.57	-62.50
13050	0.57	-62.30	0.79	22.10	0.79	22.10	0.57	-62.30
13100	0.56	-62.20	0.79	21.60	0.79	21.60	0.56	-62.20
13150	0.55	-62.10	0.79	21.00	0.79	21.00	0.55	-62.10
13200	0.55	-62.30	0.80	20.80	0.80	20.80	0.55	-62.30
13250	0.55	-62.60	0.80	20.60	0.80	20.60	0.55	-62.60
13300	0.52	-61.00	0.80	20.00	0.80	20.00	0.52	-61.00
13350	0.50	-59.50	0.80	19.50	0.80	19.50	0.50	-59.50
13400	0.51	-61.40	0.81	18.90	0.81	18.90	0.51	-61.40
13450	0.52	-63.30	0.81	18.20	0.81	18.20	0.52	-63.30
13500	0.51	-63.70	0.81	17.90	0.81	17.90	0.51	-63.70
13550	0.50	-64.00	0.82	17.60	0.82	17.60	0.50	-64.00
13600	0.49	-64.70	0.82	17.20	0.82	17.20	0.49	-64.70
13650	0.49	-65.40	0.82	16.70	0.82	16.70	0.49	-65.40
13700	0.49	-66.00	0.82	16.30	0.82	16.30	0.49	-66.00
13750	0.49	-66.60	0.83	15.90	0.83	15.90	0.49	-66.60
13800	0.48	-67.10	0.82	15.60	0.82	15.60	0.48	-67.10
13850	0.47	-67.70	0.82	15.30	0.82	15.30	0.47	-67.70
13900	0.47	-68.30	0.83	14.90	0.83	14.90	0.47	-68.30
13950	0.47	-69.00	0.83	14.50	0.83	14.50	0.47	-69.00
14000	0.47	-69.00	0.84	14.20	0.84	14.20	0.47	-69.00
14050	0.46	-68.90	0.84	13.90	0.84	13.90	0.46	-68.90
14100	0.46	-69.90	0.84	13.50	0.84	13.50	0.46	-69.90
14150	0.47	-70.80	0.84	13.00	0.84	13.00	0.47	-70.80
14200	0.46	-70.60	0.85	12.60	0.85	12.60	0.46	-70.60
14250	0.45	-70.30	0.85	12.20	0.85	12.20	0.45	-70.30
14300	0.45	-70.70	0.85	11.90	0.85	11.90	0.45	-70.70
14350	0.45	-71.10	0.86	11.70	0.86	11.70	0.45	-71.10
14400	0.44	-71.20	0.86	11.10	0.86	11.10	0.44	-71.20
14450	0.44	-71.30	0.86	10.50	0.86	10.50	0.44	-71.30
14500	0.43	-71.00	0.87	10.30	0.87	10.30	0.43	-71.00
14550	0.43	-70.70	0.87	10.20	0.87	10.20	0.43	-70.70
14600	0.42	-70.60	0.87	9.70	0.87	9.70	0.42	-70.60
14650	0.41	-70.50	0.87	9.10	0.87	9.10	0.41	-70.50
14700	0.41	-70.90	0.88	8.80	0.88	8.80	0.41	-70.90
14750	0.40	-71.20	0.88	8.40	0.88	8.40	0.40	-71.20
14800	0.39	-71.10	0.88	8.00	0.88	8.00	0.39	-71.10
14850	0.38	-70.90	0.88	7.50	0.88	7.50	0.38	-70.90
14900	0.38	-71.00	0.89	7.10	0.89	7.10	0.38	-71.00
14950	0.37	-71.20	0.90	6.70	0.90	6.70	0.37	-71.20
15000	0.36	-71.70	0.90	6.30	0.90	6.30	0.36	-71.70
15050	0.35	-72.20	0.89	5.90	0.89	5.90	0.35	-72.20
15100	0.35	-71.50	0.90	5.60	0.90	5.60	0.35	-71.50
15150	0.35	-70.70	0.91	5.40	0.91	5.40	0.35	-70.70
15200	0.34	-71.20	0.91	5.10	0.91	5.10	0.34	-71.20
15250	0.34	-71.60	0.92	4.90	0.92	4.90	0.34	-71.60
15300	0.34	-71.10	0.91	4.30	0.91	4.30	0.34	-71.10
15350	0.33	-70.50	0.91	3.60	0.91	3.60	0.33	-70.50
15400	0.33	-69.70	0.92	3.50	0.92	3.50	0.33	-69.70
15450	0.32	-68.90	0.92	3.40	0.92	3.40	0.32	-68.90
15500	0.32	-67.70	0.92	2.80	0.92	2.80	0.32	-67.70
15550	0.31	-66.50	0.92	2.20	0.92	2.20	0.31	-66.50
15600	0.31	-65.30	0.92	2.00	0.92	2.00	0.31	-65.30
15650	0.31	-64.10	0.92	1.80	0.92	1.80	0.31	-64.10
15700	0.30	-62.80	0.92	1.30	0.92	1.30	0.30	-62.80
15750	0.29	-61.50	0.92	0.90	0.92	0.90	0.29	-61.50
15800	0.29	-60.00	0.92	0.70	0.92	0.70	0.29	-60.00
15850	0.28	-58.50	0.93	0.60	0.93	0.60	0.28	-58.50
15900	0.27	-57.20	0.93	0.20	0.93	0.20	0.27	-57.20
15950	0.27	-55.90	0.93	-0.10	0.93	-0.10	0.27	-55.90
16000	0.26	-53.30	0.93	-0.40	0.93	-0.40	0.26	-53.30
16050	0.25	-50.60	0.94	-0.70	0.94	-0.70	0.25	-50.60
16100	0.24	-50.00	0.93	-1.20	0.93	-1.20	0.24	-50.00
16150	0.23	-49.30	0.93	-1.70	0.93	-1.70	0.23	-49.30
16200	0.22	-47.10	0.93	-2.00	0.93	-2.00	0.22	-47.10
16250	0.22	-44.90	0.93	-2.30	0.93	-2.30	0.22	-44.90
16300	0.21	-45.00	0.93	-2.60	0.93	-2.60	0.21	-45.00
16350	0.20	-45.10	0.93	-3.00	0.93	-3.00	0.20	-45.10
16400	0.20	-44.40	0.93	-3.10	0.93	-3.10	0.20	-44.40
16450	0.19	-43.60	0.93	-3.20	0.93	-3.20	0.19	-43.60
16500	0.19	-46.50	0.92	-3.20	0.92	-3.20	0.19	-46.50
16550	0.19	-49.40	0.92	-3.10	0.92	-3.10	0.19	-49.40
16600	0.18	-49.60	0.93	-3.30	0.93	-3.30	0.18	-49.60
16650	0.17	-49.80	0.93	-3.50	0.93	-3.50	0.17	-49.80
16700	0.17	-52.50	0.94	-3.60	0.94	-3.60	0.17	-52.50
16750	0.17	-55.10	0.94	-3.60	0.94	-3.60	0.17	-55.10
16800	0.17	-56.00	0.94	-3.70	0.94	-3.70	0.17	-56.00
16850	0.17	-56.80	0.94	-3.80	0.94	-3.80	0.17	-56.80
16900	0.17	-57.20	0.94	-4.00	0.94	-4.00	0.17	-57.20
16950	0.17	-57.60	0.95	-4.20	0.95	-4.20	0.17	-57.60
17000	0.16	-59.00	0.95	-4.40	0.95	-4.40	0.16	-59.00
17050	0.15	-60.40	0.95	-4.70	0.95	-4.70	0.15	-60.40
17100	0.15	-58.60	0.95	-5.00	0.95	-5.00	0.15	-58.60
17150	0.15	-56.80	0.96	-5.30	0.96	-5.30	0.15	-56.80
17200	0.14	-56.10	0.96	-5.50	0.96	-5.50	0.14	-56.10
17250	0.13	-55.40	0.96	-5.60	0.96	-5.60	0.13	-55.40
17300	0.13	-53.40	0.96	-5.90	0.96	-5.90	0.13	-53.40
17350	0.13	-51.30	0.96	-6.20	0.96	-6.20	0.13	-51.30
17400	0.12	-53.10	0.96	-6.50	0.96	-6.50	0.12	-53.10
17450	0.11	-55.00	0.96	-6.70	0.96	-6.70	0.11	-55.00
17500	0.10	-50.90	0.96	-7.10	0.96	-7.10	0.10	-50.90
17550	0.10	-46.80	0.96	-7.50	0.96	-7.50	0.10	-46.80
17600	0.09	-47.20	0.96	-7.90	0.96	-7.90	0.09	-47.20
17650	0.08	-47.70	0.96	-8.30	0.96	-8.30	0.08	-47.70
17700	0.07	-47.20	0.96	-8.60	0.96	-8.60	0.07	-47.20
17750	0.06	-46.70	0.96	-8.90	0.96	-8.90	0.06	-46.70
17800	0.05	-50.40	0.96	-9.20	0.96	-9.20	0.05	-50.40
17850	0.05	-54.10	0.96	-9.60	0.96	-9.60	0.05	-54.10
17900	0.04	-61.40	0.96	-9.80	0.96	-9.80	0.04	-61.40
17950	0.03	-68.70	0.96	-10.10	0.96	-10.10	0.03	-68.70
18000	0.03	-72.20	0.96	-10.50	0.96	-10.50	0.03	-72.20
18050	0.03	-75.80	0.96	-11.00	0.96	-11.00	0.03	-75.80
18100	0.04	-85.00	0.96	-11.20	0.96	-11.20	0.04	-85.00
18150	0.04	-94.20	0.96	-11.50	0.96	-11.50	0.04	-94.20
18200	0.04	-90.50	0.96	-11.90	0.96	-11.90	0.04	-90.50
18250	0.04	-86.80	0.96	-12.20	0.96	-12.20	0.04	-86.80
18300	0.05	-88.50	0.96	-12.60	0.96	-12.60	0.05	-88.50
18350	0.06	-90.30	0.96	-12.90	0.96	-12.90	0.06	-90.30
18400	0.05	-78.50	0.96	-13.10	0.96	-13.10	0.05	-78.50
18450	0.05	-66.70	0.96	-13.30	0.96	-13.30	0.05	-66.70
18500	0.06	-68.10	0.96	-13.50	0.96	-13.50	0.06	-68.10
18550	0.06	-69.60	0.96	-13.80	0.96	-13.80	0.06	-69.60
18600	0.06	-56.50	0.97	-13.90	0.97	-13.90	0.06	-56.50
18650	0.05	-43.50	0.97	-14.10	0.97	-14.10	0.05	-43.50
18700	0.05	-51.60	0.96	-14.60	0.96	-14.60	0.05	-51.60
18750	0.06	-59.70	0.96	-15.10	0.96	-15.10	0.06	-59.70
18800	0.05	-52.20	0.96	-15.20	0.96	-15.20	0.05	-52.20
18850	0.05	-44.70	0.96	-15.30	0.96	-15.30	0.05	-44.70
18900	0.05	-44.30	0.96	-15.80	0.96	-15.80	0.05	-44.30
18950	0.05	-43.90	0.95	-16.20	0.95	-16.20	0.05	-43.90
19000	0.04	-61.80	0.95	-16.20	0.95	-16.20	0.04	-61.80
19050	0.03	-79.60	0.94	-16.20	0.94	-16.20	0.03	-79.60
19100	0.03	-56.10	0.94	-16.20	0.94	-16.20	0.03	-56.10
19150	0.03	-32.60	0.94	-16.20	0.94	-16.20	0.03	-32.60
19200	0.04	-44.70	0.94	-16.20	0.94	-16.20	0.04	-44.70
19250	0.04	-56.70	0.94	-16.10	0.94	-16.10	0.04	-56.70
19300	0.05	-49.00	0.95	-16.40	0.95	-16.40	0.05	-49.00
19350	0.06	-41.20	0.96	-16.60	0.96	-16.60	0.06	-41.20
19400	0.07	-46.60	0.96	-17.20	0.96	-17.20	0.07	-46.60
19450	0.08	-52.00	0.96	-17.80	0.96	-17.80	0.08	-52.00
