! P/N: L-07C68NJVT								
! Measured by Marlon								
! Oct. 13, 2003								
! Measure with Series-through-Fixture								
#	mhz	s	ma	r	50
0	0.00000	90.0000	0.99999	0.00000	0.99999	0.00000	0.00000	90.0000			
50	0.2125	65.55502	0.91766	-10.79312	0.91766	-10.79312	0.2125	65.55502
70	0.2773	63.04046	0.90908	-15.71539	0.90908	-15.71539	0.2773	63.04046
90	0.3382	60.91306	0.88492	-19.42313	0.88492	-19.42313	0.3382	60.91306
110	0.39919	58.49927	0.86048	-22.9997	0.86048	-22.9997	0.39919	58.49927
130	0.4584	55.70835	0.83761	-26.79601	0.83761	-26.79601	0.4584	55.70835
150	0.50808	53.03237	0.80474	-30.43051	0.80474	-30.43051	0.50808	53.03237
170	0.55625	50.78597	0.77713	-33.20438	0.77713	-33.20438	0.55625	50.78597
190	0.59715	48.12133	0.7478	-36.38545	0.7478	-36.38545	0.59715	48.12133
210	0.63335	45.67574	0.7163	-39.25016	0.7163	-39.25016	0.63335	45.67574
230	0.66838	43.47374	0.68601	-41.64885	0.68601	-41.64885	0.66838	43.47374
250	0.70669	40.9271	0.66411	-44.00579	0.66411	-44.00579	0.70669	40.9271
270	0.72303	38.86269	0.62995	-46.77233	0.62995	-46.77233	0.72303	38.86269
290	0.74968	37.21912	0.60306	-48.69232	0.60306	-48.69232	0.74968	37.21912
310	0.77637	35.33403	0.57902	-50.73411	0.57902	-50.73411	0.77637	35.33403
330	0.7970	33.14133	0.55395	-52.97942	0.55395	-52.97942	0.7970	33.14133
350	0.80964	31.17117	0.52454	-54.62333	0.52454	-54.62333	0.80964	31.17117
370	0.82974	29.68885	0.50426	-56.51744	0.50426	-56.51744	0.82974	29.68885
390	0.84654	28.07052	0.48178	-58.19785	0.48178	-58.19785	0.84654	28.07052
410	0.86157	26.6838	0.45976	-59.63868	0.45976	-59.63868	0.86157	26.6838
430	0.87553	25.51062	0.43945	-60.95265	0.43945	-60.95265	0.87553	25.51062
450	0.88834	24.14715	0.42066	-62.39111	0.42066	-62.39111	0.88834	24.14715
470	0.89678	22.93753	0.3980	-63.97641	0.3980	-63.97641	0.89678	22.93753
490	0.91869	21.50811	0.36531	-66.64357	0.36531	-66.64357	0.91869	21.50811
510	0.9381	20.60649	0.3394	-68.97994	0.3394	-68.97994	0.9381	20.60649
530	0.94772	20.30237	0.32338	-70.39686	0.32338	-70.39686	0.94772	20.30237
550	0.94888	19.98751	0.30666	-71.1296	0.30666	-71.1296	0.94888	19.98751
570	0.94786	19.03955	0.29278	-71.99399	0.29278	-71.99399	0.94786	19.03955
590	0.95163	18.19472	0.27819	-72.94558	0.27819	-72.94558	0.95163	18.19472
610	0.95792	17.21681	0.26386	-73.69778	0.26386	-73.69778	0.95792	17.21681
630	0.96298	16.04871	0.24999	-74.41275	0.24999	-74.41275	0.96298	16.04871
650	0.96164	14.81242	0.23595	-75.70134	0.23595	-75.70134	0.96164	14.81242
670	0.96599	14.4574	0.22209	-76.03309	0.22209	-76.03309	0.96599	14.4574
690	0.97784	13.76105	0.21012	-76.7982	0.21012	-76.7982	0.97784	13.76105
710	0.98537	13.06574	0.19823	-77.62974	0.19823	-77.62974	0.98537	13.06574
730	0.98593	12.5936	0.18631	-78.26393	0.18631	-78.26393	0.98593	12.5936
750	0.98607	12.44649	0.17603	-78.54006	0.17603	-78.54006	0.98607	12.44649
770	0.98914	11.85816	0.16546	-79.51985	0.16546	-79.51985	0.98914	11.85816
790	0.98791	11.0608	0.1548	-80.09408	0.1548	-80.09408	0.98791	11.0608
810	0.98935	10.3356	0.14489	-80.48736	0.14489	-80.48736	0.98935	10.3356
830	0.99249	9.69658	0.13544	-80.93055	0.13544	-80.93055	0.99249	9.69658
850	0.9885	8.8906	0.12504	-81.66077	0.12504	-81.66077	0.9885	8.8906
870	0.99439	8.72956	0.11507	-81.47751	0.11507	-81.47751	0.99439	8.72956
890	1.00146	8.25872	0.10636	-81.867	0.10636	-81.867	1.00146	8.25872
910	1.00248	7.79133	0.09746	-82.36161	0.09746	-82.36161	1.00248	7.79133
930	0.99836	7.47798	0.0882	-82.59722	0.0882	-82.59722	0.99836	7.47798
950	0.99822	7.30665	0.07968	-82.31328	0.07968	-82.31328	0.99822	7.30665
970	1.00291	6.51748	0.07173	-82.51169	0.07173	-82.51169	1.00291	6.51748
990	0.99873	5.9494	0.06332	-82.26647	0.06332	-82.26647	0.99873	5.9494
1010	0.9954	5.47785	0.05505	-81.85175	0.05505	-81.85175	0.9954	5.47785
1030	0.99653	5.0784	0.04716	-81.26496	0.04716	-81.26496	0.99653	5.0784
1050	0.99958	4.82669	0.03947	-80.22681	0.03947	-80.22681	0.99958	4.82669
1070	1.00282	4.33571	0.03217	-78.41021	0.03217	-78.41021	1.00282	4.33571
1090	1.00064	3.89285	0.02494	-75.28352	0.02494	-75.28352	1.00064	3.89285
1110	0.99568	3.61408	0.01797	-68.99807	0.01797	-68.99807	0.99568	3.61408
1130	0.99097	3.38538	0.01171	-54.27834	0.01171	-54.27834	0.99097	3.38538
1150	0.98988	2.86276	0.00697	-22.42192	0.00697	-22.42192	0.98988	2.86276
1170	0.98672	2.0597	0.00872	28.63876	0.00872	28.63876	0.98672	2.0597
1190	0.98454	1.3345	0.01347	54.24113	0.01347	54.24113	0.98454	1.3345
1210	0.9839	0.44598	0.0194	65.89809	0.0194	65.89809	0.9839	0.44598
1230	0.98499	-0.3763	0.0256	71.41983	0.0256	71.41983	0.98499	-0.3763
1250	0.98764	-0.43199	0.03204	74.9139	0.03204	74.9139	0.98764	-0.43199
1270	0.99775	-1.04579	0.03828	75.92514	0.03828	75.92514	0.99775	-1.04579
1290	0.99844	-1.75298	0.04463	76.56322	0.04463	76.56322	0.99844	-1.75298
1310	0.9949	-2.06919	0.05074	77.20372	0.05074	77.20372	0.9949	-2.06919
1330	0.99478	-2.02622	0.05675	77.75378	0.05675	77.75378	0.99478	-2.02622
1350	1.00811	-2.17207	0.06331	77.65206	0.06331	77.65206	1.00811	-2.17207
1370	0.99791	-2.64728	0.06893	77.69018	0.06893	77.69018	0.99791	-2.64728
1390	0.99724	-3.05548	0.07509	78.04154	0.07509	78.04154	0.99724	-3.05548
1410	0.99813	-3.49827	0.08106	78.1004	0.08106	78.1004	0.99813	-3.49827
1430	0.99728	-3.93899	0.08656	77.80248	0.08656	77.80248	0.99728	-3.93899
1450	0.99609	-4.20268	0.09176	77.62492	0.09176	77.62492	0.99609	-4.20268
1470	1.00366	-4.51975	0.09786	77.69201	0.09786	77.69201	1.00366	-4.51975
1490	1.00357	-4.8687	0.10346	77.43522	0.10346	77.43522	1.00357	-4.8687
1510	1.00046	-4.98996	0.10869	77.25096	0.10869	77.25096	1.00046	-4.98996
1530	0.99722	-4.9537	0.11386	77.13243	0.11386	77.13243	0.99722	-4.9537
1550	0.99494	-5.15974	0.11955	76.66966	0.11955	76.66966	0.99494	-5.15974
1570	0.98804	-5.97411	0.12484	76.39267	0.12484	76.39267	0.98804	-5.97411
1590	0.98598	-6.25263	0.13018	76.07362	0.13018	76.07362	0.98598	-6.25263
1610	0.98464	-6.48594	0.1355	75.93341	0.1355	75.93341	0.98464	-6.48594
1630	0.9834	-6.94764	0.14096	75.91908	0.14096	75.91908	0.9834	-6.94764
1650	0.98513	-7.69434	0.14688	75.70391	0.14688	75.70391	0.98513	-7.69434
1670	0.98164	-8.1914	0.15144	75.28527	0.15144	75.28527	0.98164	-8.1914
1690	0.97977	-8.3004	0.15613	75.27883	0.15613	75.27883	0.97977	-8.3004
1710	0.98036	-8.45446	0.16135	75.10556	0.16135	75.10556	0.98036	-8.45446
1730	0.98172	-8.78	0.16695	74.70018	0.16695	74.70018	0.98172	-8.78
1750	0.97961	-9.09669	0.17227	74.5112	0.17227	74.5112	0.97961	-9.09669
1770	0.97123	-9.19059	0.17656	74.75306	0.17656	74.75306	0.97123	-9.19059
1790	0.9709	-9.75993	0.1822	74.23487	0.1822	74.23487	0.9709	-9.75993
1810	0.96847	-10.39034	0.18706	73.73098	0.18706	73.73098	0.96847	-10.39034
1830	0.96376	-10.94088	0.19117	73.55479	0.19117	73.55479	0.96376	-10.94088
1850	0.96651	-11.5441	0.19667	73.55878	0.19667	73.55878	0.96651	-11.5441
1870	0.97074	-12.16247	0.20118	72.94341	0.20118	72.94341	0.97074	-12.16247
1890	0.96788	-12.23993	0.20474	72.79046	0.20474	72.79046	0.96788	-12.23993
1910	0.9677	-12.36766	0.20931	72.71662	0.20931	72.71662	0.9677	-12.36766
1930	0.97152	-12.73036	0.21507	72.50065	0.21507	72.50065	0.97152	-12.73036
1950	0.97222	-13.10623	0.22033	72.0833	0.22033	72.0833	0.97222	-13.10623
1970	0.96612	-13.45596	0.22383	71.58996	0.22383	71.58996	0.96612	-13.45596
1990	0.96527	-13.74293	0.22789	71.48169	0.22789	71.48169	0.96527	-13.74293
2010	0.96496	-13.99252	0.233	71.45261	0.233	71.45261	0.96496	-13.99252
2030	0.96433	-14.36286	0.23853	71.22602	0.23853	71.22602	0.96433	-14.36286
2050	0.96636	-15.14483	0.24265	70.55437	0.24265	70.55437	0.96636	-15.14483
2070	0.96396	-15.1564	0.24664	70.69217	0.24664	70.69217	0.96396	-15.1564
2090	0.96637	-15.17393	0.2512	70.8038	0.2512	70.8038	0.96637	-15.17393
2110	0.96636	-15.50423	0.25576	70.46201	0.25576	70.46201	0.96636	-15.50423
2130	0.96211	-16.02584	0.25987	69.76201	0.25987	69.76201	0.96211	-16.02584
2150	0.95721	-16.18904	0.26315	69.32147	0.26315	69.32147	0.95721	-16.18904
2170	0.95711	-16.44363	0.26937	69.34271	0.26937	69.34271	0.95711	-16.44363
2190	0.95639	-16.62256	0.27422	69.12283	0.27422	69.12283	0.95639	-16.62256
2210	0.95411	-16.93539	0.2788	68.94524	0.2788	68.94524	0.95411	-16.93539
2230	0.95196	-17.41219	0.28337	68.79221	0.28337	68.79221	0.95196	-17.41219
2250	0.95429	-17.90362	0.28734	68.34493	0.28734	68.34493	0.95429	-17.90362
2270	0.94866	-17.90186	0.29028	68.26936	0.29028	68.26936	0.94866	-17.90186
2290	0.94772	-18.11935	0.29515	68.2916	0.29515	68.2916	0.94772	-18.11935
2310	0.94896	-18.64625	0.30091	67.92021	0.30091	67.92021	0.94896	-18.64625
2330	0.94775	-19.23525	0.30566	67.28587	0.30566	67.28587	0.94775	-19.23525
2350	0.9373	-19.30158	0.30666	67.14132	0.30666	67.14132	0.9373	-19.30158
2370	0.93737	-19.33644	0.31223	67.19736	0.31223	67.19736	0.93737	-19.33644
2390	0.93752	-19.91663	0.31737	66.73068	0.31737	66.73068	0.93752	-19.91663
2410	0.93419	-20.54153	0.32161	66.2527	0.32161	66.2527	0.93419	-20.54153
2430	0.92896	-20.91792	0.32522	66.08541	0.32522	66.08541	0.92896	-20.91792
2450	0.92854	-20.96004	0.32921	66.36135	0.32921	66.36135	0.92854	-20.96004
2470	0.93229	-21.51039	0.33512	66.14996	0.33512	66.14996	0.93229	-21.51039
2490	0.93179	-21.93321	0.339	65.61786	0.339	65.61786	0.93179	-21.93321
2510	0.92922	-22.17789	0.34181	65.1971	0.34181	65.1971	0.92922	-22.17789
2530	0.92868	-22.29515	0.34519	64.98458	0.34519	64.98458	0.92868	-22.29515
2550	0.93623	-22.43712	0.35149	64.74208	0.35149	64.74208	0.93623	-22.43712
2570	0.92504	-22.76229	0.35424	64.34678	0.35424	64.34678	0.92504	-22.76229
2590	0.91907	-22.97576	0.35786	64.1872	0.35786	64.1872	0.91907	-22.97576
2610	0.91468	-23.29716	0.36286	63.92414	0.36286	63.92414	0.91468	-23.29716
2630	0.91148	-23.75946	0.36824	63.56387	0.36824	63.56387	0.91148	-23.75946
2650	0.91233	-24.20904	0.37152	63.4581	0.37152	63.4581	0.91233	-24.20904
2670	0.91327	-24.36225	0.37526	63.60088	0.37526	63.60088	0.91327	-24.36225
2690	0.91626	-24.71078	0.38142	63.26693	0.38142	63.26693	0.91626	-24.71078
2710	0.91303	-25.2166	0.38556	62.7849	0.38556	62.7849	0.91303	-25.2166
2730	0.90455	-25.56127	0.38788	62.44605	0.38788	62.44605	0.90455	-25.56127
2750	0.90104	-25.14597	0.39323	62.50427	0.39323	62.50427	0.90104	-25.14597
2770	0.90431	-25.76079	0.39764	61.73931	0.39764	61.73931	0.90431	-25.76079
2790	0.90303	-26.37144	0.40214	61.51051	0.40214	61.51051	0.90303	-26.37144
2810	0.90156	-26.62125	0.40656	61.45908	0.40656	61.45908	0.90156	-26.62125
2830	0.90104	-26.50389	0.41034	61.3288	0.41034	61.3288	0.90104	-26.50389
2850	0.89946	-26.36336	0.41249	60.96598	0.41249	60.96598	0.89946	-26.36336
2870	0.89708	-26.77034	0.41821	60.56681	0.41821	60.56681	0.89708	-26.77034
2890	0.8887	-27.14989	0.42265	60.16276	0.42265	60.16276	0.8887	-27.14989
2910	0.88337	-27.54349	0.42691	59.78001	0.42691	59.78001	0.88337	-27.54349
2930	0.88275	-27.91796	0.43154	59.46111	0.43154	59.46111	0.88275	-27.91796
2950	0.8811	-28.16541	0.43656	59.26498	0.43656	59.26498	0.8811	-28.16541
2970	0.87582	-28.43056	0.44077	58.60308	0.44077	58.60308	0.87582	-28.43056
2990	0.86815	-29.0851	0.44307	57.84013	0.44307	57.84013	0.86815	-29.0851
3010	0.86205	-29.37825	0.44331	57.21882	0.44331	57.21882	0.86205	-29.37825
3030	0.86091	-29.16815	0.44228	56.82083	0.44228	56.82083	0.86091	-29.16815
3050	0.86754	-28.92188	0.44179	56.5668	0.44179	56.5668	0.86754	-28.92188
3070	0.86401	-29.4249	0.44044	56.27491	0.44044	56.27491	0.86401	-29.4249
3090	0.86179	-29.42051	0.43967	56.5058	0.43967	56.5058	0.86179	-29.42051
3110	0.86246	-29.4653	0.44338	57.0338	0.44338	57.0338	0.86246	-29.4653
3130	0.86483	-29.86648	0.45104	57.45945	0.45104	57.45945	0.86483	-29.86648
3150	0.86498	-30.68191	0.45773	57.20946	0.45773	57.20946	0.86498	-30.68191
3170	0.85873	-30.91326	0.45907	57.21529	0.45907	57.21529	0.85873	-30.91326
3190	0.86102	-31.09253	0.46713	57.17296	0.46713	57.17296	0.86102	-31.09253
3210	0.86215	-31.40538	0.47315	57.04859	0.47315	57.04859	0.86215	-31.40538
3230	0.85866	-31.78411	0.47482	56.84368	0.47482	56.84368	0.85866	-31.78411
3250	0.85337	-31.90765	0.47626	56.59504	0.47626	56.59504	0.85337	-31.90765
3270	0.85162	-32.0198	0.48214	56.32283	0.48214	56.32283	0.85162	-32.0198
3290	0.84591	-32.62213	0.48546	55.85919	0.48546	55.85919	0.84591	-32.62213
3310	0.84136	-33.15244	0.48978	55.63212	0.48978	55.63212	0.84136	-33.15244
3330	0.84056	-33.46899	0.49598	55.60016	0.49598	55.60016	0.84056	-33.46899
3350	0.84355	-33.85046	0.50218	55.25244	0.50218	55.25244	0.84355	-33.85046
3370	0.83923	-34.23827	0.50677	54.94338	0.50677	54.94338	0.83923	-34.23827
3390	0.83561	-34.48235	0.50804	54.75993	0.50804	54.75993	0.83561	-34.48235
3410	0.8333	-34.56059	0.50998	54.58525	0.50998	54.58525	0.8333	-34.56059
3430	0.8318	-34.66367	0.51458	54.32584	0.51458	54.32584	0.8318	-34.66367
3450	0.82949	-35.1951	0.52183	53.91153	0.52183	53.91153	0.82949	-35.1951
3470	0.81811	-35.54177	0.51897	53.52661	0.51897	53.52661	0.81811	-35.54177
3490	0.81423	-35.44626	0.52302	53.60591	0.52302	53.60591	0.81423	-35.44626
3510	0.81584	-35.81189	0.53023	53.42842	0.53023	53.42842	0.81584	-35.81189
3530	0.81629	-36.66104	0.53593	52.94337	0.53593	52.94337	0.81629	-36.66104
3550	0.80427	-37.13513	0.53453	52.77027	0.53453	52.77027	0.80427	-37.13513
3570	0.80811	-37.33305	0.53971	52.62892	0.53971	52.62892	0.80811	-37.33305
3590	0.80874	-37.81696	0.54427	52.13749	0.54427	52.13749	0.80874	-37.81696
3610	0.8053	-38.15334	0.54706	51.84942	0.54706	51.84942	0.8053	-38.15334
3630	0.80035	-38.29784	0.54956	51.86443	0.54956	51.86443	0.80035	-38.29784
3650	0.7999	-38.59529	0.55592	51.82846	0.55592	51.82846	0.7999	-38.59529
3670	0.79349	-39.165	0.55753	51.00244	0.55753	51.00244	0.79349	-39.165
3690	0.78889	-39.43151	0.56045	50.74998	0.56045	50.74998	0.78889	-39.43151
3710	0.78771	-39.83905	0.5649	50.55785	0.5649	50.55785	0.78771	-39.83905
3730	0.78722	-40.42465	0.56962	50.15928	0.56962	50.15928	0.78722	-40.42465
3750	0.78033	-40.81809	0.57189	49.53401	0.57189	49.53401	0.78033	-40.81809
3770	0.77651	-40.71176	0.57585	49.68169	0.57585	49.68169	0.77651	-40.71176
3790	0.77889	-41.23099	0.5818	49.23358	0.5818	49.23358	0.77889	-41.23099
3810	0.77655	-41.71108	0.58506	48.84781	0.58506	48.84781	0.77655	-41.71108
3830	0.76871	-41.93642	0.58617	48.74501	0.58617	48.74501	0.76871	-41.93642
3850	0.76477	-42.1405	0.59089	48.70829	0.59089	48.70829	0.76477	-42.1405
3870	0.75861	-42.55144	0.59279	48.40741	0.59279	48.40741	0.75861	-42.55144
3890	0.75778	-42.98433	0.59794	48.14185	0.59794	48.14185	0.75778	-42.98433
3910	0.75671	-43.54634	0.60307	47.75985	0.60307	47.75985	0.75671	-43.54634
3930	0.75231	-44.16992	0.6065	47.35081	0.6065	47.35081	0.75231	-44.16992
3950	0.74405	-44.61282	0.60809	47.24526	0.60809	47.24526	0.74405	-44.61282
3970	0.74361	-44.69108	0.61465	47.34184	0.61465	47.34184	0.74361	-44.69108
3990	0.74258	-45.36419	0.62005	46.68882	0.62005	46.68882	0.74258	-45.36419
4010	0.73863	-45.94916	0.6228	46.11704	0.6228	46.11704	0.73863	-45.94916
4030	0.73291	-46.21081	0.6238	45.84239	0.6238	45.84239	0.73291	-46.21081
4050	0.73001	-46.36183	0.62634	45.46587	0.62634	45.46587	0.73001	-46.36183
4070	0.72974	-46.70815	0.63003	45.22015	0.63003	45.22015	0.72974	-46.70815
4090	0.7241	-47.18371	0.63519	44.66117	0.63519	44.66117	0.7241	-47.18371
4110	0.71583	-47.72761	0.63838	44.30818	0.63838	44.30818	0.71583	-47.72761
4130	0.70779	-48.15499	0.6401	44.27642	0.6401	44.27642	0.70779	-48.15499
4150	0.70295	-48.157	0.64482	44.27711	0.64482	44.27711	0.70295	-48.157
4170	0.70436	-49.1663	0.65566	43.29567	0.65566	43.29567	0.70436	-49.1663
4190	0.69746	-49.94015	0.65586	42.83968	0.65586	42.83968	0.69746	-49.94015
4210	0.69271	-50.38322	0.65634	42.658	0.65634	42.658	0.69271	-50.38322
4230	0.69204	-50.70096	0.66058	42.4195	0.66058	42.4195	0.69204	-50.70096
4250	0.68883	-51.39966	0.66465	41.71306	0.66465	41.71306	0.68883	-51.39966
4270	0.68298	-51.48255	0.66595	41.65555	0.66595	41.65555	0.68298	-51.48255
4290	0.67816	-51.93145	0.67156	41.22811	0.67156	41.22811	0.67816	-51.93145
4310	0.67279	-52.51916	0.6759	40.71447	0.6759	40.71447	0.67279	-52.51916
4330	0.66637	-53.06672	0.67829	40.3181	0.67829	40.3181	0.66637	-53.06672
4350	0.65957	-53.44345	0.68293	40.16224	0.68293	40.16224	0.65957	-53.44345
4370	0.65653	-54.37038	0.68805	39.34218	0.68805	39.34218	0.65653	-54.37038
4390	0.64902	-54.8683	0.68894	38.85979	0.68894	38.85979	0.64902	-54.8683
4410	0.64674	-55.2005	0.69445	38.37647	0.69445	38.37647	0.64674	-55.2005
4430	0.6479	-55.5149	0.70262	37.82707	0.70262	37.82707	0.6479	-55.5149
4450	0.63922	-55.8441	0.70065	37.41993	0.70065	37.41993	0.63922	-55.8441
4470	0.63321	-56.22782	0.70799	37.20771	0.70799	37.20771	0.63321	-56.22782
4490	0.62224	-56.77702	0.70922	36.63716	0.70922	36.63716	0.62224	-56.77702
4510	0.61031	-57.08123	0.7093	36.13591	0.7093	36.13591	0.61031	-57.08123
4530	0.60161	-57.21593	0.71193	35.78453	0.71193	35.78453	0.60161	-57.21593
4550	0.6006	-57.74249	0.71958	35.3165	0.71958	35.3165	0.6006	-57.74249
4570	0.59028	-58.93832	0.72278	34.099	0.72278	34.099	0.59028	-58.93832
4590	0.57814	-59.42614	0.72455	33.61794	0.72455	33.61794	0.57814	-59.42614
4610	0.57083	-59.66836	0.72892	33.07586	0.72892	33.07586	0.57083	-59.66836
4630	0.56646	-60.08699	0.73469	32.22077	0.73469	32.22077	0.56646	-60.08699
4650	0.55467	-61.06374	0.73553	31.34617	0.73553	31.34617	0.55467	-61.06374
4670	0.54275	-61.14123	0.73741	30.64359	0.73741	30.64359	0.54275	-61.14123
4690	0.5307	-61.38303	0.73963	29.98914	0.73963	29.98914	0.5307	-61.38303
4710	0.5184	-61.63608	0.74264	29.11794	0.74264	29.11794	0.5184	-61.63608
4730	0.50449	-61.90182	0.74657	28.05406	0.74657	28.05406	0.50449	-61.90182
4750	0.48644	-62.33613	0.75124	27.11049	0.75124	27.11049	0.48644	-62.33613
4770	0.47386	-62.46627	0.75302	26.32709	0.75302	26.32709	0.47386	-62.46627
4790	0.46044	-62.68966	0.75565	24.98813	0.75565	24.98813	0.46044	-62.68966
4810	0.44514	-62.69669	0.75681	23.73566	0.75681	23.73566	0.44514	-62.69669
4830	0.42795	-62.31175	0.75625	22.65233	0.75625	22.65233	0.42795	-62.31175
4850	0.40984	-61.49322	0.75582	21.26141	0.75582	21.26141	0.40984	-61.49322
4870	0.39002	-60.47841	0.75366	19.92949	0.75366	19.92949	0.39002	-60.47841
4890	0.36865	-59.32905	0.74675	18.23155	0.74675	18.23155	0.36865	-59.32905
4910	0.34754	-57.17372	0.73899	16.49207	0.73899	16.49207	0.34754	-57.17372
4930	0.32813	-54.05556	0.73215	14.68974	0.73215	14.68974	0.32813	-54.05556
4950	0.31157	-50.93221	0.72589	12.45748	0.72589	12.45748	0.31157	-50.93221
4970	0.29768	-46.03684	0.71011	10.81528	0.71011	10.81528	0.29768	-46.03684
4990	0.29168	-39.87276	0.69251	8.79354	0.69251	8.79354	0.29168	-39.87276
5010	0.2953	-33.24569	0.67152	6.60926	0.67152	6.60926	0.2953	-33.24569
5030	0.30903	-26.61535	0.64559	4.52969	0.64559	4.52969	0.30903	-26.61535
5050	0.33219	-20.09553	0.61326	2.87237	0.61326	2.87237	0.33219	-20.09553
5070	0.36784	-15.81093	0.57823	0.85696	0.57823	0.85696	0.36784	-15.81093
5090	0.4127	-12.57115	0.54156	-0.08144	0.54156	-0.08144	0.4127	-12.57115
5110	0.45888	-11.14054	0.50366	-0.81283	0.50366	-0.81283	0.45888	-11.14054
5130	0.50126	-11.33244	0.46377	-1.03625	0.46377	-1.03625	0.50126	-11.33244
5150	0.53755	-12.00911	0.42002	0.72022	0.42002	0.72022	0.53755	-12.00911
5170	0.58155	-13.45504	0.38687	3.74845	0.38687	3.74845	0.58155	-13.45504
5190	0.61715	-15.63546	0.36047	7.75806	0.36047	7.75806	0.61715	-15.63546
5210	0.64528	-17.85887	0.34003	12.62563	0.34003	12.62563	0.64528	-17.85887
5230	0.67073	-19.7057	0.32738	18.18683	0.32738	18.18683	0.67073	-19.7057
5250	0.70216	-21.02821	0.32699	24.2364	0.32699	24.2364	0.70216	-21.02821
5270	0.72126	-24.21764	0.33523	28.43537	0.33523	28.43537	0.72126	-24.21764
5290	0.72584	-26.36204	0.34333	32.45039	0.34333	32.45039	0.72584	-26.36204
5310	0.73586	-27.62097	0.35748	36.23663	0.35748	36.23663	0.73586	-27.62097
5330	0.75305	-28.95515	0.37646	39.23511	0.37646	39.23511	0.75305	-28.95515
5350	0.76089	-32.12645	0.3916	40.3727	0.3916	40.3727	0.76089	-32.12645
5370	0.75262	-33.63011	0.40471	41.93547	0.40471	41.93547	0.75262	-33.63011
5390	0.75802	-34.49264	0.42214	43.19987	0.42214	43.19987	0.75802	-34.49264
5410	0.76471	-35.55833	0.43935	44.00075	0.43935	44.00075	0.76471	-35.55833
