#	mhz	s	ma	r	50

50	0.83	159.20	0.36	59.30	0.36	59.30	0.83	159.20
100	0.72	146.10	0.54	48.50	0.54	48.50	0.72	146.10
150	0.61	133.10	0.72	37.60	0.72	37.60	0.61	133.10
200	0.52	126.60	0.79	31.70	0.79	31.70	0.52	126.60
250	0.44	120.00	0.86	25.70	0.86	25.70	0.44	120.00
300	0.38	115.90	0.89	21.80	0.89	21.80	0.38	115.90
350	0.33	111.80	0.92	17.80	0.92	17.80	0.33	111.80
400	0.29	109.10	0.93	15.40	0.93	15.40	0.29	109.10
450	0.26	106.50	0.94	13.00	0.94	13.00	0.26	106.50
500	0.23	103.60	0.95	10.50	0.95	10.50	0.23	103.60
550	0.19	100.70	0.97	7.90	0.97	7.90	0.19	100.70
600	0.18	99.80	0.97	6.50	0.97	6.50	0.18	99.80
650	0.16	98.90	0.98	5.10	0.98	5.10	0.16	98.90
700	0.15	97.00	0.98	3.90	0.98	3.90	0.15	97.00
750	0.13	95.10	0.98	2.70	0.98	2.70	0.13	95.10
800	0.12	94.90	0.98	1.60	0.98	1.60	0.12	94.90
850	0.11	94.70	0.98	0.60	0.98	0.60	0.11	94.70
900	0.10	94.30	0.98	-0.40	0.98	-0.40	0.10	94.30
950	0.09	93.90	0.99	-1.40	0.99	-1.40	0.09	93.90
1000	0.09	93.40	0.99	-2.30	0.99	-2.30	0.09	93.40
1050	0.08	92.90	0.99	-3.20	0.99	-3.20	0.08	92.90
1100	0.07	92.90	0.99	-4.00	0.99	-4.00	0.07	92.90
1150	0.06	92.80	0.99	-4.90	0.99	-4.90	0.06	92.80
1200	0.06	92.70	0.99	-5.70	0.99	-5.70	0.06	92.70
1250	0.05	92.70	0.99	-6.50	0.99	-6.50	0.05	92.70
1300	0.04	93.30	0.99	-7.20	0.99	-7.20	0.04	93.30
1350	0.04	93.90	0.99	-7.90	0.99	-7.90	0.04	93.90
1400	0.03	96.00	0.99	-8.70	0.99	-8.70	0.03	96.00
1450	0.03	98.10	0.99	-9.40	0.99	-9.40	0.03	98.10
1500	0.02	105.30	0.99	-10.10	0.99	-10.10	0.02	105.30
1550	0.02	112.50	0.99	-10.90	0.99	-10.90	0.02	112.50
1600	0.01	128.10	0.99	-11.60	0.99	-11.60	0.01	128.10
1650	0.01	143.60	0.99	-12.40	0.99	-12.40	0.01	143.60
1700	0.01	-6.40	0.99	-13.10	0.99	-13.10	0.01	-6.40
1750	0.01	-156.40	0.99	-13.80	0.99	-13.80	0.01	-156.40
1800	0.02	-145.20	0.99	-14.50	0.99	-14.50	0.02	-145.20
1850	0.02	-133.90	0.99	-15.20	0.99	-15.20	0.02	-133.90
1900	0.03	-130.40	0.99	-15.80	0.99	-15.80	0.03	-130.40
1950	0.03	-126.90	0.99	-16.40	0.99	-16.40	0.03	-126.90
2000	0.04	-126.00	0.99	-17.10	0.99	-17.10	0.04	-126.00
2050	0.04	-125.20	0.99	-17.90	0.99	-17.90	0.04	-125.20
2100	0.05	-124.20	0.99	-18.50	0.99	-18.50	0.05	-124.20
2150	0.05	-123.20	0.99	-19.10	0.99	-19.10	0.05	-123.20
2200	0.06	-123.90	0.99	-19.80	0.99	-19.80	0.06	-123.90
2250	0.06	-124.50	0.99	-20.50	0.99	-20.50	0.06	-124.50
2300	0.07	-123.80	0.99	-21.10	0.99	-21.10	0.07	-123.80
2350	0.07	-123.00	0.99	-21.70	0.99	-21.70	0.07	-123.00
2400	0.08	-123.40	0.99	-22.50	0.99	-22.50	0.08	-123.40
2450	0.09	-123.70	0.98	-23.20	0.98	-23.20	0.09	-123.70
2500	0.09	-123.40	0.98	-23.80	0.98	-23.80	0.09	-123.40
2550	0.10	-123.20	0.98	-24.50	0.98	-24.50	0.10	-123.20
2600	0.10	-123.20	0.98	-25.10	0.98	-25.10	0.10	-123.20
2650	0.11	-123.30	0.98	-25.70	0.98	-25.70	0.11	-123.30
2700	0.11	-123.40	0.98	-26.30	0.98	-26.30	0.11	-123.40
2750	0.12	-123.50	0.98	-26.90	0.98	-26.90	0.12	-123.50
2800	0.12	-123.60	0.98	-27.50	0.98	-27.50	0.12	-123.60
2850	0.13	-123.60	0.99	-28.00	0.99	-28.00	0.13	-123.60
2900	0.13	-123.80	0.98	-28.80	0.98	-28.80	0.13	-123.80
2950	0.14	-123.90	0.98	-29.70	0.98	-29.70	0.14	-123.90
3000	0.14	-123.90	0.98	-30.20	0.98	-30.20	0.14	-123.90
3050	0.14	-123.90	0.98	-30.70	0.98	-30.70	0.14	-123.90
3100	0.15	-124.10	0.98	-31.50	0.98	-31.50	0.15	-124.10
3150	0.15	-124.30	0.97	-32.20	0.97	-32.20	0.15	-124.30
3200	0.16	-124.20	0.97	-32.70	0.97	-32.70	0.16	-124.20
3250	0.16	-124.10	0.98	-33.20	0.98	-33.20	0.16	-124.10
3300	0.17	-124.50	0.98	-34.00	0.98	-34.00	0.17	-124.50
3350	0.17	-124.90	0.98	-34.70	0.98	-34.70	0.17	-124.90
3400	0.17	-125.20	0.97	-35.30	0.97	-35.30	0.17	-125.20
3450	0.18	-125.50	0.97	-35.90	0.97	-35.90	0.18	-125.50
3500	0.18	-125.70	0.97	-36.50	0.97	-36.50	0.18	-125.70
3550	0.18	-125.90	0.97	-37.10	0.97	-37.10	0.18	-125.90
3600	0.19	-125.80	0.97	-37.70	0.97	-37.70	0.19	-125.80
3650	0.20	-125.60	0.97	-38.30	0.97	-38.30	0.20	-125.60
3700	0.20	-126.00	0.97	-39.00	0.97	-39.00	0.20	-126.00
3750	0.20	-126.40	0.97	-39.80	0.97	-39.80	0.20	-126.40
3800	0.21	-126.10	0.97	-40.30	0.97	-40.30	0.21	-126.10
3850	0.21	-125.80	0.97	-40.80	0.97	-40.80	0.21	-125.80
3900	0.22	-126.30	0.96	-41.70	0.96	-41.70	0.22	-126.30
3950	0.22	-126.80	0.96	-42.50	0.96	-42.50	0.22	-126.80
4000	0.22	-127.00	0.96	-42.90	0.96	-42.90	0.22	-127.00
4050	0.22	-127.20	0.96	-43.20	0.96	-43.20	0.22	-127.20
4100	0.23	-127.00	0.96	-43.80	0.96	-43.80	0.23	-127.00
4150	0.23	-126.70	0.96	-44.50	0.96	-44.50	0.23	-126.70
4200	0.23	-127.00	0.96	-45.20	0.96	-45.20	0.23	-127.00
4250	0.24	-127.40	0.96	-45.90	0.96	-45.90	0.24	-127.40
4300	0.24	-127.50	0.96	-46.40	0.96	-46.40	0.24	-127.50
4350	0.24	-127.70	0.96	-46.90	0.96	-46.90	0.24	-127.70
4400	0.25	-128.10	0.96	-47.70	0.96	-47.70	0.25	-128.10
4450	0.25	-128.40	0.96	-48.40	0.96	-48.40	0.25	-128.40
4500	0.25	-128.90	0.96	-49.10	0.96	-49.10	0.25	-128.90
4550	0.26	-129.40	0.96	-49.80	0.96	-49.80	0.26	-129.40
4600	0.26	-130.60	0.96	-50.70	0.96	-50.70	0.26	-130.60
4650	0.26	-131.80	0.96	-51.60	0.96	-51.60	0.26	-131.80
4700	0.27	-132.80	0.95	-52.10	0.95	-52.10	0.27	-132.80
4750	0.27	-133.70	0.95	-52.70	0.95	-52.70	0.27	-133.70
4800	0.27	-134.60	0.95	-53.40	0.95	-53.40	0.27	-134.60
4850	0.27	-135.40	0.94	-54.10	0.94	-54.10	0.27	-135.40
4900	0.28	-136.80	0.94	-54.80	0.94	-54.80	0.28	-136.80
4950	0.29	-138.20	0.94	-55.60	0.94	-55.60	0.29	-138.20
5000	0.29	-139.30	0.94	-56.30	0.94	-56.30	0.29	-139.30
5050	0.30	-140.30	0.93	-57.10	0.93	-57.10	0.30	-140.30
5100	0.30	-141.40	0.93	-57.70	0.93	-57.70	0.30	-141.40
5150	0.30	-142.60	0.93	-58.30	0.93	-58.30	0.30	-142.60
5200	0.31	-143.60	0.93	-59.00	0.93	-59.00	0.31	-143.60
5250	0.32	-144.70	0.93	-59.70	0.93	-59.70	0.32	-144.70
5300	0.32	-146.20	0.93	-60.60	0.93	-60.60	0.32	-146.20
5350	0.33	-147.70	0.92	-61.60	0.92	-61.60	0.33	-147.70
5400	0.34	-148.80	0.92	-62.40	0.92	-62.40	0.34	-148.80
5450	0.34	-150.00	0.92	-63.10	0.92	-63.10	0.34	-150.00
5500	0.35	-151.20	0.91	-64.00	0.91	-64.00	0.35	-151.20
5550	0.36	-152.40	0.91	-64.80	0.91	-64.80	0.36	-152.40
5600	0.36	-154.00	0.90	-65.70	0.90	-65.70	0.36	-154.00
5650	0.37	-155.70	0.90	-66.60	0.90	-66.60	0.37	-155.70
5700	0.38	-157.20	0.89	-67.60	0.89	-67.60	0.38	-157.20
5750	0.39	-158.60	0.89	-68.60	0.89	-68.60	0.39	-158.60
5800	0.40	-160.70	0.88	-69.50	0.88	-69.50	0.40	-160.70
5850	0.41	-162.70	0.87	-70.50	0.87	-70.50	0.41	-162.70
5900	0.42	-165.10	0.85	-71.60	0.85	-71.60	0.42	-165.10
5950	0.44	-167.50	0.84	-72.70	0.84	-72.70	0.44	-167.50
6000	0.46	-170.10	0.81	-74.00	0.81	-74.00	0.46	-170.10
6050	0.49	-172.80	0.78	-75.30	0.78	-75.30	0.49	-172.80
6100	0.50	2.50	0.75	-75.80	0.75	-75.80	0.50	2.50
6150	0.51	177.70	0.71	-76.30	0.71	-76.30	0.51	177.70
6200	0.51	170.20	0.65	-74.00	0.65	-74.00	0.51	170.20
6250	0.51	162.80	0.60	-71.70	0.60	-71.70	0.51	162.80
6300	0.47	154.30	0.60	-64.00	0.60	-64.00	0.47	154.30
6350	0.42	145.80	0.61	-56.30	0.61	-56.30	0.42	145.80
6400	0.34	144.40	0.68	-54.40	0.68	-54.40	0.34	144.40
6450	0.27	142.90	0.76	-52.50	0.76	-52.50	0.27	142.90
6500	0.23	152.60	0.81	-54.70	0.81	-54.70	0.23	152.60
6550	0.20	162.20	0.85	-57.00	0.85	-57.00	0.20	162.20
6600	0.21	169.60	0.87	-59.30	0.87	-59.30	0.21	169.60
6650	0.22	176.90	0.89	-61.50	0.89	-61.50	0.22	176.90
6700	0.23	0.30	0.90	-63.10	0.90	-63.10	0.23	0.30
6750	0.25	-176.30	0.91	-64.60	0.91	-64.60	0.25	-176.30
6800	0.26	-175.50	0.91	-66.10	0.91	-66.10	0.26	-175.50
6850	0.27	-174.70	0.92	-67.50	0.92	-67.50	0.27	-174.70
6900	0.28	-174.80	0.92	-68.70	0.92	-68.70	0.28	-174.80
6950	0.29	-174.90	0.92	-69.80	0.92	-69.80	0.29	-174.90
7000	0.30	-175.70	0.92	-70.90	0.92	-70.90	0.30	-175.70
7050	0.31	-176.40	0.92	-72.00	0.92	-72.00	0.31	-176.40
7100	0.32	-177.20	0.92	-72.80	0.92	-72.80	0.32	-177.20
7150	0.32	-177.90	0.92	-73.70	0.92	-73.70	0.32	-177.90
7200	0.33	-178.70	0.92	-74.60	0.92	-74.60	0.33	-178.70
7250	0.34	-179.60	0.92	-75.60	0.92	-75.60	0.34	-179.60
7300	0.34	-0.60	0.92	-76.50	0.92	-76.50	0.34	-0.60
7350	0.34	178.30	0.91	-77.40	0.91	-77.40	0.34	178.30
7400	0.35	176.90	0.91	-78.10	0.91	-78.10	0.35	176.90
7450	0.35	175.50	0.91	-78.90	0.91	-78.90	0.35	175.50
7500	0.36	174.80	0.91	-79.80	0.91	-79.80	0.36	174.80
7550	0.36	174.10	0.91	-80.80	0.91	-80.80	0.36	174.10
7600	0.37	172.90	0.90	-81.40	0.90	-81.40	0.37	172.90
7650	0.37	171.80	0.90	-82.10	0.90	-82.10	0.37	171.80
7700	0.37	171.00	0.90	-82.90	0.90	-82.90	0.37	171.00
7750	0.37	170.30	0.90	-83.70	0.90	-83.70	0.37	170.30
7800	0.38	169.10	0.90	-84.60	0.90	-84.60	0.38	169.10
7850	0.38	167.90	0.90	-85.50	0.90	-85.50	0.38	167.90
7900	0.39	167.20	0.90	-86.30	0.90	-86.30	0.39	167.20
7950	0.39	166.60	0.90	-87.00	0.90	-87.00	0.39	166.60
8000	0.39	165.90	0.89	-87.80	0.89	-87.80	0.39	165.90
8050	0.40	165.10	0.89	-88.70	0.89	-88.70	0.40	165.10
8100	0.40	164.30	0.89	-89.50	0.89	-89.50	0.40	164.30
8150	0.40	163.50	0.89	-90.40	0.89	-90.40	0.40	163.50
8200	0.41	163.00	0.89	-91.20	0.89	-91.20	0.41	163.00
8250	0.41	162.50	0.88	-92.10	0.88	-92.10	0.41	162.50
8300	0.42	162.00	0.88	-93.00	0.88	-93.00	0.42	162.00
8350	0.42	161.60	0.88	-93.90	0.88	-93.90	0.42	161.60
8400	0.42	161.00	0.88	-94.80	0.88	-94.80	0.42	161.00
8450	0.43	160.40	0.87	-95.70	0.87	-95.70	0.43	160.40
8500	0.43	160.20	0.87	-96.80	0.87	-96.80	0.43	160.20
8550	0.43	159.90	0.87	-97.80	0.87	-97.80	0.43	159.90
8600	0.44	159.20	0.86	-98.70	0.86	-98.70	0.44	159.20
8650	0.45	158.50	0.86	-99.70	0.86	-99.70	0.45	158.50
8700	0.45	158.40	0.85	-100.70	0.85	-100.70	0.45	158.40
8750	0.46	158.30	0.85	-101.70	0.85	-101.70	0.46	158.30
8800	0.47	157.40	0.84	-102.30	0.84	-102.30	0.47	157.40
8850	0.48	156.50	0.84	-102.90	0.84	-102.90	0.48	156.50
8900	0.48	156.10	0.83	-104.10	0.83	-104.10	0.48	156.10
8950	0.49	155.70	0.83	-105.30	0.83	-105.30	0.49	155.70
9000	0.50	155.20	0.82	-106.20	0.82	-106.20	0.50	155.20
9050	0.51	154.60	0.81	-107.00	0.81	-107.00	0.51	154.60
9100	0.52	154.10	0.81	-108.00	0.81	-108.00	0.52	154.10
9150	0.54	153.70	0.81	-108.90	0.81	-108.90	0.54	153.70
9200	0.55	152.20	0.80	-110.30	0.80	-110.30	0.55	152.20
9250	0.55	150.70	0.80	-111.70	0.80	-111.70	0.55	150.70
9300	0.56	150.90	0.78	-112.40	0.78	-112.40	0.56	150.90
9350	0.56	151.10	0.77	-113.00	0.77	-113.00	0.56	151.10
9400	0.57	150.30	0.76	-114.00	0.76	-114.00	0.57	150.30
9450	0.59	149.60	0.76	-115.00	0.76	-115.00	0.59	149.60
9500	0.59	149.00	0.74	-116.00	0.74	-116.00	0.59	149.00
9550	0.59	148.50	0.73	-117.00	0.73	-117.00	0.59	148.50
9600	0.60	148.20	0.72	-117.80	0.72	-117.80	0.60	148.20
9650	0.61	147.90	0.71	-118.60	0.71	-118.60	0.61	147.90
9700	0.62	147.30	0.70	-119.40	0.70	-119.40	0.62	147.30
9750	0.63	146.70	0.69	-120.20	0.69	-120.20	0.63	146.70
9800	0.63	146.90	0.68	-120.90	0.68	-120.90	0.63	146.90
9850	0.62	147.10	0.67	-121.50	0.67	-121.50	0.62	147.10
9900	0.64	146.80	0.66	-122.30	0.66	-122.30	0.64	146.80
9950	0.66	146.40	0.66	-123.10	0.66	-123.10	0.66	146.40
10000	0.66	144.70	0.64	-124.30	0.64	-124.30	0.66	144.70
10050	0.67	142.90	0.63	-125.50	0.63	-125.50	0.67	142.90
10100	0.68	143.10	0.62	-126.00	0.62	-126.00	0.68	143.10
10150	0.69	143.40	0.61	-126.60	0.61	-126.60	0.69	143.40
10200	0.70	141.30	0.59	-127.80	0.59	-127.80	0.70	141.30
10250	0.72	139.30	0.58	-129.00	0.58	-129.00	0.72	139.30
10300	0.73	137.60	0.56	-130.20	0.56	-130.20	0.73	137.60
10350	0.74	136.00	0.54	-131.30	0.54	-131.30	0.74	136.00
10400	0.74	134.60	0.52	-131.90	0.52	-131.90	0.74	134.60
10450	0.74	133.10	0.51	-132.50	0.51	-132.50	0.74	133.10
10500	0.76	130.80	0.49	-133.40	0.49	-133.40	0.76	130.80
10550	0.77	128.40	0.47	-134.40	0.47	-134.40	0.77	128.40
10600	0.76	126.40	0.45	-134.00	0.45	-134.00	0.76	126.40
10650	0.76	124.40	0.42	-133.60	0.42	-133.60	0.76	124.40
10700	0.77	121.90	0.40	-133.40	0.40	-133.40	0.77	121.90
10750	0.78	119.40	0.38	-133.10	0.38	-133.10	0.78	119.40
10800	0.77	117.40	0.35	-130.50	0.35	-130.50	0.77	117.40
10850	0.76	115.40	0.33	-127.80	0.33	-127.80	0.76	115.40
10900	0.75	112.00	0.31	-123.10	0.31	-123.10	0.75	112.00
10950	0.74	108.50	0.29	-118.30	0.29	-118.30	0.74	108.50
11000	0.72	105.50	0.29	-111.50	0.29	-111.50	0.72	105.50
11050	0.70	102.50	0.30	-104.80	0.30	-104.80	0.70	102.50
11100	0.67	99.30	0.32	-98.60	0.32	-98.60	0.67	99.30
11150	0.63	96.20	0.34	-92.40	0.34	-92.40	0.63	96.20
11200	0.59	94.00	0.40	-90.90	0.40	-90.90	0.59	94.00
11250	0.54	91.80	0.44	-89.40	0.44	-89.40	0.54	91.80
11300	0.49	93.00	0.50	-91.20	0.50	-91.20	0.49	93.00
11350	0.44	94.10	0.55	-93.00	0.55	-93.00	0.44	94.10
11400	0.42	98.30	0.58	-96.80	0.58	-96.80	0.42	98.30
11450	0.40	102.40	0.62	-100.50	0.62	-100.50	0.40	102.40
11500	0.40	107.60	0.64	-104.30	0.64	-104.30	0.40	107.60
11550	0.41	112.70	0.66	-108.00	0.66	-108.00	0.41	112.70
11600	0.44	115.20	0.66	-111.80	0.66	-111.80	0.44	115.20
11650	0.46	117.70	0.67	-115.50	0.67	-115.50	0.46	117.70
11700	0.49	118.20	0.67	-118.60	0.67	-118.60	0.49	118.20
11750	0.52	118.70	0.66	-121.70	0.66	-121.70	0.52	118.70
11800	0.55	118.10	0.65	-124.10	0.65	-124.10	0.55	118.10
11850	0.58	117.50	0.64	-126.60	0.64	-126.60	0.58	117.50
11900	0.60	117.00	0.63	-129.10	0.63	-129.10	0.60	117.00
11950	0.63	116.50	0.62	-131.60	0.62	-131.60	0.63	116.50
12000	0.65	115.50	0.60	-133.10	0.60	-133.10	0.65	115.50
12050	0.67	114.50	0.58	-134.60	0.58	-134.60	0.67	114.50
12100	0.69	113.00	0.57	-136.60	0.57	-136.60	0.69	113.00
12150	0.70	111.50	0.56	-138.60	0.56	-138.60	0.70	111.50
12200	0.72	110.40	0.54	-140.00	0.54	-140.00	0.72	110.40
12250	0.73	109.40	0.53	-141.30	0.53	-141.30	0.73	109.40
12300	0.74	108.30	0.51	-142.90	0.51	-142.90	0.74	108.30
12350	0.75	107.20	0.49	-144.40	0.49	-144.40	0.75	107.20
12400	0.76	105.60	0.48	-145.80	0.48	-145.80	0.76	105.60
12450	0.78	104.00	0.47	-147.10	0.47	-147.10	0.78	104.00
12500	0.78	102.30	0.45	-148.40	0.45	-148.40	0.78	102.30
12550	0.79	100.60	0.43	-149.80	0.43	-149.80	0.79	100.60
12600	0.80	99.40	0.42	-151.00	0.42	-151.00	0.80	99.40
12650	0.80	98.20	0.40	-152.20	0.40	-152.20	0.80	98.20
12700	0.81	96.60	0.38	-153.00	0.38	-153.00	0.81	96.60
12750	0.82	95.00	0.37	-153.70	0.37	-153.70	0.82	95.00
12800	0.82	92.90	0.35	-155.00	0.35	-155.00	0.82	92.90
12850	0.82	90.70	0.33	-156.30	0.33	-156.30	0.82	90.70
12900	0.83	89.50	0.31	-156.40	0.31	-156.40	0.83	89.50
12950	0.84	88.20	0.30	-156.40	0.30	-156.40	0.84	88.20
13000	0.84	86.40	0.28	-156.70	0.28	-156.70	0.84	86.40
13050	0.84	84.50	0.26	-157.00	0.26	-157.00	0.84	84.50
13100	0.84	82.90	0.24	-156.10	0.24	-156.10	0.84	82.90
13150	0.85	81.30	0.22	-155.20	0.22	-155.20	0.85	81.30
13200	0.85	79.90	0.21	-153.40	0.21	-153.40	0.85	79.90
13250	0.86	78.50	0.19	-151.60	0.19	-151.60	0.86	78.50
13300	0.84	78.20	0.18	-149.30	0.18	-149.30	0.84	78.20
13350	0.82	77.90	0.16	-147.00	0.16	-147.00	0.82	77.90
13400	0.84	74.70	0.15	-142.10	0.15	-142.10	0.84	74.70
13450	0.86	71.50	0.14	-137.10	0.14	-137.10	0.86	71.50
13500	0.86	69.80	0.13	-130.60	0.13	-130.60	0.86	69.80
13550	0.86	68.20	0.12	-124.00	0.12	-124.00	0.86	68.20
13600	0.86	66.00	0.12	-116.40	0.12	-116.40	0.86	66.00
13650	0.87	63.80	0.12	-108.90	0.12	-108.90	0.87	63.80
13700	0.86	61.90	0.13	-101.90	0.13	-101.90	0.86	61.90
13750	0.86	60.10	0.13	-94.80	0.13	-94.80	0.86	60.10
13800	0.85	57.60	0.14	-89.90	0.14	-89.90	0.85	57.60
13850	0.85	55.20	0.15	-85.10	0.15	-85.10	0.85	55.20
13900	0.85	52.90	0.17	-81.60	0.17	-81.60	0.85	52.90
13950	0.85	50.70	0.18	-78.20	0.18	-78.20	0.85	50.70
14000	0.84	48.40	0.19	-76.10	0.19	-76.10	0.84	48.40
14050	0.84	46.10	0.21	-73.90	0.21	-73.90	0.84	46.10
14100	0.84	43.70	0.22	-72.50	0.22	-72.50	0.84	43.70
14150	0.84	41.30	0.24	-71.00	0.24	-71.00	0.84	41.30
14200	0.84	39.30	0.26	-70.70	0.26	-70.70	0.84	39.30
14250	0.84	37.30	0.27	-70.30	0.27	-70.30	0.84	37.30
14300	0.83	34.70	0.29	-70.40	0.29	-70.40	0.83	34.70
14350	0.83	32.00	0.31	-70.60	0.31	-70.60	0.83	32.00
14400	0.83	30.60	0.32	-70.80	0.32	-70.80	0.83	30.60
14450	0.83	29.10	0.34	-71.10	0.34	-71.10	0.83	29.10
14500	0.82	27.00	0.35	-71.70	0.35	-71.70	0.82	27.00
14550	0.81	24.90	0.37	-72.40	0.37	-72.40	0.81	24.90
14600	0.81	23.70	0.39	-73.00	0.39	-73.00	0.81	23.70
14650	0.81	22.40	0.40	-73.70	0.40	-73.70	0.81	22.40
14700	0.80	20.50	0.42	-74.70	0.42	-74.70	0.80	20.50
14750	0.79	18.60	0.43	-75.80	0.43	-75.80	0.79	18.60
14800	0.79	17.20	0.45	-76.90	0.45	-76.90	0.79	17.20
14850	0.78	15.80	0.46	-78.10	0.46	-78.10	0.78	15.80
14900	0.77	15.20	0.47	-78.70	0.47	-78.70	0.77	15.20
14950	0.76	14.50	0.49	-79.40	0.49	-79.40	0.76	14.50
15000	0.75	12.40	0.50	-81.00	0.50	-81.00	0.75	12.40
15050	0.74	10.30	0.51	-82.60	0.51	-82.60	0.74	10.30
15100	0.73	9.70	0.52	-83.30	0.52	-83.30	0.73	9.70
15150	0.71	9.10	0.54	-84.00	0.54	-84.00	0.71	9.10
15200	0.70	8.00	0.55	-85.10	0.55	-85.10	0.70	8.00
15250	0.70	6.90	0.56	-86.30	0.56	-86.30	0.70	6.90
15300	0.69	5.30	0.57	-87.90	0.57	-87.90	0.69	5.30
15350	0.68	3.60	0.58	-89.50	0.58	-89.50	0.68	3.60
15400	0.66	3.00	0.58	-90.40	0.58	-90.40	0.66	3.00
15450	0.64	2.30	0.59	-91.20	0.59	-91.20	0.64	2.30
15500	0.64	2.00	0.60	-92.70	0.60	-92.70	0.64	2.00
15550	0.64	1.80	0.62	-94.20	0.62	-94.20	0.64	1.80
15600	0.62	1.00	0.62	-95.40	0.62	-95.40	0.62	1.00
15650	0.61	0.30	0.63	-96.50	0.63	-96.50	0.61	0.30
15700	0.60	0.10	0.63	-98.10	0.63	-98.10	0.60	0.10
15750	0.59	-0.10	0.63	-99.70	0.63	-99.70	0.59	-0.10
15800	0.57	0.40	0.64	-100.70	0.64	-100.70	0.57	0.40
15850	0.56	0.90	0.64	-101.70	0.64	-101.70	0.56	0.90
15900	0.54	1.00	0.65	-103.10	0.65	-103.10	0.54	1.00
15950	0.53	1.00	0.65	-104.60	0.65	-104.60	0.53	1.00
16000	0.51	2.80	0.65	-105.90	0.65	-105.90	0.51	2.80
16050	0.49	4.60	0.66	-107.20	0.66	-107.20	0.49	4.60
16100	0.47	6.40	0.66	-109.40	0.66	-109.40	0.47	6.40
16150	0.45	8.10	0.66	-111.60	0.66	-111.60	0.45	8.10
16200	0.43	11.70	0.65	-113.60	0.65	-113.60	0.43	11.70
16250	0.42	15.30	0.64	-115.60	0.64	-115.60	0.42	15.30
16300	0.41	19.60	0.63	-117.50	0.63	-117.50	0.41	19.60
16350	0.41	23.90	0.61	-119.40	0.61	-119.40	0.41	23.90
16400	0.43	27.90	0.58	-120.90	0.58	-120.90	0.43	27.90
16450	0.45	31.80	0.56	-122.30	0.56	-122.30	0.45	31.80
16500	0.47	32.70	0.53	-122.30	0.53	-122.30	0.47	32.70
16550	0.48	33.70	0.49	-122.20	0.49	-122.20	0.48	33.70
16600	0.52	32.90	0.47	-120.10	0.47	-120.10	0.52	32.90
16650	0.56	32.20	0.44	-118.00	0.44	-118.00	0.56	32.20
16700	0.59	29.40	0.44	-114.00	0.44	-114.00	0.59	29.40
16750	0.61	26.60	0.43	-109.90	0.43	-109.90	0.61	26.60
16800	0.63	23.10	0.44	-106.30	0.44	-106.30	0.63	23.10
16850	0.64	19.70	0.45	-102.70	0.45	-102.70	0.64	19.70
16900	0.65	16.30	0.47	-100.60	0.47	-100.60	0.65	16.30
16950	0.65	12.90	0.49	-98.40	0.49	-98.40	0.65	12.90
17000	0.65	10.20	0.51	-97.70	0.51	-97.70	0.65	10.20
17050	0.65	7.50	0.54	-96.90	0.54	-96.90	0.65	7.50
17100	0.65	5.10	0.56	-97.10	0.56	-97.10	0.65	5.10
17150	0.64	2.80	0.58	-97.30	0.58	-97.30	0.64	2.80
17200	0.63	1.30	0.61	-97.70	0.61	-97.70	0.63	1.30
17250	0.63	-0.30	0.63	-98.00	0.63	-98.00	0.63	-0.30
17300	0.62	-1.70	0.65	-98.80	0.65	-98.80	0.62	-1.70
17350	0.61	-3.00	0.67	-99.60	0.67	-99.60	0.61	-3.00
17400	0.60	-4.20	0.69	-100.40	0.69	-100.40	0.60	-4.20
17450	0.59	-5.30	0.71	-101.10	0.71	-101.10	0.59	-5.30
17500	0.58	-6.30	0.73	-102.60	0.73	-102.60	0.58	-6.30
17550	0.56	-7.30	0.75	-104.00	0.75	-104.00	0.56	-7.30
17600	0.55	-8.30	0.76	-105.40	0.76	-105.40	0.55	-8.30
17650	0.53	-9.40	0.77	-106.80	0.77	-106.80	0.53	-9.40
17700	0.51	-9.90	0.79	-108.00	0.79	-108.00	0.51	-9.90
17750	0.50	-10.40	0.80	-109.20	0.80	-109.20	0.50	-10.40
17800	0.48	-12.30	0.81	-110.80	0.81	-110.80	0.48	-12.30
17850	0.47	-14.20	0.82	-112.50	0.82	-112.50	0.47	-14.20
17900	0.45	-14.10	0.83	-113.60	0.83	-113.60	0.45	-14.10
17950	0.43	-14.00	0.83	-114.80	0.83	-114.80	0.43	-14.00
18000	0.42	-15.90	0.84	-116.10	0.84	-116.10	0.42	-15.90
18050	0.41	-17.90	0.85	-117.50	0.85	-117.50	0.41	-17.90
18100	0.40	-19.50	0.85	-118.70	0.85	-118.70	0.40	-19.50
18150	0.39	-21.00	0.85	-119.90	0.85	-119.90	0.39	-21.00
18200	0.39	-21.60	0.86	-121.00	0.86	-121.00	0.39	-21.60
18250	0.39	-22.20	0.86	-122.00	0.86	-122.00	0.39	-22.20
18300	0.39	-23.90	0.86	-123.20	0.86	-123.20	0.39	-23.90
18350	0.39	-25.60	0.87	-124.40	0.87	-124.40	0.39	-25.60
18400	0.40	-25.20	0.87	-125.20	0.87	-125.20	0.40	-25.20
18450	0.40	-24.90	0.87	-126.10	0.87	-126.10	0.40	-24.90
18500	0.40	-25.30	0.87	-127.00	0.87	-127.00	0.40	-25.30
18550	0.40	-25.70	0.88	-127.90	0.88	-127.90	0.40	-25.70
18600	0.40	-25.20	0.88	-128.80	0.88	-128.80	0.40	-25.20
