#	mhz	s	ma	r	50

50	0.95	175.40	0.07	76.70	0.07	76.70	0.95	175.40
100	0.96	171.10	0.14	74.80	0.14	74.80	0.96	171.10
150	0.96	166.80	0.21	72.80	0.21	72.80	0.96	166.80
200	0.94	163.10	0.27	69.70	0.27	69.70	0.94	163.10
250	0.92	159.50	0.33	66.60	0.33	66.60	0.92	159.50
300	0.89	155.60	0.38	62.80	0.38	62.80	0.89	155.60
350	0.87	151.70	0.43	59.10	0.43	59.10	0.87	151.70
400	0.84	148.50	0.48	56.20	0.48	56.20	0.84	148.50
450	0.81	145.40	0.52	53.30	0.52	53.30	0.81	145.40
500	0.78	140.40	0.58	49.20	0.58	49.20	0.78	140.40
550	0.74	135.30	0.64	45.10	0.64	45.10	0.74	135.30
600	0.72	132.90	0.67	42.50	0.67	42.50	0.72	132.90
650	0.69	130.50	0.69	39.90	0.69	39.90	0.69	130.50
700	0.67	127.70	0.72	37.60	0.72	37.60	0.67	127.70
750	0.64	124.90	0.74	35.40	0.74	35.40	0.64	124.90
800	0.62	123.10	0.76	33.20	0.76	33.20	0.62	123.10
850	0.60	121.20	0.78	31.00	0.78	31.00	0.60	121.20
900	0.58	119.10	0.79	29.10	0.79	29.10	0.58	119.10
950	0.55	117.10	0.81	27.30	0.81	27.30	0.55	117.10
1000	0.53	115.30	0.82	25.40	0.82	25.40	0.53	115.30
1050	0.51	113.50	0.83	23.60	0.83	23.60	0.51	113.50
1100	0.50	111.70	0.85	22.10	0.85	22.10	0.50	111.70
1150	0.48	109.80	0.86	20.60	0.86	20.60	0.48	109.80
1200	0.46	108.30	0.87	19.10	0.87	19.10	0.46	108.30
1250	0.45	106.90	0.87	17.70	0.87	17.70	0.45	106.90
1300	0.43	105.10	0.88	16.40	0.88	16.40	0.43	105.10
1350	0.42	103.40	0.89	15.20	0.89	15.20	0.42	103.40
1400	0.41	102.20	0.90	13.90	0.90	13.90	0.41	102.20
1450	0.39	101.00	0.90	12.60	0.90	12.60	0.39	101.00
1500	0.38	99.50	0.91	11.40	0.91	11.40	0.38	99.50
1550	0.37	98.00	0.91	10.20	0.91	10.20	0.37	98.00
1600	0.36	96.60	0.92	9.10	0.92	9.10	0.36	96.60
1650	0.35	95.20	0.92	8.00	0.92	8.00	0.35	95.20
1700	0.34	94.20	0.93	6.90	0.93	6.90	0.34	94.20
1750	0.32	93.20	0.93	5.80	0.93	5.80	0.32	93.20
1800	0.31	92.10	0.94	4.90	0.94	4.90	0.31	92.10
1850	0.31	91.00	0.94	4.00	0.94	4.00	0.31	91.00
1900	0.30	89.80	0.94	3.00	0.94	3.00	0.30	89.80
1950	0.28	88.60	0.94	2.10	0.94	2.10	0.28	88.60
2000	0.28	87.80	0.95	1.10	0.95	1.10	0.28	87.80
2050	0.27	87.00	0.95	0.00	0.95	0.00	0.27	87.00
2100	0.26	86.10	0.95	-0.80	0.95	-0.80	0.26	86.10
2150	0.25	85.20	0.96	-1.60	0.96	-1.60	0.25	85.20
2200	0.24	84.50	0.96	-2.50	0.96	-2.50	0.24	84.50
2250	0.23	83.80	0.96	-3.50	0.96	-3.50	0.23	83.80
2300	0.22	83.20	0.96	-4.20	0.96	-4.20	0.22	83.20
2350	0.21	82.70	0.96	-5.00	0.96	-5.00	0.21	82.70
2400	0.21	82.20	0.96	-5.90	0.96	-5.90	0.21	82.20
2450	0.20	81.60	0.97	-6.80	0.97	-6.80	0.20	81.60
2500	0.19	81.30	0.97	-7.60	0.97	-7.60	0.19	81.30
2550	0.18	81.10	0.97	-8.40	0.97	-8.40	0.18	81.10
2600	0.18	80.60	0.97	-9.20	0.97	-9.20	0.18	80.60
2650	0.17	80.20	0.97	-9.90	0.97	-9.90	0.17	80.20
2700	0.16	80.00	0.97	-10.60	0.97	-10.60	0.16	80.00
2750	0.15	79.90	0.97	-11.40	0.97	-11.40	0.15	79.90
2800	0.15	79.30	0.98	-12.10	0.98	-12.10	0.15	79.30
2850	0.14	78.60	0.98	-12.80	0.98	-12.80	0.14	78.60
2900	0.13	78.90	0.98	-13.80	0.98	-13.80	0.13	78.90
2950	0.13	79.20	0.98	-14.70	0.98	-14.70	0.13	79.20
3000	0.12	79.10	0.98	-15.40	0.98	-15.40	0.12	79.10
3050	0.11	79.00	0.98	-16.00	0.98	-16.00	0.11	79.00
3100	0.11	78.60	0.98	-16.90	0.98	-16.90	0.11	78.60
3150	0.10	78.10	0.98	-17.80	0.98	-17.80	0.10	78.10
3200	0.09	78.10	0.98	-18.30	0.98	-18.30	0.09	78.10
3250	0.09	78.10	0.98	-18.90	0.98	-18.90	0.09	78.10
3300	0.09	78.90	0.98	-19.70	0.98	-19.70	0.09	78.90
3350	0.08	79.70	0.99	-20.60	0.99	-20.60	0.08	79.70
3400	0.07	80.30	0.99	-21.20	0.99	-21.20	0.07	80.30
3450	0.07	80.90	0.99	-21.80	0.99	-21.80	0.07	80.90
3500	0.06	81.90	0.99	-22.50	0.99	-22.50	0.06	81.90
3550	0.06	83.00	0.99	-23.10	0.99	-23.10	0.06	83.00
3600	0.05	85.40	0.99	-23.80	0.99	-23.80	0.05	85.40
3650	0.05	87.80	0.99	-24.40	0.99	-24.40	0.05	87.80
3700	0.04	88.70	0.99	-25.20	0.99	-25.20	0.04	88.70
3750	0.04	89.50	0.99	-26.00	0.99	-26.00	0.04	89.50
3800	0.03	91.60	0.99	-26.60	0.99	-26.60	0.03	91.60
3850	0.03	93.70	0.99	-27.10	0.99	-27.10	0.03	93.70
3900	0.02	96.10	0.99	-28.00	0.99	-28.00	0.02	96.10
3950	0.02	98.40	0.99	-28.80	0.99	-28.80	0.02	98.40
4000	0.02	110.20	0.99	-29.40	0.99	-29.40	0.02	110.20
4050	0.01	122.00	0.99	-30.00	0.99	-30.00	0.01	122.00
4100	0.01	129.40	0.99	-30.70	0.99	-30.70	0.01	129.40
4150	0.01	136.90	0.99	-31.30	0.99	-31.30	0.01	136.90
4200	0.01	-3.40	0.99	-32.00	0.99	-32.00	0.01	-3.40
4250	0.01	-143.80	0.99	-32.70	0.99	-32.70	0.01	-143.80
4300	0.01	-135.50	0.99	-33.20	0.99	-33.20	0.01	-135.50
4350	0.01	-127.30	0.99	-33.70	0.99	-33.70	0.01	-127.30
4400	0.02	-121.10	0.99	-34.40	0.99	-34.40	0.02	-121.10
4450	0.02	-114.90	0.99	-35.20	0.99	-35.20	0.02	-114.90
4500	0.02	-113.90	0.99	-35.90	0.99	-35.90	0.02	-113.90
4550	0.03	-112.80	0.99	-36.70	0.99	-36.70	0.03	-112.80
4600	0.03	-113.20	0.99	-37.40	0.99	-37.40	0.03	-113.20
4650	0.03	-113.60	0.99	-38.20	0.99	-38.20	0.03	-113.60
4700	0.04	-115.60	0.99	-38.70	0.99	-38.70	0.04	-115.60
4750	0.04	-117.60	0.99	-39.30	0.99	-39.30	0.04	-117.60
4800	0.04	-118.20	0.99	-39.90	0.99	-39.90	0.04	-118.20
4850	0.04	-118.80	0.99	-40.60	0.99	-40.60	0.04	-118.80
4900	0.05	-121.20	0.99	-41.30	0.99	-41.30	0.05	-121.20
4950	0.05	-123.70	0.99	-41.90	0.99	-41.90	0.05	-123.70
5000	0.06	-125.10	0.99	-42.60	0.99	-42.60	0.06	-125.10
5050	0.06	-126.40	0.98	-43.30	0.98	-43.30	0.06	-126.40
5100	0.06	-128.20	0.98	-43.90	0.98	-43.90	0.06	-128.20
5150	0.07	-130.00	0.99	-44.50	0.99	-44.50	0.07	-130.00
5200	0.07	-131.80	0.99	-45.00	0.99	-45.00	0.07	-131.80
5250	0.08	-133.50	0.99	-45.50	0.99	-45.50	0.08	-133.50
5300	0.08	-134.20	0.99	-46.30	0.99	-46.30	0.08	-134.20
5350	0.09	-134.80	0.99	-47.10	0.99	-47.10	0.09	-134.80
5400	0.09	-136.20	0.98	-47.70	0.98	-47.70	0.09	-136.20
5450	0.09	-137.60	0.98	-48.40	0.98	-48.40	0.09	-137.60
5500	0.10	-137.90	0.98	-49.00	0.98	-49.00	0.10	-137.90
5550	0.10	-138.30	0.98	-49.60	0.98	-49.60	0.10	-138.30
5600	0.10	-140.30	0.98	-50.30	0.98	-50.30	0.10	-140.30
5650	0.11	-142.30	0.98	-51.00	0.98	-51.00	0.11	-142.30
5700	0.11	-143.20	0.98	-51.70	0.98	-51.70	0.11	-143.20
5750	0.12	-144.10	0.98	-52.30	0.98	-52.30	0.12	-144.10
5800	0.12	-145.70	0.98	-52.90	0.98	-52.90	0.12	-145.70
5850	0.12	-147.20	0.98	-53.50	0.98	-53.50	0.12	-147.20
5900	0.13	-148.80	0.98	-54.00	0.98	-54.00	0.13	-148.80
5950	0.13	-150.40	0.98	-54.60	0.98	-54.60	0.13	-150.40
6000	0.15	-149.50	0.98	-55.40	0.98	-55.40	0.15	-149.50
6050	0.16	-148.50	0.98	-56.20	0.98	-56.20	0.16	-148.50
6100	0.17	-150.40	0.98	-56.60	0.98	-56.60	0.17	-150.40
6150	0.17	-152.20	0.98	-57.10	0.98	-57.10	0.17	-152.20
6200	0.17	-154.20	0.97	-57.70	0.97	-57.70	0.17	-154.20
6250	0.18	-156.20	0.97	-58.40	0.97	-58.40	0.18	-156.20
6300	0.18	-158.20	0.97	-59.00	0.97	-59.00	0.18	-158.20
6350	0.19	-160.20	0.97	-59.50	0.97	-59.50	0.19	-160.20
6400	0.19	-161.00	0.97	-60.10	0.97	-60.10	0.19	-161.00
6450	0.20	-161.80	0.96	-60.70	0.96	-60.70	0.20	-161.80
6500	0.20	-162.90	0.96	-61.30	0.96	-61.30	0.20	-162.90
6550	0.20	-164.00	0.96	-61.90	0.96	-61.90	0.20	-164.00
6600	0.21	-165.60	0.96	-62.50	0.96	-62.50	0.21	-165.60
6650	0.21	-167.20	0.96	-63.10	0.96	-63.10	0.21	-167.20
6700	0.22	-168.00	0.96	-63.50	0.96	-63.50	0.22	-168.00
6750	0.22	-168.80	0.96	-63.90	0.96	-63.90	0.22	-168.80
6800	0.22	-170.00	0.96	-64.50	0.96	-64.50	0.22	-170.00
6850	0.23	-171.30	0.96	-65.20	0.96	-65.20	0.23	-171.30
6900	0.23	-172.40	0.96	-65.70	0.96	-65.70	0.23	-172.40
6950	0.23	-173.40	0.96	-66.30	0.96	-66.30	0.23	-173.40
7000	0.23	-175.10	0.96	-66.90	0.96	-66.90	0.23	-175.10
7050	0.24	-176.70	0.96	-67.60	0.96	-67.60	0.24	-176.70
7100	0.24	-177.80	0.96	-68.10	0.96	-68.10	0.24	-177.80
7150	0.24	-178.80	0.96	-68.60	0.96	-68.60	0.24	-178.80
7200	0.25	0.00	0.96	-69.30	0.96	-69.30	0.25	0.00
7250	0.25	178.80	0.96	-70.00	0.96	-70.00	0.25	178.80
7300	0.25	177.60	0.96	-70.60	0.96	-70.60	0.25	177.60
7350	0.25	176.40	0.95	-71.20	0.95	-71.20	0.25	176.40
7400	0.25	174.70	0.95	-71.80	0.95	-71.80	0.25	174.70
7450	0.26	173.10	0.95	-72.40	0.95	-72.40	0.26	173.10
7500	0.26	172.40	0.95	-73.10	0.95	-73.10	0.26	172.40
7550	0.26	171.70	0.95	-73.80	0.95	-73.80	0.26	171.70
7600	0.26	170.50	0.95	-74.40	0.95	-74.40	0.26	170.50
7650	0.26	169.20	0.95	-74.90	0.95	-74.90	0.26	169.20
7700	0.26	168.40	0.95	-75.60	0.95	-75.60	0.26	168.40
7750	0.26	167.60	0.95	-76.20	0.95	-76.20	0.26	167.60
7800	0.26	166.40	0.95	-76.90	0.95	-76.90	0.26	166.40
7850	0.27	165.30	0.95	-77.60	0.95	-77.60	0.27	165.30
7900	0.27	164.90	0.95	-78.30	0.95	-78.30	0.27	164.90
7950	0.27	164.50	0.95	-78.90	0.95	-78.90	0.27	164.50
8000	0.27	164.00	0.95	-79.50	0.95	-79.50	0.27	164.00
8050	0.28	163.50	0.95	-80.20	0.95	-80.20	0.28	163.50
8100	0.27	162.80	0.95	-80.90	0.95	-80.90	0.27	162.80
8150	0.27	162.20	0.95	-81.60	0.95	-81.60	0.27	162.20
8200	0.27	162.10	0.95	-82.30	0.95	-82.30	0.27	162.10
8250	0.28	162.00	0.94	-83.00	0.94	-83.00	0.28	162.00
8300	0.28	161.90	0.94	-83.70	0.94	-83.70	0.28	161.90
8350	0.28	161.70	0.95	-84.40	0.95	-84.40	0.28	161.70
8400	0.28	161.70	0.95	-85.10	0.95	-85.10	0.28	161.70
8450	0.28	161.70	0.94	-85.90	0.94	-85.90	0.28	161.70
8500	0.28	161.90	0.94	-86.70	0.94	-86.70	0.28	161.90
8550	0.28	162.10	0.94	-87.50	0.94	-87.50	0.28	162.10
8600	0.29	161.80	0.94	-88.30	0.94	-88.30	0.29	161.80
8650	0.29	161.40	0.94	-89.10	0.94	-89.10	0.29	161.40
8700	0.29	161.60	0.94	-89.90	0.94	-89.90	0.29	161.60
8750	0.30	161.90	0.93	-90.70	0.93	-90.70	0.30	161.90
8800	0.30	161.20	0.93	-91.20	0.93	-91.20	0.30	161.20
8850	0.30	160.60	0.94	-91.70	0.94	-91.70	0.30	160.60
8900	0.31	160.60	0.93	-92.70	0.93	-92.70	0.31	160.60
8950	0.31	160.70	0.93	-93.70	0.93	-93.70	0.31	160.70
9000	0.32	160.70	0.92	-94.50	0.92	-94.50	0.32	160.70
9050	0.33	160.80	0.92	-95.20	0.92	-95.20	0.33	160.80
9100	0.34	160.80	0.92	-96.00	0.92	-96.00	0.34	160.80
9150	0.34	160.80	0.92	-96.80	0.92	-96.80	0.34	160.80
9200	0.35	160.10	0.92	-97.90	0.92	-97.90	0.35	160.10
9250	0.36	159.40	0.92	-99.10	0.92	-99.10	0.36	159.40
9300	0.36	160.00	0.91	-99.60	0.91	-99.60	0.36	160.00
9350	0.37	160.70	0.90	-100.20	0.90	-100.20	0.37	160.70
9400	0.38	160.60	0.90	-101.00	0.90	-101.00	0.38	160.60
9450	0.39	160.50	0.90	-101.90	0.90	-101.90	0.39	160.50
9500	0.39	160.40	0.89	-102.80	0.89	-102.80	0.39	160.40
9550	0.40	160.20	0.89	-103.70	0.89	-103.70	0.40	160.20
9600	0.41	160.50	0.88	-104.50	0.88	-104.50	0.41	160.50
9650	0.42	160.80	0.88	-105.40	0.88	-105.40	0.42	160.80
9700	0.43	160.50	0.88	-106.20	0.88	-106.20	0.43	160.50
9750	0.44	160.10	0.87	-107.00	0.87	-107.00	0.44	160.10
9800	0.44	160.60	0.86	-107.80	0.86	-107.80	0.44	160.60
9850	0.44	161.00	0.85	-108.50	0.85	-108.50	0.44	161.00
9900	0.46	160.80	0.85	-109.20	0.85	-109.20	0.46	160.80
9950	0.47	160.60	0.85	-109.90	0.85	-109.90	0.47	160.60
10000	0.48	159.10	0.84	-110.90	0.84	-110.90	0.48	159.10
10050	0.48	157.60	0.83	-112.00	0.83	-112.00	0.48	157.60
10100	0.49	158.30	0.83	-112.50	0.83	-112.50	0.49	158.30
10150	0.50	158.90	0.82	-113.00	0.82	-113.00	0.50	158.90
10200	0.52	157.20	0.82	-114.10	0.82	-114.10	0.52	157.20
10250	0.53	155.50	0.81	-115.10	0.81	-115.10	0.53	155.50
10300	0.54	154.50	0.80	-116.20	0.80	-116.20	0.54	154.50
10350	0.55	153.50	0.79	-117.20	0.79	-117.20	0.55	153.50
10400	0.55	152.30	0.78	-118.10	0.78	-118.10	0.55	152.30
10450	0.56	151.10	0.77	-118.90	0.77	-118.90	0.56	151.10
10500	0.57	149.60	0.77	-119.90	0.77	-119.90	0.57	149.60
10550	0.58	148.10	0.76	-121.00	0.76	-121.00	0.58	148.10
10600	0.58	146.60	0.75	-121.40	0.75	-121.40	0.58	146.60
10650	0.58	145.10	0.74	-121.80	0.74	-121.80	0.58	145.10
10700	0.60	144.00	0.73	-122.90	0.73	-122.90	0.60	144.00
10750	0.61	142.80	0.73	-124.00	0.73	-124.00	0.61	142.80
10800	0.62	142.10	0.72	-124.60	0.72	-124.60	0.62	142.10
10850	0.63	141.40	0.71	-125.20	0.71	-125.20	0.63	141.40
10900	0.63	139.00	0.69	-126.20	0.69	-126.20	0.63	139.00
10950	0.64	136.60	0.68	-127.20	0.68	-127.20	0.64	136.60
11000	0.65	135.20	0.67	-128.10	0.67	-128.10	0.65	135.20
11050	0.66	133.80	0.67	-129.10	0.67	-129.10	0.66	133.80
11100	0.67	131.00	0.64	-129.70	0.64	-129.70	0.67	131.00
11150	0.68	128.10	0.61	-130.20	0.61	-130.20	0.68	128.10
11200	0.68	125.00	0.59	-129.90	0.59	-129.90	0.68	125.00
11250	0.67	121.90	0.57	-129.50	0.57	-129.50	0.67	121.90
11300	0.65	118.90	0.56	-126.60	0.56	-126.60	0.65	118.90
11350	0.63	115.90	0.54	-123.70	0.54	-123.70	0.63	115.90
11400	0.59	114.90	0.57	-121.20	0.57	-121.20	0.59	114.90
11450	0.56	114.00	0.59	-118.70	0.59	-118.70	0.56	114.00
11500	0.55	116.70	0.63	-119.90	0.63	-119.90	0.55	116.70
11550	0.54	119.40	0.66	-121.20	0.66	-121.20	0.54	119.40
11600	0.56	119.90	0.67	-124.00	0.67	-124.00	0.56	119.90
11650	0.58	120.50	0.68	-126.80	0.68	-126.80	0.58	120.50
11700	0.60	119.80	0.68	-128.90	0.68	-128.90	0.60	119.80
11750	0.63	119.20	0.68	-131.10	0.68	-131.10	0.63	119.20
11800	0.64	118.00	0.67	-132.60	0.67	-132.60	0.64	118.00
11850	0.66	116.80	0.66	-134.10	0.66	-134.10	0.66	116.80
11900	0.68	116.10	0.65	-135.90	0.65	-135.90	0.68	116.10
11950	0.69	115.30	0.64	-137.70	0.64	-137.70	0.69	115.30
12000	0.70	114.20	0.63	-138.40	0.63	-138.40	0.70	114.20
12050	0.72	113.10	0.61	-139.20	0.61	-139.20	0.72	113.10
12100	0.73	111.70	0.60	-140.70	0.60	-140.70	0.73	111.70
12150	0.74	110.40	0.60	-142.10	0.60	-142.10	0.74	110.40
12200	0.75	109.40	0.58	-143.00	0.58	-143.00	0.75	109.40
12250	0.76	108.40	0.57	-143.90	0.57	-143.90	0.76	108.40
12300	0.76	107.50	0.56	-145.20	0.56	-145.20	0.76	107.50
12350	0.76	106.60	0.54	-146.50	0.54	-146.50	0.76	106.60
12400	0.78	105.10	0.54	-147.70	0.54	-147.70	0.78	105.10
12450	0.79	103.60	0.53	-148.80	0.53	-148.80	0.79	103.60
12500	0.79	102.00	0.51	-150.10	0.51	-150.10	0.79	102.00
12550	0.80	100.40	0.50	-151.40	0.50	-151.40	0.80	100.40
12600	0.80	99.40	0.49	-152.60	0.49	-152.60	0.80	99.40
12650	0.81	98.40	0.47	-153.80	0.47	-153.80	0.81	98.40
12700	0.81	96.80	0.46	-154.70	0.46	-154.70	0.81	96.80
12750	0.82	95.10	0.44	-155.60	0.44	-155.60	0.82	95.10
12800	0.82	93.10	0.43	-157.30	0.43	-157.30	0.82	93.10
12850	0.82	91.10	0.41	-158.90	0.41	-158.90	0.82	91.10
12900	0.84	89.90	0.39	-159.50	0.39	-159.50	0.84	89.90
12950	0.85	88.70	0.38	-160.20	0.38	-160.20	0.85	88.70
13000	0.85	87.00	0.36	-161.40	0.36	-161.40	0.85	87.00
13050	0.84	85.20	0.34	-162.70	0.34	-162.70	0.84	85.20
13100	0.85	83.70	0.32	-163.00	0.32	-163.00	0.85	83.70
13150	0.85	82.10	0.30	-163.30	0.30	-163.30	0.85	82.10
13200	0.86	80.60	0.28	-163.40	0.28	-163.40	0.86	80.60
13250	0.87	79.00	0.27	-163.50	0.27	-163.50	0.87	79.00
13300	0.85	78.80	0.25	-163.90	0.25	-163.90	0.85	78.80
13350	0.84	78.60	0.23	-164.40	0.23	-164.40	0.84	78.60
13400	0.86	75.30	0.21	-163.40	0.21	-163.40	0.86	75.30
13450	0.88	71.90	0.19	-162.50	0.19	-162.50	0.88	71.90
13500	0.88	70.30	0.17	-160.60	0.17	-160.60	0.88	70.30
13550	0.88	68.60	0.16	-158.70	0.16	-158.70	0.88	68.60
13600	0.89	66.30	0.14	-155.00	0.14	-155.00	0.89	66.30
13650	0.89	64.00	0.13	-151.30	0.13	-151.30	0.89	64.00
13700	0.89	62.10	0.11	-144.20	0.11	-144.20	0.89	62.10
13750	0.89	60.30	0.10	-137.10	0.10	-137.10	0.89	60.30
13800	0.89	57.70	0.09	-126.10	0.09	-126.10	0.89	57.70
13850	0.89	55.20	0.09	-115.10	0.09	-115.10	0.89	55.20
13900	0.89	52.70	0.09	-103.30	0.09	-103.30	0.89	52.70
13950	0.89	50.20	0.10	-91.40	0.10	-91.40	0.89	50.20
14000	0.89	47.60	0.11	-83.80	0.11	-83.80	0.89	47.60
14050	0.89	45.10	0.13	-76.10	0.13	-76.10	0.89	45.10
14100	0.89	42.60	0.14	-72.00	0.14	-72.00	0.89	42.60
14150	0.89	40.10	0.16	-68.00	0.16	-68.00	0.89	40.10
14200	0.89	37.80	0.18	-66.40	0.18	-66.40	0.89	37.80
14250	0.89	35.50	0.20	-64.80	0.20	-64.80	0.89	35.50
14300	0.88	32.80	0.22	-64.40	0.22	-64.40	0.88	32.80
14350	0.88	30.00	0.24	-64.00	0.24	-64.00	0.88	30.00
14400	0.88	28.30	0.26	-64.00	0.26	-64.00	0.88	28.30
14450	0.88	26.60	0.28	-64.00	0.28	-64.00	0.88	26.60
14500	0.87	24.60	0.30	-64.60	0.30	-64.60	0.87	24.60
14550	0.86	22.50	0.31	-65.20	0.31	-65.20	0.86	22.50
14600	0.86	21.00	0.34	-65.90	0.34	-65.90	0.86	21.00
14650	0.86	19.40	0.35	-66.60	0.35	-66.60	0.86	19.40
14700	0.85	17.60	0.37	-67.60	0.37	-67.60	0.85	17.60
14750	0.84	15.80	0.39	-68.70	0.39	-68.70	0.84	15.80
14800	0.83	14.00	0.40	-70.00	0.40	-70.00	0.83	14.00
14850	0.83	12.30	0.42	-71.20	0.42	-71.20	0.83	12.30
14900	0.82	11.70	0.44	-71.90	0.44	-71.90	0.82	11.70
14950	0.81	11.10	0.45	-72.60	0.45	-72.60	0.81	11.10
15000	0.80	8.80	0.47	-74.40	0.47	-74.40	0.80	8.80
15050	0.79	6.50	0.48	-76.10	0.48	-76.10	0.79	6.50
15100	0.78	6.00	0.49	-77.00	0.49	-77.00	0.78	6.00
15150	0.77	5.60	0.51	-77.80	0.51	-77.80	0.77	5.60
15200	0.75	4.30	0.52	-79.10	0.52	-79.10	0.75	4.30
15250	0.74	3.00	0.53	-80.40	0.53	-80.40	0.74	3.00
15300	0.74	1.50	0.54	-82.30	0.54	-82.30	0.74	1.50
15350	0.73	0.10	0.55	-84.10	0.55	-84.10	0.73	0.10
15400	0.71	-0.10	0.55	-84.90	0.55	-84.90	0.71	-0.10
15450	0.69	-0.40	0.54	-85.60	0.54	-85.60	0.69	-0.40
15500	0.70	0.00	0.55	-86.60	0.55	-86.60	0.70	0.00
15550	0.71	0.40	0.56	-87.50	0.56	-87.50	0.71	0.40
15600	0.71	-0.30	0.56	-87.50	0.56	-87.50	0.71	-0.30
15650	0.70	-1.00	0.56	-87.50	0.56	-87.50	0.70	-1.00
15700	0.71	-1.60	0.57	-88.00	0.57	-88.00	0.71	-1.60
15750	0.71	-2.30	0.58	-88.40	0.58	-88.40	0.71	-2.30
15800	0.70	-2.80	0.59	-88.50	0.59	-88.50	0.70	-2.80
15850	0.70	-3.40	0.60	-88.50	0.60	-88.50	0.70	-3.40
15900	0.69	-4.30	0.61	-89.10	0.61	-89.10	0.69	-4.30
15950	0.69	-5.20	0.61	-89.60	0.61	-89.60	0.69	-5.20
16000	0.68	-5.20	0.63	-90.00	0.63	-90.00	0.68	-5.20
16050	0.67	-5.30	0.64	-90.40	0.64	-90.40	0.67	-5.30
16100	0.65	-5.90	0.65	-91.50	0.65	-91.50	0.65	-5.90
16150	0.64	-6.50	0.66	-92.70	0.66	-92.70	0.64	-6.50
16200	0.62	-6.60	0.67	-93.70	0.67	-93.70	0.62	-6.60
16250	0.60	-6.70	0.68	-94.70	0.68	-94.70	0.60	-6.70
16300	0.58	-6.40	0.69	-95.80	0.69	-95.80	0.58	-6.40
16350	0.56	-6.20	0.69	-96.90	0.69	-96.90	0.56	-6.20
16400	0.56	-5.40	0.69	-97.40	0.69	-97.40	0.56	-5.40
16450	0.56	-4.60	0.69	-97.80	0.69	-97.80	0.56	-4.60
16500	0.56	-6.70	0.69	-97.30	0.69	-97.30	0.56	-6.70
16550	0.56	-8.70	0.70	-96.90	0.70	-96.90	0.56	-8.70
16600	0.55	-10.60	0.72	-97.40	0.72	-97.40	0.55	-10.60
16650	0.55	-12.60	0.74	-97.90	0.74	-97.90	0.55	-12.60
16700	0.54	-14.90	0.76	-98.90	0.76	-98.90	0.54	-14.90
16750	0.53	-17.20	0.77	-99.90	0.77	-99.90	0.53	-17.20
16800	0.51	-19.10	0.79	-100.90	0.79	-100.90	0.51	-19.10
16850	0.50	-20.90	0.80	-101.90	0.80	-101.90	0.50	-20.90
16900	0.49	-22.60	0.81	-102.90	0.81	-102.90	0.49	-22.60
16950	0.49	-24.30	0.82	-103.90	0.82	-103.90	0.49	-24.30
17000	0.47	-25.60	0.83	-105.00	0.83	-105.00	0.47	-25.60
17050	0.46	-27.00	0.84	-106.00	0.84	-106.00	0.46	-27.00
17100	0.45	-27.30	0.84	-107.20	0.84	-107.20	0.45	-27.30
17150	0.44	-27.70	0.85	-108.30	0.85	-108.30	0.44	-27.70
17200	0.43	-28.10	0.86	-109.20	0.86	-109.20	0.43	-28.10
17250	0.41	-28.50	0.87	-110.10	0.87	-110.10	0.41	-28.50
17300	0.40	-28.40	0.88	-111.10	0.88	-111.10	0.40	-28.40
17350	0.39	-28.30	0.88	-112.10	0.88	-112.10	0.39	-28.30
17400	0.38	-28.70	0.89	-113.10	0.89	-113.10	0.38	-28.70
17450	0.37	-29.10	0.90	-114.00	0.90	-114.00	0.37	-29.10
17500	0.35	-28.40	0.90	-115.30	0.90	-115.30	0.35	-28.40
17550	0.34	-27.70	0.91	-116.50	0.91	-116.50	0.34	-27.70
17600	0.32	-27.90	0.91	-117.70	0.91	-117.70	0.32	-27.90
17650	0.31	-28.00	0.92	-119.00	0.92	-119.00	0.31	-28.00
17700	0.29	-27.60	0.92	-120.00	0.92	-120.00	0.29	-27.60
17750	0.28	-27.10	0.93	-121.00	0.93	-121.00	0.28	-27.10
17800	0.27	-28.70	0.93	-122.30	0.93	-122.30	0.27	-28.70
17850	0.26	-30.30	0.93	-123.50	0.93	-123.50	0.26	-30.30
17900	0.25	-29.30	0.93	-124.40	0.93	-124.40	0.25	-29.30
17950	0.23	-28.40	0.93	-125.30	0.93	-125.30	0.23	-28.40
18000	0.23	-30.20	0.93	-126.40	0.93	-126.40	0.23	-30.20
18050	0.22	-32.00	0.94	-127.50	0.94	-127.50	0.22	-32.00
18100	0.22	-34.00	0.94	-128.50	0.94	-128.50	0.22	-34.00
18150	0.21	-36.10	0.94	-129.40	0.94	-129.40	0.21	-36.10
18200	0.22	-36.00	0.94	-130.30	0.94	-130.30	0.22	-36.00
18250	0.22	-35.80	0.94	-131.20	0.94	-131.20	0.22	-35.80
18300	0.22	-37.20	0.94	-132.10	0.94	-132.10	0.22	-37.20
18350	0.23	-38.60	0.94	-133.10	0.94	-133.10	0.23	-38.60
18400	0.23	-37.30	0.94	-133.80	0.94	-133.80	0.23	-37.30
18450	0.24	-36.10	0.94	-134.50	0.94	-134.50	0.24	-36.10
18500	0.24	-36.50	0.94	-135.30	0.94	-135.30	0.24	-36.50
18550	0.25	-36.90	0.95	-136.20	0.95	-136.20	0.25	-36.90
18600	0.25	-35.40	0.95	-136.90	0.95	-136.90	0.25	-35.40
18650	0.25	-33.80	0.95	-137.70	0.95	-137.70	0.25	-33.80
18700	0.25	-35.50	0.95	-138.70	0.95	-138.70	0.25	-35.50
