#	mhz	s	ma	r	50

50	0.95	175.80	0.06	76.70	0.06	76.70	0.95	175.80
100	0.96	172.10	0.12	75.40	0.12	75.40	0.96	172.10
150	0.97	168.40	0.17	74.10	0.17	74.10	0.97	168.40
200	0.95	165.20	0.22	71.80	0.22	71.80	0.95	165.20
250	0.93	162.00	0.27	69.40	0.27	69.40	0.93	162.00
300	0.92	158.30	0.32	66.10	0.32	66.10	0.92	158.30
350	0.90	154.70	0.37	62.90	0.37	62.90	0.90	154.70
400	0.88	151.80	0.41	60.40	0.41	60.40	0.88	151.80
450	0.86	148.90	0.45	57.90	0.45	57.90	0.86	148.90
500	0.83	144.00	0.50	54.30	0.50	54.30	0.83	144.00
550	0.80	139.10	0.56	50.60	0.56	50.60	0.80	139.10
600	0.78	136.60	0.59	48.10	0.59	48.10	0.78	136.60
650	0.76	134.10	0.62	45.50	0.62	45.50	0.76	134.10
700	0.74	131.20	0.64	43.40	0.64	43.40	0.74	131.20
750	0.72	128.20	0.67	41.30	0.67	41.30	0.72	128.20
800	0.70	126.20	0.69	39.10	0.69	39.10	0.70	126.20
850	0.68	124.10	0.71	36.90	0.71	36.90	0.68	124.10
900	0.66	121.90	0.73	35.00	0.73	35.00	0.66	121.90
950	0.63	119.70	0.74	33.10	0.74	33.10	0.63	119.70
1000	0.62	117.60	0.76	31.20	0.76	31.20	0.62	117.60
1050	0.60	115.50	0.78	29.40	0.78	29.40	0.60	115.50
1100	0.58	113.40	0.79	27.80	0.79	27.80	0.58	113.40
1150	0.56	111.40	0.80	26.30	0.80	26.30	0.56	111.40
1200	0.55	109.70	0.81	24.80	0.81	24.80	0.55	109.70
1250	0.53	108.00	0.82	23.30	0.82	23.30	0.53	108.00
1300	0.52	105.90	0.83	22.00	0.83	22.00	0.52	105.90
1350	0.51	103.90	0.85	20.70	0.85	20.70	0.51	103.90
1400	0.49	102.50	0.85	19.30	0.85	19.30	0.49	102.50
1450	0.47	101.00	0.86	18.00	0.86	18.00	0.47	101.00
1500	0.46	99.20	0.87	16.70	0.87	16.70	0.46	99.20
1550	0.45	97.40	0.87	15.50	0.87	15.50	0.45	97.40
1600	0.44	95.90	0.88	14.30	0.88	14.30	0.44	95.90
1650	0.43	94.40	0.89	13.10	0.89	13.10	0.43	94.40
1700	0.42	93.00	0.89	12.00	0.89	12.00	0.42	93.00
1750	0.41	91.60	0.90	10.80	0.90	10.80	0.41	91.60
1800	0.40	90.30	0.90	9.90	0.90	9.90	0.40	90.30
1850	0.39	89.00	0.91	9.00	0.91	9.00	0.39	89.00
1900	0.38	87.50	0.91	8.00	0.91	8.00	0.38	87.50
1950	0.37	86.00	0.92	7.00	0.92	7.00	0.37	86.00
2000	0.36	84.80	0.92	5.90	0.92	5.90	0.36	84.80
2050	0.35	83.70	0.92	4.90	0.92	4.90	0.35	83.70
2100	0.34	82.50	0.93	4.00	0.93	4.00	0.34	82.50
2150	0.33	81.40	0.93	3.20	0.93	3.20	0.33	81.40
2200	0.32	80.30	0.93	2.20	0.93	2.20	0.32	80.30
2250	0.31	79.30	0.94	1.20	0.94	1.20	0.31	79.30
2300	0.30	78.30	0.94	0.40	0.94	0.40	0.30	78.30
2350	0.29	77.30	0.94	-0.30	0.94	-0.30	0.29	77.30
2400	0.28	76.40	0.94	-1.30	0.94	-1.30	0.28	76.40
2450	0.28	75.50	0.94	-2.20	0.94	-2.20	0.28	75.50
2500	0.27	74.60	0.95	-3.10	0.95	-3.10	0.27	74.60
2550	0.26	73.70	0.95	-3.90	0.95	-3.90	0.26	73.70
2600	0.25	72.80	0.95	-4.70	0.95	-4.70	0.25	72.80
2650	0.24	71.90	0.95	-5.50	0.95	-5.50	0.24	71.90
2700	0.24	71.20	0.96	-6.30	0.96	-6.30	0.24	71.20
2750	0.23	70.50	0.96	-7.10	0.96	-7.10	0.23	70.50
2800	0.22	69.60	0.96	-7.80	0.96	-7.80	0.22	69.60
2850	0.21	68.70	0.97	-8.50	0.97	-8.50	0.21	68.70
2900	0.21	68.10	0.97	-9.50	0.97	-9.50	0.21	68.10
2950	0.20	67.50	0.97	-10.50	0.97	-10.50	0.20	67.50
3000	0.19	66.80	0.97	-11.20	0.97	-11.20	0.19	66.80
3050	0.19	66.20	0.97	-11.90	0.97	-11.90	0.19	66.20
3100	0.18	64.70	0.97	-12.80	0.97	-12.80	0.18	64.70
3150	0.17	63.20	0.97	-13.70	0.97	-13.70	0.17	63.20
3200	0.17	62.60	0.97	-14.30	0.97	-14.30	0.17	62.60
3250	0.16	62.10	0.97	-14.80	0.97	-14.80	0.16	62.10
3300	0.16	61.50	0.97	-15.70	0.97	-15.70	0.16	61.50
3350	0.15	60.80	0.98	-16.50	0.98	-16.50	0.15	60.80
3400	0.14	59.80	0.98	-17.20	0.98	-17.20	0.14	59.80
3450	0.14	58.70	0.98	-17.80	0.98	-17.80	0.14	58.70
3500	0.13	58.20	0.98	-18.50	0.98	-18.50	0.13	58.20
3550	0.13	57.80	0.98	-19.20	0.98	-19.20	0.13	57.80
3600	0.12	56.90	0.98	-19.90	0.98	-19.90	0.12	56.90
3650	0.12	56.00	0.98	-20.60	0.98	-20.60	0.12	56.00
3700	0.11	54.40	0.98	-21.40	0.98	-21.40	0.11	54.40
3750	0.10	52.90	0.98	-22.10	0.98	-22.10	0.10	52.90
3800	0.10	51.00	0.98	-22.70	0.98	-22.70	0.10	51.00
3850	0.10	49.10	0.98	-23.30	0.98	-23.30	0.10	49.10
3900	0.09	47.30	0.98	-24.20	0.98	-24.20	0.09	47.30
3950	0.09	45.50	0.98	-25.10	0.98	-25.10	0.09	45.50
4000	0.09	43.00	0.99	-25.70	0.99	-25.70	0.09	43.00
4050	0.08	40.40	0.99	-26.30	0.99	-26.30	0.08	40.40
4100	0.08	38.20	0.99	-27.00	0.99	-27.00	0.08	38.20
4150	0.08	36.00	0.99	-27.70	0.99	-27.70	0.08	36.00
4200	0.07	32.50	0.99	-28.30	0.99	-28.30	0.07	32.50
4250	0.07	29.10	0.99	-29.00	0.99	-29.00	0.07	29.10
4300	0.07	26.10	0.99	-29.50	0.99	-29.50	0.07	26.10
4350	0.07	23.20	0.99	-30.00	0.99	-30.00	0.07	23.20
4400	0.06	18.50	0.99	-30.80	0.99	-30.80	0.06	18.50
4450	0.06	13.80	0.99	-31.50	0.99	-31.50	0.06	13.80
4500	0.06	10.90	0.99	-32.30	0.99	-32.30	0.06	10.90
4550	0.06	7.90	0.99	-33.00	0.99	-33.00	0.06	7.90
4600	0.06	4.30	0.99	-33.80	0.99	-33.80	0.06	4.30
4650	0.06	0.70	0.99	-34.50	0.99	-34.50	0.06	0.70
4700	0.06	-3.30	0.99	-35.10	0.99	-35.10	0.06	-3.30
4750	0.06	-7.30	0.99	-35.60	0.99	-35.60	0.06	-7.30
4800	0.06	-11.30	0.99	-36.30	0.99	-36.30	0.06	-11.30
4850	0.06	-15.40	0.99	-36.90	0.99	-36.90	0.06	-15.40
4900	0.05	-19.30	0.99	-37.60	0.99	-37.60	0.05	-19.30
4950	0.05	-23.10	0.99	-38.20	0.99	-38.20	0.05	-23.10
5000	0.05	-29.00	0.99	-38.90	0.99	-38.90	0.05	-29.00
5050	0.05	-35.00	0.99	-39.60	0.99	-39.60	0.05	-35.00
5100	0.05	-38.90	0.99	-40.20	0.99	-40.20	0.05	-38.90
5150	0.05	-42.90	0.99	-40.80	0.99	-40.80	0.05	-42.90
5200	0.05	-48.50	0.99	-41.20	0.99	-41.20	0.05	-48.50
5250	0.05	-54.10	0.99	-41.70	0.99	-41.70	0.05	-54.10
5300	0.05	-59.40	0.99	-42.40	0.99	-42.40	0.05	-59.40
5350	0.05	-64.60	0.99	-43.20	0.99	-43.20	0.05	-64.60
5400	0.06	-68.90	0.99	-43.90	0.99	-43.90	0.06	-68.90
5450	0.06	-73.20	0.99	-44.60	0.99	-44.60	0.06	-73.20
5500	0.06	-77.10	0.99	-45.10	0.99	-45.10	0.06	-77.10
5550	0.06	-80.90	0.99	-45.70	0.99	-45.70	0.06	-80.90
5600	0.06	-84.70	0.99	-46.40	0.99	-46.40	0.06	-84.70
5650	0.06	-88.50	0.99	-47.00	0.99	-47.00	0.06	-88.50
5700	0.06	-92.70	0.99	-47.70	0.99	-47.70	0.06	-92.70
5750	0.07	-97.00	0.99	-48.30	0.99	-48.30	0.07	-97.00
5800	0.07	-99.40	0.99	-48.90	0.99	-48.90	0.07	-99.40
5850	0.07	-101.90	0.98	-49.40	0.98	-49.40	0.07	-101.90
5900	0.07	-106.00	0.98	-49.90	0.98	-49.90	0.07	-106.00
5950	0.07	-110.10	0.99	-50.40	0.99	-50.40	0.07	-110.10
6000	0.09	-113.60	0.99	-51.20	0.99	-51.20	0.09	-113.60
6050	0.10	-117.20	0.99	-52.00	0.99	-52.00	0.10	-117.20
6100	0.10	-120.20	0.99	-52.40	0.99	-52.40	0.10	-120.20
6150	0.10	-123.30	0.98	-52.80	0.98	-52.80	0.10	-123.30
6200	0.10	-126.90	0.98	-53.40	0.98	-53.40	0.10	-126.90
6250	0.11	-130.60	0.98	-54.10	0.98	-54.10	0.11	-130.60
6300	0.11	-133.90	0.98	-54.60	0.98	-54.60	0.11	-133.90
6350	0.11	-137.30	0.98	-55.10	0.98	-55.10	0.11	-137.30
6400	0.12	-139.40	0.98	-55.70	0.98	-55.70	0.12	-139.40
6450	0.12	-141.50	0.98	-56.30	0.98	-56.30	0.12	-141.50
6500	0.12	-142.80	0.98	-56.90	0.98	-56.90	0.12	-142.80
6550	0.13	-144.20	0.97	-57.50	0.97	-57.50	0.13	-144.20
6600	0.13	-147.20	0.98	-58.00	0.98	-58.00	0.13	-147.20
6650	0.13	-150.10	0.98	-58.60	0.98	-58.60	0.13	-150.10
6700	0.13	-151.60	0.98	-59.00	0.98	-59.00	0.13	-151.60
6750	0.14	-153.10	0.97	-59.40	0.97	-59.40	0.14	-153.10
6800	0.14	-154.70	0.98	-59.90	0.98	-59.90	0.14	-154.70
6850	0.14	-156.30	0.98	-60.50	0.98	-60.50	0.14	-156.30
6900	0.14	-158.10	0.98	-61.10	0.98	-61.10	0.14	-158.10
6950	0.14	-159.80	0.97	-61.60	0.97	-61.60	0.14	-159.80
7000	0.14	-161.90	0.98	-62.20	0.98	-62.20	0.14	-161.90
7050	0.15	-164.10	0.98	-62.80	0.98	-62.80	0.15	-164.10
7100	0.15	-166.00	0.98	-63.30	0.98	-63.30	0.15	-166.00
7150	0.15	-167.90	0.98	-63.80	0.98	-63.80	0.15	-167.90
7200	0.15	-169.30	0.98	-64.40	0.98	-64.40	0.15	-169.30
7250	0.15	-170.70	0.98	-65.00	0.98	-65.00	0.15	-170.70
7300	0.16	-172.40	0.98	-65.60	0.98	-65.60	0.16	-172.40
7350	0.16	-174.10	0.98	-66.20	0.98	-66.20	0.16	-174.10
7400	0.16	-176.20	0.98	-66.70	0.98	-66.70	0.16	-176.20
7450	0.16	-178.40	0.98	-67.30	0.98	-67.30	0.16	-178.40
7500	0.16	-179.10	0.98	-68.00	0.98	-68.00	0.16	-179.10
7550	0.16	-179.80	0.98	-68.60	0.98	-68.60	0.16	-179.80
7600	0.16	-1.40	0.98	-69.20	0.98	-69.20	0.16	-1.40
7650	0.16	176.90	0.97	-69.70	0.97	-69.70	0.16	176.90
7700	0.16	176.20	0.97	-70.30	0.97	-70.30	0.16	176.20
7750	0.16	175.50	0.98	-70.90	0.98	-70.90	0.16	175.50
7800	0.16	174.20	0.97	-71.50	0.97	-71.50	0.16	174.20
7850	0.16	172.80	0.97	-72.20	0.97	-72.20	0.16	172.80
7900	0.16	172.60	0.97	-72.80	0.97	-72.80	0.16	172.60
7950	0.16	172.40	0.98	-73.30	0.98	-73.30	0.16	172.40
8000	0.16	172.00	0.97	-74.00	0.97	-74.00	0.16	172.00
8050	0.17	171.50	0.97	-74.60	0.97	-74.60	0.17	171.50
8100	0.16	171.30	0.98	-75.20	0.98	-75.20	0.16	171.30
8150	0.16	171.00	0.98	-75.80	0.98	-75.80	0.16	171.00
8200	0.16	171.30	0.97	-76.40	0.97	-76.40	0.16	171.30
8250	0.17	171.70	0.97	-77.00	0.97	-77.00	0.17	171.70
8300	0.16	172.10	0.97	-77.70	0.97	-77.70	0.16	172.10
8350	0.16	172.60	0.98	-78.30	0.98	-78.30	0.16	172.60
8400	0.17	172.90	0.97	-79.00	0.97	-79.00	0.17	172.90
8450	0.17	173.20	0.97	-79.70	0.97	-79.70	0.17	173.20
8500	0.17	174.60	0.97	-80.30	0.97	-80.30	0.17	174.60
8550	0.16	176.00	0.97	-81.00	0.97	-81.00	0.16	176.00
8600	0.17	175.90	0.97	-81.70	0.97	-81.70	0.17	175.90
8650	0.17	175.80	0.97	-82.50	0.97	-82.50	0.17	175.80
8700	0.17	176.90	0.97	-83.20	0.97	-83.20	0.17	176.90
8750	0.17	178.00	0.97	-83.90	0.97	-83.90	0.17	178.00
8800	0.17	177.50	0.97	-84.30	0.97	-84.30	0.17	177.50
8850	0.18	177.00	0.97	-84.60	0.97	-84.60	0.18	177.00
8900	0.18	177.30	0.97	-85.50	0.97	-85.50	0.18	177.30
8950	0.18	177.60	0.96	-86.40	0.96	-86.40	0.18	177.60
9000	0.19	177.60	0.96	-87.00	0.96	-87.00	0.19	177.60
9050	0.19	177.50	0.96	-87.70	0.96	-87.70	0.19	177.50
9100	0.20	177.50	0.96	-88.30	0.96	-88.30	0.20	177.50
9150	0.21	177.50	0.96	-89.00	0.96	-89.00	0.21	177.50
9200	0.21	177.00	0.96	-89.90	0.96	-89.90	0.21	177.00
9250	0.22	176.40	0.96	-90.80	0.96	-90.80	0.22	176.40
9300	0.22	177.10	0.96	-91.30	0.96	-91.30	0.22	177.10
9350	0.23	177.80	0.96	-91.80	0.96	-91.80	0.23	177.80
9400	0.24	178.00	0.95	-92.50	0.95	-92.50	0.24	178.00
9450	0.24	178.20	0.95	-93.20	0.95	-93.20	0.24	178.20
9500	0.25	177.90	0.95	-94.00	0.95	-94.00	0.25	177.90
9550	0.25	177.70	0.95	-94.80	0.95	-94.80	0.25	177.70
9600	0.26	178.20	0.95	-95.50	0.95	-95.50	0.26	178.20
9650	0.27	178.80	0.95	-96.20	0.95	-96.20	0.27	178.80
9700	0.28	178.30	0.94	-96.90	0.94	-96.90	0.28	178.30
9750	0.28	177.80	0.94	-97.60	0.94	-97.60	0.28	177.80
9800	0.28	178.80	0.93	-98.20	0.93	-98.20	0.28	178.80
9850	0.28	179.80	0.93	-98.80	0.93	-98.80	0.28	179.80
9900	0.30	179.50	0.93	-99.40	0.93	-99.40	0.30	179.50
9950	0.31	179.20	0.93	-100.00	0.93	-100.00	0.31	179.20
10000	0.31	177.90	0.93	-100.80	0.93	-100.80	0.31	177.90
10050	0.32	176.60	0.92	-101.70	0.92	-101.70	0.32	176.60
10100	0.33	177.20	0.92	-102.10	0.92	-102.10	0.33	177.20
10150	0.34	177.90	0.92	-102.60	0.92	-102.60	0.34	177.90
10200	0.35	176.20	0.92	-103.40	0.92	-103.40	0.35	176.20
10250	0.35	174.50	0.92	-104.30	0.92	-104.30	0.35	174.50
10300	0.36	173.70	0.91	-105.10	0.91	-105.10	0.36	173.70
10350	0.37	173.00	0.90	-106.00	0.90	-106.00	0.37	173.00
10400	0.38	171.70	0.90	-106.70	0.90	-106.70	0.38	171.70
10450	0.38	170.40	0.90	-107.50	0.90	-107.50	0.38	170.40
10500	0.39	169.10	0.90	-108.30	0.90	-108.30	0.39	169.10
10550	0.40	167.80	0.90	-109.20	0.90	-109.20	0.40	167.80
10600	0.41	166.00	0.89	-109.80	0.89	-109.80	0.41	166.00
10650	0.41	164.20	0.88	-110.40	0.88	-110.40	0.41	164.20
10700	0.42	163.00	0.88	-111.30	0.88	-111.30	0.42	163.00
10750	0.43	161.80	0.88	-112.20	0.88	-112.20	0.43	161.80
10800	0.44	161.10	0.88	-112.60	0.88	-112.60	0.44	161.10
10850	0.44	160.40	0.87	-113.00	0.87	-113.00	0.44	160.40
10900	0.44	157.90	0.86	-113.80	0.86	-113.80	0.44	157.90
10950	0.45	155.50	0.86	-114.60	0.86	-114.60	0.45	155.50
11000	0.46	155.20	0.86	-115.10	0.86	-115.10	0.46	155.20
11050	0.46	154.80	0.86	-115.70	0.86	-115.70	0.46	154.80
11100	0.47	152.80	0.86	-116.50	0.86	-116.50	0.47	152.80
11150	0.47	150.80	0.85	-117.30	0.85	-117.30	0.47	150.80
11200	0.48	149.40	0.85	-118.00	0.85	-118.00	0.48	149.40
11250	0.48	148.00	0.85	-118.70	0.85	-118.70	0.48	148.00
11300	0.49	146.80	0.85	-119.30	0.85	-119.30	0.49	146.80
11350	0.49	145.60	0.84	-120.00	0.84	-120.00	0.49	145.60
11400	0.50	143.60	0.84	-121.00	0.84	-121.00	0.50	143.60
11450	0.50	141.70	0.83	-122.00	0.83	-122.00	0.50	141.70
11500	0.50	140.10	0.83	-122.60	0.83	-122.60	0.50	140.10
11550	0.51	138.50	0.83	-123.20	0.83	-123.20	0.51	138.50
11600	0.51	136.70	0.82	-124.20	0.82	-124.20	0.51	136.70
11650	0.52	135.00	0.82	-125.10	0.82	-125.10	0.52	135.00
11700	0.53	133.40	0.82	-125.90	0.82	-125.90	0.53	133.40
11750	0.53	131.80	0.81	-126.60	0.81	-126.60	0.53	131.80
11800	0.54	130.30	0.80	-127.20	0.80	-127.20	0.54	130.30
11850	0.55	128.90	0.79	-127.70	0.79	-127.70	0.55	128.90
11900	0.56	128.00	0.79	-128.70	0.79	-128.70	0.56	128.00
11950	0.56	127.20	0.79	-129.70	0.79	-129.70	0.56	127.20
12000	0.57	126.10	0.78	-130.10	0.78	-130.10	0.57	126.10
12050	0.57	125.10	0.77	-130.50	0.77	-130.50	0.57	125.10
12100	0.58	123.80	0.77	-131.40	0.77	-131.40	0.58	123.80
12150	0.59	122.60	0.77	-132.30	0.77	-132.30	0.59	122.60
12200	0.60	121.80	0.76	-132.90	0.76	-132.90	0.60	121.80
12250	0.60	121.00	0.76	-133.40	0.76	-133.40	0.60	121.00
12300	0.60	120.10	0.75	-134.40	0.75	-134.40	0.60	120.10
12350	0.61	119.30	0.74	-135.50	0.74	-135.50	0.61	119.30
12400	0.61	118.20	0.74	-136.20	0.74	-136.20	0.61	118.20
12450	0.62	117.10	0.74	-136.90	0.74	-136.90	0.62	117.10
12500	0.62	115.50	0.73	-138.00	0.73	-138.00	0.62	115.50
12550	0.63	113.90	0.72	-139.00	0.72	-139.00	0.63	113.90
12600	0.63	113.10	0.72	-140.00	0.72	-140.00	0.63	113.10
12650	0.63	112.40	0.71	-141.00	0.71	-141.00	0.63	112.40
12700	0.64	111.00	0.70	-141.80	0.70	-141.80	0.64	111.00
12750	0.64	109.60	0.70	-142.60	0.70	-142.60	0.64	109.60
12800	0.65	107.60	0.69	-144.10	0.69	-144.10	0.65	107.60
12850	0.65	105.70	0.68	-145.60	0.68	-145.60	0.65	105.70
12900	0.66	104.70	0.67	-146.20	0.67	-146.20	0.66	104.70
12950	0.67	103.60	0.66	-146.90	0.66	-146.90	0.67	103.60
13000	0.67	101.90	0.65	-148.30	0.65	-148.30	0.67	101.90
13050	0.67	100.20	0.64	-149.80	0.64	-149.80	0.67	100.20
13100	0.68	98.80	0.62	-150.50	0.62	-150.50	0.68	98.80
13150	0.69	97.30	0.61	-151.20	0.61	-151.20	0.69	97.30
13200	0.69	95.80	0.60	-152.00	0.60	-152.00	0.69	95.80
13250	0.70	94.40	0.59	-152.80	0.59	-152.80	0.70	94.40
13300	0.69	94.00	0.57	-154.20	0.57	-154.20	0.69	94.00
13350	0.69	93.60	0.56	-155.70	0.56	-155.70	0.69	93.60
13400	0.71	90.10	0.55	-156.40	0.55	-156.40	0.71	90.10
13450	0.73	86.60	0.53	-157.20	0.53	-157.20	0.73	86.60
13500	0.73	84.60	0.51	-157.80	0.51	-157.80	0.73	84.60
13550	0.74	82.70	0.49	-158.30	0.49	-158.30	0.74	82.70
13600	0.73	80.10	0.48	-157.90	0.48	-157.90	0.73	80.10
13650	0.73	77.60	0.46	-157.60	0.46	-157.60	0.73	77.60
13700	0.71	76.50	0.46	-156.10	0.46	-156.10	0.71	76.50
13750	0.69	75.40	0.46	-154.70	0.46	-154.70	0.69	75.40
13800	0.69	75.40	0.47	-155.90	0.47	-155.90	0.69	75.40
13850	0.69	75.50	0.48	-157.20	0.48	-157.20	0.69	75.50
13900	0.71	74.40	0.47	-159.80	0.47	-159.80	0.71	74.40
13950	0.73	73.20	0.47	-162.50	0.47	-162.50	0.73	73.20
14000	0.74	70.80	0.45	-165.00	0.45	-165.00	0.74	70.80
14050	0.76	68.30	0.43	-167.60	0.43	-167.60	0.76	68.30
14100	0.78	66.00	0.41	-169.20	0.41	-169.20	0.78	66.00
14150	0.80	63.60	0.39	-170.80	0.39	-170.80	0.80	63.60
14200	0.81	61.00	0.36	-172.40	0.36	-172.40	0.81	61.00
14250	0.82	58.40	0.34	-174.10	0.34	-174.10	0.82	58.40
14300	0.83	55.40	0.31	-175.20	0.31	-175.20	0.83	55.40
14350	0.84	52.50	0.29	-176.30	0.29	-176.30	0.84	52.50
14400	0.85	50.40	0.26	-176.40	0.26	-176.40	0.85	50.40
14450	0.86	48.20	0.24	-176.60	0.24	-176.60	0.86	48.20
14500	0.87	45.60	0.21	-175.70	0.21	-175.70	0.87	45.60
14550	0.87	43.00	0.19	-174.80	0.19	-174.80	0.87	43.00
14600	0.88	41.20	0.17	-171.50	0.17	-171.50	0.88	41.20
14650	0.89	39.30	0.14	-168.20	0.14	-168.20	0.89	39.30
14700	0.89	36.90	0.13	-160.90	0.13	-160.90	0.89	36.90
14750	0.88	34.50	0.11	-153.70	0.11	-153.70	0.88	34.50
14800	0.89	32.20	0.10	-140.70	0.10	-140.70	0.89	32.20
14850	0.90	30.00	0.09	-127.60	0.09	-127.60	0.90	30.00
14900	0.90	29.10	0.10	-114.00	0.10	-114.00	0.90	29.10
14950	0.89	28.20	0.11	-100.40	0.11	-100.40	0.89	28.20
15000	0.89	25.30	0.12	-93.90	0.12	-93.90	0.89	25.30
15050	0.89	22.50	0.14	-87.30	0.14	-87.30	0.89	22.50
15100	0.88	21.50	0.16	-83.70	0.16	-83.70	0.88	21.50
15150	0.87	20.50	0.18	-80.10	0.18	-80.10	0.87	20.50
15200	0.86	18.80	0.20	-78.90	0.20	-78.90	0.86	18.80
15250	0.86	17.10	0.22	-77.80	0.22	-77.80	0.86	17.10
15300	0.86	15.00	0.24	-78.00	0.24	-78.00	0.86	15.00
15350	0.86	12.90	0.26	-78.30	0.26	-78.30	0.86	12.90
15400	0.84	11.60	0.28	-78.30	0.28	-78.30	0.84	11.60
15450	0.81	10.30	0.29	-78.30	0.29	-78.30	0.81	10.30
15500	0.82	9.60	0.31	-79.50	0.31	-79.50	0.82	9.60
15550	0.83	8.80	0.33	-80.70	0.33	-80.70	0.83	8.80
15600	0.82	7.60	0.35	-81.60	0.35	-81.60	0.82	7.60
15650	0.80	6.50	0.36	-82.60	0.36	-82.60	0.80	6.50
15700	0.80	5.90	0.37	-83.90	0.37	-83.90	0.80	5.90
15750	0.80	5.20	0.38	-85.10	0.38	-85.10	0.80	5.20
15800	0.79	5.20	0.38	-85.20	0.38	-85.20	0.79	5.20
15850	0.78	5.20	0.39	-85.30	0.39	-85.30	0.78	5.20
15900	0.78	4.40	0.40	-85.30	0.40	-85.30	0.78	4.40
15950	0.78	3.60	0.41	-85.30	0.41	-85.30	0.78	3.60
16000	0.78	3.80	0.42	-84.80	0.42	-84.80	0.78	3.80
16050	0.77	4.00	0.44	-84.30	0.44	-84.30	0.77	4.00
16100	0.77	2.90	0.45	-84.80	0.45	-84.80	0.77	2.90
16150	0.76	1.90	0.47	-85.30	0.47	-85.30	0.76	1.90
16200	0.75	1.20	0.48	-85.80	0.48	-85.80	0.75	1.20
16250	0.73	0.50	0.50	-86.30	0.50	-86.30	0.73	0.50
16300	0.71	-0.40	0.52	-87.50	0.52	-87.50	0.71	-0.40
16350	0.69	-1.40	0.54	-88.80	0.54	-88.80	0.69	-1.40
16400	0.68	-1.60	0.55	-90.70	0.55	-90.70	0.68	-1.60
16450	0.66	-1.90	0.56	-92.60	0.56	-92.60	0.66	-1.90
16500	0.64	-2.40	0.56	-93.30	0.56	-93.30	0.64	-2.40
16550	0.63	-2.90	0.55	-94.00	0.55	-94.00	0.63	-2.90
16600	0.63	-3.50	0.56	-93.70	0.56	-93.70	0.63	-3.50
16650	0.64	-4.00	0.56	-93.30	0.56	-93.30	0.64	-4.00
16700	0.65	-6.20	0.58	-92.90	0.58	-92.90	0.65	-6.20
16750	0.65	-8.40	0.59	-92.50	0.59	-92.50	0.65	-8.40
16800	0.65	-11.10	0.61	-92.80	0.61	-92.80	0.65	-11.10
16850	0.64	-13.80	0.63	-93.10	0.63	-93.10	0.64	-13.80
16900	0.64	-16.10	0.65	-94.00	0.65	-94.00	0.64	-16.10
16950	0.63	-18.50	0.67	-94.80	0.67	-94.80	0.63	-18.50
17000	0.62	-20.50	0.69	-95.90	0.69	-95.90	0.62	-20.50
17050	0.61	-22.50	0.71	-96.90	0.71	-96.90	0.61	-22.50
17100	0.60	-23.80	0.72	-98.10	0.72	-98.10	0.60	-23.80
17150	0.59	-25.10	0.73	-99.30	0.73	-99.30	0.59	-25.10
17200	0.57	-26.20	0.75	-100.40	0.75	-100.40	0.57	-26.20
17250	0.56	-27.20	0.76	-101.40	0.76	-101.40	0.56	-27.20
17300	0.55	-28.10	0.78	-102.50	0.78	-102.50	0.55	-28.10
17350	0.53	-29.10	0.79	-103.60	0.79	-103.60	0.53	-29.10
17400	0.52	-30.10	0.80	-104.70	0.80	-104.70	0.52	-30.10
17450	0.51	-31.10	0.82	-105.70	0.82	-105.70	0.51	-31.10
17500	0.49	-31.80	0.83	-107.30	0.83	-107.30	0.49	-31.80
17550	0.47	-32.50	0.84	-108.80	0.84	-108.80	0.47	-32.50
17600	0.45	-33.50	0.85	-110.20	0.85	-110.20	0.45	-33.50
17650	0.43	-34.60	0.86	-111.60	0.86	-111.60	0.43	-34.60
17700	0.41	-35.50	0.87	-112.80	0.87	-112.80	0.41	-35.50
17750	0.39	-36.40	0.88	-114.00	0.88	-114.00	0.39	-36.40
17800	0.38	-38.30	0.88	-115.60	0.88	-115.60	0.38	-38.30
17850	0.37	-40.20	0.89	-117.10	0.89	-117.10	0.37	-40.20
17900	0.35	-40.20	0.89	-118.00	0.89	-118.00	0.35	-40.20
17950	0.33	-40.20	0.89	-119.00	0.89	-119.00	0.33	-40.20
18000	0.32	-42.60	0.89	-120.30	0.89	-120.30	0.32	-42.60
18050	0.32	-44.90	0.90	-121.60	0.90	-121.60	0.32	-44.90
18100	0.31	-46.50	0.90	-122.70	0.90	-122.70	0.31	-46.50
18150	0.31	-48.10	0.90	-123.70	0.90	-123.70	0.31	-48.10
18200	0.31	-48.40	0.91	-124.70	0.91	-124.70	0.31	-48.40
18250	0.31	-48.70	0.91	-125.70	0.91	-125.70	0.31	-48.70
18300	0.31	-50.00	0.91	-126.80	0.91	-126.80	0.31	-50.00
18350	0.32	-51.20	0.92	-127.80	0.92	-127.80	0.32	-51.20
18400	0.32	-50.20	0.91	-128.60	0.91	-128.60	0.32	-50.20
18450	0.32	-49.10	0.91	-129.30	0.91	-129.30	0.32	-49.10
18500	0.32	-49.30	0.92	-130.20	0.92	-130.20	0.32	-49.30
18550	0.33	-49.40	0.93	-131.10	0.93	-131.10	0.33	-49.40
18600	0.33	-48.90	0.93	-132.00	0.93	-132.00	0.33	-48.90
18650	0.32	-48.40	0.93	-132.80	0.93	-132.80	0.32	-48.40
18700	0.32	-49.80	0.93	-133.90	0.93	-133.90	0.32	-49.80
18750	0.32	-51.10	0.93	-135.00	0.93	-135.00	0.32	-51.10
18800	0.31	-51.30	0.93	-135.70	0.93	-135.70	0.31	-51.30
