#	mhz	s	ma	r	50			
50	0.05	52.30	0.97	-1.30	0.97	-1.30	0.05	52.30
100	0.10	60.00	0.96	-3.70	0.96	-3.70	0.10	60.00
150	0.14	67.70	0.96	-6.20	0.96	-6.20	0.14	67.70
200	0.18	67.60	0.95	-8.70	0.95	-8.70	0.18	67.60
250	0.22	67.60	0.94	-11.30	0.94	-11.30	0.22	67.60
300	0.26	66.10	0.93	-13.80	0.93	-13.80	0.26	66.10
350	0.29	64.50	0.92	-16.20	0.92	-16.20	0.29	64.50
400	0.33	62.60	0.90	-18.50	0.90	-18.50	0.33	62.60
450	0.37	60.70	0.89	-20.70	0.89	-20.70	0.37	60.70
500	0.43	61.20	0.87	-24.40	0.87	-24.40	0.43	61.20
550	0.50	61.60	0.84	-28.00	0.84	-28.00	0.50	61.60
600	0.52	59.70	0.82	-30.10	0.82	-30.10	0.52	59.70
650	0.55	57.80	0.80	-32.30	0.80	-32.30	0.55	57.80
700	0.58	56.40	0.78	-34.50	0.78	-34.50	0.58	56.40
750	0.61	55.10	0.76	-36.80	0.76	-36.80	0.61	55.10
800	0.63	52.80	0.74	-38.70	0.74	-38.70	0.63	52.80
850	0.65	50.50	0.72	-40.60	0.72	-40.60	0.65	50.50
900	0.68	48.70	0.70	-42.50	0.70	-42.50	0.68	48.70
950	0.71	46.90	0.68	-44.40	0.68	-44.40	0.71	46.90
1000	0.73	45.00	0.65	-46.20	0.65	-46.20	0.73	45.00
1050	0.75	43.20	0.63	-48.10	0.63	-48.10	0.75	43.20
1100	0.77	41.50	0.61	-50.00	0.61	-50.00	0.77	41.50
1150	0.79	39.90	0.59	-51.90	0.59	-51.90	0.79	39.90
1200	0.81	38.50	0.56	-53.30	0.56	-53.30	0.81	38.50
1250	0.82	37.00	0.54	-54.70	0.54	-54.70	0.82	37.00
1300	0.84	35.10	0.52	-56.50	0.52	-56.50	0.84	35.10
1350	0.86	33.10	0.50	-58.30	0.50	-58.30	0.86	33.10
1400	0.87	31.80	0.48	-59.50	0.48	-59.50	0.87	31.80
1450	0.88	30.50	0.46	-60.70	0.46	-60.70	0.88	30.50
1500	0.89	28.70	0.44	-62.30	0.44	-62.30	0.89	28.70
1550	0.90	26.90	0.41	-64.00	0.41	-64.00	0.90	26.90
1600	0.91	25.20	0.40	-65.30	0.40	-65.30	0.91	25.20
1650	0.92	23.60	0.37	-66.60	0.37	-66.60	0.92	23.60
1700	0.92	22.20	0.35	-67.80	0.35	-67.80	0.92	22.20
1750	0.93	20.90	0.34	-69.00	0.34	-69.00	0.93	20.90
1800	0.94	19.30	0.32	-70.20	0.32	-70.20	0.94	19.30
1850	0.95	17.80	0.30	-71.40	0.30	-71.40	0.95	17.80
1900	0.95	16.30	0.28	-72.30	0.28	-72.30	0.95	16.30
1950	0.95	14.80	0.26	-73.30	0.26	-73.30	0.95	14.80
2000	0.95	13.40	0.24	-74.40	0.24	-74.40	0.95	13.40
2050	0.96	11.90	0.22	-75.40	0.22	-75.40	0.96	11.90
2100	0.96	10.80	0.21	-76.10	0.21	-76.10	0.96	10.80
2150	0.97	9.80	0.19	-76.90	0.19	-76.90	0.97	9.80
2200	0.97	8.10	0.17	-77.80	0.17	-77.80	0.97	8.10
2250	0.97	6.40	0.15	-78.70	0.15	-78.70	0.97	6.40
2300	0.97	5.50	0.14	-78.90	0.14	-78.90	0.97	5.50
2350	0.98	4.60	0.12	-79.10	0.12	-79.10	0.98	4.60
2400	0.98	3.10	0.10	-79.40	0.10	-79.40	0.98	3.10
2450	0.98	1.60	0.09	-79.70	0.09	-79.70	0.98	1.60
2500	0.99	0.50	0.07	-78.50	0.07	-78.50	0.99	0.50
2550	0.99	-0.70	0.05	-77.30	0.05	-77.30	0.99	-0.70
2600	0.99	-1.60	0.04	-69.20	0.04	-69.20	0.99	-1.60
2650	0.99	-2.60	0.02	-61.20	0.02	-61.20	0.99	-2.60
2700	0.99	-3.70	0.02	-8.20	0.02	-8.20	0.99	-3.70
2750	0.99	-4.80	0.02	44.90	0.02	44.90	0.99	-4.80
2800	0.99	-5.80	0.03	57.90	0.03	57.90	0.99	-5.80
2850	0.99	-6.80	0.04	70.90	0.04	70.90	0.99	-6.80
2900	0.99	-7.80	0.06	72.60	0.06	72.60	0.99	-7.80
2950	0.99	-8.80	0.07	74.20	0.07	74.20	0.99	-8.80
3000	0.99	-9.60	0.09	74.60	0.09	74.60	0.99	-9.60
3050	0.99	-10.50	0.10	74.90	0.10	74.90	0.99	-10.50
3100	0.98	-11.60	0.11	74.80	0.11	74.80	0.98	-11.60
3150	0.98	-12.70	0.13	74.60	0.13	74.60	0.98	-12.70
3200	0.98	-13.20	0.14	74.40	0.14	74.40	0.98	-13.20
3250	0.98	-13.70	0.16	74.10	0.16	74.10	0.98	-13.70
3300	0.98	-14.50	0.17	73.40	0.17	73.40	0.98	-14.50
3350	0.98	-15.30	0.18	72.70	0.18	72.70	0.98	-15.30
3400	0.97	-16.10	0.19	72.40	0.19	72.40	0.97	-16.10
3450	0.97	-16.90	0.20	72.10	0.20	72.10	0.97	-16.90
3500	0.96	-17.70	0.22	71.40	0.22	71.40	0.96	-17.70
3550	0.96	-18.50	0.23	70.80	0.23	70.80	0.96	-18.50
3600	0.95	-19.20	0.24	70.20	0.24	70.20	0.95	-19.20
3650	0.95	-19.80	0.25	69.60	0.25	69.60	0.95	-19.80
3700	0.95	-20.80	0.26	69.00	0.26	69.00	0.95	-20.80
3750	0.95	-21.80	0.28	68.40	0.28	68.40	0.95	-21.80
3800	0.95	-22.50	0.29	67.90	0.29	67.90	0.95	-22.50
3850	0.94	-23.10	0.30	67.40	0.30	67.40	0.94	-23.10
3900	0.94	-24.20	0.31	66.40	0.31	66.40	0.94	-24.20
3950	0.93	-25.20	0.32	65.40	0.32	65.40	0.93	-25.20
4000	0.93	-26.00	0.33	64.90	0.33	64.90	0.93	-26.00
4050	0.92	-26.70	0.34	64.40	0.34	64.40	0.92	-26.70
4100	0.92	-27.50	0.35	63.80	0.35	63.80	0.92	-27.50
4150	0.91	-28.20	0.35	63.20	0.35	63.20	0.91	-28.20
4200	0.91	-29.10	0.37	62.70	0.37	62.70	0.91	-29.10
4250	0.92	-30.00	0.38	62.30	0.38	62.30	0.92	-30.00
4300	0.91	-30.80	0.38	61.80	0.38	61.80	0.91	-30.80
4350	0.90	-31.60	0.39	61.30	0.39	61.30	0.90	-31.60
4400	0.90	-32.50	0.40	60.60	0.40	60.60	0.90	-32.50
4450	0.90	-33.40	0.41	59.90	0.41	59.90	0.90	-33.40
4500	0.89	-33.80	0.42	59.50	0.42	59.50	0.89	-33.80
4550	0.88	-34.20	0.42	59.00	0.42	59.00	0.88	-34.20
4600	0.89	-35.20	0.43	58.40	0.43	58.40	0.89	-35.20
4650	0.89	-36.30	0.44	57.70	0.44	57.70	0.89	-36.30
4700	0.88	-37.10	0.45	57.10	0.45	57.10	0.88	-37.10
4750	0.87	-37.80	0.46	56.60	0.46	56.60	0.87	-37.80
4800	0.86	-38.70	0.46	55.90	0.46	55.90	0.86	-38.70
4850	0.86	-39.60	0.47	55.20	0.47	55.20	0.86	-39.60
4900	0.86	-40.00	0.48	54.90	0.48	54.90	0.86	-40.00
4950	0.86	-40.50	0.49	54.70	0.49	54.70	0.86	-40.50
5000	0.85	-41.70	0.49	53.70	0.49	53.70	0.85	-41.70
5050	0.85	-43.00	0.50	52.70	0.50	52.70	0.85	-43.00
5100	0.84	-43.40	0.50	52.20	0.50	52.20	0.84	-43.40
5150	0.82	-43.90	0.51	51.80	0.51	51.80	0.82	-43.90
5200	0.82	-43.80	0.52	51.80	0.52	51.80	0.82	-43.80
5250	0.82	-43.80	0.52	51.70	0.52	51.70	0.82	-43.80
5300	0.83	-45.00	0.53	50.70	0.53	50.70	0.83	-45.00
5350	0.83	-46.20	0.54	49.60	0.54	49.60	0.83	-46.20
5400	0.82	-46.40	0.55	49.10	0.55	49.10	0.82	-46.40
5450	0.81	-46.60	0.55	48.60	0.55	48.60	0.81	-46.60
5500	0.81	-47.10	0.56	48.00	0.56	48.00	0.81	-47.10
5550	0.81	-47.50	0.56	47.50	0.56	47.50	0.81	-47.50
5600	0.80	-47.90	0.57	46.80	0.57	46.80	0.80	-47.90
5650	0.79	-48.30	0.57	46.20	0.57	46.20	0.79	-48.30
5700	0.78	-48.50	0.58	45.80	0.58	45.80	0.78	-48.50
5750	0.78	-48.70	0.58	45.30	0.58	45.30	0.78	-48.70
5800	0.77	-48.90	0.59	44.70	0.59	44.70	0.77	-48.90
5850	0.76	-49.00	0.59	44.10	0.59	44.10	0.76	-49.00
5900	0.76	-48.90	0.60	43.60	0.60	43.60	0.76	-48.90
5950	0.75	-48.80	0.60	43.20	0.60	43.20	0.75	-48.80
6000	0.73	-49.60	0.61	41.60	0.61	41.60	0.73	-49.60
6050	0.71	-50.40	0.61	40.00	0.61	40.00	0.71	-50.40
6100	0.72	-49.30	0.61	40.80	0.61	40.80	0.72	-49.30
6150	0.73	-48.20	0.61	41.60	0.61	41.60	0.73	-48.20
6200	0.73	-48.30	0.62	41.10	0.62	41.10	0.73	-48.30
6250	0.74	-48.50	0.63	40.60	0.63	40.60	0.74	-48.50
6300	0.73	-48.60	0.64	40.20	0.64	40.20	0.73	-48.60
6350	0.73	-48.70	0.64	39.80	0.64	39.80	0.73	-48.70
6400	0.73	-48.40	0.65	39.30	0.65	39.30	0.73	-48.40
6450	0.72	-48.00	0.65	38.70	0.65	38.70	0.72	-48.00
6500	0.71	-48.00	0.66	38.30	0.66	38.30	0.71	-48.00
6550	0.71	-47.90	0.66	37.80	0.66	37.80	0.71	-47.90
6600	0.71	-47.60	0.67	37.30	0.67	37.30	0.71	-47.60
6650	0.70	-47.30	0.67	36.70	0.67	36.70	0.70	-47.30
6700	0.70	-46.90	0.67	36.50	0.67	36.50	0.70	-46.90
6750	0.69	-46.50	0.68	36.30	0.68	36.30	0.69	-46.50
6800	0.69	-46.40	0.68	35.90	0.68	35.90	0.69	-46.40
6850	0.69	-46.30	0.69	35.50	0.69	35.50	0.69	-46.30
6900	0.68	-46.30	0.69	35.00	0.69	35.00	0.68	-46.30
6950	0.68	-46.30	0.69	34.50	0.69	34.50	0.68	-46.30
7000	0.67	-46.00	0.70	34.10	0.70	34.10	0.67	-46.00
7050	0.67	-45.70	0.70	33.70	0.70	33.70	0.67	-45.70
7100	0.66	-45.90	0.71	33.30	0.71	33.30	0.66	-45.90
7150	0.65	-46.00	0.71	32.90	0.71	32.90	0.65	-46.00
7200	0.65	-45.80	0.71	32.70	0.71	32.70	0.65	-45.80
7250	0.64	-45.60	0.72	32.40	0.72	32.40	0.64	-45.60
7300	0.64	-46.10	0.73	31.90	0.73	31.90	0.64	-46.10
7350	0.64	-46.60	0.73	31.40	0.73	31.40	0.64	-46.60
7400	0.63	-46.90	0.74	30.90	0.74	30.90	0.63	-46.90
7450	0.62	-47.10	0.74	30.50	0.74	30.50	0.62	-47.10
7500	0.62	-47.80	0.75	30.00	0.75	30.00	0.62	-47.80
7550	0.62	-48.50	0.75	29.50	0.75	29.50	0.62	-48.50
7600	0.61	-49.20	0.75	28.90	0.75	28.90	0.61	-49.20
7650	0.60	-49.90	0.76	28.30	0.76	28.30	0.60	-49.90
7700	0.59	-50.50	0.76	27.90	0.76	27.90	0.59	-50.50
7750	0.58	-51.10	0.76	27.50	0.76	27.50	0.58	-51.10
7800	0.57	-51.90	0.77	27.00	0.77	27.00	0.57	-51.90
7850	0.56	-52.80	0.78	26.50	0.78	26.50	0.56	-52.80
7900	0.56	-54.00	0.78	25.80	0.78	25.80	0.56	-54.00
7950	0.56	-55.20	0.79	25.20	0.79	25.20	0.56	-55.20
8000	0.54	-56.30	0.79	24.50	0.79	24.50	0.54	-56.30
8050	0.53	-57.40	0.79	23.90	0.79	23.90	0.53	-57.40
8100	0.52	-58.00	0.80	23.60	0.80	23.60	0.52	-58.00
8150	0.52	-58.70	0.80	23.20	0.80	23.20	0.52	-58.70
8200	0.51	-59.70	0.81	22.50	0.81	22.50	0.51	-59.70
8250	0.50	-60.60	0.81	21.70	0.81	21.70	0.50	-60.60
8300	0.49	-61.40	0.82	21.20	0.82	21.20	0.49	-61.40
8350	0.48	-62.20	0.82	20.80	0.82	20.80	0.48	-62.20
8400	0.47	-62.90	0.83	19.90	0.83	19.90	0.47	-62.90
8450	0.46	-63.60	0.83	19.00	0.83	19.00	0.46	-63.60
8500	0.45	-64.20	0.84	18.30	0.84	18.30	0.45	-64.20
8550	0.44	-64.80	0.85	17.60	0.85	17.60	0.44	-64.80
8600	0.43	-65.10	0.85	16.70	0.85	16.70	0.43	-65.10
8650	0.41	-65.40	0.86	15.70	0.86	15.70	0.41	-65.40
8700	0.40	-65.70	0.86	14.80	0.86	14.80	0.40	-65.70
8750	0.39	-65.90	0.86	13.90	0.86	13.90	0.39	-65.90
8800	0.38	-65.90	0.87	13.20	0.87	13.20	0.38	-65.90
8850	0.36	-65.90	0.87	12.50	0.87	12.50	0.36	-65.90
8900	0.34	-65.30	0.87	11.20	0.87	11.20	0.34	-65.30
8950	0.33	-64.70	0.88	10.00	0.88	10.00	0.33	-64.70
9000	0.31	-63.70	0.88	8.80	0.88	8.80	0.31	-63.70
9050	0.29	-62.70	0.88	7.50	0.88	7.50	0.29	-62.70
9100	0.27	-60.80	0.88	6.10	0.88	6.10	0.27	-60.80
9150	0.25	-58.90	0.88	4.70	0.88	4.70	0.25	-58.90
9200	0.23	-55.90	0.88	3.10	0.88	3.10	0.23	-55.90
9250	0.21	-52.90	0.88	1.50	0.88	1.50	0.21	-52.90
9300	0.20	-44.60	0.88	-0.50	0.88	-0.50	0.20	-44.60
9350	0.18	-36.20	0.88	-2.60	0.88	-2.60	0.18	-36.20
9400	0.18	-25.40	0.87	-4.90	0.87	-4.90	0.18	-25.40
9450	0.19	-14.70	0.85	-7.30	0.85	-7.30	0.19	-14.70
9500	0.22	-4.80	0.83	-10.30	0.83	-10.30	0.22	-4.80
9550	0.24	5.00	0.81	-13.30	0.81	-13.30	0.24	5.00
9600	0.30	8.30	0.77	-16.80	0.77	-16.80	0.30	8.30
9650	0.35	11.60	0.74	-20.20	0.74	-20.20	0.35	11.60
9700	0.42	10.60	0.68	-23.40	0.68	-23.40	0.42	10.60
9750	0.48	9.50	0.62	-26.50	0.62	-26.50	0.48	9.50
9800	0.55	5.80	0.54	-28.00	0.54	-28.00	0.55	5.80
9850	0.62	2.10	0.46	-29.40	0.46	-29.40	0.62	2.10
9900	0.66	-3.10	0.38	-24.80	0.38	-24.80	0.66	-3.10
9950	0.71	-8.30	0.31	-20.20	0.31	-20.20	0.71	-8.30
10000	0.74	-13.30	0.28	-5.20	0.28	-5.20	0.74	-13.30
10050	0.76	-18.40	0.26	9.70	0.26	9.70	0.76	-18.40
10100	0.76	-22.60	0.29	20.00	0.29	20.00	0.76	-22.60
10150	0.77	-26.90	0.33	30.30	0.33	30.30	0.77	-26.90
10200	0.76	-30.30	0.38	33.60	0.38	33.60	0.76	-30.30
10250	0.75	-33.60	0.43	36.80	0.43	36.80	0.75	-33.60
10300	0.74	-36.50	0.46	37.30	0.46	37.30	0.74	-36.50
10350	0.73	-39.40	0.50	37.70	0.50	37.70	0.73	-39.40
10400	0.71	-42.10	0.54	36.80	0.54	36.80	0.71	-42.10
10450	0.69	-44.80	0.58	35.90	0.58	35.90	0.69	-44.80
10500	0.69	-46.50	0.60	35.20	0.60	35.20	0.69	-46.50
10550	0.68	-48.20	0.63	34.60	0.63	34.60	0.68	-48.20
10600	0.66	-50.60	0.65	33.20	0.65	33.20	0.66	-50.60
10650	0.63	-53.00	0.67	31.90	0.67	31.90	0.63	-53.00
10700	0.63	-53.90	0.69	31.20	0.69	31.20	0.63	-53.90
10750	0.62	-54.80	0.70	30.50	0.70	30.50	0.62	-54.80
10800	0.61	-56.50	0.71	29.70	0.71	29.70	0.61	-56.50
10850	0.59	-58.20	0.73	28.90	0.73	28.90	0.59	-58.20
10900	0.58	-59.90	0.74	27.80	0.74	27.80	0.58	-59.90
10950	0.57	-61.60	0.75	26.70	0.75	26.70	0.57	-61.60
11000	0.56	-62.40	0.76	26.10	0.76	26.10	0.56	-62.40
11050	0.54	-63.30	0.76	25.60	0.76	25.60	0.54	-63.30
11100	0.54	-64.50	0.77	24.90	0.77	24.90	0.54	-64.50
11150	0.55	-65.80	0.78	24.20	0.78	24.20	0.55	-65.80
11200	0.54	-66.00	0.78	23.60	0.78	23.60	0.54	-66.00
11250	0.53	-66.30	0.78	23.10	0.78	23.10	0.53	-66.30
11300	0.52	-67.40	0.79	22.30	0.79	22.30	0.52	-67.40
11350	0.51	-68.60	0.80	21.60	0.80	21.60	0.51	-68.60
11400	0.51	-68.10	0.80	21.50	0.80	21.50	0.51	-68.10
11450	0.51	-67.60	0.80	21.40	0.80	21.40	0.51	-67.60
11500	0.50	-68.80	0.81	20.60	0.81	20.60	0.50	-68.80
11550	0.49	-69.90	0.81	19.80	0.81	19.80	0.49	-69.90
11600	0.49	-69.90	0.82	19.50	0.82	19.50	0.49	-69.90
11650	0.49	-69.90	0.82	19.20	0.82	19.20	0.49	-69.90
11700	0.48	-70.30	0.83	18.70	0.83	18.70	0.48	-70.30
11750	0.47	-70.80	0.83	18.20	0.83	18.20	0.47	-70.80
11800	0.46	-71.20	0.83	17.80	0.83	17.80	0.46	-71.20
11850	0.46	-71.50	0.84	17.30	0.84	17.30	0.46	-71.50
11900	0.44	-72.10	0.84	17.00	0.84	17.00	0.44	-72.10
11950	0.44	-72.70	0.84	16.70	0.84	16.70	0.44	-72.70
12000	0.43	-73.80	0.85	15.90	0.85	15.90	0.43	-73.80
12050	0.43	-75.00	0.85	15.10	0.85	15.10	0.43	-75.00
12100	0.43	-75.60	0.85	14.80	0.85	14.80	0.43	-75.60
12150	0.42	-76.30	0.85	14.40	0.85	14.40	0.42	-76.30
12200	0.42	-76.90	0.85	14.00	0.85	14.00	0.42	-76.90
12250	0.41	-77.50	0.85	13.60	0.85	13.60	0.41	-77.50
12300	0.41	-77.40	0.85	13.20	0.85	13.20	0.41	-77.40
12350	0.41	-77.30	0.85	12.80	0.85	12.80	0.41	-77.30
12400	0.41	-77.90	0.85	12.60	0.85	12.60	0.41	-77.90
12450	0.41	-78.60	0.85	12.40	0.85	12.40	0.41	-78.60
12500	0.41	-77.90	0.85	12.10	0.85	12.10	0.41	-77.90
12550	0.41	-77.30	0.86	11.80	0.86	11.80	0.41	-77.30
12600	0.41	-77.20	0.85	11.70	0.85	11.70	0.41	-77.20
12650	0.41	-77.10	0.85	11.60	0.85	11.60	0.41	-77.10
12700	0.41	-76.10	0.85	11.30	0.85	11.30	0.41	-76.10
12750	0.41	-75.10	0.86	11.00	0.86	11.00	0.41	-75.10
12800	0.41	-74.30	0.86	11.00	0.86	11.00	0.41	-74.30
12850	0.40	-73.60	0.86	10.90	0.86	10.90	0.40	-73.60
12900	0.40	-72.60	0.86	10.60	0.86	10.60	0.40	-72.60
12950	0.40	-71.60	0.86	10.40	0.86	10.40	0.40	-71.60
13000	0.40	-71.20	0.87	10.30	0.87	10.30	0.40	-71.20
13050	0.40	-70.70	0.87	10.30	0.87	10.30	0.40	-70.70
13100	0.40	-70.20	0.87	9.90	0.87	9.90	0.40	-70.20
13150	0.39	-69.60	0.87	9.60	0.87	9.60	0.39	-69.60
13200	0.38	-69.60	0.87	9.50	0.87	9.50	0.38	-69.60
13250	0.38	-69.70	0.88	9.40	0.88	9.40	0.38	-69.70
13300	0.37	-67.90	0.88	9.00	0.88	9.00	0.37	-67.90
13350	0.36	-66.10	0.88	8.50	0.88	8.50	0.36	-66.10
13400	0.36	-67.80	0.88	8.00	0.88	8.00	0.36	-67.80
13450	0.36	-69.50	0.88	7.60	0.88	7.60	0.36	-69.50
13500	0.35	-69.70	0.88	7.30	0.88	7.30	0.35	-69.70
13550	0.35	-69.80	0.88	7.10	0.88	7.10	0.35	-69.80
13600	0.34	-70.50	0.88	6.80	0.88	6.80	0.34	-70.50
13650	0.34	-71.10	0.88	6.40	0.88	6.40	0.34	-71.10
13700	0.34	-71.40	0.88	6.10	0.88	6.10	0.34	-71.40
13750	0.34	-71.70	0.89	5.80	0.89	5.80	0.34	-71.70
13800	0.33	-72.00	0.88	5.60	0.88	5.60	0.33	-72.00
13850	0.33	-72.40	0.88	5.30	0.88	5.30	0.33	-72.40
13900	0.33	-72.50	0.88	5.00	0.88	5.00	0.33	-72.50
13950	0.33	-72.60	0.89	4.70	0.89	4.70	0.33	-72.60
14000	0.33	-72.20	0.89	4.40	0.89	4.40	0.33	-72.20
14050	0.33	-71.70	0.89	4.10	0.89	4.10	0.33	-71.70
14100	0.33	-72.00	0.89	3.80	0.89	3.80	0.33	-72.00
14150	0.33	-72.20	0.89	3.40	0.89	3.40	0.33	-72.20
14200	0.32	-71.40	0.89	3.00	0.89	3.00	0.32	-71.40
14250	0.32	-70.60	0.89	2.60	0.89	2.60	0.32	-70.60
14300	0.32	-70.60	0.90	2.40	0.90	2.40	0.32	-70.60
14350	0.31	-70.50	0.90	2.10	0.90	2.10	0.31	-70.50
14400	0.31	-69.90	0.90	1.60	0.90	1.60	0.31	-69.90
14450	0.31	-69.40	0.90	1.00	0.90	1.00	0.31	-69.40
14500	0.31	-68.50	0.90	0.90	0.90	0.90	0.31	-68.50
14550	0.30	-67.70	0.90	0.70	0.90	0.70	0.30	-67.70
14600	0.29	-66.90	0.90	0.30	0.90	0.30	0.29	-66.90
14650	0.29	-66.10	0.90	-0.20	0.90	-0.20	0.29	-66.10
14700	0.28	-66.10	0.91	-0.70	0.91	-0.70	0.28	-66.10
14750	0.28	-66.00	0.91	-1.10	0.91	-1.10	0.28	-66.00
14800	0.27	-64.80	0.91	-1.50	0.91	-1.50	0.27	-64.80
14850	0.26	-63.50	0.91	-2.00	0.91	-2.00	0.26	-63.50
14900	0.26	-63.10	0.91	-2.40	0.91	-2.40	0.26	-63.10
14950	0.25	-62.70	0.92	-2.80	0.92	-2.80	0.25	-62.70
15000	0.25	-62.10	0.91	-3.30	0.91	-3.30	0.25	-62.10
15050	0.24	-61.60	0.91	-3.80	0.91	-3.80	0.24	-61.60
15100	0.23	-60.10	0.92	-4.20	0.92	-4.20	0.23	-60.10
15150	0.23	-58.60	0.92	-4.50	0.92	-4.50	0.23	-58.60
15200	0.23	-57.80	0.92	-4.80	0.92	-4.80	0.23	-57.80
15250	0.22	-56.90	0.92	-5.20	0.92	-5.20	0.22	-56.90
15300	0.22	-55.10	0.92	-6.00	0.92	-6.00	0.22	-55.10
15350	0.22	-53.20	0.92	-6.80	0.92	-6.80	0.22	-53.20
15400	0.22	-50.80	0.92	-7.20	0.92	-7.20	0.22	-50.80
15450	0.22	-48.40	0.92	-7.60	0.92	-7.60	0.22	-48.40
15500	0.22	-45.10	0.91	-8.30	0.91	-8.30	0.22	-45.10
15550	0.21	-41.70	0.91	-9.00	0.91	-9.00	0.21	-41.70
15600	0.22	-38.60	0.91	-9.60	0.91	-9.60	0.22	-38.60
15650	0.22	-35.50	0.91	-10.10	0.91	-10.10	0.22	-35.50
15700	0.22	-31.30	0.91	-10.90	0.91	-10.90	0.22	-31.30
15750	0.22	-27.10	0.90	-11.80	0.90	-11.80	0.22	-27.10
15800	0.23	-22.90	0.90	-12.40	0.90	-12.40	0.23	-22.90
15850	0.23	-18.60	0.89	-13.00	0.89	-13.00	0.23	-18.60
15900	0.24	-15.20	0.88	-13.90	0.88	-13.90	0.24	-15.20
15950	0.25	-11.80	0.88	-14.70	0.88	-14.70	0.25	-11.80
16000	0.26	-7.20	0.87	-15.50	0.87	-15.50	0.26	-7.20
16050	0.27	-2.60	0.87	-16.20	0.87	-16.20	0.27	-2.60
16100	0.28	0.10	0.85	-17.40	0.85	-17.40	0.28	0.10
16150	0.29	2.90	0.84	-18.70	0.84	-18.70	0.29	2.90
16200	0.31	5.00	0.82	-19.60	0.82	-19.60	0.31	5.00
16250	0.33	7.10	0.80	-20.60	0.80	-20.60	0.33	7.10
16300	0.35	7.60	0.78	-21.70	0.78	-21.70	0.35	7.60
16350	0.36	8.20	0.76	-22.90	0.76	-22.90	0.36	8.20
16400	0.39	7.70	0.73	-23.90	0.73	-23.90	0.39	7.70
16450	0.42	7.30	0.70	-25.00	0.70	-25.00	0.42	7.30
16500	0.44	3.70	0.65	-24.70	0.65	-24.70	0.44	3.70
16550	0.46	0.00	0.61	-24.50	0.61	-24.50	0.46	0.00
16600	0.49	-3.80	0.56	-22.30	0.56	-22.30	0.49	-3.80
16650	0.52	-7.70	0.52	-20.00	0.52	-20.00	0.52	-7.70
16700	0.53	-13.10	0.50	-14.70	0.50	-14.70	0.53	-13.10
16750	0.55	-18.50	0.47	-9.40	0.47	-9.40	0.55	-18.50
16800	0.55	-23.80	0.48	-3.10	0.48	-3.10	0.55	-23.80
16850	0.56	-29.00	0.49	3.10	0.49	3.10	0.56	-29.00
16900	0.55	-33.60	0.52	6.90	0.52	6.90	0.55	-33.60
16950	0.55	-38.20	0.56	10.60	0.56	10.60	0.55	-38.20
17000	0.53	-42.30	0.60	11.80	0.60	11.80	0.53	-42.30
17050	0.51	-46.40	0.63	12.90	0.63	12.90	0.51	-46.40
17100	0.50	-48.60	0.67	12.80	0.67	12.80	0.50	-48.60
17150	0.49	-50.80	0.70	12.70	0.70	12.70	0.49	-50.80
17200	0.47	-52.80	0.73	12.20	0.73	12.20	0.47	-52.80
17250	0.44	-54.90	0.75	11.70	0.75	11.70	0.44	-54.90
17300	0.43	-56.00	0.77	11.00	0.77	11.00	0.43	-56.00
17350	0.41	-57.20	0.80	10.30	0.80	10.30	0.41	-57.20
17400	0.39	-59.40	0.81	9.50	0.81	9.50	0.39	-59.40
17450	0.38	-61.70	0.83	8.70	0.83	8.70	0.38	-61.70
17500	0.36	-62.30	0.84	7.70	0.84	7.70	0.36	-62.30
17550	0.34	-62.90	0.85	6.70	0.85	6.70	0.34	-62.90
17600	0.32	-64.40	0.86	5.90	0.86	5.90	0.32	-64.40
17650	0.30	-65.80	0.86	5.10	0.86	5.10	0.30	-65.80
17700	0.29	-67.90	0.87	4.30	0.87	4.30	0.29	-67.90
17750	0.27	-70.00	0.88	3.50	0.88	3.50	0.27	-70.00
17800	0.26	-72.00	0.88	2.80	0.88	2.80	0.26	-72.00
17850	0.25	-74.00	0.88	2.10	0.88	2.10	0.25	-74.00
17900	0.24	-75.70	0.89	1.60	0.89	1.60	0.24	-75.70
17950	0.23	-77.40	0.89	1.20	0.89	1.20	0.23	-77.40
18000	0.23	-79.50	0.89	0.50	0.89	0.50	0.23	-79.50
18050	0.22	-81.60	0.89	-0.20	0.89	-0.20	0.22	-81.60
18100	0.22	-83.10	0.90	-0.60	0.90	-0.60	0.22	-83.10
18150	0.22	-84.60	0.90	-1.10	0.90	-1.10	0.22	-84.60
18200	0.22	-84.80	0.90	-1.50	0.90	-1.50	0.22	-84.80
18250	0.22	-85.00	0.91	-2.00	0.91	-2.00	0.22	-85.00
18300	0.23	-85.80	0.91	-2.50	0.91	-2.50	0.23	-85.80
18350	0.23	-86.60	0.91	-3.00	0.91	-3.00	0.23	-86.60
18400	0.23	-84.50	0.91	-3.30	0.91	-3.30	0.23	-84.50
18450	0.22	-82.40	0.91	-3.50	0.91	-3.50	0.22	-82.40
18500	0.23	-81.90	0.91	-3.90	0.91	-3.90	0.23	-81.90
18550	0.23	-81.40	0.92	-4.40	0.92	-4.40	0.23	-81.40
18600	0.22	-80.10	0.92	-4.70	0.92	-4.70	0.22	-80.10
18650	0.21	-78.70	0.92	-5.00	0.92	-5.00	0.21	-78.70
18700	0.21	-79.50	0.92	-5.50	0.92	-5.50	0.21	-79.50
18750	0.21	-80.30	0.91	-6.00	0.91	-6.00	0.21	-80.30
18800	0.20	-79.90	0.92	-6.30	0.92	-6.30	0.20	-79.90
18850	0.19	-79.40	0.92	-6.70	0.92	-6.70	0.19	-79.40
18900	0.19	-79.90	0.91	-7.10	0.91	-7.10	0.19	-79.90
18950	0.19	-80.50	0.91	-7.60	0.91	-7.60	0.19	-80.50
19000	0.18	-83.40	0.91	-7.60	0.91	-7.60	0.18	-83.40
19050	0.17	-86.40	0.90	-7.60	0.90	-7.60	0.17	-86.40
19100	0.17	-83.90	0.90	-7.70	0.90	-7.70	0.17	-83.90
19150	0.17	-81.40	0.90	-7.90	0.90	-7.90	0.17	-81.40
19200	0.17	-82.50	0.91	-8.10	0.91	-8.10	0.17	-82.50
19250	0.18	-83.70	0.91	-8.30	0.91	-8.30	0.18	-83.70
19300	0.19	-81.70	0.91	-8.60	0.91	-8.60	0.19	-81.70
19350	0.19	-79.70	0.91	-8.90	0.91	-8.90	0.19	-79.70
19400	0.20	-80.60	0.92	-9.50	0.92	-9.50	0.20	-80.60
19450	0.20	-81.50	0.92	-10.10	0.92	-10.10	0.20	-81.50
19500	0.21	-80.30	0.91	-10.10	0.91	-10.10	0.21	-80.30
19550	0.22	-79.10	0.91	-10.10	0.91	-10.10	0.22	-79.10
