#	mhz	s	ma	r	50			
50	0.03	70.60	0.99	-0.30	0.99	-0.30	0.03	70.60
100	0.06	74.00	0.99	-1.90	0.99	-1.90	0.06	74.00
150	0.09	77.50	0.99	-3.50	0.99	-3.50	0.09	77.50
200	0.12	76.90	0.98	-5.20	0.98	-5.20	0.12	76.90
250	0.14	76.30	0.98	-6.90	0.98	-6.90	0.14	76.30
300	0.17	75.00	0.97	-8.60	0.97	-8.60	0.17	75.00
350	0.19	73.60	0.97	-10.30	0.97	-10.30	0.19	73.60
400	0.22	72.00	0.96	-11.80	0.96	-11.80	0.22	72.00
450	0.25	70.50	0.95	-13.30	0.95	-13.30	0.25	70.50
500	0.29	71.70	0.94	-15.90	0.94	-15.90	0.29	71.70
550	0.34	73.00	0.93	-18.50	0.93	-18.50	0.34	73.00
600	0.36	71.50	0.92	-20.10	0.92	-20.10	0.36	71.50
650	0.38	70.10	0.91	-21.70	0.91	-21.70	0.38	70.10
700	0.41	69.10	0.90	-23.30	0.90	-23.30	0.41	69.10
750	0.43	68.20	0.89	-25.00	0.89	-25.00	0.43	68.20
800	0.45	66.30	0.88	-26.50	0.88	-26.50	0.45	66.30
850	0.47	64.30	0.86	-28.00	0.86	-28.00	0.47	64.30
900	0.50	62.80	0.85	-29.50	0.85	-29.50	0.50	62.80
950	0.52	61.40	0.84	-31.00	0.84	-31.00	0.52	61.40
1000	0.54	59.70	0.82	-32.60	0.82	-32.60	0.54	59.70
1050	0.56	58.10	0.81	-34.20	0.81	-34.20	0.56	58.10
1100	0.58	56.80	0.79	-35.80	0.79	-35.80	0.58	56.80
1150	0.61	55.40	0.78	-37.30	0.78	-37.30	0.61	55.40
1200	0.63	54.00	0.76	-38.60	0.76	-38.60	0.63	54.00
1250	0.64	52.60	0.75	-39.90	0.75	-39.90	0.64	52.60
1300	0.66	50.90	0.73	-41.40	0.73	-41.40	0.66	50.90
1350	0.68	49.20	0.72	-43.00	0.72	-43.00	0.68	49.20
1400	0.69	47.90	0.70	-44.20	0.70	-44.20	0.69	47.90
1450	0.71	46.60	0.68	-45.40	0.68	-45.40	0.71	46.60
1500	0.73	44.90	0.67	-46.90	0.67	-46.90	0.73	44.90
1550	0.74	43.20	0.65	-48.40	0.65	-48.40	0.74	43.20
1600	0.75	41.60	0.64	-49.70	0.64	-49.70	0.75	41.60
1650	0.77	40.00	0.62	-51.00	0.62	-51.00	0.77	40.00
1700	0.78	38.60	0.60	-52.20	0.60	-52.20	0.78	38.60
1750	0.79	37.30	0.58	-53.50	0.58	-53.50	0.79	37.30
1800	0.81	35.70	0.57	-54.70	0.57	-54.70	0.81	35.70
1850	0.82	34.20	0.56	-55.90	0.56	-55.90	0.82	34.20
1900	0.83	32.70	0.54	-57.00	0.54	-57.00	0.83	32.70
1950	0.83	31.10	0.52	-58.10	0.52	-58.10	0.83	31.10
2000	0.84	29.60	0.50	-59.30	0.50	-59.30	0.84	29.60
2050	0.85	28.10	0.49	-60.50	0.49	-60.50	0.85	28.10
2100	0.86	27.00	0.47	-61.50	0.47	-61.50	0.86	27.00
2150	0.87	25.90	0.45	-62.40	0.45	-62.40	0.87	25.90
2200	0.88	24.20	0.44	-63.70	0.44	-63.70	0.88	24.20
2250	0.89	22.50	0.42	-65.00	0.42	-65.00	0.89	22.50
2300	0.89	21.50	0.40	-65.70	0.40	-65.70	0.89	21.50
2350	0.90	20.40	0.38	-66.50	0.38	-66.50	0.90	20.40
2400	0.91	18.90	0.37	-67.70	0.37	-67.70	0.91	18.90
2450	0.92	17.40	0.35	-68.90	0.35	-68.90	0.92	17.40
2500	0.93	16.10	0.33	-70.00	0.33	-70.00	0.93	16.10
2550	0.93	14.80	0.31	-71.10	0.31	-71.10	0.93	14.80
2600	0.94	13.80	0.30	-71.80	0.30	-71.80	0.94	13.80
2650	0.94	12.70	0.28	-72.60	0.28	-72.60	0.94	12.70
2700	0.95	11.50	0.26	-73.50	0.26	-73.50	0.95	11.50
2750	0.95	10.30	0.25	-74.50	0.25	-74.50	0.95	10.30
2800	0.96	9.10	0.23	-75.10	0.23	-75.10	0.96	9.10
2850	0.96	7.90	0.21	-75.70	0.21	-75.70	0.96	7.90
2900	0.97	6.80	0.20	-76.70	0.20	-76.70	0.97	6.80
2950	0.97	5.70	0.18	-77.60	0.18	-77.60	0.97	5.70
3000	0.97	4.70	0.16	-78.00	0.16	-78.00	0.97	4.70
3050	0.98	3.70	0.15	-78.50	0.15	-78.50	0.98	3.70
3100	0.98	2.40	0.13	-78.60	0.13	-78.60	0.98	2.40
3150	0.98	1.10	0.11	-78.80	0.11	-78.80	0.98	1.10
3200	0.98	0.50	0.10	-78.10	0.10	-78.10	0.98	0.50
3250	0.98	0.00	0.08	-77.40	0.08	-77.40	0.98	0.00
3300	0.99	-1.00	0.07	-75.30	0.07	-75.30	0.99	-1.00
3350	0.99	-2.00	0.05	-73.30	0.05	-73.30	0.99	-2.00
3400	0.99	-2.90	0.04	-63.80	0.04	-63.80	0.99	-2.90
3450	0.99	-3.90	0.03	-54.20	0.03	-54.20	0.99	-3.90
3500	0.99	-4.80	0.02	-11.50	0.02	-11.50	0.99	-4.80
3550	0.99	-5.70	0.02	31.20	0.02	31.20	0.99	-5.70
3600	0.98	-6.50	0.03	47.80	0.03	47.80	0.98	-6.50
3650	0.98	-7.30	0.04	64.30	0.04	64.30	0.98	-7.30
3700	0.98	-8.40	0.06	67.80	0.06	67.80	0.98	-8.40
3750	0.99	-9.50	0.07	71.20	0.07	71.20	0.99	-9.50
3800	0.98	-10.40	0.08	72.30	0.08	72.30	0.98	-10.40
3850	0.98	-11.20	0.10	73.30	0.10	73.30	0.98	-11.20
3900	0.98	-12.40	0.11	73.10	0.11	73.10	0.98	-12.40
3950	0.98	-13.50	0.12	72.90	0.12	72.90	0.98	-13.50
4000	0.98	-14.50	0.14	72.80	0.14	72.80	0.98	-14.50
4050	0.97	-15.40	0.15	72.70	0.15	72.70	0.97	-15.40
4100	0.97	-16.30	0.16	72.20	0.16	72.20	0.97	-16.30
4150	0.96	-17.20	0.17	71.80	0.17	71.80	0.96	-17.20
4200	0.97	-18.20	0.19	71.50	0.19	71.50	0.97	-18.20
4250	0.97	-19.20	0.20	71.20	0.20	71.20	0.97	-19.20
4300	0.96	-20.20	0.21	70.80	0.21	70.80	0.96	-20.20
4350	0.95	-21.10	0.22	70.30	0.22	70.30	0.95	-21.10
4400	0.96	-22.20	0.23	69.60	0.23	69.60	0.96	-22.20
4450	0.96	-23.20	0.25	68.90	0.25	68.90	0.96	-23.20
4500	0.95	-23.80	0.25	68.40	0.25	68.40	0.95	-23.80
4550	0.94	-24.30	0.26	68.00	0.26	68.00	0.94	-24.30
4600	0.95	-25.50	0.28	67.30	0.28	67.30	0.95	-25.50
4650	0.95	-26.60	0.29	66.60	0.29	66.60	0.95	-26.60
4700	0.94	-27.50	0.30	66.00	0.30	66.00	0.94	-27.50
4750	0.94	-28.40	0.31	65.50	0.31	65.50	0.94	-28.40
4800	0.93	-29.40	0.32	64.70	0.32	64.70	0.93	-29.40
4850	0.92	-30.50	0.33	64.00	0.33	64.00	0.92	-30.50
4900	0.93	-31.00	0.34	63.70	0.34	63.70	0.93	-31.00
4950	0.93	-31.50	0.35	63.40	0.35	63.40	0.93	-31.50
5000	0.93	-32.90	0.36	62.30	0.36	62.30	0.93	-32.90
5050	0.92	-34.20	0.37	61.20	0.37	61.20	0.92	-34.20
5100	0.91	-34.80	0.37	60.70	0.37	60.70	0.91	-34.80
5150	0.89	-35.40	0.38	60.20	0.38	60.20	0.89	-35.40
5200	0.89	-35.40	0.39	60.20	0.39	60.20	0.89	-35.40
5250	0.89	-35.40	0.40	60.10	0.40	60.10	0.89	-35.40
5300	0.90	-36.60	0.41	59.00	0.41	59.00	0.90	-36.60
5350	0.91	-37.90	0.42	58.00	0.42	58.00	0.91	-37.90
5400	0.89	-38.30	0.43	57.30	0.43	57.30	0.89	-38.30
5450	0.88	-38.70	0.43	56.70	0.43	56.70	0.88	-38.70
5500	0.88	-39.20	0.44	56.10	0.44	56.10	0.88	-39.20
5550	0.88	-39.70	0.45	55.50	0.45	55.50	0.88	-39.70
5600	0.87	-40.20	0.46	54.90	0.46	54.90	0.87	-40.20
5650	0.86	-40.60	0.47	54.20	0.47	54.20	0.86	-40.60
5700	0.86	-41.00	0.47	53.70	0.47	53.70	0.86	-41.00
5750	0.86	-41.30	0.48	53.30	0.48	53.30	0.86	-41.30
5800	0.85	-41.40	0.48	52.70	0.48	52.70	0.85	-41.40
5850	0.85	-41.50	0.49	52.10	0.49	52.10	0.85	-41.50
5900	0.84	-41.30	0.50	51.90	0.50	51.90	0.84	-41.30
5950	0.84	-41.20	0.50	51.60	0.50	51.60	0.84	-41.20
6000	0.83	-42.60	0.52	50.40	0.52	50.40	0.83	-42.60
6050	0.83	-44.00	0.53	49.10	0.53	49.10	0.83	-44.00
6100	0.82	-43.80	0.54	49.00	0.54	49.00	0.82	-43.80
6150	0.82	-43.60	0.54	48.80	0.54	48.80	0.82	-43.60
6200	0.82	-43.40	0.55	48.10	0.55	48.10	0.82	-43.40
6250	0.81	-43.30	0.56	47.40	0.56	47.40	0.81	-43.30
6300	0.81	-43.30	0.56	47.00	0.56	47.00	0.81	-43.30
6350	0.81	-43.30	0.56	46.50	0.56	46.50	0.81	-43.30
6400	0.80	-42.90	0.57	46.00	0.57	46.00	0.80	-42.90
6450	0.80	-42.60	0.58	45.40	0.58	45.40	0.80	-42.60
6500	0.79	-42.50	0.58	44.90	0.58	44.90	0.79	-42.50
6550	0.79	-42.40	0.58	44.40	0.58	44.40	0.79	-42.40
6600	0.78	-42.10	0.59	43.90	0.59	43.90	0.78	-42.10
6650	0.78	-41.90	0.60	43.30	0.60	43.30	0.78	-41.90
6700	0.77	-41.50	0.60	43.10	0.60	43.10	0.77	-41.50
6750	0.77	-41.20	0.60	42.80	0.60	42.80	0.77	-41.20
6800	0.77	-41.10	0.61	42.40	0.61	42.40	0.77	-41.10
6850	0.77	-41.00	0.62	42.00	0.62	42.00	0.77	-41.00
6900	0.76	-41.10	0.62	41.50	0.62	41.50	0.76	-41.10
6950	0.75	-41.20	0.63	40.90	0.63	40.90	0.75	-41.20
7000	0.75	-40.90	0.63	40.50	0.63	40.50	0.75	-40.90
7050	0.74	-40.70	0.64	40.10	0.64	40.10	0.74	-40.70
7100	0.74	-40.80	0.64	39.70	0.64	39.70	0.74	-40.80
7150	0.73	-41.00	0.64	39.30	0.64	39.30	0.73	-41.00
7200	0.72	-40.80	0.65	39.00	0.65	39.00	0.72	-40.80
7250	0.72	-40.60	0.66	38.80	0.66	38.80	0.72	-40.60
7300	0.72	-41.20	0.67	38.20	0.67	38.20	0.72	-41.20
7350	0.72	-41.70	0.67	37.70	0.67	37.70	0.72	-41.70
7400	0.71	-42.00	0.68	37.20	0.68	37.20	0.71	-42.00
7450	0.70	-42.30	0.68	36.70	0.68	36.70	0.70	-42.30
7500	0.70	-43.00	0.69	36.20	0.69	36.20	0.70	-43.00
7550	0.70	-43.70	0.69	35.70	0.69	35.70	0.70	-43.70
7600	0.69	-44.50	0.70	34.90	0.70	34.90	0.69	-44.50
7650	0.68	-45.30	0.70	34.20	0.70	34.20	0.68	-45.30
7700	0.67	-45.90	0.71	33.70	0.71	33.70	0.67	-45.90
7750	0.66	-46.50	0.71	33.20	0.71	33.20	0.66	-46.50
7800	0.65	-47.30	0.72	32.40	0.72	32.40	0.65	-47.30
7850	0.64	-48.00	0.73	31.70	0.73	31.70	0.64	-48.00
7900	0.63	-49.10	0.73	30.50	0.73	30.50	0.63	-49.10
7950	0.62	-50.20	0.74	29.40	0.74	29.40	0.62	-50.20
8000	0.60	-50.50	0.74	27.70	0.74	27.70	0.60	-50.50
8050	0.58	-50.90	0.74	26.10	0.74	26.10	0.58	-50.90
8100	0.57	-48.70	0.71	24.30	0.71	24.30	0.57	-48.70
8150	0.56	-46.60	0.69	22.40	0.69	22.40	0.56	-46.60
8200	0.60	-46.10	0.65	25.00	0.65	25.00	0.60	-46.10
8250	0.63	-45.50	0.62	27.50	0.62	27.50	0.63	-45.50
8300	0.64	-48.50	0.64	30.10	0.64	30.10	0.64	-48.50
8350	0.65	-51.50	0.67	32.60	0.67	32.60	0.65	-51.50
8400	0.65	-53.50	0.69	32.10	0.69	32.10	0.65	-53.50
8450	0.64	-55.50	0.71	31.70	0.71	31.70	0.64	-55.50
8500	0.63	-56.80	0.73	31.20	0.73	31.20	0.63	-56.80
8550	0.62	-58.00	0.74	30.80	0.74	30.80	0.62	-58.00
8600	0.61	-58.80	0.75	30.00	0.75	30.00	0.61	-58.80
8650	0.61	-59.70	0.76	29.20	0.76	29.20	0.61	-59.70
8700	0.60	-60.40	0.76	28.60	0.76	28.60	0.60	-60.40
8750	0.59	-61.10	0.77	27.90	0.77	27.90	0.59	-61.10
8800	0.58	-61.60	0.77	27.70	0.77	27.70	0.58	-61.60
8850	0.57	-62.00	0.78	27.50	0.78	27.50	0.57	-62.00
8900	0.57	-62.30	0.78	26.80	0.78	26.80	0.57	-62.30
8950	0.56	-62.50	0.79	26.20	0.79	26.20	0.56	-62.50
9000	0.56	-62.90	0.79	25.80	0.79	25.80	0.56	-62.90
9050	0.55	-63.30	0.79	25.40	0.79	25.40	0.55	-63.30
9100	0.54	-63.80	0.80	25.00	0.80	25.00	0.54	-63.80
9150	0.54	-64.30	0.80	24.60	0.80	24.60	0.54	-64.30
9200	0.53	-65.20	0.81	24.40	0.81	24.40	0.53	-65.20
9250	0.52	-66.00	0.82	24.20	0.82	24.20	0.52	-66.00
9300	0.51	-66.00	0.82	23.60	0.82	23.60	0.51	-66.00
9350	0.50	-66.00	0.83	23.00	0.83	23.00	0.50	-66.00
9400	0.50	-66.60	0.83	22.80	0.83	22.80	0.50	-66.60
9450	0.49	-67.20	0.83	22.60	0.83	22.60	0.49	-67.20
9500	0.48	-67.30	0.84	22.00	0.84	22.00	0.48	-67.30
9550	0.47	-67.40	0.85	21.30	0.85	21.30	0.47	-67.40
9600	0.47	-67.60	0.85	20.80	0.85	20.80	0.47	-67.60
9650	0.47	-67.80	0.86	20.20	0.86	20.20	0.47	-67.80
9700	0.46	-68.40	0.86	19.90	0.86	19.90	0.46	-68.40
9750	0.45	-68.90	0.86	19.50	0.86	19.50	0.45	-68.90
9800	0.44	-68.70	0.87	18.90	0.87	18.90	0.44	-68.70
9850	0.44	-68.50	0.87	18.30	0.87	18.30	0.44	-68.50
9900	0.43	-68.50	0.87	18.00	0.87	18.00	0.43	-68.50
9950	0.42	-68.50	0.87	17.70	0.87	17.70	0.42	-68.50
10000	0.41	-69.00	0.88	17.30	0.88	17.30	0.41	-69.00
10050	0.41	-69.40	0.88	16.80	0.88	16.80	0.41	-69.40
10100	0.40	-69.10	0.88	16.40	0.88	16.40	0.40	-69.10
10150	0.39	-68.80	0.88	15.90	0.88	15.90	0.39	-68.80
10200	0.38	-69.10	0.89	15.50	0.89	15.50	0.38	-69.10
10250	0.37	-69.40	0.90	15.10	0.90	15.10	0.37	-69.40
10300	0.37	-69.80	0.89	14.80	0.89	14.80	0.37	-69.80
10350	0.36	-70.10	0.89	14.40	0.89	14.40	0.36	-70.10
10400	0.35	-71.20	0.90	13.70	0.90	13.70	0.35	-71.20
10450	0.34	-72.30	0.91	13.10	0.91	13.10	0.34	-72.30
10500	0.34	-72.40	0.91	12.70	0.91	12.70	0.34	-72.40
10550	0.33	-72.40	0.92	12.40	0.92	12.40	0.33	-72.40
10600	0.32	-73.70	0.92	11.70	0.92	11.70	0.32	-73.70
10650	0.31	-75.00	0.92	11.00	0.92	11.00	0.31	-75.00
10700	0.30	-75.10	0.92	10.60	0.92	10.60	0.30	-75.10
10750	0.30	-75.10	0.93	10.20	0.93	10.20	0.30	-75.10
10800	0.29	-76.30	0.93	9.90	0.93	9.90	0.29	-76.30
10850	0.29	-77.50	0.93	9.50	0.93	9.50	0.29	-77.50
10900	0.28	-78.50	0.93	8.70	0.93	8.70	0.28	-78.50
10950	0.27	-79.50	0.93	7.90	0.93	7.90	0.27	-79.50
11000	0.26	-80.20	0.93	7.50	0.93	7.50	0.26	-80.20
11050	0.25	-81.00	0.93	7.20	0.93	7.20	0.25	-81.00
11100	0.25	-81.70	0.93	6.60	0.93	6.60	0.25	-81.70
11150	0.25	-82.50	0.94	6.00	0.94	6.00	0.25	-82.50
11200	0.24	-82.00	0.93	5.50	0.93	5.50	0.24	-82.00
11250	0.24	-81.60	0.93	4.90	0.93	4.90	0.24	-81.60
11300	0.23	-82.10	0.94	4.20	0.94	4.20	0.23	-82.10
11350	0.22	-82.70	0.94	3.60	0.94	3.60	0.22	-82.70
11400	0.22	-81.50	0.94	3.20	0.94	3.20	0.22	-81.50
11450	0.21	-80.40	0.94	2.80	0.94	2.80	0.21	-80.40
11500	0.20	-80.70	0.94	1.90	0.94	1.90	0.20	-80.70
11550	0.19	-81.00	0.94	1.10	0.94	1.10	0.19	-81.00
11600	0.18	-80.00	0.94	0.40	0.94	0.40	0.18	-80.00
11650	0.17	-78.90	0.94	-0.20	0.94	-0.20	0.17	-78.90
11700	0.16	-77.40	0.94	-1.00	0.94	-1.00	0.16	-77.40
11750	0.14	-75.90	0.94	-1.80	0.94	-1.80	0.14	-75.90
11800	0.13	-74.10	0.94	-2.60	0.94	-2.60	0.13	-74.10
11850	0.12	-72.20	0.94	-3.40	0.94	-3.40	0.12	-72.20
11900	0.10	-70.40	0.94	-4.30	0.94	-4.30	0.10	-70.40
11950	0.09	-68.50	0.94	-5.20	0.94	-5.20	0.09	-68.50
12000	0.08	-62.00	0.94	-6.30	0.94	-6.30	0.08	-62.00
12050	0.07	-55.50	0.94	-7.40	0.94	-7.40	0.07	-55.50
12100	0.06	-44.30	0.93	-8.60	0.93	-8.60	0.06	-44.30
12150	0.05	-33.10	0.93	-9.80	0.93	-9.80	0.05	-33.10
12200	0.06	-16.40	0.92	-11.00	0.92	-11.00	0.06	-16.40
12250	0.06	0.30	0.92	-12.20	0.92	-12.20	0.06	0.30
12300	0.08	10.80	0.91	-13.70	0.91	-13.70	0.08	10.80
12350	0.09	21.30	0.90	-15.20	0.90	-15.20	0.09	21.30
12400	0.11	24.20	0.89	-16.90	0.89	-16.90	0.11	24.20
12450	0.13	27.20	0.88	-18.70	0.88	-18.70	0.13	27.20
12500	0.17	28.30	0.86	-20.50	0.86	-20.50	0.17	28.30
12550	0.20	29.50	0.84	-22.30	0.84	-22.30	0.20	29.50
12600	0.24	28.20	0.82	-24.50	0.82	-24.50	0.24	28.20
12650	0.27	26.90	0.79	-26.70	0.79	-26.70	0.27	26.90
12700	0.32	24.60	0.76	-29.00	0.76	-29.00	0.32	24.60
12750	0.37	22.30	0.72	-31.20	0.72	-31.20	0.37	22.30
12800	0.42	19.40	0.67	-33.40	0.67	-33.40	0.42	19.40
12850	0.47	16.50	0.63	-35.60	0.63	-35.60	0.47	16.50
12900	0.52	12.60	0.57	-37.00	0.57	-37.00	0.52	12.60
12950	0.57	8.70	0.51	-38.40	0.51	-38.40	0.57	8.70
13000	0.61	4.50	0.45	-36.80	0.45	-36.80	0.61	4.50
13050	0.65	0.30	0.38	-35.20	0.38	-35.20	0.65	0.30
13100	0.68	-4.40	0.34	-28.50	0.34	-28.50	0.68	-4.40
13150	0.71	-9.10	0.29	-21.80	0.29	-21.80	0.71	-9.10
13200	0.73	-13.30	0.28	-9.20	0.28	-9.20	0.73	-13.30
13250	0.74	-17.50	0.26	3.40	0.26	3.40	0.74	-17.50
13300	0.72	-19.90	0.29	12.10	0.29	12.10	0.72	-19.90
13350	0.70	-22.30	0.32	20.80	0.32	20.80	0.70	-22.30
13400	0.72	-27.50	0.36	24.20	0.36	24.20	0.72	-27.50
13450	0.73	-32.70	0.40	27.60	0.40	27.60	0.73	-32.70
13500	0.71	-35.60	0.44	28.50	0.44	28.50	0.71	-35.60
13550	0.70	-38.40	0.47	29.40	0.47	29.40	0.70	-38.40
13600	0.68	-41.50	0.51	29.00	0.51	29.00	0.68	-41.50
13650	0.67	-44.50	0.54	28.50	0.54	28.50	0.67	-44.50
13700	0.66	-46.70	0.56	27.90	0.56	27.90	0.66	-46.70
13750	0.65	-48.90	0.59	27.30	0.59	27.30	0.65	-48.90
13800	0.64	-51.20	0.61	26.50	0.61	26.50	0.64	-51.20
13850	0.62	-53.50	0.63	25.60	0.63	25.60	0.62	-53.50
13900	0.62	-55.30	0.65	24.80	0.65	24.80	0.62	-55.30
13950	0.61	-57.10	0.67	24.00	0.67	24.00	0.61	-57.10
14000	0.60	-58.20	0.69	23.40	0.69	23.40	0.60	-58.20
14050	0.59	-59.30	0.70	22.70	0.70	22.70	0.59	-59.30
14100	0.59	-61.00	0.71	21.80	0.71	21.80	0.59	-61.00
14150	0.58	-62.70	0.73	20.90	0.73	20.90	0.58	-62.70
14200	0.57	-63.30	0.74	20.20	0.74	20.20	0.57	-63.30
14250	0.56	-63.80	0.75	19.50	0.75	19.50	0.56	-63.80
14300	0.56	-64.90	0.76	18.90	0.76	18.90	0.56	-64.90
14350	0.55	-66.00	0.77	18.30	0.77	18.30	0.55	-66.00
14400	0.54	-66.60	0.78	17.50	0.78	17.50	0.54	-66.60
14450	0.54	-67.20	0.79	16.60	0.79	16.60	0.54	-67.20
14500	0.52	-67.50	0.79	16.30	0.79	16.30	0.52	-67.50
14550	0.51	-67.80	0.80	16.00	0.80	16.00	0.51	-67.80
14600	0.50	-68.20	0.81	15.20	0.81	15.20	0.50	-68.20
14650	0.49	-68.60	0.81	14.40	0.81	14.40	0.49	-68.60
14700	0.48	-69.30	0.82	13.90	0.82	13.90	0.48	-69.30
14750	0.47	-70.00	0.83	13.40	0.83	13.40	0.47	-70.00
14800	0.46	-70.20	0.83	12.80	0.83	12.80	0.46	-70.20
14850	0.45	-70.40	0.84	12.20	0.84	12.20	0.45	-70.40
14900	0.45	-70.80	0.85	11.70	0.85	11.70	0.45	-70.80
14950	0.44	-71.10	0.86	11.10	0.86	11.10	0.44	-71.10
15000	0.43	-71.80	0.86	10.60	0.86	10.60	0.43	-71.80
15050	0.42	-72.60	0.86	10.10	0.86	10.10	0.42	-72.60
15100	0.41	-72.20	0.87	9.70	0.87	9.70	0.41	-72.20
15150	0.41	-71.90	0.87	9.40	0.87	9.40	0.41	-71.90
15200	0.40	-72.30	0.88	9.00	0.88	9.00	0.40	-72.30
15250	0.40	-72.70	0.88	8.70	0.88	8.70	0.40	-72.70
15300	0.39	-72.60	0.88	8.00	0.88	8.00	0.39	-72.60
15350	0.38	-72.50	0.88	7.30	0.88	7.30	0.38	-72.50
15400	0.38	-71.80	0.89	7.10	0.89	7.10	0.38	-71.80
15450	0.37	-71.10	0.89	7.00	0.89	7.00	0.37	-71.10
15500	0.37	-70.30	0.89	6.30	0.89	6.30	0.37	-70.30
15550	0.36	-69.40	0.90	5.70	0.90	5.70	0.36	-69.40
15600	0.36	-68.50	0.90	5.40	0.90	5.40	0.36	-68.50
15650	0.35	-67.60	0.90	5.10	0.90	5.10	0.35	-67.60
15700	0.35	-66.40	0.90	4.70	0.90	4.70	0.35	-66.40
15750	0.34	-65.20	0.90	4.20	0.90	4.20	0.34	-65.20
15800	0.33	-64.00	0.91	3.90	0.91	3.90	0.33	-64.00
15850	0.32	-62.90	0.91	3.70	0.91	3.70	0.32	-62.90
15900	0.31	-61.70	0.91	3.30	0.91	3.30	0.31	-61.70
15950	0.31	-60.50	0.91	3.00	0.91	3.00	0.31	-60.50
16000	0.30	-58.40	0.92	2.60	0.92	2.60	0.30	-58.40
16050	0.28	-56.30	0.92	2.20	0.92	2.20	0.28	-56.30
16100	0.28	-55.80	0.92	1.70	0.92	1.70	0.28	-55.80
16150	0.27	-55.30	0.92	1.20	0.92	1.20	0.27	-55.30
16200	0.26	-53.80	0.92	0.90	0.92	0.90	0.26	-53.80
16250	0.25	-52.30	0.92	0.60	0.92	0.60	0.25	-52.30
16300	0.24	-52.60	0.92	0.10	0.92	0.10	0.24	-52.60
16350	0.23	-52.90	0.92	-0.30	0.92	-0.30	0.23	-52.90
16400	0.23	-52.70	0.92	-0.40	0.92	-0.40	0.23	-52.70
16450	0.22	-52.50	0.91	-0.60	0.91	-0.60	0.22	-52.50
16500	0.22	-54.90	0.91	-0.50	0.91	-0.50	0.22	-54.90
16550	0.22	-57.30	0.91	-0.50	0.91	-0.50	0.22	-57.30
16600	0.21	-57.70	0.91	-0.70	0.91	-0.70	0.21	-57.70
16650	0.21	-58.10	0.92	-0.90	0.92	-0.90	0.21	-58.10
16700	0.21	-60.50	0.92	-0.90	0.92	-0.90	0.21	-60.50
16750	0.21	-63.00	0.93	-1.00	0.93	-1.00	0.21	-63.00
16800	0.21	-63.80	0.93	-1.00	0.93	-1.00	0.21	-63.80
16850	0.21	-64.60	0.93	-1.10	0.93	-1.10	0.21	-64.60
16900	0.20	-65.40	0.93	-1.30	0.93	-1.30	0.20	-65.40
16950	0.20	-66.10	0.94	-1.40	0.94	-1.40	0.20	-66.10
17000	0.20	-67.20	0.94	-1.80	0.94	-1.80	0.20	-67.20
17050	0.19	-68.40	0.94	-2.10	0.94	-2.10	0.19	-68.40
17100	0.19	-66.80	0.95	-2.40	0.95	-2.40	0.19	-66.80
17150	0.19	-65.20	0.95	-2.70	0.95	-2.70	0.19	-65.20
17200	0.18	-64.90	0.95	-2.90	0.95	-2.90	0.18	-64.90
17250	0.17	-64.50	0.95	-3.20	0.95	-3.20	0.17	-64.50
17300	0.16	-63.20	0.95	-3.50	0.95	-3.50	0.16	-63.20
17350	0.16	-61.90	0.95	-3.80	0.95	-3.80	0.16	-61.90
17400	0.15	-63.30	0.95	-4.10	0.95	-4.10	0.15	-63.30
17450	0.14	-64.80	0.95	-4.40	0.95	-4.40	0.14	-64.80
17500	0.14	-62.60	0.95	-4.90	0.95	-4.90	0.14	-62.60
17550	0.13	-60.40	0.95	-5.30	0.95	-5.30	0.13	-60.40
17600	0.12	-60.50	0.95	-5.80	0.95	-5.80	0.12	-60.50
17650	0.11	-60.70	0.95	-6.30	0.95	-6.30	0.11	-60.70
17700	0.10	-62.20	0.95	-6.60	0.95	-6.60	0.10	-62.20
17750	0.09	-63.80	0.95	-7.00	0.95	-7.00	0.09	-63.80
17800	0.09	-65.00	0.95	-7.50	0.95	-7.50	0.09	-65.00
17850	0.09	-66.30	0.94	-7.90	0.94	-7.90	0.09	-66.30
17900	0.09	-69.10	0.94	-8.10	0.94	-8.10	0.09	-69.10
17950	0.09	-71.90	0.93	-8.20	0.93	-8.20	0.09	-71.90
18000	0.09	-75.60	0.93	-8.40	0.93	-8.40	0.09	-75.60
18050	0.09	-79.20	0.92	-8.60	0.92	-8.60	0.09	-79.20
18100	0.10	-84.30	0.92	-8.40	0.92	-8.40	0.10	-84.30
18150	0.11	-89.40	0.92	-8.20	0.92	-8.20	0.11	-89.40
18200	0.11	-91.80	0.93	-8.30	0.93	-8.30	0.11	-91.80
18250	0.12	-94.10	0.94	-8.50	0.94	-8.50	0.12	-94.10
18300	0.12	-95.30	0.94	-8.70	0.94	-8.70	0.12	-95.30
18350	0.12	-96.50	0.94	-9.00	0.94	-9.00	0.12	-96.50
18400	0.12	-93.20	0.94	-9.20	0.94	-9.20	0.12	-93.20
18450	0.12	-90.00	0.95	-9.40	0.95	-9.40	0.12	-90.00
18500	0.12	-88.90	0.95	-9.80	0.95	-9.80	0.12	-88.90
18550	0.12	-87.80	0.95	-10.10	0.95	-10.10	0.12	-87.80
18600	0.11	-84.90	0.95	-10.30	0.95	-10.30	0.11	-84.90
18650	0.10	-82.00	0.96	-10.60	0.96	-10.60	0.10	-82.00
18700	0.10	-83.10	0.95	-11.00	0.95	-11.00	0.10	-83.10
18750	0.10	-84.30	0.95	-11.50	0.95	-11.50	0.10	-84.30
18800	0.10	-82.70	0.95	-11.70	0.95	-11.70	0.10	-82.70
18850	0.09	-81.10	0.95	-12.00	0.95	-12.00	0.09	-81.10
18900	0.09	-82.40	0.95	-12.40	0.95	-12.40	0.09	-82.40
18950	0.08	-83.70	0.94	-12.80	0.94	-12.80	0.08	-83.70
19000	0.08	-90.00	0.94	-12.80	0.94	-12.80	0.08	-90.00
19050	0.07	-96.40	0.94	-12.80	0.94	-12.80	0.07	-96.40
19100	0.07	-90.40	0.94	-12.90	0.94	-12.90	0.07	-90.40
19150	0.07	-84.30	0.94	-13.00	0.94	-13.00	0.07	-84.30
19200	0.08	-85.30	0.94	-13.10	0.94	-13.10	0.08	-85.30
19250	0.08	-86.30	0.94	-13.30	0.94	-13.30	0.08	-86.30
19300	0.09	-81.30	0.94	-13.60	0.94	-13.60	0.09	-81.30
19350	0.09	-76.30	0.95	-13.90	0.95	-13.90	0.09	-76.30
19400	0.10	-77.30	0.95	-14.40	0.95	-14.40	0.10	-77.30
19450	0.10	-78.40	0.95	-15.00	0.95	-15.00	0.10	-78.40
19500	0.11	-75.80	0.95	-15.00	0.95	-15.00	0.11	-75.80
