#	mhz	s	ma	r	50			
50	0.15	71.20	0.97	-7.10	0.97	-7.10	0.15	71.20
100	0.28	66.00	0.92	-14.40	0.92	-14.40	0.28	66.00
150	0.40	60.70	0.88	-21.80	0.88	-21.80	0.40	60.70
200	0.49	55.20	0.82	-27.90	0.82	-27.90	0.49	55.20
250	0.59	49.70	0.77	-34.00	0.77	-34.00	0.59	49.70
300	0.65	44.90	0.71	-39.10	0.71	-39.10	0.65	44.90
350	0.71	40.00	0.65	-44.10	0.65	-44.10	0.71	40.00
400	0.76	35.90	0.60	-48.20	0.60	-48.20	0.76	35.90
450	0.81	31.80	0.55	-52.20	0.55	-52.20	0.81	31.80
500	0.87	30.40	0.48	-57.30	0.48	-57.30	0.87	30.40
550	0.92	29.10	0.42	-62.30	0.42	-62.30	0.92	29.10
600	0.93	26.60	0.38	-64.60	0.38	-64.60	0.93	26.60
650	0.94	24.10	0.34	-67.00	0.34	-67.00	0.94	24.10
700	0.95	22.30	0.30	-69.30	0.30	-69.30	0.95	22.30
750	0.97	20.60	0.26	-71.60	0.26	-71.60	0.97	20.60
800	0.97	18.30	0.23	-73.10	0.23	-73.10	0.97	18.30
850	0.96	15.90	0.20	-74.60	0.20	-74.60	0.96	15.90
900	0.98	14.20	0.17	-75.70	0.17	-75.70	0.98	14.20
950	1.00	12.50	0.14	-76.80	0.14	-76.80	1.00	12.50
1000	1.00	10.90	0.12	-77.20	0.12	-77.20	1.00	10.90
1050	1.00	9.20	0.09	-77.60	0.09	-77.60	1.00	9.20
1100	1.00	7.70	0.07	-75.60	0.07	-75.60	1.00	7.70
1150	1.00	6.20	0.04	-73.60	0.04	-73.60	1.00	6.20
1200	1.00	5.10	0.03	-26.60	0.03	-26.60	1.00	5.10
1250	1.00	4.00	0.01	20.40	0.01	20.40	1.00	4.00
1300	1.00	2.20	0.03	47.30	0.03	47.30	1.00	2.20
1350	1.00	0.50	0.05	74.20	0.05	74.20	1.00	0.50
1400	1.00	-0.50	0.07	76.30	0.07	76.30	1.00	-0.50
1450	1.00	-1.50	0.09	78.30	0.09	78.30	1.00	-1.50
1500	1.00	-3.20	0.10	77.90	0.10	77.90	1.00	-3.20
1550	0.99	-4.80	0.12	77.50	0.12	77.50	0.99	-4.80
1600	0.99	-6.20	0.14	76.90	0.14	76.90	0.99	-6.20
1650	0.99	-7.50	0.16	76.30	0.16	76.30	0.99	-7.50
1700	0.98	-8.70	0.17	75.60	0.17	75.60	0.98	-8.70
1750	0.97	-9.90	0.19	75.00	0.19	75.00	0.97	-9.90
1800	0.97	-11.30	0.21	73.90	0.21	73.90	0.97	-11.30
1850	0.98	-12.70	0.23	72.90	0.23	72.90	0.98	-12.70
1900	0.96	-14.00	0.24	72.20	0.24	72.20	0.96	-14.00
1950	0.96	-15.20	0.26	71.50	0.26	71.50	0.96	-15.20
2000	0.95	-16.50	0.27	70.60	0.27	70.60	0.95	-16.50
2050	0.94	-17.80	0.29	69.70	0.29	69.70	0.94	-17.80
2100	0.94	-18.80	0.30	68.80	0.30	68.80	0.94	-18.80
2150	0.94	-19.80	0.32	68.00	0.32	68.00	0.94	-19.80
2200	0.93	-21.30	0.33	67.00	0.33	67.00	0.93	-21.30
2250	0.92	-22.80	0.35	66.00	0.35	66.00	0.92	-22.80
2300	0.92	-23.70	0.36	65.30	0.36	65.30	0.92	-23.70
2350	0.91	-24.50	0.38	64.60	0.38	64.60	0.91	-24.50
2400	0.91	-26.00	0.39	63.40	0.39	63.40	0.91	-26.00
2450	0.90	-27.40	0.41	62.20	0.41	62.20	0.90	-27.40
2500	0.89	-28.50	0.42	61.30	0.42	61.30	0.89	-28.50
2550	0.89	-29.50	0.43	60.30	0.43	60.30	0.89	-29.50
2600	0.88	-30.50	0.45	59.40	0.45	59.40	0.88	-30.50
2650	0.87	-31.40	0.46	58.50	0.46	58.50	0.87	-31.40
2700	0.86	-32.60	0.47	57.30	0.47	57.30	0.86	-32.60
2750	0.85	-33.80	0.49	56.10	0.49	56.10	0.85	-33.80
2800	0.84	-35.00	0.50	54.80	0.50	54.80	0.84	-35.00
2850	0.82	-36.30	0.52	53.50	0.52	53.50	0.82	-36.30
2900	0.80	-37.50	0.54	50.70	0.54	50.70	0.80	-37.50
2950	0.77	-38.70	0.55	47.90	0.55	47.90	0.77	-38.70
3000	0.73	-35.20	0.52	42.50	0.52	42.50	0.73	-35.20
3050	0.68	-31.60	0.49	37.10	0.49	37.10	0.68	-31.60
3100	0.75	-31.40	0.47	44.30	0.47	44.30	0.75	-31.40
3150	0.81	-31.30	0.45	51.50	0.45	51.50	0.81	-31.30
3200	0.82	-33.40	0.48	52.10	0.48	52.10	0.82	-33.40
3250	0.82	-35.50	0.52	52.60	0.52	52.60	0.82	-35.50
3300	0.81	-36.80	0.53	51.80	0.53	51.80	0.81	-36.80
3350	0.81	-38.10	0.55	50.90	0.55	50.90	0.81	-38.10
3400	0.80	-39.30	0.56	50.30	0.56	50.30	0.80	-39.30
3450	0.79	-40.50	0.58	49.70	0.58	49.70	0.79	-40.50
3500	0.78	-41.50	0.59	48.80	0.59	48.80	0.78	-41.50
3550	0.77	-42.50	0.61	47.90	0.61	47.90	0.77	-42.50
3600	0.76	-43.20	0.61	47.20	0.61	47.20	0.76	-43.20
3650	0.75	-43.90	0.62	46.50	0.62	46.50	0.75	-43.90
3700	0.75	-45.00	0.63	45.70	0.63	45.70	0.75	-45.00
3750	0.74	-46.20	0.65	44.80	0.65	44.80	0.74	-46.20
3800	0.73	-46.90	0.65	44.20	0.65	44.20	0.73	-46.90
3850	0.72	-47.60	0.66	43.50	0.66	43.50	0.72	-47.60
3900	0.71	-48.70	0.67	42.40	0.67	42.40	0.71	-48.70
3950	0.70	-49.80	0.68	41.30	0.68	41.30	0.70	-49.80
4000	0.69	-50.70	0.69	40.50	0.69	40.50	0.69	-50.70
4050	0.68	-51.50	0.70	39.80	0.70	39.80	0.68	-51.50
4100	0.67	-52.30	0.70	39.00	0.70	39.00	0.67	-52.30
4150	0.65	-53.00	0.71	38.10	0.71	38.10	0.65	-53.00
4200	0.65	-54.20	0.72	37.10	0.72	37.10	0.65	-54.20
4250	0.64	-55.40	0.73	36.20	0.73	36.20	0.64	-55.40
4300	0.62	-56.40	0.74	35.20	0.74	35.20	0.62	-56.40
4350	0.60	-57.30	0.75	34.20	0.75	34.20	0.60	-57.30
4400	0.59	-58.40	0.76	32.70	0.76	32.70	0.59	-58.40
4450	0.57	-59.50	0.77	31.20	0.77	31.20	0.57	-59.50
4500	0.55	-60.10	0.77	29.50	0.77	29.50	0.55	-60.10
4550	0.52	-60.60	0.78	27.90	0.78	27.90	0.52	-60.60
4600	0.49	-61.30	0.79	25.30	0.79	25.30	0.49	-61.30
4650	0.46	-62.10	0.80	22.70	0.80	22.70	0.46	-62.10
4700	0.41	-60.10	0.80	19.30	0.80	19.30	0.41	-60.10
4750	0.36	-58.10	0.79	15.90	0.79	15.90	0.36	-58.10
4800	0.33	-46.70	0.76	10.70	0.76	10.70	0.33	-46.70
4850	0.29	-35.40	0.73	5.60	0.73	5.60	0.29	-35.40
4900	0.37	-23.40	0.64	1.10	0.64	1.10	0.37	-23.40
4950	0.45	-11.40	0.54	-3.40	0.54	-3.40	0.45	-11.40
5000	0.56	-15.80	0.45	3.60	0.45	3.60	0.56	-15.80
5050	0.67	-20.20	0.35	10.50	0.35	10.50	0.67	-20.20
5100	0.70	-26.30	0.37	23.40	0.37	23.40	0.70	-26.30
5150	0.74	-32.40	0.38	36.20	0.38	36.20	0.74	-32.40
5200	0.75	-36.10	0.43	39.90	0.43	39.90	0.75	-36.10
5250	0.75	-39.70	0.48	43.50	0.48	43.50	0.75	-39.70
5300	0.76	-43.20	0.52	43.10	0.52	43.10	0.76	-43.20
5350	0.76	-46.70	0.56	42.60	0.56	42.60	0.76	-46.70
5400	0.74	-48.30	0.58	42.00	0.58	42.00	0.74	-48.30
5450	0.73	-50.00	0.60	41.30	0.60	41.30	0.73	-50.00
5500	0.72	-51.40	0.62	40.50	0.62	40.50	0.72	-51.40
5550	0.72	-52.80	0.64	39.80	0.64	39.80	0.72	-52.80
5600	0.71	-53.80	0.65	39.00	0.65	39.00	0.71	-53.80
5650	0.69	-54.90	0.66	38.10	0.66	38.10	0.69	-54.90
5700	0.69	-55.60	0.67	37.60	0.67	37.60	0.69	-55.60
5750	0.68	-56.40	0.69	37.00	0.69	37.00	0.68	-56.40
5800	0.67	-56.70	0.69	36.30	0.69	36.30	0.67	-56.70
5850	0.66	-57.00	0.70	35.70	0.70	35.70	0.66	-57.00
5900	0.66	-57.00	0.71	35.30	0.71	35.30	0.66	-57.00
5950	0.65	-57.00	0.71	34.90	0.71	34.90	0.65	-57.00
6000	0.64	-58.60	0.73	33.60	0.73	33.60	0.64	-58.60
6050	0.63	-60.10	0.74	32.40	0.74	32.40	0.63	-60.10
6100	0.62	-60.00	0.74	32.20	0.74	32.20	0.62	-60.00
6150	0.62	-60.00	0.75	31.90	0.75	31.90	0.62	-60.00
6200	0.61	-59.90	0.75	31.20	0.75	31.20	0.61	-59.90
6250	0.61	-59.80	0.76	30.50	0.76	30.50	0.61	-59.80
6300	0.60	-59.80	0.76	30.00	0.76	30.00	0.60	-59.80
6350	0.60	-59.90	0.77	29.50	0.77	29.50	0.60	-59.90
6400	0.59	-59.40	0.77	28.90	0.77	28.90	0.59	-59.40
6450	0.58	-59.00	0.77	28.30	0.77	28.30	0.58	-59.00
6500	0.57	-58.80	0.77	27.70	0.77	27.70	0.57	-58.80
6550	0.56	-58.60	0.78	27.10	0.78	27.10	0.56	-58.60
6600	0.56	-57.70	0.78	26.60	0.78	26.60	0.56	-57.70
6650	0.55	-56.80	0.77	26.00	0.77	26.00	0.55	-56.80
6700	0.55	-55.60	0.77	26.20	0.77	26.20	0.55	-55.60
6750	0.55	-54.50	0.77	26.40	0.77	26.40	0.55	-54.50
6800	0.56	-54.60	0.78	26.30	0.78	26.30	0.56	-54.60
6850	0.56	-54.70	0.79	26.20	0.79	26.20	0.56	-54.70
6900	0.55	-54.90	0.79	25.80	0.79	25.80	0.55	-54.90
6950	0.55	-55.00	0.80	25.40	0.80	25.40	0.55	-55.00
7000	0.54	-54.80	0.80	25.10	0.80	25.10	0.54	-54.80
7050	0.54	-54.70	0.81	24.70	0.81	24.70	0.54	-54.70
7100	0.53	-54.80	0.81	24.30	0.81	24.30	0.53	-54.80
7150	0.52	-55.00	0.81	24.00	0.81	24.00	0.52	-55.00
7200	0.52	-54.70	0.82	23.70	0.82	23.70	0.52	-54.70
7250	0.51	-54.50	0.82	23.40	0.82	23.40	0.51	-54.50
7300	0.51	-55.00	0.83	22.90	0.83	22.90	0.51	-55.00
7350	0.51	-55.60	0.83	22.40	0.83	22.40	0.51	-55.60
7400	0.50	-55.70	0.83	21.90	0.83	21.90	0.50	-55.70
7450	0.49	-55.80	0.83	21.50	0.83	21.50	0.49	-55.80
7500	0.49	-56.50	0.84	21.00	0.84	21.00	0.49	-56.50
7550	0.49	-57.20	0.85	20.40	0.85	20.40	0.49	-57.20
7600	0.47	-57.70	0.85	19.90	0.85	19.90	0.47	-57.70
7650	0.46	-58.20	0.85	19.30	0.85	19.30	0.46	-58.20
7700	0.46	-58.60	0.85	18.80	0.85	18.80	0.46	-58.60
7750	0.45	-59.00	0.85	18.40	0.85	18.40	0.45	-59.00
7800	0.44	-59.80	0.86	17.80	0.86	17.80	0.44	-59.80
7850	0.43	-60.60	0.86	17.20	0.86	17.20	0.43	-60.60
7900	0.42	-61.30	0.86	16.40	0.86	16.40	0.42	-61.30
7950	0.41	-62.00	0.87	15.70	0.87	15.70	0.41	-62.00
8000	0.40	-62.70	0.87	14.90	0.87	14.90	0.40	-62.70
8050	0.38	-63.40	0.87	14.00	0.87	14.00	0.38	-63.40
8100	0.37	-63.20	0.87	13.30	0.87	13.30	0.37	-63.20
8150	0.36	-63.00	0.87	12.60	0.87	12.60	0.36	-63.00
8200	0.34	-62.20	0.86	11.40	0.86	11.40	0.34	-62.20
8250	0.33	-61.40	0.86	10.20	0.86	10.20	0.33	-61.40
8300	0.32	-58.90	0.85	9.00	0.85	9.00	0.32	-58.90
8350	0.30	-56.50	0.84	7.80	0.84	7.80	0.30	-56.50
8400	0.30	-51.30	0.82	6.20	0.82	6.20	0.30	-51.30
8450	0.30	-46.10	0.80	4.70	0.80	4.70	0.30	-46.10
8500	0.32	-41.10	0.76	4.30	0.76	4.30	0.32	-41.10
8550	0.35	-36.20	0.72	3.90	0.72	3.90	0.35	-36.20
8600	0.40	-36.50	0.69	6.30	0.69	6.30	0.40	-36.50
8650	0.44	-36.90	0.65	8.70	0.65	8.70	0.44	-36.90
8700	0.47	-40.80	0.66	12.50	0.66	12.50	0.47	-40.80
8750	0.50	-44.80	0.66	16.30	0.66	16.30	0.50	-44.80
8800	0.51	-48.60	0.68	18.30	0.68	18.30	0.51	-48.60
8850	0.51	-52.30	0.71	20.20	0.71	20.20	0.51	-52.30
8900	0.50	-54.70	0.74	20.30	0.74	20.30	0.50	-54.70
8950	0.50	-57.10	0.76	20.40	0.76	20.40	0.50	-57.10
9000	0.49	-58.80	0.78	20.00	0.78	20.00	0.49	-58.80
9050	0.48	-60.50	0.79	19.70	0.79	19.70	0.48	-60.50
9100	0.47	-61.90	0.81	19.30	0.81	19.30	0.47	-61.90
9150	0.46	-63.30	0.82	18.90	0.82	18.90	0.46	-63.30
9200	0.45	-64.90	0.83	18.60	0.83	18.60	0.45	-64.90
9250	0.44	-66.40	0.84	18.30	0.84	18.30	0.44	-66.40
9300	0.43	-66.60	0.85	17.70	0.85	17.70	0.43	-66.60
9350	0.42	-66.90	0.86	17.00	0.86	17.00	0.42	-66.90
9400	0.41	-67.90	0.86	16.80	0.86	16.80	0.41	-67.90
9450	0.41	-68.80	0.87	16.50	0.87	16.50	0.41	-68.80
9500	0.40	-68.90	0.88	15.90	0.88	15.90	0.40	-68.90
9550	0.38	-69.10	0.88	15.20	0.88	15.20	0.38	-69.10
9600	0.38	-69.40	0.89	14.70	0.89	14.70	0.38	-69.40
9650	0.38	-69.70	0.89	14.20	0.89	14.20	0.38	-69.70
9700	0.37	-70.30	0.90	13.80	0.90	13.80	0.37	-70.30
9750	0.36	-71.00	0.90	13.50	0.90	13.50	0.36	-71.00
9800	0.35	-70.60	0.90	12.90	0.90	12.90	0.35	-70.60
9850	0.35	-70.10	0.90	12.40	0.90	12.40	0.35	-70.10
9900	0.34	-70.40	0.90	12.20	0.90	12.20	0.34	-70.40
9950	0.33	-70.60	0.90	11.90	0.90	11.90	0.33	-70.60
10000	0.32	-70.70	0.91	11.50	0.91	11.50	0.32	-70.70
10050	0.32	-70.70	0.92	11.20	0.92	11.20	0.32	-70.70
10100	0.31	-70.50	0.92	10.80	0.92	10.80	0.31	-70.50
10150	0.31	-70.20	0.92	10.50	0.92	10.50	0.31	-70.20
10200	0.30	-70.20	0.92	10.20	0.92	10.20	0.30	-70.20
10250	0.29	-70.30	0.92	9.90	0.92	9.90	0.29	-70.30
10300	0.28	-70.40	0.92	9.60	0.92	9.60	0.28	-70.40
10350	0.28	-70.50	0.92	9.30	0.92	9.30	0.28	-70.50
10400	0.27	-71.60	0.92	8.90	0.92	8.90	0.27	-71.60
10450	0.26	-72.70	0.93	8.50	0.93	8.50	0.26	-72.70
10500	0.26	-72.20	0.93	8.30	0.93	8.30	0.26	-72.20
10550	0.27	-71.80	0.93	8.10	0.93	8.10	0.27	-71.80
10600	0.26	-73.40	0.93	7.60	0.93	7.60	0.26	-73.40
10650	0.25	-75.00	0.94	7.20	0.94	7.20	0.25	-75.00
10700	0.25	-74.90	0.94	6.90	0.94	6.90	0.25	-74.90
10750	0.24	-74.70	0.94	6.70	0.94	6.70	0.24	-74.70
10800	0.24	-76.20	0.94	6.50	0.94	6.50	0.24	-76.20
10850	0.24	-77.60	0.94	6.30	0.94	6.30	0.24	-77.60
10900	0.23	-78.60	0.94	5.70	0.94	5.70	0.23	-78.60
10950	0.22	-79.70	0.94	5.10	0.94	5.10	0.22	-79.70
11000	0.22	-80.30	0.94	4.80	0.94	4.80	0.22	-80.30
11050	0.22	-81.00	0.94	4.60	0.94	4.60	0.22	-81.00
11100	0.22	-82.00	0.94	4.20	0.94	4.20	0.22	-82.00
11150	0.22	-82.90	0.94	3.80	0.94	3.80	0.22	-82.90
11200	0.22	-82.00	0.94	3.50	0.94	3.50	0.22	-82.00
11250	0.21	-81.10	0.94	3.10	0.94	3.10	0.21	-81.10
11300	0.21	-81.70	0.94	2.60	0.94	2.60	0.21	-81.70
11350	0.20	-82.30	0.94	2.10	0.94	2.10	0.20	-82.30
11400	0.20	-80.60	0.94	1.90	0.94	1.90	0.20	-80.60
11450	0.19	-78.80	0.94	1.60	0.94	1.60	0.19	-78.80
11500	0.19	-78.90	0.94	1.00	0.94	1.00	0.19	-78.90
11550	0.18	-78.90	0.93	0.40	0.93	0.40	0.18	-78.90
11600	0.18	-76.80	0.93	-0.10	0.93	-0.10	0.18	-76.80
11650	0.17	-74.70	0.93	-0.60	0.93	-0.60	0.17	-74.70
11700	0.17	-72.10	0.93	-1.30	0.93	-1.30	0.17	-72.10
11750	0.16	-69.50	0.92	-1.90	0.92	-1.90	0.16	-69.50
11800	0.15	-65.00	0.91	-2.50	0.91	-2.50	0.15	-65.00
11850	0.14	-60.40	0.90	-3.00	0.90	-3.00	0.14	-60.40
11900	0.14	-56.40	0.89	-3.70	0.89	-3.70	0.14	-56.40
11950	0.14	-52.30	0.88	-4.30	0.88	-4.30	0.14	-52.30
12000	0.16	-47.60	0.86	-4.80	0.86	-4.80	0.16	-47.60
12050	0.17	-42.80	0.84	-5.20	0.84	-5.20	0.17	-42.80
12100	0.19	-42.60	0.81	-4.80	0.81	-4.80	0.19	-42.60
12150	0.21	-42.50	0.79	-4.30	0.79	-4.30	0.21	-42.50
12200	0.24	-45.70	0.77	-2.60	0.77	-2.60	0.24	-45.70
12250	0.26	-48.90	0.76	-0.80	0.76	-0.80	0.26	-48.90
12300	0.28	-53.10	0.76	1.10	0.76	1.10	0.28	-53.10
12350	0.30	-57.30	0.77	3.10	0.77	3.10	0.30	-57.30
12400	0.31	-62.30	0.78	4.10	0.78	4.10	0.31	-62.30
12450	0.32	-67.40	0.79	5.10	0.79	5.10	0.32	-67.40
12500	0.32	-69.40	0.81	5.40	0.81	5.40	0.32	-69.40
12550	0.32	-71.50	0.83	5.60	0.83	5.60	0.32	-71.50
12600	0.32	-73.60	0.84	5.60	0.84	5.60	0.32	-73.60
12650	0.32	-75.60	0.85	5.60	0.85	5.60	0.32	-75.60
12700	0.32	-75.70	0.86	5.30	0.86	5.30	0.32	-75.70
12750	0.31	-75.80	0.87	5.00	0.87	5.00	0.31	-75.80
12800	0.31	-76.10	0.88	4.80	0.88	4.80	0.31	-76.10
12850	0.31	-76.30	0.89	4.60	0.89	4.60	0.31	-76.30
12900	0.30	-75.90	0.89	4.20	0.89	4.20	0.30	-75.90
12950	0.30	-75.50	0.89	3.80	0.89	3.80	0.30	-75.50
13000	0.29	-75.50	0.90	3.60	0.90	3.60	0.29	-75.50
13050	0.29	-75.50	0.91	3.50	0.91	3.50	0.29	-75.50
13100	0.29	-74.80	0.91	3.10	0.91	3.10	0.29	-74.80
13150	0.28	-74.00	0.91	2.70	0.91	2.70	0.28	-74.00
13200	0.27	-74.20	0.91	2.60	0.91	2.60	0.27	-74.20
13250	0.27	-74.30	0.92	2.50	0.92	2.50	0.27	-74.30
13300	0.26	-72.40	0.92	2.00	0.92	2.00	0.26	-72.40
13350	0.25	-70.60	0.92	1.50	0.92	1.50	0.25	-70.60
13400	0.25	-71.70	0.92	1.00	0.92	1.00	0.25	-71.70
13450	0.25	-72.80	0.92	0.60	0.92	0.60	0.25	-72.80
13500	0.24	-72.60	0.92	0.40	0.92	0.40	0.24	-72.60
13550	0.23	-72.50	0.92	0.20	0.92	0.20	0.23	-72.50
13600	0.23	-72.30	0.91	0.00	0.91	0.00	0.23	-72.30
13650	0.23	-72.20	0.91	-0.20	0.91	-0.20	0.23	-72.20
13700	0.24	-72.40	0.91	-0.30	0.91	-0.30	0.24	-72.40
13750	0.24	-72.60	0.92	-0.40	0.92	-0.40	0.24	-72.60
13800	0.24	-72.60	0.91	-0.50	0.91	-0.50	0.24	-72.60
13850	0.24	-72.60	0.91	-0.50	0.91	-0.50	0.24	-72.60
13900	0.24	-73.10	0.92	-0.60	0.92	-0.60	0.24	-73.10
13950	0.24	-73.60	0.92	-0.80	0.92	-0.80	0.24	-73.60
14000	0.24	-72.90	0.93	-1.00	0.93	-1.00	0.24	-72.90
14050	0.24	-72.20	0.93	-1.30	0.93	-1.30	0.24	-72.20
14100	0.24	-72.50	0.93	-1.50	0.93	-1.50	0.24	-72.50
14150	0.24	-72.90	0.93	-1.80	0.93	-1.80	0.24	-72.90
14200	0.24	-71.70	0.93	-2.10	0.93	-2.10	0.24	-71.70
14250	0.23	-70.40	0.93	-2.50	0.93	-2.50	0.23	-70.40
14300	0.23	-70.00	0.93	-2.70	0.93	-2.70	0.23	-70.00
14350	0.23	-69.60	0.94	-2.90	0.94	-2.90	0.23	-69.60
14400	0.23	-68.70	0.94	-3.30	0.94	-3.30	0.23	-68.70
14450	0.23	-67.70	0.94	-3.80	0.94	-3.80	0.23	-67.70
14500	0.23	-66.30	0.94	-3.90	0.94	-3.90	0.23	-66.30
14550	0.22	-65.00	0.94	-4.00	0.94	-4.00	0.22	-65.00
14600	0.22	-63.50	0.94	-4.40	0.94	-4.40	0.22	-63.50
14650	0.22	-62.10	0.94	-4.70	0.94	-4.70	0.22	-62.10
14700	0.21	-61.70	0.94	-5.10	0.94	-5.10	0.21	-61.70
14750	0.21	-61.30	0.94	-5.40	0.94	-5.40	0.21	-61.30
14800	0.20	-59.50	0.94	-5.80	0.94	-5.80	0.20	-59.50
14850	0.20	-57.70	0.94	-6.20	0.94	-6.20	0.20	-57.70
14900	0.19	-57.10	0.94	-6.50	0.94	-6.50	0.19	-57.10
14950	0.19	-56.40	0.94	-6.70	0.94	-6.70	0.19	-56.40
15000	0.19	-55.60	0.94	-7.10	0.94	-7.10	0.19	-55.60
15050	0.19	-54.80	0.94	-7.50	0.94	-7.50	0.19	-54.80
15100	0.18	-52.70	0.94	-7.80	0.94	-7.80	0.18	-52.70
15150	0.18	-50.50	0.94	-8.00	0.94	-8.00	0.18	-50.50
15200	0.18	-50.00	0.94	-8.20	0.94	-8.20	0.18	-50.00
15250	0.18	-49.40	0.94	-8.40	0.94	-8.40	0.18	-49.40
15300	0.18	-46.90	0.94	-9.00	0.94	-9.00	0.18	-46.90
15350	0.18	-44.40	0.94	-9.70	0.94	-9.70	0.18	-44.40
15400	0.19	-42.40	0.93	-9.90	0.93	-9.90	0.19	-42.40
15450	0.19	-40.30	0.93	-10.10	0.93	-10.10	0.19	-40.30
15500	0.19	-36.90	0.92	-10.60	0.92	-10.60	0.19	-36.90
15550	0.20	-33.40	0.92	-11.10	0.92	-11.10	0.20	-33.40
15600	0.21	-31.40	0.91	-11.40	0.91	-11.40	0.21	-31.40
15650	0.22	-29.30	0.91	-11.60	0.91	-11.60	0.22	-29.30
15700	0.23	-26.80	0.90	-12.00	0.90	-12.00	0.23	-26.80
15750	0.23	-24.40	0.88	-12.40	0.88	-12.40	0.23	-24.40
15800	0.24	-23.00	0.87	-12.10	0.87	-12.10	0.24	-23.00
15850	0.25	-21.60	0.86	-11.90	0.86	-11.90	0.25	-21.60
15900	0.27	-22.40	0.85	-11.40	0.85	-11.40	0.27	-22.40
15950	0.28	-23.20	0.84	-10.80	0.84	-10.80	0.28	-23.20
16000	0.28	-23.10	0.84	-9.80	0.84	-9.80	0.28	-23.10
16050	0.28	-22.90	0.83	-8.70	0.83	-8.70	0.28	-22.90
16100	0.27	-24.90	0.84	-8.10	0.84	-8.10	0.27	-24.90
16150	0.26	-26.80	0.84	-7.40	0.84	-7.40	0.26	-26.80
16200	0.25	-26.90	0.85	-7.00	0.85	-7.00	0.25	-26.90
16250	0.24	-27.10	0.86	-6.50	0.86	-6.50	0.24	-27.10
16300	0.23	-28.20	0.87	-6.60	0.87	-6.60	0.23	-28.20
16350	0.21	-29.40	0.88	-6.70	0.88	-6.70	0.21	-29.40
16400	0.20	-29.10	0.89	-6.80	0.89	-6.80	0.20	-29.10
16450	0.19	-28.70	0.89	-6.80	0.89	-6.80	0.19	-28.70
16500	0.18	-31.80	0.89	-6.80	0.89	-6.80	0.18	-31.80
16550	0.17	-34.80	0.90	-6.70	0.90	-6.70	0.17	-34.80
16600	0.17	-34.80	0.91	-7.00	0.91	-7.00	0.17	-34.80
16650	0.16	-34.80	0.92	-7.20	0.92	-7.20	0.16	-34.80
16700	0.15	-37.70	0.92	-7.30	0.92	-7.30	0.15	-37.70
16750	0.14	-40.70	0.93	-7.40	0.93	-7.40	0.14	-40.70
16800	0.14	-41.60	0.93	-7.50	0.93	-7.50	0.14	-41.60
16850	0.14	-42.50	0.93	-7.70	0.93	-7.70	0.14	-42.50
16900	0.13	-42.50	0.94	-7.90	0.94	-7.90	0.13	-42.50
16950	0.13	-42.40	0.94	-8.10	0.94	-8.10	0.13	-42.40
17000	0.12	-43.00	0.94	-8.40	0.94	-8.40	0.12	-43.00
17050	0.12	-43.70	0.95	-8.70	0.95	-8.70	0.12	-43.70
17100	0.12	-41.50	0.95	-9.00	0.95	-9.00	0.12	-41.50
17150	0.12	-39.40	0.95	-9.30	0.95	-9.30	0.12	-39.40
17200	0.11	-37.00	0.95	-9.40	0.95	-9.40	0.11	-37.00
17250	0.11	-34.60	0.95	-9.50	0.95	-9.50	0.11	-34.60
17300	0.10	-32.20	0.95	-9.70	0.95	-9.70	0.10	-32.20
17350	0.10	-29.70	0.95	-9.90	0.95	-9.90	0.10	-29.70
17400	0.09	-29.20	0.95	-10.10	0.95	-10.10	0.09	-29.20
17450	0.08	-28.70	0.95	-10.30	0.95	-10.30	0.08	-28.70
17500	0.08	-23.80	0.95	-10.60	0.95	-10.60	0.08	-23.80
17550	0.08	-18.90	0.95	-10.80	0.95	-10.80	0.08	-18.90
17600	0.07	-13.70	0.95	-11.20	0.95	-11.20	0.07	-13.70
17650	0.06	-8.50	0.95	-11.50	0.95	-11.50	0.06	-8.50
17700	0.05	-1.50	0.96	-11.70	0.96	-11.70	0.05	-1.50
17750	0.05	5.50	0.96	-12.00	0.96	-12.00	0.05	5.50
17800	0.04	7.60	0.96	-12.30	0.96	-12.30	0.04	7.60
17850	0.04	9.70	0.96	-12.70	0.96	-12.70	0.04	9.70
17900	0.03	20.80	0.96	-12.90	0.96	-12.90	0.03	20.80
17950	0.02	31.90	0.96	-13.10	0.96	-13.10	0.02	31.90
18000	0.02	34.10	0.96	-13.50	0.96	-13.50	0.02	34.10
18050	0.02	36.40	0.95	-13.90	0.95	-13.90	0.02	36.40
18100	0.01	27.70	0.95	-14.20	0.95	-14.20	0.01	27.70
18150	0.01	19.10	0.95	-14.50	0.95	-14.50	0.01	19.10
18200	0.01	9.80	0.96	-14.90	0.96	-14.90	0.01	9.80
18250	0.01	0.60	0.96	-15.30	0.96	-15.30	0.01	0.60
18300	0.02	-21.00	0.95	-15.50	0.95	-15.50	0.02	-21.00
18350	0.02	-42.60	0.95	-15.80	0.95	-15.80	0.02	-42.60
18400	0.03	-28.40	0.95	-16.00	0.95	-16.00	0.03	-28.40
18450	0.04	-14.20	0.95	-16.30	0.95	-16.30	0.04	-14.20
18500	0.04	-17.00	0.95	-16.50	0.95	-16.50	0.04	-17.00
18550	0.04	-19.80	0.95	-16.80	0.95	-16.80	0.04	-19.80
18600	0.05	-7.40	0.95	-16.90	0.95	-16.90	0.05	-7.40
18650	0.06	5.00	0.95	-17.10	0.95	-17.10	0.06	5.00
18700	0.06	-1.80	0.94	-17.60	0.94	-17.60	0.06	-1.80
18750	0.06	-8.60	0.94	-18.10	0.94	-18.10	0.06	-8.60
18800	0.06	-2.00	0.94	-18.30	0.94	-18.30	0.06	-2.00
18850	0.07	4.60	0.93	-18.40	0.93	-18.40	0.07	4.60
18900	0.07	4.70	0.93	-18.80	0.93	-18.80	0.07	4.70
18950	0.08	4.80	0.92	-19.30	0.92	-19.30	0.08	4.80
19000	0.07	5.70	0.91	-19.20	0.91	-19.20	0.07	5.70
19050	0.06	6.60	0.90	-19.10	0.90	-19.10	0.06	6.60
19100	0.08	3.20	0.90	-19.20	0.90	-19.20	0.08	3.20
19150	0.09	-0.10	0.89	-19.20	0.89	-19.20	0.09	-0.10
19200	0.10	-10.30	0.88	-19.00	0.88	-19.00	0.10	-10.30
19250	0.10	-20.50	0.88	-18.80	0.88	-18.80	0.10	-20.50
19300	0.12	-24.00	0.88	-18.50	0.88	-18.50	0.12	-24.00
19350	0.13	-27.50	0.87	-18.20	0.87	-18.20	0.13	-27.50
19400	0.14	-35.10	0.87	-18.00	0.87	-18.00	0.14	-35.10
19450	0.15	-42.70	0.87	-17.90	0.87	-17.90	0.15	-42.70
19500	0.17	-47.00	0.87	-17.10	0.87	-17.10	0.17	-47.00
19550	0.18	-51.40	0.87	-16.30	0.87	-16.30	0.18	-51.40
