#	mhz	s	ma	r	50			
50	0.05	18.80	0.96	0.20	0.96	0.20	0.05	18.80
100	0.06	32.70	0.96	-0.70	0.96	-0.70	0.06	32.70
150	0.07	46.60	0.95	-1.70	0.95	-1.70	0.07	46.60
200	0.09	51.80	0.95	-2.90	0.95	-2.90	0.09	51.80
250	0.10	57.00	0.95	-4.10	0.95	-4.10	0.10	57.00
300	0.12	58.80	0.95	-5.20	0.95	-5.20	0.12	58.80
350	0.13	60.50	0.94	-6.40	0.94	-6.40	0.13	60.50
400	0.15	61.20	0.94	-7.40	0.94	-7.40	0.15	61.20
450	0.17	61.90	0.94	-8.40	0.94	-8.40	0.17	61.90
500	0.20	65.30	0.93	-10.10	0.93	-10.10	0.20	65.30
550	0.23	68.60	0.92	-11.90	0.92	-11.90	0.23	68.60
600	0.24	68.50	0.92	-13.00	0.92	-13.00	0.24	68.50
650	0.26	68.40	0.92	-14.10	0.92	-14.10	0.26	68.40
700	0.28	68.60	0.91	-15.20	0.91	-15.20	0.28	68.60
750	0.29	68.80	0.91	-16.40	0.91	-16.40	0.29	68.80
800	0.31	67.80	0.90	-17.40	0.90	-17.40	0.31	67.80
850	0.32	66.90	0.90	-18.50	0.90	-18.50	0.32	66.90
900	0.34	66.20	0.89	-19.60	0.89	-19.60	0.34	66.20
950	0.36	65.50	0.88	-20.70	0.88	-20.70	0.36	65.50
1000	0.38	64.70	0.88	-21.80	0.88	-21.80	0.38	64.70
1050	0.39	63.90	0.87	-22.90	0.87	-22.90	0.39	63.90
1100	0.41	63.30	0.86	-24.00	0.86	-24.00	0.41	63.30
1150	0.42	62.60	0.86	-25.20	0.86	-25.20	0.42	62.60
1200	0.44	61.80	0.85	-26.10	0.85	-26.10	0.44	61.80
1250	0.46	61.00	0.84	-27.10	0.84	-27.10	0.46	61.00
1300	0.47	60.00	0.83	-28.20	0.83	-28.20	0.47	60.00
1350	0.49	59.00	0.83	-29.30	0.83	-29.30	0.49	59.00
1400	0.50	58.10	0.82	-30.20	0.82	-30.20	0.50	58.10
1450	0.51	57.20	0.81	-31.20	0.81	-31.20	0.51	57.20
1500	0.53	56.10	0.80	-32.30	0.80	-32.30	0.53	56.10
1550	0.54	54.90	0.79	-33.40	0.79	-33.40	0.54	54.90
1600	0.55	53.80	0.78	-34.40	0.78	-34.40	0.55	53.80
1650	0.57	52.70	0.78	-35.40	0.78	-35.40	0.57	52.70
1700	0.58	51.70	0.77	-36.40	0.77	-36.40	0.58	51.70
1750	0.59	50.80	0.76	-37.40	0.76	-37.40	0.59	50.80
1800	0.60	49.70	0.75	-38.30	0.75	-38.30	0.60	49.70
1850	0.62	48.60	0.74	-39.20	0.74	-39.20	0.62	48.60
1900	0.63	47.40	0.73	-40.10	0.73	-40.10	0.63	47.40
1950	0.64	46.20	0.72	-41.00	0.72	-41.00	0.64	46.20
2000	0.65	45.10	0.71	-42.00	0.71	-42.00	0.65	45.10
2050	0.66	43.90	0.70	-43.00	0.70	-43.00	0.66	43.90
2100	0.67	43.10	0.69	-43.80	0.69	-43.80	0.67	43.10
2150	0.68	42.30	0.68	-44.50	0.68	-44.50	0.68	42.30
2200	0.69	41.00	0.67	-45.60	0.67	-45.60	0.69	41.00
2250	0.70	39.60	0.66	-46.70	0.66	-46.70	0.70	39.60
2300	0.71	38.90	0.65	-47.30	0.65	-47.30	0.71	38.90
2350	0.72	38.10	0.64	-48.00	0.64	-48.00	0.72	38.10
2400	0.73	36.90	0.63	-49.00	0.63	-49.00	0.73	36.90
2450	0.74	35.80	0.62	-50.00	0.62	-50.00	0.74	35.80
2500	0.75	34.70	0.61	-51.00	0.61	-51.00	0.75	34.70
2550	0.76	33.70	0.60	-51.90	0.60	-51.90	0.76	33.70
2600	0.77	32.90	0.59	-52.60	0.59	-52.60	0.77	32.90
2650	0.78	32.10	0.58	-53.40	0.58	-53.40	0.78	32.10
2700	0.79	31.20	0.57	-54.30	0.57	-54.30	0.79	31.20
2750	0.80	30.30	0.56	-55.20	0.56	-55.20	0.80	30.30
2800	0.81	29.30	0.55	-55.90	0.55	-55.90	0.81	29.30
2850	0.81	28.30	0.54	-56.60	0.54	-56.60	0.81	28.30
2900	0.82	27.40	0.52	-57.80	0.52	-57.80	0.82	27.40
2950	0.83	26.50	0.51	-58.90	0.51	-58.90	0.83	26.50
3000	0.84	25.70	0.50	-59.70	0.50	-59.70	0.84	25.70
3050	0.85	24.90	0.49	-60.50	0.49	-60.50	0.85	24.90
3100	0.86	23.70	0.47	-61.40	0.47	-61.40	0.86	23.70
3150	0.86	22.40	0.46	-62.30	0.46	-62.30	0.86	22.40
3200	0.87	22.10	0.45	-62.80	0.45	-62.80	0.87	22.10
3250	0.88	21.70	0.44	-63.30	0.44	-63.30	0.88	21.70
3300	0.88	20.80	0.43	-64.30	0.43	-64.30	0.88	20.80
3350	0.89	20.00	0.41	-65.40	0.41	-65.40	0.89	20.00
3400	0.90	19.10	0.40	-65.90	0.40	-65.90	0.90	19.10
3450	0.90	18.30	0.39	-66.40	0.39	-66.40	0.90	18.30
3500	0.90	17.60	0.38	-67.10	0.38	-67.10	0.90	17.60
3550	0.91	16.90	0.37	-67.80	0.37	-67.80	0.91	16.90
3600	0.91	16.20	0.35	-68.70	0.35	-68.70	0.91	16.20
3650	0.92	15.40	0.34	-69.50	0.34	-69.50	0.92	15.40
3700	0.93	14.40	0.33	-70.20	0.33	-70.20	0.93	14.40
3750	0.93	13.40	0.32	-70.90	0.32	-70.90	0.93	13.40
3800	0.94	12.70	0.30	-71.60	0.30	-71.60	0.94	12.70
3850	0.94	11.90	0.29	-72.30	0.29	-72.30	0.94	11.90
3900	0.94	10.90	0.28	-73.30	0.28	-73.30	0.94	10.90
3950	0.95	9.80	0.27	-74.20	0.27	-74.20	0.95	9.80
4000	0.95	8.90	0.25	-74.90	0.25	-74.90	0.95	8.90
4050	0.95	8.00	0.24	-75.50	0.24	-75.50	0.95	8.00
4100	0.95	7.00	0.23	-76.30	0.23	-76.30	0.95	7.00
4150	0.96	6.10	0.22	-77.10	0.22	-77.10	0.96	6.10
4200	0.96	5.10	0.20	-77.40	0.20	-77.40	0.96	5.10
4250	0.97	4.20	0.19	-77.80	0.19	-77.80	0.97	4.20
4300	0.97	3.20	0.18	-78.40	0.18	-78.40	0.97	3.20
4350	0.97	2.20	0.17	-79.00	0.17	-79.00	0.97	2.20
4400	0.97	1.20	0.16	-79.40	0.16	-79.40	0.97	1.20
4450	0.98	0.20	0.15	-79.90	0.15	-79.90	0.98	0.20
4500	0.98	-0.50	0.13	-80.30	0.13	-80.30	0.98	-0.50
4550	0.97	-1.30	0.12	-80.70	0.12	-80.70	0.97	-1.30
4600	0.98	-2.30	0.11	-80.70	0.11	-80.70	0.98	-2.30
4650	0.99	-3.30	0.10	-80.70	0.10	-80.70	0.99	-3.30
4700	0.99	-4.20	0.09	-80.50	0.09	-80.50	0.99	-4.20
4750	0.98	-5.10	0.08	-80.30	0.08	-80.30	0.98	-5.10
4800	0.98	-6.20	0.07	-79.50	0.07	-79.50	0.98	-6.20
4850	0.98	-7.30	0.06	-78.70	0.06	-78.70	0.98	-7.30
4900	0.99	-7.80	0.05	-75.50	0.05	-75.50	0.99	-7.80
4950	0.99	-8.20	0.04	-72.30	0.04	-72.30	0.99	-8.20
5000	1.00	-9.60	0.03	-61.00	0.03	-61.00	1.00	-9.60
5050	1.00	-11.00	0.02	-49.80	0.02	-49.80	1.00	-11.00
5100	0.99	-11.70	0.02	-8.30	0.02	-8.30	0.99	-11.70
5150	0.98	-12.50	0.01	33.10	0.01	33.10	0.98	-12.50
5200	0.98	-12.40	0.02	48.10	0.02	48.10	0.98	-12.40
5250	0.98	-12.40	0.03	63.10	0.03	63.10	0.98	-12.40
5300	0.99	-13.50	0.04	66.10	0.04	66.10	0.99	-13.50
5350	1.01	-14.70	0.05	69.10	0.05	69.10	1.01	-14.70
5400	1.00	-15.30	0.06	70.00	0.06	70.00	1.00	-15.30
5450	0.98	-15.80	0.07	70.90	0.07	70.90	0.98	-15.80
5500	0.99	-16.30	0.08	71.30	0.08	71.30	0.99	-16.30
5550	1.00	-16.80	0.09	71.70	0.09	71.70	1.00	-16.80
5600	0.99	-17.40	0.10	71.50	0.10	71.50	0.99	-17.40
5650	0.98	-18.00	0.11	71.30	0.11	71.30	0.98	-18.00
5700	0.98	-18.40	0.12	71.10	0.12	71.10	0.98	-18.40
5750	0.98	-18.80	0.13	71.00	0.13	71.00	0.98	-18.80
5800	0.98	-19.00	0.13	70.60	0.13	70.60	0.98	-19.00
5850	0.97	-19.20	0.14	70.20	0.14	70.20	0.97	-19.20
5900	0.97	-19.10	0.15	70.10	0.15	70.10	0.97	-19.10
5950	0.97	-18.90	0.16	70.10	0.16	70.10	0.97	-18.90
6000	0.97	-20.20	0.17	69.10	0.17	69.10	0.97	-20.20
6050	0.97	-21.50	0.18	68.20	0.18	68.20	0.97	-21.50
6100	0.97	-21.30	0.19	68.10	0.19	68.10	0.97	-21.30
6150	0.96	-21.20	0.20	68.00	0.20	68.00	0.96	-21.20
6200	0.96	-21.00	0.21	67.40	0.21	67.40	0.96	-21.00
6250	0.96	-20.90	0.22	66.90	0.22	66.90	0.96	-20.90
6300	0.96	-20.90	0.22	66.40	0.22	66.40	0.96	-20.90
6350	0.96	-21.00	0.23	66.00	0.23	66.00	0.96	-21.00
6400	0.96	-20.70	0.24	65.50	0.24	65.50	0.96	-20.70
6450	0.95	-20.40	0.25	65.00	0.25	65.00	0.95	-20.40
6500	0.95	-20.40	0.25	64.50	0.25	64.50	0.95	-20.40
6550	0.95	-20.40	0.26	64.00	0.26	64.00	0.95	-20.40
6600	0.95	-20.30	0.27	63.40	0.27	63.40	0.95	-20.30
6650	0.95	-20.20	0.28	62.80	0.28	62.80	0.95	-20.20
6700	0.94	-19.90	0.28	62.50	0.28	62.50	0.94	-19.90
6750	0.94	-19.60	0.29	62.30	0.29	62.30	0.94	-19.60
6800	0.94	-19.60	0.30	61.90	0.30	61.90	0.94	-19.60
6850	0.94	-19.50	0.31	61.60	0.31	61.60	0.94	-19.50
6900	0.94	-19.80	0.31	60.90	0.31	60.90	0.94	-19.80
6950	0.93	-20.10	0.32	60.30	0.32	60.30	0.93	-20.10
7000	0.93	-19.90	0.32	59.90	0.32	59.90	0.93	-19.90
7050	0.93	-19.60	0.33	59.50	0.33	59.50	0.93	-19.60
7100	0.92	-19.90	0.34	59.10	0.34	59.10	0.92	-19.90
7150	0.91	-20.20	0.34	58.60	0.34	58.60	0.91	-20.20
7200	0.91	-20.00	0.35	58.40	0.35	58.40	0.91	-20.00
7250	0.90	-19.90	0.36	58.20	0.36	58.20	0.90	-19.90
7300	0.91	-20.40	0.37	57.80	0.37	57.80	0.91	-20.40
7350	0.92	-20.90	0.37	57.40	0.37	57.40	0.92	-20.90
7400	0.91	-21.30	0.38	56.80	0.38	56.80	0.91	-21.30
7450	0.89	-21.80	0.38	56.30	0.38	56.30	0.89	-21.80
7500	0.90	-22.40	0.39	55.90	0.39	55.90	0.90	-22.40
7550	0.91	-23.00	0.40	55.60	0.40	55.60	0.91	-23.00
7600	0.90	-23.90	0.41	54.90	0.41	54.90	0.90	-23.90
7650	0.89	-24.90	0.41	54.30	0.41	54.30	0.89	-24.90
7700	0.88	-25.60	0.42	53.90	0.42	53.90	0.88	-25.60
7750	0.88	-26.30	0.42	53.60	0.42	53.60	0.88	-26.30
7800	0.87	-27.00	0.43	53.30	0.43	53.30	0.87	-27.00
7850	0.87	-27.70	0.44	52.90	0.44	52.90	0.87	-27.70
7900	0.87	-29.10	0.44	52.30	0.44	52.30	0.87	-29.10
7950	0.87	-30.50	0.45	51.60	0.45	51.60	0.87	-30.50
8000	0.86	-31.70	0.46	51.00	0.46	51.00	0.86	-31.70
8050	0.85	-32.90	0.46	50.40	0.46	50.40	0.85	-32.90
8100	0.84	-33.70	0.47	50.30	0.47	50.30	0.84	-33.70
8150	0.84	-34.40	0.47	50.20	0.47	50.20	0.84	-34.40
8200	0.83	-35.50	0.48	49.50	0.48	49.50	0.83	-35.50
8250	0.83	-36.60	0.49	48.90	0.49	48.90	0.83	-36.60
8300	0.82	-37.40	0.49	48.70	0.49	48.70	0.82	-37.40
8350	0.82	-38.20	0.50	48.50	0.50	48.50	0.82	-38.20
8400	0.82	-39.20	0.51	47.70	0.51	47.70	0.82	-39.20
8450	0.81	-40.20	0.52	46.90	0.52	46.90	0.81	-40.20
8500	0.81	-40.90	0.52	46.60	0.52	46.60	0.81	-40.90
8550	0.80	-41.60	0.53	46.30	0.53	46.30	0.80	-41.60
8600	0.80	-42.30	0.54	45.50	0.54	45.50	0.80	-42.30
8650	0.80	-43.10	0.54	44.70	0.54	44.70	0.80	-43.10
8700	0.80	-43.60	0.55	44.00	0.55	44.00	0.80	-43.60
8750	0.79	-44.20	0.55	43.40	0.55	43.40	0.79	-44.20
8800	0.78	-44.60	0.55	43.10	0.55	43.10	0.78	-44.60
8850	0.77	-45.10	0.56	42.80	0.56	42.80	0.77	-45.10
8900	0.77	-45.20	0.56	42.30	0.56	42.30	0.77	-45.20
8950	0.77	-45.20	0.57	41.90	0.57	41.90	0.77	-45.20
9000	0.77	-45.60	0.57	41.60	0.57	41.60	0.77	-45.60
9050	0.76	-46.00	0.57	41.40	0.57	41.40	0.76	-46.00
9100	0.76	-46.40	0.57	41.10	0.57	41.10	0.76	-46.40
9150	0.76	-46.90	0.58	40.90	0.58	40.90	0.76	-46.90
9200	0.75	-47.60	0.58	41.00	0.58	41.00	0.75	-47.60
9250	0.74	-48.30	0.59	41.10	0.59	41.10	0.74	-48.30
9300	0.74	-48.30	0.60	40.60	0.60	40.60	0.74	-48.30
9350	0.74	-48.30	0.61	40.10	0.61	40.10	0.74	-48.30
9400	0.73	-48.90	0.61	40.00	0.61	40.00	0.73	-48.90
9450	0.73	-49.40	0.61	39.90	0.61	39.90	0.73	-49.40
9500	0.73	-49.50	0.62	39.30	0.62	39.30	0.73	-49.50
9550	0.72	-49.70	0.63	38.80	0.63	38.80	0.72	-49.70
9600	0.72	-50.00	0.64	38.30	0.64	38.30	0.72	-50.00
9650	0.71	-50.40	0.64	37.70	0.64	37.70	0.71	-50.40
9700	0.71	-50.80	0.65	37.50	0.65	37.50	0.71	-50.80
9750	0.70	-51.20	0.65	37.20	0.65	37.20	0.70	-51.20
9800	0.70	-51.20	0.66	36.60	0.66	36.60	0.70	-51.20
9850	0.69	-51.30	0.67	36.00	0.67	36.00	0.69	-51.30
9900	0.69	-51.30	0.67	35.70	0.67	35.70	0.69	-51.30
9950	0.68	-51.40	0.67	35.40	0.67	35.40	0.68	-51.40
10000	0.68	-51.80	0.68	35.20	0.68	35.20	0.68	-51.80
10050	0.67	-52.20	0.69	34.90	0.69	34.90	0.67	-52.20
10100	0.66	-52.20	0.69	34.40	0.69	34.40	0.66	-52.20
10150	0.66	-52.10	0.69	33.90	0.69	33.90	0.66	-52.10
10200	0.65	-52.40	0.70	33.60	0.70	33.60	0.65	-52.40
10250	0.64	-52.60	0.70	33.40	0.70	33.40	0.64	-52.60
10300	0.64	-53.00	0.70	33.10	0.70	33.10	0.64	-53.00
10350	0.64	-53.40	0.71	32.90	0.71	32.90	0.64	-53.40
10400	0.63	-54.30	0.72	32.30	0.72	32.30	0.63	-54.30
10450	0.62	-55.20	0.73	31.60	0.73	31.60	0.62	-55.20
10500	0.62	-55.30	0.73	31.40	0.73	31.40	0.62	-55.30
10550	0.62	-55.40	0.73	31.30	0.73	31.30	0.62	-55.40
10600	0.61	-56.70	0.74	30.50	0.74	30.50	0.61	-56.70
10650	0.60	-58.00	0.75	29.70	0.75	29.70	0.60	-58.00
10700	0.60	-57.90	0.75	29.50	0.75	29.50	0.60	-57.90
10750	0.60	-57.80	0.75	29.30	0.75	29.30	0.60	-57.80
10800	0.59	-58.80	0.75	29.00	0.75	29.00	0.59	-58.80
10850	0.59	-59.70	0.76	28.60	0.76	28.60	0.59	-59.70
10900	0.58	-60.80	0.76	27.80	0.76	27.80	0.58	-60.80
10950	0.57	-61.90	0.77	27.10	0.77	27.10	0.57	-61.90
11000	0.56	-62.30	0.76	26.80	0.76	26.80	0.56	-62.30
11050	0.55	-62.60	0.76	26.60	0.76	26.60	0.55	-62.60
11100	0.56	-63.50	0.77	26.10	0.77	26.10	0.56	-63.50
11150	0.57	-64.40	0.78	25.70	0.78	25.70	0.57	-64.40
11200	0.56	-64.30	0.77	25.30	0.77	25.30	0.56	-64.30
11250	0.55	-64.30	0.77	24.90	0.77	24.90	0.55	-64.30
11300	0.55	-65.20	0.77	24.40	0.77	24.40	0.55	-65.20
11350	0.55	-66.00	0.78	23.80	0.78	23.80	0.55	-66.00
11400	0.55	-65.40	0.78	23.90	0.78	23.90	0.55	-65.40
11450	0.54	-64.70	0.78	23.90	0.78	23.90	0.54	-64.70
11500	0.54	-65.80	0.78	23.30	0.78	23.30	0.54	-65.80
11550	0.53	-66.90	0.79	22.60	0.79	22.60	0.53	-66.90
11600	0.53	-66.80	0.79	22.40	0.79	22.40	0.53	-66.80
11650	0.52	-66.70	0.79	22.30	0.79	22.30	0.52	-66.70
11700	0.51	-66.70	0.79	22.00	0.79	22.00	0.51	-66.70
11750	0.50	-66.70	0.80	21.70	0.80	21.70	0.50	-66.70
11800	0.50	-66.50	0.80	21.40	0.80	21.40	0.50	-66.50
11850	0.50	-66.30	0.80	21.10	0.80	21.10	0.50	-66.30
11900	0.49	-66.60	0.81	20.80	0.81	20.80	0.49	-66.60
11950	0.48	-66.90	0.81	20.60	0.81	20.60	0.48	-66.90
12000	0.48	-68.00	0.81	19.70	0.81	19.70	0.48	-68.00
12050	0.49	-69.20	0.82	18.80	0.82	18.80	0.49	-69.20
12100	0.48	-69.70	0.81	18.50	0.81	18.50	0.48	-69.70
12150	0.47	-70.30	0.81	18.20	0.81	18.20	0.47	-70.30
12200	0.47	-70.80	0.81	17.80	0.81	17.80	0.47	-70.80
12250	0.47	-71.30	0.82	17.40	0.82	17.40	0.47	-71.30
12300	0.46	-71.10	0.82	17.00	0.82	17.00	0.46	-71.10
12350	0.46	-70.90	0.82	16.70	0.82	16.70	0.46	-70.90
12400	0.46	-71.50	0.82	16.40	0.82	16.40	0.46	-71.50
12450	0.46	-72.10	0.81	16.10	0.81	16.10	0.46	-72.10
12500	0.46	-71.50	0.82	15.80	0.82	15.80	0.46	-71.50
12550	0.46	-70.80	0.82	15.60	0.82	15.60	0.46	-70.80
12600	0.46	-70.70	0.82	15.40	0.82	15.40	0.46	-70.70
12650	0.46	-70.60	0.82	15.30	0.82	15.30	0.46	-70.60
12700	0.46	-69.80	0.82	15.00	0.82	15.00	0.46	-69.80
12750	0.46	-68.90	0.82	14.60	0.82	14.60	0.46	-68.90
12800	0.46	-68.40	0.83	14.60	0.83	14.60	0.46	-68.40
12850	0.46	-67.80	0.83	14.50	0.83	14.50	0.46	-67.80
12900	0.46	-67.20	0.83	14.10	0.83	14.10	0.46	-67.20
12950	0.46	-66.60	0.83	13.70	0.83	13.70	0.46	-66.60
13000	0.46	-66.20	0.84	13.60	0.84	13.60	0.46	-66.20
13050	0.45	-65.80	0.84	13.60	0.84	13.60	0.45	-65.80
13100	0.45	-65.40	0.84	13.10	0.84	13.10	0.45	-65.40
13150	0.44	-64.90	0.84	12.70	0.84	12.70	0.44	-64.90
13200	0.44	-65.00	0.84	12.60	0.84	12.60	0.44	-65.00
13250	0.43	-65.00	0.85	12.50	0.85	12.50	0.43	-65.00
13300	0.41	-63.30	0.85	12.00	0.85	12.00	0.41	-63.30
13350	0.40	-61.50	0.85	11.50	0.85	11.50	0.40	-61.50
13400	0.40	-63.20	0.85	10.90	0.85	10.90	0.40	-63.20
13450	0.41	-65.00	0.85	10.40	0.85	10.40	0.41	-65.00
13500	0.40	-65.10	0.85	10.10	0.85	10.10	0.40	-65.10
13550	0.39	-65.20	0.85	9.90	0.85	9.90	0.39	-65.20
13600	0.39	-65.90	0.85	9.50	0.85	9.50	0.39	-65.90
13650	0.38	-66.60	0.85	9.00	0.85	9.00	0.38	-66.60
13700	0.38	-66.90	0.86	8.70	0.86	8.70	0.38	-66.90
13750	0.38	-67.20	0.86	8.30	0.86	8.30	0.38	-67.20
13800	0.37	-67.60	0.86	8.00	0.86	8.00	0.37	-67.60
13850	0.37	-68.00	0.86	7.70	0.86	7.70	0.37	-68.00
13900	0.37	-68.20	0.86	7.30	0.86	7.30	0.37	-68.20
13950	0.37	-68.40	0.86	7.00	0.86	7.00	0.37	-68.40
14000	0.37	-68.10	0.87	6.60	0.87	6.60	0.37	-68.10
14050	0.36	-67.90	0.87	6.20	0.87	6.20	0.36	-67.90
14100	0.36	-68.30	0.87	5.80	0.87	5.80	0.36	-68.30
14150	0.36	-68.70	0.87	5.30	0.87	5.30	0.36	-68.70
14200	0.36	-68.00	0.87	4.90	0.87	4.90	0.36	-68.00
14250	0.35	-67.40	0.87	4.40	0.87	4.40	0.35	-67.40
14300	0.35	-67.40	0.88	4.10	0.88	4.10	0.35	-67.40
14350	0.34	-67.50	0.88	3.80	0.88	3.80	0.34	-67.50
14400	0.34	-67.00	0.88	3.20	0.88	3.20	0.34	-67.00
14450	0.34	-66.60	0.88	2.60	0.88	2.60	0.34	-66.60
14500	0.33	-65.90	0.88	2.40	0.88	2.40	0.33	-65.90
14550	0.33	-65.20	0.88	2.20	0.88	2.20	0.33	-65.20
14600	0.32	-64.40	0.89	1.60	0.89	1.60	0.32	-64.40
14650	0.31	-63.70	0.89	1.00	0.89	1.00	0.31	-63.70
14700	0.31	-63.70	0.89	0.60	0.89	0.60	0.31	-63.70
14750	0.30	-63.70	0.89	0.10	0.89	0.10	0.30	-63.70
14800	0.29	-62.60	0.89	-0.50	0.89	-0.50	0.29	-62.60
14850	0.28	-61.50	0.89	-1.00	0.89	-1.00	0.28	-61.50
14900	0.28	-61.10	0.90	-1.40	0.90	-1.40	0.28	-61.10
14950	0.27	-60.80	0.90	-1.80	0.90	-1.80	0.27	-60.80
15000	0.27	-60.30	0.90	-2.40	0.90	-2.40	0.27	-60.30
15050	0.26	-59.90	0.90	-3.00	0.90	-3.00	0.26	-59.90
15100	0.25	-58.50	0.90	-3.30	0.90	-3.30	0.25	-58.50
15150	0.25	-57.10	0.91	-3.70	0.91	-3.70	0.25	-57.10
15200	0.25	-56.40	0.91	-4.00	0.91	-4.00	0.25	-56.40
15250	0.24	-55.60	0.92	-4.40	0.92	-4.40	0.24	-55.60
15300	0.24	-54.10	0.91	-5.20	0.91	-5.20	0.24	-54.10
15350	0.24	-52.60	0.91	-6.00	0.91	-6.00	0.24	-52.60
15400	0.23	-50.60	0.91	-6.30	0.91	-6.30	0.23	-50.60
15450	0.23	-48.50	0.91	-6.70	0.91	-6.70	0.23	-48.50
15500	0.23	-45.70	0.91	-7.30	0.91	-7.30	0.23	-45.70
15550	0.23	-42.90	0.91	-8.00	0.91	-8.00	0.23	-42.90
15600	0.23	-40.50	0.91	-8.40	0.91	-8.40	0.23	-40.50
15650	0.23	-38.00	0.91	-8.90	0.91	-8.90	0.23	-38.00
15700	0.23	-34.60	0.91	-9.50	0.91	-9.50	0.23	-34.60
15750	0.23	-31.10	0.91	-10.20	0.91	-10.20	0.23	-31.10
15800	0.22	-27.60	0.91	-10.60	0.91	-10.60	0.22	-27.60
15850	0.22	-24.10	0.91	-11.00	0.91	-11.00	0.22	-24.10
15900	0.22	-21.20	0.90	-11.60	0.90	-11.60	0.22	-21.20
15950	0.23	-18.30	0.90	-12.20	0.90	-12.20	0.23	-18.30
16000	0.23	-13.60	0.90	-12.60	0.90	-12.60	0.23	-13.60
16050	0.23	-8.90	0.90	-13.00	0.90	-13.00	0.23	-8.90
16100	0.23	-5.90	0.90	-13.70	0.90	-13.70	0.23	-5.90
16150	0.23	-3.00	0.90	-14.50	0.90	-14.50	0.23	-3.00
16200	0.23	0.40	0.90	-14.90	0.90	-14.90	0.23	0.40
16250	0.23	3.80	0.89	-15.40	0.89	-15.40	0.23	3.80
16300	0.23	6.10	0.90	-16.00	0.90	-16.00	0.23	6.10
16350	0.22	8.40	0.90	-16.60	0.90	-16.60	0.22	8.40
16400	0.23	11.70	0.89	-17.30	0.89	-17.30	0.23	11.70
16450	0.23	15.00	0.89	-17.90	0.89	-17.90	0.23	15.00
16500	0.22	15.40	0.89	-18.30	0.89	-18.30	0.22	15.40
16550	0.22	15.80	0.88	-18.80	0.88	-18.80	0.22	15.80
16600	0.23	18.20	0.88	-19.50	0.88	-19.50	0.23	18.20
16650	0.23	20.60	0.89	-20.30	0.89	-20.30	0.23	20.60
16700	0.24	21.50	0.89	-21.00	0.89	-21.00	0.24	21.50
16750	0.24	22.40	0.88	-21.70	0.88	-21.70	0.24	22.40
16800	0.25	23.10	0.88	-22.50	0.88	-22.50	0.25	23.10
16850	0.26	23.80	0.88	-23.30	0.88	-23.30	0.26	23.80
16900	0.27	24.60	0.87	-24.10	0.87	-24.10	0.27	24.60
16950	0.28	25.40	0.87	-24.90	0.87	-24.90	0.28	25.40
17000	0.29	26.10	0.86	-25.80	0.86	-25.80	0.29	26.10
17050	0.30	26.70	0.86	-26.80	0.86	-26.80	0.30	26.70
17100	0.32	26.90	0.85	-27.80	0.85	-27.80	0.32	26.90
17150	0.34	27.10	0.84	-28.80	0.84	-28.80	0.34	27.10
17200	0.35	28.00	0.83	-29.60	0.83	-29.60	0.35	28.00
17250	0.37	28.90	0.82	-30.40	0.82	-30.40	0.37	28.90
17300	0.38	29.20	0.81	-31.50	0.81	-31.50	0.38	29.20
17350	0.40	29.60	0.81	-32.50	0.81	-32.50	0.40	29.60
17400	0.42	29.90	0.79	-33.40	0.79	-33.40	0.42	29.90
17450	0.44	30.10	0.78	-34.20	0.78	-34.20	0.44	30.10
17500	0.46	29.80	0.77	-35.40	0.77	-35.40	0.46	29.80
17550	0.48	29.50	0.76	-36.60	0.76	-36.60	0.48	29.50
17600	0.49	29.60	0.75	-37.90	0.75	-37.90	0.49	29.60
17650	0.51	29.60	0.73	-39.20	0.73	-39.20	0.51	29.60
17700	0.52	29.00	0.72	-40.30	0.72	-40.30	0.52	29.00
17750	0.54	28.40	0.71	-41.40	0.71	-41.40	0.54	28.40
17800	0.55	26.70	0.69	-43.00	0.69	-43.00	0.55	26.70
17850	0.57	25.00	0.68	-44.70	0.68	-44.70	0.57	25.00
17900	0.58	24.20	0.65	-46.10	0.65	-46.10	0.58	24.20
17950	0.59	23.30	0.63	-47.40	0.63	-47.40	0.59	23.30
18000	0.61	21.20	0.61	-48.90	0.61	-48.90	0.61	21.20
18050	0.62	19.00	0.58	-50.40	0.58	-50.40	0.62	19.00
18100	0.63	16.50	0.56	-51.80	0.56	-51.80	0.63	16.50
18150	0.64	14.00	0.53	-53.30	0.53	-53.30	0.64	14.00
18200	0.66	11.80	0.50	-54.40	0.50	-54.40	0.66	11.80
18250	0.68	9.70	0.47	-55.50	0.47	-55.50	0.68	9.70
18300	0.70	6.60	0.44	-56.20	0.44	-56.20	0.70	6.60
18350	0.73	3.40	0.41	-56.80	0.41	-56.80	0.73	3.40
18400	0.74	1.30	0.37	-56.80	0.37	-56.80	0.74	1.30
18450	0.75	-0.90	0.34	-56.90	0.34	-56.90	0.75	-0.90
18500	0.78	-2.40	0.31	-55.10	0.31	-55.10	0.78	-2.40
18550	0.81	-3.90	0.28	-53.40	0.28	-53.40	0.81	-3.90
18600	0.82	-6.20	0.25	-50.20	0.25	-50.20	0.82	-6.20
18650	0.84	-8.60	0.22	-47.00	0.22	-47.00	0.84	-8.60
18700	0.84	-11.50	0.20	-40.60	0.20	-40.60	0.84	-11.50
18750	0.84	-14.40	0.18	-34.10	0.18	-34.10	0.84	-14.40
18800	0.85	-16.40	0.17	-23.30	0.17	-23.30	0.85	-16.40
18850	0.85	-18.40	0.16	-12.50	0.16	-12.50	0.85	-18.40
18900	0.85	-21.20	0.17	-2.70	0.17	-2.70	0.85	-21.20
18950	0.85	-23.90	0.17	7.10	0.17	7.10	0.85	-23.90
19000	0.82	-26.60	0.19	14.40	0.19	14.40	0.82	-26.60
19050	0.80	-29.30	0.22	21.70	0.22	21.70	0.80	-29.30
19100	0.80	-31.40	0.24	25.20	0.24	25.20	0.80	-31.40
19150	0.79	-33.60	0.27	28.70	0.27	28.70	0.79	-33.60
19200	0.78	-36.80	0.30	29.30	0.30	29.30	0.78	-36.80
19250	0.77	-40.00	0.33	29.80	0.33	29.80	0.77	-40.00
19300	0.77	-41.80	0.36	29.80	0.36	29.80	0.77	-41.80
19350	0.77	-43.70	0.38	29.80	0.38	29.80	0.77	-43.70
19400	0.77	-46.50	0.41	28.70	0.41	28.70	0.77	-46.50
19450	0.76	-49.40	0.43	27.50	0.43	27.50	0.76	-49.40
19500	0.76	-51.00	0.45	27.50	0.45	27.50	0.76	-51.00
