# MHZ S MA R 50

      50  0.02   72.40    1.00   -0.30    1.00   -0.30    0.02   72.40
     100  0.04   75.90    1.00   -1.40    1.00   -1.40    0.04   75.90
     150  0.06   79.40    0.99   -2.40    0.99   -2.40    0.06   79.40
     200  0.08   79.50    0.99   -3.70    0.99   -3.70    0.08   79.50
     250  0.10   79.50    0.99   -5.00    0.99   -5.00    0.10   79.50
     300  0.12   78.70    0.99   -6.30    0.99   -6.30    0.12   78.70
     350  0.14   77.90    0.98   -7.60    0.98   -7.60    0.14   77.90
     400  0.16   76.20    0.98   -8.70    0.98   -8.70    0.16   76.20
     450  0.18   74.40    0.98   -9.90    0.98   -9.90    0.18   74.40
     500  0.21   76.50    0.97   -11.90   0.97   -11.90   0.21   76.50
     550  0.25   78.60    0.96   -13.90   0.96   -13.90   0.25   78.60
     600  0.26   77.70    0.96   -15.10   0.96   -15.10   0.26   77.70
     650  0.28   76.80    0.95   -16.40   0.95   -16.40   0.28   76.80
     700  0.30   76.10    0.95   -17.70   0.95   -17.70   0.30   76.10
     750  0.32   75.40    0.94   -19.00   0.94   -19.00   0.32   75.40
     800  0.34   73.70    0.94   -20.20   0.94   -20.20   0.34   73.70
     850  0.35   72.10    0.93   -21.40   0.93   -21.40   0.35   72.10
     900  0.38   70.80    0.92   -22.70   0.92   -22.70   0.38   70.80
     950  0.40   69.60    0.91   -23.90   0.91   -23.90   0.40   69.60
    1000  0.41   68.40    0.90   -25.20   0.90   -25.20   0.41   68.40
    1050  0.43   67.10    0.89   -26.40   0.89   -26.40   0.43   67.10
    1100  0.45   66.00    0.88   -27.70   0.88   -27.70   0.45   66.00
    1150  0.47   64.80    0.88   -29.00   0.88   -29.00   0.47   64.80
    1200  0.49   63.70    0.87   -30.10   0.87   -30.10   0.49   63.70
    1250  0.50   62.50    0.86   -31.20   0.86   -31.20   0.50   62.50
    1300  0.52   61.10    0.85   -32.50   0.85   -32.50   0.52   61.10
    1350  0.54   59.70    0.84   -33.80   0.84   -33.80   0.54   59.70
    1400  0.55   58.40    0.83   -34.80   0.83   -34.80   0.55   58.40
    1450  0.56   57.10    0.81   -35.90   0.81   -35.90   0.56   57.10
    1500  0.58   55.70    0.80   -37.10   0.80   -37.10   0.58   55.70
    1550  0.60   54.30    0.79   -38.40   0.79   -38.40   0.60   54.30
    1600  0.61   52.70    0.78   -39.50   0.78   -39.50   0.61   52.70
    1650  0.63   51.20    0.77   -40.60   0.77   -40.60   0.63   51.20
    1700  0.64   50.10    0.76   -41.80   0.76   -41.80   0.64   50.10
    1750  0.65   48.90    0.75   -42.90   0.75   -42.90   0.65   48.90
    1800  0.66   47.50    0.74   -43.90   0.74   -43.90   0.66   47.50
    1850  0.68   46.10    0.73   -44.80   0.73   -44.80   0.68   46.10
    1900  0.69   44.60    0.72   -45.90   0.72   -45.90   0.69   44.60
    1950  0.69   43.10    0.70   -46.90   0.70   -46.90   0.69   43.10
    2000  0.71   41.60    0.69   -48.00   0.69   -48.00   0.71   41.60
    2050  0.72   40.10    0.68   -49.10   0.68   -49.10   0.72   40.10
    2100  0.73   39.10    0.67   -50.00   0.67   -50.00   0.73   39.10
    2150  0.74   38.10    0.66   -50.90   0.66   -50.90   0.74   38.10
    2200  0.75   36.60    0.64   -52.10   0.64   -52.10   0.75   36.60
    2250  0.76   35.10    0.63   -53.20   0.63   -53.20   0.76   35.10
    2300  0.77   34.10    0.62   -54.00   0.62   -54.00   0.77   34.10
    2350  0.78   33.10    0.60   -54.70   0.60   -54.70   0.78   33.10
    2400  0.79   31.80    0.59   -55.90   0.59   -55.90   0.79   31.80
    2450  0.80   30.50    0.58   -57.00   0.58   -57.00   0.80   30.50
    2500  0.81   29.20    0.57   -58.20   0.57   -58.20   0.81   29.20
    2550  0.82   27.90    0.55   -59.30   0.55   -59.30   0.82   27.90
    2600  0.83   27.00    0.54   -60.20   0.54   -60.20   0.83   27.00
    2650  0.84   26.10    0.52   -61.00   0.52   -61.00   0.84   26.10
    2700  0.85   25.00    0.51   -62.10   0.51   -62.10   0.85   25.00
    2750  0.86   23.90    0.50   -63.20   0.50   -63.20   0.86   23.90
    2800  0.86   22.70    0.48   -64.00   0.48   -64.00   0.86   22.70
    2850  0.87   21.50    0.47   -64.90   0.47   -64.90   0.87   21.50
    2900  0.88   20.50    0.46   -66.20   0.46   -66.20   0.88   20.50
    2950  0.89   19.60    0.44   -67.50   0.44   -67.50   0.89   19.60
    3000  0.90   18.40    0.43   -68.40   0.43   -68.40   0.90   18.40
    3050  0.91   17.30    0.41   -69.40   0.41   -69.40   0.91   17.30
    3100  0.91   16.00    0.39   -70.40   0.39   -70.40   0.91   16.00
    3150  0.91   14.70    0.38   -71.40   0.38   -71.40   0.91   14.70
    3200  0.92   14.10    0.36   -72.10   0.36   -72.10   0.92   14.10
    3250  0.93   13.50    0.35   -72.80   0.35   -72.80   0.93   13.50
    3300  0.94   12.40    0.34   -73.90   0.34   -73.90   0.94   12.40
    3350  0.94   11.30    0.32   -75.00   0.32   -75.00   0.94   11.30
    3400  0.94   10.30    0.31   -75.60   0.31   -75.60   0.94   10.30
    3450  0.95    9.40    0.29   -76.20   0.29   -76.20   0.95    9.40
    3500  0.95    8.40    0.28   -77.00   0.28   -77.00   0.95    8.40
    3550  0.95    7.30    0.26   -77.70   0.26   -77.70   0.95    7.30
    3600  0.96    6.50    0.25   -78.50   0.25   -78.50   0.96    6.50
    3650  0.96    5.70    0.23   -79.30   0.23   -79.30   0.96    5.70
    3700  0.97    4.60    0.22   -80.00   0.22   -80.00   0.97    4.60
    3750  0.97    3.40    0.20   -80.60   0.20   -80.60   0.97    3.40
    3800  0.97    2.60    0.19   -81.20   0.19   -81.20   0.97    2.60
    3850  0.97    1.70    0.17   -81.70   0.17   -81.70   0.97    1.70
    3900  0.98    0.50    0.16   -82.50   0.16   -82.50   0.98    0.50
    3950  0.98   -0.70    0.15   -83.40   0.15   -83.40   0.98   -0.70
    4000  0.98   -1.70    0.13   -83.60   0.13   -83.60   0.98   -1.70
    4050  0.98   -2.80    0.12   -83.90   0.12   -83.90   0.98   -2.80
    4100  0.98   -3.80    0.10   -84.00   0.10   -84.00   0.98   -3.80
    4150  0.98   -4.90    0.09   -84.10   0.09   -84.10   0.98   -4.90
    4200  0.99   -5.90    0.08   -83.30   0.08   -83.30   0.99   -5.90
    4250  0.99   -7.00    0.06   -82.50   0.06   -82.50   0.99   -7.00
    4300  0.99   -8.10    0.05   -79.90   0.05   -79.90   0.99   -8.10
    4350  0.99   -9.20    0.04   -77.40   0.04   -77.40   0.99   -9.20
    4400  0.99   -10.30   0.03   -62.20   0.03   -62.20   0.99   -10.30
    4450  0.99   -11.40   0.01   -46.90   0.01   -46.90   0.99   -11.40
    4500  0.99   -12.30   0.02    2.00    0.02    2.00    0.99   -12.30
    4550  0.98   -13.10   0.02   50.90    0.02   50.90    0.98   -13.10
    4600  0.99   -14.30   0.03   59.10    0.03   59.10    0.99   -14.30
    4650  1.00   -15.60   0.04   67.30    0.04   67.30    1.00   -15.60
    4700  0.99   -16.60   0.06   69.00    0.06   69.00    0.99   -16.60
    4750  0.99   -17.70   0.07   70.70    0.07   70.70    0.99   -17.70
    4800  0.98   -18.90   0.08   70.90    0.08   70.90    0.98   -18.90
    4850  0.98   -20.20   0.09   71.10    0.09   71.10    0.98   -20.20
    4900  0.98   -20.70   0.10   71.30    0.10   71.30    0.98   -20.70
    4950  0.99   -21.30   0.12   71.50    0.12   71.50    0.99   -21.30
    5000  0.99   -22.80   0.13   70.60    0.13   70.60    0.99   -22.80
    5050  0.99   -24.30   0.14   69.70    0.14   69.70    0.99   -24.30
    5100  0.98   -25.00   0.15   69.30    0.15   69.30    0.98   -25.00
    5150  0.96   -25.60   0.16   68.80    0.16   68.80    0.96   -25.60
    5200  0.96   -25.70   0.17   68.80    0.17   68.80    0.96   -25.70
    5250  0.96   -25.70   0.18   68.80    0.18   68.80    0.96   -25.70
    5300  0.97   -27.00   0.20   67.80    0.20   67.80    0.97   -27.00
    5350  0.99   -28.20   0.21   66.70    0.21   66.70    0.99   -28.20
    5400  0.97   -28.80   0.22   66.00    0.22   66.00    0.97   -28.80
    5450  0.96   -29.40   0.23   65.30    0.23   65.30    0.96   -29.40
    5500  0.96   -29.90   0.24   64.60    0.24   64.60    0.96   -29.90
    5550  0.96   -30.50   0.25   64.00    0.25   64.00    0.96   -30.50
    5600  0.96   -31.20   0.26   63.20    0.26   63.20    0.96   -31.20
    5650  0.95   -32.00   0.27   62.40    0.27   62.40    0.95   -32.00
    5700  0.94   -32.40   0.28   61.80    0.28   61.80    0.94   -32.40
    5750  0.94   -32.80   0.29   61.20    0.29   61.20    0.94   -32.80
    5800  0.94   -33.10   0.30   60.60    0.30   60.60    0.94   -33.10
    5850  0.94   -33.50   0.30   59.90    0.30   59.90    0.94   -33.50
    5900  0.93   -33.60   0.31   59.50    0.31   59.50    0.93   -33.60
    5950  0.93   -33.70   0.32   59.20    0.32   59.20    0.93   -33.70
    6000  0.92   -35.20   0.34   57.90    0.34   57.90    0.92   -35.20
    6050  0.92   -36.70   0.35   56.60    0.35   56.60    0.92   -36.70
    6100  0.92   -36.80   0.36   56.30    0.36   56.30    0.92   -36.80
    6150  0.92   -36.90   0.37   56.00    0.37   56.00    0.92   -36.90
    6200  0.91   -36.80   0.38   55.30    0.38   55.30    0.91   -36.80
    6250  0.91   -36.70   0.38   54.50    0.38   54.50    0.91   -36.70
    6300  0.91   -36.90   0.39   53.90    0.39   53.90    0.91   -36.90
    6350  0.91   -37.20   0.40   53.40    0.40   53.40    0.91   -37.20
    6400  0.90   -37.00   0.41   52.80    0.41   52.80    0.90   -37.00
    6450  0.89   -36.70   0.41   52.20    0.41   52.20    0.89   -36.70
    6500  0.89   -36.70   0.42   51.60    0.42   51.60    0.89   -36.70
    6550  0.89   -36.70   0.43   51.00    0.43   51.00    0.89   -36.70
    6600  0.88   -36.60   0.44   50.40    0.44   50.40    0.88   -36.60
    6650  0.88   -36.50   0.44   49.80    0.44   49.80    0.88   -36.50
    6700  0.87   -36.30   0.45   49.40    0.45   49.40    0.87   -36.30
    6750  0.87   -36.00   0.46   49.10    0.46   49.10    0.87   -36.00
    6800  0.87   -35.90   0.47   48.70    0.47   48.70    0.87   -35.90
    6850  0.87   -35.80   0.48   48.20    0.48   48.20    0.87   -35.80
    6900  0.86   -36.10   0.48   47.60    0.48   47.60    0.86   -36.10
    6950  0.86   -36.50   0.49   46.90    0.49   46.90    0.86   -36.50
    7000  0.85   -36.50   0.50   46.40    0.50   46.40    0.85   -36.50
    7050  0.84   -36.50   0.50   45.90    0.50   45.90    0.84   -36.50
    7100  0.83   -36.70   0.51   45.50    0.51   45.50    0.83   -36.70
    7150  0.83   -36.80   0.52   45.00    0.52   45.00    0.83   -36.80
    7200  0.82   -37.20   0.52   44.60    0.52   44.60    0.82   -37.20
    7250  0.81   -37.70   0.53   44.30    0.53   44.30    0.81   -37.70
    7300  0.82   -38.20   0.54   43.70    0.54   43.70    0.82   -38.20
    7350  0.82   -38.80   0.55   43.10    0.55   43.10    0.82   -38.80
    7400  0.81   -39.70   0.56   42.60    0.56   42.60    0.81   -39.70
    7450  0.80   -40.70   0.56   42.00    0.56   42.00    0.80   -40.70
    7500  0.80   -41.40   0.57   41.50    0.57   41.50    0.80   -41.40
    7550  0.79   -42.10   0.58   41.00    0.58   41.00    0.79   -42.10
    7600  0.79   -43.20   0.59   40.30    0.59   40.30    0.79   -43.20
    7650  0.79   -44.40   0.59   39.60    0.59   39.60    0.79   -44.40
    7700  0.77   -45.30   0.60   39.20    0.60   39.20    0.77   -45.30
    7750  0.76   -46.20   0.61   38.80    0.61   38.80    0.76   -46.20
    7800  0.76   -46.80   0.61   38.40    0.61   38.40    0.76   -46.80
    7850  0.75   -47.50   0.62   37.90    0.62   37.90    0.75   -47.50
    7900  0.75   -49.10   0.63   37.20    0.63   37.20    0.75   -49.10
    7950  0.75   -50.80   0.64   36.50    0.64   36.50    0.75   -50.80
    8000  0.73   -51.70   0.64   35.80    0.64   35.80    0.73   -51.70
    8050  0.72   -52.50   0.65   35.20    0.65   35.20    0.72   -52.50
    8100  0.71   -53.50   0.66   34.90    0.66   34.90    0.71   -53.50
    8150  0.71   -54.50   0.66   34.70    0.66   34.70    0.71   -54.50
    8200  0.70   -55.60   0.67   33.90    0.67   33.90    0.70   -55.60
    8250  0.69   -56.60   0.68   33.00    0.68   33.00    0.69   -56.60
    8300  0.68   -57.40   0.69   32.70    0.69   32.70    0.68   -57.40
    8350  0.68   -58.10   0.70   32.30    0.70   32.30    0.68   -58.10
    8400  0.67   -59.30   0.70   31.30    0.70   31.30    0.67   -59.30
    8450  0.66   -60.40   0.71   30.40    0.71   30.40    0.66   -60.40
    8500  0.65   -61.10   0.72   29.80    0.72   29.80    0.65   -61.10
    8550  0.64   -61.80   0.73   29.30    0.73   29.30    0.64   -61.80
    8600  0.64   -62.50   0.74   28.30    0.74   28.30    0.64   -62.50
    8650  0.63   -63.30   0.74   27.40    0.74   27.40    0.63   -63.30
    8700  0.63   -63.80   0.75   26.60    0.75   26.60    0.63   -63.80
    8750  0.62   -64.40   0.75   25.80    0.75   25.80    0.62   -64.40
    8800  0.61   -64.70   0.75   25.50    0.75   25.50    0.61   -64.70
    8850  0.60   -65.10   0.75   25.10    0.75   25.10    0.60   -65.10
    8900  0.60   -65.20   0.75   24.40    0.75   24.40    0.60   -65.20
    8950  0.59   -65.40   0.76   23.70    0.76   23.70    0.59   -65.40
    9000  0.59   -66.00   0.76   23.30    0.76   23.30    0.59   -66.00
    9050  0.58   -66.60   0.76   22.90    0.76   22.90    0.58   -66.60
    9100  0.58   -67.10   0.77   22.50    0.77   22.50    0.58   -67.10
    9150  0.57   -67.50   0.77   22.10    0.77   22.10    0.57   -67.50
    9200  0.57   -68.50   0.78   21.90    0.78   21.90    0.57   -68.50
    9250  0.56   -69.50   0.78   21.70    0.78   21.70    0.56   -69.50
    9300  0.56   -69.70   0.79   21.10    0.79   21.10    0.56   -69.70
    9350  0.55   -70.00   0.80   20.50    0.80   20.50    0.55   -70.00
    9400  0.55   -70.40   0.80   20.30    0.80   20.30    0.55   -70.40
    9450  0.54   -70.90   0.80   20.10    0.80   20.10    0.54   -70.90
    9500  0.53   -71.40   0.81   19.40    0.81   19.40    0.53   -71.40
    9550  0.52   -72.00   0.82   18.70    0.82   18.70    0.52   -72.00
    9600  0.52   -72.50   0.82   18.20    0.82   18.20    0.52   -72.50
    9650  0.51   -73.00   0.83   17.60    0.83   17.60    0.51   -73.00
    9700  0.50   -73.60   0.83   17.30    0.83   17.30    0.50   -73.60
    9750  0.50   -74.10   0.84   16.90    0.84   16.90    0.50   -74.10
    9800  0.48   -74.90   0.84   16.20    0.84   16.20    0.48   -74.90
    9850  0.47   -75.60   0.85   15.60    0.85   15.60    0.47   -75.60
    9900  0.46   -75.50   0.85   15.30    0.85   15.30    0.46   -75.50
    9950  0.45   -75.30   0.85   15.00    0.85   15.00    0.45   -75.30
   10000  0.44   -77.20   0.86   14.50    0.86   14.50    0.44   -77.20
   10050  0.44   -79.10   0.87   14.00    0.87   14.00    0.44   -79.10
   10100  0.42   -79.00   0.87   13.50    0.87   13.50    0.42   -79.00
   10150  0.40   -78.90   0.87   13.10    0.87   13.10    0.40   -78.90
   10200  0.40   -80.00   0.88   12.60    0.88   12.60    0.40   -80.00
   10250  0.40   -81.00   0.89   12.00    0.89   12.00    0.40   -81.00
   10300  0.39   -82.50   0.89   11.60    0.89   11.60    0.39   -82.50
   10350  0.37   -83.90   0.89   11.20    0.89   11.20    0.37   -83.90
   10400  0.36   -84.20   0.90   10.40    0.90   10.40    0.36   -84.20
   10450  0.35   -84.50   0.91    9.50    0.91    9.50    0.35   -84.50
   10500  0.35   -85.90   0.91    9.10    0.91    9.10    0.35   -85.90
   10550  0.35   -87.30   0.91    8.70    0.91    8.70    0.35   -87.30
   10600  0.33   -87.50   0.91    7.90    0.91    7.90    0.33   -87.50
   10650  0.31   -87.80   0.92    7.20    0.92    7.20    0.31   -87.80
   10700  0.31   -88.70   0.92    6.70    0.92    6.70    0.31   -88.70
   10750  0.31   -89.60   0.93    6.20    0.93    6.20    0.31   -89.60
   10800  0.30   -90.40   0.93    5.80    0.93    5.80    0.30   -90.40
   10850  0.29   -91.20   0.93    5.40    0.93    5.40    0.29   -91.20
   10900  0.28   -92.10   0.93    4.50    0.93    4.50    0.28   -92.10
   10950  0.28   -93.10   0.93    3.70    0.93    3.70    0.28   -93.10
   11000  0.27   -94.60   0.93    3.30    0.93    3.30    0.27   -94.60
   11050  0.26   -96.20   0.93    3.00    0.93    3.00    0.26   -96.20
   11100  0.26   -96.10   0.94    2.30    0.94    2.30    0.26   -96.10
   11150  0.26   -96.00   0.94    1.70    0.94    1.70    0.26   -96.00
   11200  0.26   -96.80   0.94    1.30    0.94    1.30    0.26   -96.80
   11250  0.25   -97.70   0.94    0.80    0.94    0.80    0.25   -97.70
   11300  0.25   -98.20   0.94    0.20    0.94    0.20    0.25   -98.20
   11350  0.24   -98.80   0.94   -0.50    0.94   -0.50    0.24   -98.80
   11400  0.24   -98.70   0.94   -0.80    0.94   -0.80    0.24   -98.70
   11450  0.23   -98.60   0.94   -1.10    0.94   -1.10    0.23   -98.60
   11500  0.22  -100.10   0.94   -1.70    0.94   -1.70    0.22  -100.10
   11550  0.21  -101.60   0.95   -2.40    0.95   -2.40    0.21  -101.60
   11600  0.21  -102.80   0.95   -2.90    0.95   -2.90    0.21  -102.80
   11650  0.21  -104.00   0.95   -3.40    0.95   -3.40    0.21  -104.00
   11700  0.20  -104.80   0.95   -3.90    0.95   -3.90    0.20  -104.80
   11750  0.19  -105.60   0.95   -4.50    0.95   -4.50    0.19  -105.60
   11800  0.18  -108.20   0.95   -5.00    0.95   -5.00    0.18  -108.20
   11850  0.17  -110.90   0.95   -5.40    0.95   -5.40    0.17  -110.90
   11900  0.17  -113.20   0.95   -5.90    0.95   -5.90    0.17  -113.20
   11950  0.16  -115.60   0.95   -6.40    0.95   -6.40    0.16  -115.60
   12000  0.16  -118.00   0.95   -7.10    0.95   -7.10    0.16  -118.00
   12050  0.16  -120.50   0.95   -7.90    0.95   -7.90    0.16  -120.50
   12100  0.16  -122.90   0.95   -8.40    0.95   -8.40    0.16  -122.90
   12150  0.15  -125.40   0.95   -8.90    0.95   -8.90    0.15  -125.40
   12200  0.15  -126.70   0.95   -9.40    0.95   -9.40    0.15  -126.70
   12250  0.15  -128.00   0.95   -9.90    0.95   -9.90    0.15  -128.00
   12300  0.15  -130.60   0.94   -10.40   0.94   -10.40   0.15  -130.60
   12350  0.14  -133.10   0.94   -11.00   0.94   -11.00   0.14  -133.10
   12400  0.14  -134.80   0.94   -11.40   0.94   -11.40   0.14  -134.80
   12450  0.14  -136.50   0.94   -11.70   0.94   -11.70   0.14  -136.50
   12500  0.13  -139.50   0.93   -12.00   0.93   -12.00   0.13  -139.50
   12550  0.12  -142.40   0.93   -12.30   0.93   -12.30   0.12  -142.40
   12600  0.11  -144.30   0.93   -12.20   0.93   -12.20   0.11  -144.30
   12650  0.10  -146.10   0.93   -12.00   0.93   -12.00   0.10  -146.10
   12700  0.09  -141.40   0.94   -12.40   0.94   -12.40   0.09  -141.40
   12750  0.08  -136.80   0.94   -12.80   0.94   -12.80   0.08  -136.80
   12800  0.08  -137.30   0.95   -13.40   0.95   -13.40   0.08  -137.30
   12850  0.07  -137.90   0.95   -13.90   0.95   -13.90   0.07  -137.90
   12900  0.07  -136.30   0.95   -14.40   0.95   -14.40   0.07  -136.30
   12950  0.06  -134.60   0.95   -14.80   0.95   -14.80   0.06  -134.60
   13000  0.06  -136.10   0.95   -15.30   0.95   -15.30   0.06  -136.10
   13050  0.05  -137.50   0.96   -15.90   0.96   -15.90   0.05  -137.50
   13100  0.05  -137.30   0.96   -16.30   0.96   -16.30   0.05  -137.30
   13150  0.04  -137.10   0.95   -16.80   0.95   -16.80   0.04  -137.10
   13200  0.03  -152.60   0.96   -17.10   0.96   -17.10   0.03  -152.60
   13250  0.03  -168.10   0.96   -17.40   0.96   -17.40   0.03  -168.10
   13300  0.02  -173.70   0.96   -18.20   0.96   -18.20   0.02  -173.70
   13350  0.02  -179.20   0.96   -18.90   0.96   -18.90   0.02  -179.20
   13400  0.03   -27.70   0.96   -19.50   0.96   -19.50   0.03   -27.70
   13450  0.04   123.80   0.96   -20.10   0.96   -20.10   0.04   123.80
   13500  0.04   114.80   0.96   -20.60   0.96   -20.60   0.04   114.80
   13550  0.04   105.80   0.96   -21.10   0.96   -21.10   0.04   105.80
   13600  0.05   104.60   0.96   -21.80   0.96   -21.80   0.05   104.60
   13650  0.06   103.30   0.96   -22.40   0.96   -22.40   0.06   103.30
   13700  0.07   93.40    0.96   -23.00   0.96   -23.00   0.07   93.40
   13750  0.08   83.40    0.96   -23.50   0.96   -23.50   0.08   83.40
   13800  0.08   81.60    0.95   -23.90   0.95   -23.90   0.08   81.60
   13850  0.09   79.90    0.95   -24.30   0.95   -24.30   0.09   79.90
   13900  0.10   72.50    0.95   -24.80   0.95   -24.80   0.10   72.50
