#	mhz	s	ma	r	50

50	0.96	176.80	0.05	81.60	0.05	81.60	0.96	176.80
100	0.98	174.00	0.09	80.30	0.09	80.30	0.98	174.00
150	0.99	171.20	0.13	79.00	0.13	79.00	0.99	171.20
200	0.98	168.70	0.17	76.90	0.17	76.90	0.98	168.70
250	0.97	166.20	0.22	74.80	0.22	74.80	0.97	166.20
300	0.96	163.30	0.25	72.00	0.25	72.00	0.96	163.30
350	0.95	160.40	0.29	69.10	0.29	69.10	0.95	160.40
400	0.93	158.20	0.33	67.00	0.33	67.00	0.93	158.20
450	0.91	155.90	0.37	64.80	0.37	64.80	0.91	155.90
500	0.89	151.50	0.42	61.60	0.42	61.60	0.89	151.50
550	0.87	147.20	0.47	58.30	0.47	58.30	0.87	147.20
600	0.86	144.90	0.50	55.90	0.50	55.90	0.86	144.90
650	0.84	142.60	0.53	53.40	0.53	53.40	0.84	142.60
700	0.82	140.00	0.56	51.30	0.56	51.30	0.82	140.00
750	0.80	137.40	0.59	49.30	0.59	49.30	0.80	137.40
800	0.79	135.50	0.61	47.00	0.61	47.00	0.79	135.50
850	0.77	133.50	0.63	44.70	0.63	44.70	0.77	133.50
900	0.75	131.30	0.65	42.80	0.65	42.80	0.75	131.30
950	0.72	129.20	0.67	40.80	0.67	40.80	0.72	129.20
1000	0.70	127.30	0.69	38.80	0.69	38.80	0.70	127.30
1050	0.69	125.30	0.71	36.90	0.71	36.90	0.69	125.30
1100	0.67	123.20	0.73	35.20	0.73	35.20	0.67	123.20
1150	0.65	121.00	0.75	33.60	0.75	33.60	0.65	121.00
1200	0.63	119.30	0.76	31.80	0.76	31.80	0.63	119.30
1250	0.62	117.60	0.77	30.10	0.77	30.10	0.62	117.60
1300	0.61	115.60	0.79	28.70	0.79	28.70	0.61	115.60
1350	0.59	113.70	0.80	27.30	0.80	27.30	0.59	113.70
1400	0.57	112.30	0.81	25.80	0.81	25.80	0.57	112.30
1450	0.56	111.00	0.82	24.30	0.82	24.30	0.56	111.00
1500	0.54	109.20	0.83	22.90	0.83	22.90	0.54	109.20
1550	0.53	107.40	0.84	21.50	0.84	21.50	0.53	107.40
1600	0.52	105.80	0.85	20.20	0.85	20.20	0.52	105.80
1650	0.51	104.10	0.85	18.90	0.85	18.90	0.51	104.10
1700	0.49	102.70	0.86	17.60	0.86	17.60	0.49	102.70
1750	0.48	101.30	0.87	16.30	0.87	16.30	0.48	101.30
1800	0.47	100.00	0.88	15.30	0.88	15.30	0.47	100.00
1850	0.46	98.80	0.88	14.30	0.88	14.30	0.46	98.80
1900	0.45	97.30	0.89	13.20	0.89	13.20	0.45	97.30
1950	0.44	95.90	0.89	12.10	0.89	12.10	0.44	95.90
2000	0.43	94.60	0.90	10.90	0.90	10.90	0.43	94.60
2050	0.41	93.30	0.90	9.70	0.90	9.70	0.41	93.30
2100	0.40	92.10	0.91	8.80	0.91	8.80	0.40	92.10
2150	0.39	91.00	0.91	7.80	0.91	7.80	0.39	91.00
2200	0.39	89.70	0.92	6.80	0.92	6.80	0.39	89.70
2250	0.38	88.40	0.92	5.70	0.92	5.70	0.38	88.40
2300	0.37	87.50	0.92	4.80	0.92	4.80	0.37	87.50
2350	0.35	86.60	0.93	4.00	0.93	4.00	0.35	86.60
2400	0.35	85.70	0.93	3.00	0.93	3.00	0.35	85.70
2450	0.34	84.80	0.93	2.00	0.93	2.00	0.34	84.80
2500	0.33	83.90	0.94	1.00	0.94	1.00	0.33	83.90
2550	0.32	83.10	0.94	0.00	0.94	0.00	0.32	83.10
2600	0.31	82.40	0.94	-0.80	0.94	-0.80	0.31	82.40
2650	0.30	81.80	0.94	-1.70	0.94	-1.70	0.30	81.80
2700	0.29	81.20	0.95	-2.50	0.95	-2.50	0.29	81.20
2750	0.28	80.60	0.95	-3.40	0.95	-3.40	0.28	80.60
2800	0.28	80.10	0.95	-4.20	0.95	-4.20	0.28	80.10
2850	0.27	79.50	0.96	-5.00	0.96	-5.00	0.27	79.50
2900	0.26	79.20	0.96	-6.10	0.96	-6.10	0.26	79.20
2950	0.25	79.00	0.96	-7.10	0.96	-7.10	0.25	79.00
3000	0.24	78.50	0.96	-7.90	0.96	-7.90	0.24	78.50
3050	0.23	78.10	0.96	-8.70	0.96	-8.70	0.23	78.10
3100	0.23	77.80	0.96	-9.70	0.96	-9.70	0.23	77.80
3150	0.22	77.60	0.96	-10.70	0.96	-10.70	0.22	77.60
3200	0.21	77.20	0.97	-11.30	0.97	-11.30	0.21	77.20
3250	0.21	76.70	0.97	-11.90	0.97	-11.90	0.21	76.70
3300	0.20	77.30	0.97	-12.80	0.97	-12.80	0.20	77.30
3350	0.19	77.80	0.97	-13.80	0.97	-13.80	0.19	77.80
3400	0.19	77.30	0.98	-14.50	0.98	-14.50	0.19	77.30
3450	0.18	76.70	0.98	-15.20	0.98	-15.20	0.18	76.70
3500	0.18	77.10	0.98	-15.90	0.98	-15.90	0.18	77.10
3550	0.17	77.50	0.98	-16.60	0.98	-16.60	0.17	77.50
3600	0.17	77.70	0.98	-17.30	0.98	-17.30	0.17	77.70
3650	0.16	78.00	0.98	-18.10	0.98	-18.10	0.16	78.00
3700	0.16	77.10	0.98	-18.90	0.98	-18.90	0.16	77.10
3750	0.15	76.20	0.98	-19.70	0.98	-19.70	0.15	76.20
3800	0.15	76.00	0.98	-20.40	0.98	-20.40	0.15	76.00
3850	0.14	75.80	0.98	-21.00	0.98	-21.00	0.14	75.80
3900	0.14	75.20	0.98	-21.90	0.98	-21.90	0.14	75.20
3950	0.14	74.60	0.99	-22.80	0.99	-22.80	0.14	74.60
4000	0.13	73.70	0.99	-23.40	0.99	-23.40	0.13	73.70
4050	0.13	72.90	0.99	-24.10	0.99	-24.10	0.13	72.90
4100	0.12	71.60	0.99	-24.80	0.99	-24.80	0.12	71.60
4150	0.12	70.30	0.99	-25.60	0.99	-25.60	0.12	70.30
4200	0.11	68.80	0.99	-26.30	0.99	-26.30	0.11	68.80
4250	0.11	67.30	0.99	-27.00	0.99	-27.00	0.11	67.30
4300	0.10	65.30	0.99	-27.60	0.99	-27.60	0.10	65.30
4350	0.10	63.30	0.99	-28.20	0.99	-28.20	0.10	63.30
4400	0.09	62.10	0.99	-29.00	0.99	-29.00	0.09	62.10
4450	0.09	60.90	0.99	-29.70	0.99	-29.70	0.09	60.90
4500	0.08	57.20	0.99	-30.60	0.99	-30.60	0.08	57.20
4550	0.08	53.50	0.99	-31.40	0.99	-31.40	0.08	53.50
4600	0.07	51.30	0.99	-32.20	0.99	-32.20	0.07	51.30
4650	0.06	49.10	0.99	-33.00	0.99	-33.00	0.06	49.10
4700	0.06	44.80	0.99	-33.60	0.99	-33.60	0.06	44.80
4750	0.05	40.40	0.99	-34.30	0.99	-34.30	0.05	40.40
4800	0.05	35.80	0.99	-35.00	0.99	-35.00	0.05	35.80
4850	0.04	31.10	0.99	-35.70	0.99	-35.70	0.04	31.10
4900	0.04	24.70	0.99	-36.40	0.99	-36.40	0.04	24.70
4950	0.03	18.40	0.99	-37.10	0.99	-37.10	0.03	18.40
5000	0.03	6.00	0.99	-37.90	0.99	-37.90	0.03	6.00
5050	0.02	-6.30	0.99	-38.60	0.99	-38.60	0.02	-6.30
5100	0.02	-19.80	0.99	-39.30	0.99	-39.30	0.02	-19.80
5150	0.02	-33.20	0.99	-40.00	0.99	-40.00	0.02	-33.20
5200	0.02	-61.10	0.99	-40.50	0.99	-40.50	0.02	-61.10
5250	0.02	-89.00	0.99	-41.10	0.99	-41.10	0.02	-89.00
5300	0.02	-98.70	0.99	-41.80	0.99	-41.80	0.02	-98.70
5350	0.03	-108.30	0.99	-42.60	0.99	-42.60	0.03	-108.30
5400	0.04	-114.00	0.99	-43.40	0.99	-43.40	0.04	-114.00
5450	0.04	-119.70	0.99	-44.10	0.99	-44.10	0.04	-119.70
5500	0.05	-124.90	0.99	-44.70	0.99	-44.70	0.05	-124.90
5550	0.05	-130.20	0.99	-45.40	0.99	-45.40	0.05	-130.20
5600	0.06	-131.80	0.99	-46.10	0.99	-46.10	0.06	-131.80
5650	0.06	-133.40	0.99	-46.80	0.99	-46.80	0.06	-133.40
5700	0.07	-137.70	0.99	-47.50	0.99	-47.50	0.07	-137.70
5750	0.08	-142.00	0.99	-48.20	0.99	-48.20	0.08	-142.00
5800	0.08	-141.70	0.99	-48.90	0.99	-48.90	0.08	-141.70
5850	0.09	-141.50	0.98	-49.50	0.98	-49.50	0.09	-141.50
5900	0.09	-144.20	0.98	-50.00	0.98	-50.00	0.09	-144.20
5950	0.10	-146.80	0.98	-50.60	0.98	-50.60	0.10	-146.80
6000	0.12	-145.00	0.98	-51.40	0.98	-51.40	0.12	-145.00
6050	0.13	-143.20	0.98	-52.20	0.98	-52.20	0.13	-143.20
6100	0.14	-145.00	0.98	-52.70	0.98	-52.70	0.14	-145.00
6150	0.14	-146.80	0.98	-53.10	0.98	-53.10	0.14	-146.80
6200	0.15	-149.10	0.98	-53.80	0.98	-53.80	0.15	-149.10
6250	0.15	-151.50	0.98	-54.50	0.98	-54.50	0.15	-151.50
6300	0.16	-152.60	0.98	-55.10	0.98	-55.10	0.16	-152.60
6350	0.17	-153.60	0.98	-55.70	0.98	-55.70	0.17	-153.60
6400	0.17	-154.40	0.97	-56.30	0.97	-56.30	0.17	-154.40
6450	0.18	-155.20	0.97	-56.90	0.97	-56.90	0.18	-155.20
6500	0.18	-156.10	0.97	-57.50	0.97	-57.50	0.18	-156.10
6550	0.18	-157.00	0.97	-58.10	0.97	-58.10	0.18	-157.00
6600	0.19	-158.30	0.97	-58.80	0.97	-58.80	0.19	-158.30
6650	0.19	-159.60	0.97	-59.40	0.97	-59.40	0.19	-159.60
6700	0.19	-160.60	0.97	-59.80	0.97	-59.80	0.19	-160.60
6750	0.20	-161.50	0.96	-60.20	0.96	-60.20	0.20	-161.50
6800	0.20	-163.10	0.97	-60.80	0.97	-60.80	0.20	-163.10
6850	0.20	-164.60	0.97	-61.50	0.97	-61.50	0.20	-164.60
6900	0.20	-165.50	0.97	-62.10	0.97	-62.10	0.20	-165.50
6950	0.20	-166.30	0.96	-62.60	0.96	-62.60	0.20	-166.30
7000	0.21	-168.40	0.97	-63.30	0.97	-63.30	0.21	-168.40
7050	0.21	-170.50	0.97	-64.00	0.97	-64.00	0.21	-170.50
7100	0.21	-171.60	0.97	-64.60	0.97	-64.60	0.21	-171.60
7150	0.21	-172.70	0.96	-65.10	0.96	-65.10	0.21	-172.70
7200	0.22	-173.60	0.97	-65.80	0.97	-65.80	0.22	-173.60
7250	0.22	-174.50	0.97	-66.50	0.97	-66.50	0.22	-174.50
7300	0.22	-175.90	0.97	-67.10	0.97	-67.10	0.22	-175.90
7350	0.22	-177.30	0.96	-67.80	0.96	-67.80	0.22	-177.30
7400	0.22	-177.40	0.96	-68.40	0.96	-68.40	0.22	-177.40
7450	0.22	-177.40	0.96	-69.00	0.96	-69.00	0.22	-177.40
7500	0.23	1.20	0.96	-69.70	0.96	-69.70	0.23	1.20
7550	0.23	179.80	0.96	-70.40	0.96	-70.40	0.23	179.80
7600	0.22	0.10	0.96	-71.00	0.96	-71.00	0.22	0.10
7650	0.22	-179.60	0.96	-71.60	0.96	-71.60	0.22	-179.60
7700	0.22	0.00	0.96	-72.20	0.96	-72.20	0.22	0.00
7750	0.22	179.60	0.96	-72.90	0.96	-72.90	0.22	179.60
7800	0.22	178.60	0.96	-73.60	0.96	-73.60	0.22	178.60
7850	0.22	177.60	0.96	-74.40	0.96	-74.40	0.22	177.60
7900	0.22	178.20	0.96	-75.00	0.96	-75.00	0.22	178.20
7950	0.22	178.80	0.96	-75.70	0.96	-75.70	0.22	178.80
8000	0.22	177.70	0.96	-76.50	0.96	-76.50	0.22	177.70
8050	0.22	176.60	0.96	-77.20	0.96	-77.20	0.22	176.60
8100	0.22	176.80	0.96	-77.90	0.96	-77.90	0.22	176.80
8150	0.22	177.00	0.96	-78.60	0.96	-78.60	0.22	177.00
8200	0.22	176.60	0.96	-79.40	0.96	-79.40	0.22	176.60
8250	0.23	176.10	0.96	-80.10	0.96	-80.10	0.23	176.10
8300	0.23	176.50	0.96	-80.90	0.96	-80.90	0.23	176.50
8350	0.23	176.90	0.96	-81.70	0.96	-81.70	0.23	176.90
8400	0.23	176.60	0.96	-82.50	0.96	-82.50	0.23	176.60
8450	0.24	176.30	0.95	-83.30	0.95	-83.30	0.24	176.30
8500	0.24	176.80	0.95	-84.20	0.95	-84.20	0.24	176.80
8550	0.24	177.30	0.95	-85.10	0.95	-85.10	0.24	177.30
8600	0.25	176.60	0.95	-85.90	0.95	-85.90	0.25	176.60
8650	0.25	175.90	0.95	-86.80	0.95	-86.80	0.25	175.90
8700	0.26	176.00	0.95	-87.60	0.95	-87.60	0.26	176.00
8750	0.26	176.00	0.94	-88.50	0.94	-88.50	0.26	176.00
8800	0.27	175.00	0.94	-89.10	0.94	-89.10	0.27	175.00
8850	0.27	174.00	0.94	-89.60	0.94	-89.60	0.27	174.00
8900	0.28	173.40	0.94	-90.70	0.94	-90.70	0.28	173.40
8950	0.28	172.90	0.93	-91.80	0.93	-91.80	0.28	172.90
9000	0.29	172.70	0.93	-92.60	0.93	-92.60	0.29	172.70
9050	0.30	172.40	0.93	-93.40	0.93	-93.40	0.30	172.40
9100	0.31	171.80	0.93	-94.30	0.93	-94.30	0.31	171.80
9150	0.32	171.10	0.92	-95.10	0.92	-95.10	0.32	171.10
9200	0.33	170.30	0.92	-96.30	0.92	-96.30	0.33	170.30
9250	0.33	169.50	0.92	-97.50	0.92	-97.50	0.33	169.50
9300	0.34	169.50	0.92	-98.20	0.92	-98.20	0.34	169.50
9350	0.35	169.40	0.91	-98.90	0.91	-98.90	0.35	169.40
9400	0.35	169.10	0.90	-99.90	0.90	-99.90	0.35	169.10
9450	0.36	168.80	0.90	-100.80	0.90	-100.80	0.36	168.80
9500	0.37	168.30	0.89	-101.90	0.89	-101.90	0.37	168.30
9550	0.37	167.80	0.88	-103.00	0.88	-103.00	0.37	167.80
9600	0.39	167.30	0.88	-104.00	0.88	-104.00	0.39	167.30
9650	0.40	166.80	0.88	-105.00	0.88	-105.00	0.40	166.80
9700	0.41	166.40	0.87	-106.00	0.87	-106.00	0.41	166.40
9750	0.42	166.00	0.86	-107.00	0.86	-107.00	0.42	166.00
9800	0.42	166.00	0.85	-107.90	0.85	-107.90	0.42	166.00
9850	0.43	166.10	0.84	-108.90	0.84	-108.90	0.43	166.10
9900	0.44	165.60	0.84	-109.70	0.84	-109.70	0.44	165.60
9950	0.46	165.20	0.83	-110.60	0.83	-110.60	0.46	165.20
10000	0.47	164.20	0.82	-111.80	0.82	-111.80	0.47	164.20
10050	0.48	163.30	0.81	-113.00	0.81	-113.00	0.48	163.30
10100	0.50	163.10	0.80	-113.70	0.80	-113.70	0.50	163.10
10150	0.51	162.90	0.79	-114.40	0.79	-114.40	0.51	162.90
10200	0.53	161.90	0.79	-115.70	0.79	-115.70	0.53	161.90
10250	0.54	161.00	0.78	-117.00	0.78	-117.00	0.54	161.00
10300	0.56	159.60	0.76	-118.20	0.76	-118.20	0.56	159.60
10350	0.58	158.20	0.75	-119.40	0.75	-119.40	0.58	158.20
10400	0.59	156.90	0.74	-120.40	0.74	-120.40	0.59	156.90
10450	0.59	155.60	0.72	-121.50	0.72	-121.50	0.59	155.60
10500	0.61	154.20	0.71	-122.60	0.71	-122.60	0.61	154.20
10550	0.63	152.80	0.70	-123.70	0.70	-123.70	0.63	152.80
10600	0.62	150.40	0.69	-124.20	0.69	-124.20	0.62	150.40
10650	0.62	148.00	0.67	-124.60	0.67	-124.60	0.62	148.00
10700	0.64	147.40	0.67	-125.80	0.67	-125.80	0.64	147.40
10750	0.66	146.80	0.66	-126.90	0.66	-126.90	0.66	146.80
10800	0.67	145.70	0.65	-127.60	0.65	-127.60	0.67	145.70
10850	0.68	144.50	0.64	-128.40	0.64	-128.40	0.68	144.50
10900	0.69	142.30	0.62	-129.70	0.62	-129.70	0.69	142.30
10950	0.69	140.00	0.61	-131.10	0.61	-131.10	0.69	140.00
11000	0.71	139.00	0.60	-132.30	0.60	-132.30	0.71	139.00
11050	0.74	137.90	0.60	-133.50	0.60	-133.50	0.74	137.90
11100	0.75	135.40	0.57	-134.80	0.57	-134.80	0.75	135.40
11150	0.75	132.90	0.55	-136.00	0.55	-136.00	0.75	132.90
11200	0.77	131.10	0.54	-137.20	0.54	-137.20	0.77	131.10
11250	0.78	129.40	0.53	-138.30	0.53	-138.30	0.78	129.40
11300	0.79	127.50	0.51	-139.20	0.51	-139.20	0.79	127.50
11350	0.80	125.60	0.49	-140.20	0.49	-140.20	0.80	125.60
11400	0.81	123.30	0.48	-141.70	0.48	-141.70	0.81	123.30
11450	0.82	120.90	0.46	-143.30	0.46	-143.30	0.82	120.90
11500	0.83	119.00	0.44	-143.90	0.44	-143.90	0.83	119.00
11550	0.84	117.00	0.42	-144.60	0.42	-144.60	0.84	117.00
11600	0.85	114.80	0.40	-145.90	0.40	-145.90	0.85	114.80
11650	0.86	112.70	0.38	-147.10	0.38	-147.10	0.86	112.70
11700	0.86	110.70	0.35	-147.80	0.35	-147.80	0.86	110.70
11750	0.87	108.80	0.33	-148.40	0.33	-148.40	0.87	108.80
11800	0.88	107.10	0.31	-148.50	0.31	-148.50	0.88	107.10
11850	0.89	105.40	0.28	-148.60	0.28	-148.60	0.89	105.40
11900	0.89	103.70	0.26	-148.70	0.26	-148.70	0.89	103.70
11950	0.90	102.00	0.24	-148.90	0.24	-148.90	0.90	102.00
12000	0.90	100.60	0.21	-146.70	0.21	-146.70	0.90	100.60
12050	0.91	99.20	0.19	-144.50	0.19	-144.50	0.91	99.20
12100	0.91	96.90	0.16	-141.00	0.16	-141.00	0.91	96.90
12150	0.92	94.50	0.14	-137.50	0.14	-137.50	0.92	94.50
12200	0.92	92.70	0.12	-128.00	0.12	-128.00	0.92	92.70
12250	0.92	90.90	0.10	-118.40	0.10	-118.40	0.92	90.90
12300	0.91	89.30	0.10	-102.40	0.10	-102.40	0.91	89.30
12350	0.90	87.70	0.10	-86.50	0.10	-86.50	0.90	87.70
12400	0.91	84.80	0.11	-73.90	0.11	-73.90	0.91	84.80
12450	0.91	81.90	0.13	-61.30	0.13	-61.30	0.91	81.90
12500	0.90	80.00	0.15	-55.40	0.15	-55.40	0.90	80.00
12550	0.89	78.00	0.18	-49.50	0.18	-49.50	0.89	78.00
12600	0.88	75.80	0.21	-47.90	0.21	-47.90	0.88	75.80
12650	0.88	73.60	0.24	-46.30	0.24	-46.30	0.88	73.60
12700	0.87	71.40	0.27	-46.10	0.27	-46.10	0.87	71.40
12750	0.86	69.10	0.30	-45.90	0.30	-45.90	0.86	69.10
12800	0.85	66.60	0.33	-47.20	0.33	-47.20	0.85	66.60
12850	0.83	64.10	0.36	-48.40	0.36	-48.40	0.83	64.10
12900	0.82	62.10	0.39	-49.70	0.39	-49.70	0.82	62.10
12950	0.81	60.20	0.42	-50.90	0.42	-50.90	0.81	60.20
13000	0.79	58.20	0.44	-52.60	0.44	-52.60	0.79	58.20
13050	0.77	56.20	0.46	-54.30	0.46	-54.30	0.77	56.20
13100	0.75	54.20	0.49	-56.00	0.49	-56.00	0.75	54.20
13150	0.74	52.20	0.51	-57.60	0.51	-57.60	0.74	52.20
13200	0.73	50.40	0.53	-59.10	0.53	-59.10	0.73	50.40
13250	0.72	48.70	0.55	-60.60	0.55	-60.60	0.72	48.70
13300	0.69	48.30	0.57	-62.80	0.57	-62.80	0.69	48.30
13350	0.65	47.80	0.59	-65.00	0.59	-65.00	0.65	47.80
13400	0.66	44.80	0.60	-66.60	0.60	-66.60	0.66	44.80
13450	0.66	41.70	0.62	-68.10	0.62	-68.10	0.66	41.70
13500	0.65	39.80	0.63	-69.80	0.63	-69.80	0.65	39.80
13550	0.63	37.90	0.65	-71.40	0.65	-71.40	0.63	37.90
13600	0.63	36.10	0.66	-73.10	0.66	-73.10	0.63	36.10
13650	0.62	34.40	0.67	-74.80	0.67	-74.80	0.62	34.40
13700	0.61	32.20	0.68	-76.00	0.68	-76.00	0.61	32.20
13750	0.60	30.10	0.69	-77.10	0.69	-77.10	0.60	30.10
13800	0.59	27.60	0.69	-78.40	0.69	-78.40	0.59	27.60
13850	0.58	25.20	0.70	-79.70	0.70	-79.70	0.58	25.20
13900	0.58	22.70	0.71	-80.70	0.71	-80.70	0.58	22.70
13950	0.58	20.10	0.73	-81.80	0.73	-81.80	0.58	20.10
14000	0.57	17.60	0.73	-82.80	0.73	-82.80	0.57	17.60
14050	0.56	15.10	0.74	-83.90	0.74	-83.90	0.56	15.10
14100	0.56	12.70	0.75	-84.80	0.75	-84.80	0.56	12.70
14150	0.55	10.30	0.76	-85.80	0.76	-85.80	0.55	10.30
14200	0.55	7.80	0.76	-86.80	0.76	-86.80	0.55	7.80
14250	0.54	5.30	0.77	-87.90	0.77	-87.90	0.54	5.30
14300	0.54	3.40	0.77	-88.80	0.77	-88.80	0.54	3.40
14350	0.53	1.40	0.78	-89.80	0.78	-89.80	0.53	1.40
14400	0.53	-0.60	0.79	-90.70	0.79	-90.70	0.53	-0.60
14450	0.52	-2.50	0.79	-91.70	0.79	-91.70	0.52	-2.50
14500	0.51	-3.80	0.80	-92.30	0.80	-92.30	0.51	-3.80
14550	0.50	-5.10	0.80	-92.90	0.80	-92.90	0.50	-5.10
14600	0.50	-6.30	0.81	-93.80	0.81	-93.80	0.50	-6.30
14650	0.49	-7.50	0.81	-94.70	0.81	-94.70	0.49	-7.50
14700	0.48	-9.10	0.82	-95.60	0.82	-95.60	0.48	-9.10
14750	0.47	-10.70	0.83	-96.50	0.83	-96.50	0.47	-10.70
14800	0.47	-11.50	0.83	-97.40	0.83	-97.40	0.47	-11.50
14850	0.47	-12.30	0.83	-98.40	0.83	-98.40	0.47	-12.30
14900	0.45	-12.40	0.84	-99.10	0.84	-99.10	0.45	-12.40
14950	0.44	-12.60	0.85	-99.80	0.85	-99.80	0.44	-12.60
15000	0.43	-14.00	0.85	-100.90	0.85	-100.90	0.43	-14.00
15050	0.43	-15.40	0.85	-102.00	0.85	-102.00	0.43	-15.40
15100	0.42	-15.30	0.86	-102.60	0.86	-102.60	0.42	-15.30
15150	0.41	-15.30	0.86	-103.30	0.86	-103.30	0.41	-15.30
15200	0.41	-15.50	0.86	-104.10	0.86	-104.10	0.41	-15.50
15250	0.40	-15.70	0.87	-104.90	0.87	-104.90	0.40	-15.70
15300	0.40	-16.60	0.87	-106.00	0.87	-106.00	0.40	-16.60
15350	0.39	-17.50	0.87	-107.20	0.87	-107.20	0.39	-17.50
15400	0.39	-16.80	0.86	-107.70	0.86	-107.70	0.39	-16.80
15450	0.38	-16.00	0.86	-108.20	0.86	-108.20	0.38	-16.00
15500	0.39	-15.50	0.86	-108.90	0.86	-108.90	0.39	-15.50
15550	0.40	-15.00	0.86	-109.60	0.86	-109.60	0.40	-15.00
15600	0.40	-15.20	0.86	-109.90	0.86	-109.90	0.40	-15.20
15650	0.40	-15.50	0.86	-110.10	0.86	-110.10	0.40	-15.50
15700	0.41	-15.50	0.86	-110.60	0.86	-110.60	0.41	-15.50
15750	0.41	-15.50	0.86	-111.10	0.86	-111.10	0.41	-15.50
15800	0.40	-16.60	0.86	-111.30	0.86	-111.30	0.40	-16.60
15850	0.39	-17.60	0.86	-111.50	0.86	-111.50	0.39	-17.60
15900	0.40	-17.40	0.87	-112.00	0.87	-112.00	0.40	-17.40
15950	0.40	-17.30	0.87	-112.40	0.87	-112.40	0.40	-17.30
16000	0.38	-18.10	0.88	-112.70	0.88	-112.70	0.38	-18.10
16050	0.37	-18.80	0.88	-113.00	0.88	-113.00	0.37	-18.80
16100	0.35	-19.30	0.88	-113.80	0.88	-113.80	0.35	-19.30
16150	0.34	-19.70	0.89	-114.60	0.89	-114.60	0.34	-19.70
16200	0.33	-20.80	0.89	-115.10	0.89	-115.10	0.33	-20.80
16250	0.31	-21.80	0.90	-115.70	0.90	-115.70	0.31	-21.80
16300	0.29	-23.00	0.90	-116.50	0.90	-116.50	0.29	-23.00
16350	0.26	-24.20	0.91	-117.40	0.91	-117.40	0.26	-24.20
16400	0.26	-24.40	0.90	-117.90	0.90	-117.90	0.26	-24.40
16450	0.25	-24.50	0.90	-118.50	0.90	-118.50	0.25	-24.50
16500	0.23	-28.10	0.90	-118.80	0.90	-118.80	0.23	-28.10
16550	0.22	-31.60	0.90	-119.10	0.90	-119.10	0.22	-31.60
16600	0.21	-33.70	0.91	-119.70	0.91	-119.70	0.21	-33.70
16650	0.20	-35.70	0.93	-120.30	0.93	-120.30	0.20	-35.70
16700	0.19	-40.00	0.93	-121.00	0.93	-121.00	0.19	-40.00
16750	0.17	-44.30	0.94	-121.80	0.94	-121.80	0.17	-44.30
16800	0.16	-48.30	0.94	-122.70	0.94	-122.70	0.16	-48.30
16850	0.14	-52.30	0.95	-123.50	0.95	-123.50	0.14	-52.30
16900	0.13	-52.80	0.95	-124.50	0.95	-124.50	0.13	-52.80
16950	0.11	-53.30	0.96	-125.40	0.96	-125.40	0.11	-53.30
17000	0.09	-55.70	0.96	-126.30	0.96	-126.30	0.09	-55.70
17050	0.07	-58.20	0.96	-127.20	0.96	-127.20	0.07	-58.20
17100	0.06	-48.80	0.96	-128.20	0.96	-128.20	0.06	-48.80
17150	0.05	-39.30	0.96	-129.20	0.96	-129.20	0.05	-39.30
17200	0.04	-11.80	0.96	-129.90	0.96	-129.90	0.04	-11.80
17250	0.04	15.70	0.96	-130.50	0.96	-130.50	0.04	15.70
17300	0.05	41.40	0.96	-131.40	0.96	-131.40	0.05	41.40
17350	0.06	67.20	0.96	-132.30	0.96	-132.30	0.06	67.20
17400	0.07	65.70	0.96	-132.90	0.96	-132.90	0.07	65.70
17450	0.08	64.20	0.96	-133.50	0.96	-133.50	0.08	64.20
17500	0.10	66.50	0.96	-134.30	0.96	-134.30	0.10	66.50
17550	0.11	68.80	0.96	-135.10	0.96	-135.10	0.11	68.80
17600	0.13	68.80	0.96	-135.90	0.96	-135.90	0.13	68.80
17650	0.14	68.70	0.95	-136.70	0.95	-136.70	0.14	68.70
17700	0.15	69.00	0.95	-137.30	0.95	-137.30	0.15	69.00
17750	0.16	69.40	0.96	-137.90	0.96	-137.90	0.16	69.40
17800	0.16	69.70	0.96	-138.70	0.96	-138.70	0.16	69.70
17850	0.16	69.90	0.95	-139.50	0.95	-139.50	0.16	69.90
17900	0.16	68.80	0.95	-140.10	0.95	-140.10	0.16	68.80
17950	0.17	67.70	0.95	-140.80	0.95	-140.80	0.17	67.70
18000	0.16	67.90	0.95	-141.60	0.95	-141.60	0.16	67.90
18050	0.16	68.10	0.95	-142.50	0.95	-142.50	0.16	68.10
18100	0.15	66.00	0.94	-143.10	0.94	-143.10	0.15	66.00
18150	0.15	63.80	0.94	-143.80	0.94	-143.80	0.15	63.80
18200	0.14	60.90	0.94	-144.70	0.94	-144.70	0.14	60.90
18250	0.14	58.10	0.94	-145.60	0.94	-145.60	0.14	58.10
18300	0.14	54.00	0.94	-146.30	0.94	-146.30	0.14	54.00
18350	0.14	49.90	0.94	-147.00	0.94	-147.00	0.14	49.90
18400	0.14	46.60	0.93	-147.90	0.93	-147.90	0.14	46.60
18450	0.14	43.20	0.92	-148.70	0.92	-148.70	0.14	43.20
18500	0.15	40.80	0.91	-149.40	0.91	-149.40	0.15	40.80
18550	0.16	38.50	0.91	-150.00	0.91	-150.00	0.16	38.50
18600	0.17	35.80	0.89	-150.60	0.89	-150.60	0.17	35.80
18650	0.17	33.00	0.88	-151.20	0.88	-151.20	0.17	33.00
18700	0.19	28.20	0.86	-151.10	0.86	-151.10	0.19	28.20
18750	0.21	23.40	0.85	-150.90	0.85	-150.90	0.21	23.40
18800	0.21	16.00	0.84	-150.00	0.84	-150.00	0.21	16.00
