!P/N: L-14C18NJV4   
!Agilent N5230A: A.07.50.26
!Date: Tuesday, October 28, 2008 10:37:53
!Correction: S11(Full 2 Port(1,2)) 
!S21(Full 2 Port(1,2)) 
!S12(Full 2 Port(1,2)) 
!S22(Full 2 Port(1,2)) 
!S2P File: Measurements: S11, S21, S12, S22:
# Hz S  dB   R 50
300000 -4.075698e+001 9.441953e+001 -1.209598e-001 -8.615782e-001 -1.388430e-001 -5.204052e-001 -3.463591e+001 9.624608e+001
12799812.5 -3.540017e+001 7.234863e+001 -1.301714e-001 -1.034207e+000 -1.235753e-001 -9.509969e-001 -3.493567e+001 6.908485e+001
25299625 -3.054150e+001 7.622451e+001 -1.403412e-001 -1.798295e+000 -1.457354e-001 -1.768493e+000 -2.995202e+001 7.634553e+001
37799437.5 -2.751767e+001 7.771667e+001 -1.545556e-001 -2.590281e+000 -1.550866e-001 -2.599292e+000 -2.681565e+001 7.846204e+001
50299250 -2.534816e+001 8.039114e+001 -1.554766e-001 -3.452894e+000 -1.598961e-001 -3.390378e+000 -2.464975e+001 7.941177e+001
62799062.5 -2.355779e+001 7.990475e+001 -1.679986e-001 -4.113639e+000 -1.759714e-001 -4.158477e+000 -2.291306e+001 8.018440e+001
75298875 -2.203412e+001 7.974562e+001 -1.951160e-001 -5.051878e+000 -1.917645e-001 -4.979411e+000 -2.146493e+001 8.059116e+001
87798687.5 -2.069675e+001 8.036824e+001 -1.957849e-001 -5.784775e+000 -2.038694e-001 -5.773085e+000 -2.021433e+001 7.988540e+001
100298500 -1.960131e+001 7.965495e+001 -2.185040e-001 -6.503129e+000 -2.329582e-001 -6.514771e+000 -1.920659e+001 7.968669e+001
112798312.5 -1.855424e+001 7.912507e+001 -2.461572e-001 -7.309856e+000 -2.522838e-001 -7.267409e+000 -1.832178e+001 7.930624e+001
125298125 -1.761330e+001 7.856520e+001 -2.568462e-001 -8.154269e+000 -2.728869e-001 -8.027497e+000 -1.748661e+001 7.804469e+001
137797937.5 -1.687555e+001 7.815837e+001 -2.731805e-001 -8.871305e+000 -2.841165e-001 -8.896424e+000 -1.673684e+001 7.747041e+001
150297750 -1.606179e+001 7.795337e+001 -2.975640e-001 -9.646393e+000 -2.996905e-001 -9.577599e+000 -1.603140e+001 7.646561e+001
162797562.5 -1.540327e+001 7.684838e+001 -3.169093e-001 -1.038692e+001 -3.343288e-001 -1.044181e+001 -1.542545e+001 7.542804e+001
175297375 -1.477126e+001 7.591629e+001 -3.345939e-001 -1.109064e+001 -3.540408e-001 -1.110505e+001 -1.477555e+001 7.469534e+001
187797187.5 -1.422508e+001 7.505166e+001 -3.654548e-001 -1.183904e+001 -3.704596e-001 -1.189574e+001 -1.425048e+001 7.396861e+001
200297000 -1.378174e+001 7.438035e+001 -3.874193e-001 -1.258715e+001 -4.014376e-001 -1.259821e+001 -1.366829e+001 7.372153e+001
212796812.5 -1.321852e+001 7.346526e+001 -4.270262e-001 -1.335807e+001 -4.185160e-001 -1.341492e+001 -1.317428e+001 7.290784e+001
225296625 -1.279853e+001 7.276173e+001 -4.508606e-001 -1.418493e+001 -4.502865e-001 -1.412897e+001 -1.270687e+001 7.275125e+001
237796437.5 -1.237664e+001 7.212244e+001 -4.756050e-001 -1.488371e+001 -4.893857e-001 -1.484580e+001 -1.225502e+001 7.213723e+001
250296250 -1.192626e+001 7.106428e+001 -4.949400e-001 -1.566426e+001 -5.124871e-001 -1.557699e+001 -1.185199e+001 7.180717e+001
262796062.5 -1.158250e+001 7.037698e+001 -5.352563e-001 -1.634481e+001 -5.539534e-001 -1.629741e+001 -1.146140e+001 7.120080e+001
275295875 -1.119086e+001 6.989568e+001 -5.644459e-001 -1.708200e+001 -5.749164e-001 -1.708766e+001 -1.110192e+001 7.083965e+001
287795687.5 -1.082840e+001 6.911034e+001 -6.010607e-001 -1.776603e+001 -6.150208e-001 -1.783107e+001 -1.075887e+001 7.021138e+001
300295500 -1.047352e+001 6.867726e+001 -6.327863e-001 -1.859522e+001 -6.520451e-001 -1.863413e+001 -1.043036e+001 6.947387e+001
312795312.5 -1.011363e+001 6.793698e+001 -6.745538e-001 -1.928154e+001 -6.850950e-001 -1.931879e+001 -1.010941e+001 6.863788e+001
325295125 -9.819931e+000 6.750939e+001 -7.209073e-001 -1.997749e+001 -7.317433e-001 -2.002080e+001 -9.810270e+000 6.787630e+001
337794937.5 -9.498126e+000 6.697043e+001 -7.530695e-001 -2.072267e+001 -7.693288e-001 -2.069707e+001 -9.515368e+000 6.710206e+001
350294750 -9.212287e+000 6.631805e+001 -8.123937e-001 -2.143006e+001 -8.173073e-001 -2.146038e+001 -9.241469e+000 6.635241e+001
362794562.5 -8.926711e+000 6.568163e+001 -8.491740e-001 -2.206879e+001 -8.471826e-001 -2.210492e+001 -8.955364e+000 6.546983e+001
375294375 -8.667462e+000 6.498838e+001 -8.801932e-001 -2.287757e+001 -8.930465e-001 -2.280649e+001 -8.700665e+000 6.488128e+001
387794187.5 -8.424689e+000 6.422566e+001 -9.342957e-001 -2.344517e+001 -9.438726e-001 -2.353925e+001 -8.437665e+000 6.398312e+001
400294000 -8.186825e+000 6.380203e+001 -9.762495e-001 -2.425418e+001 -9.806949e-001 -2.425199e+001 -8.203251e+000 6.331237e+001
412793812.5 -7.940392e+000 6.310828e+001 -1.024312e+000 -2.488269e+001 -1.022423e+000 -2.478905e+001 -7.960214e+000 6.267393e+001
425293625 -7.726823e+000 6.246030e+001 -1.061682e+000 -2.556545e+001 -1.075495e+000 -2.549626e+001 -7.739727e+000 6.196365e+001
437793437.5 -7.508760e+000 6.180151e+001 -1.107085e+000 -2.623318e+001 -1.115125e+000 -2.621040e+001 -7.537206e+000 6.107917e+001
450293250 -7.312499e+000 6.124144e+001 -1.144759e+000 -2.693405e+001 -1.157621e+000 -2.704175e+001 -7.308308e+000 6.062517e+001
462793062.5 -7.130442e+000 6.049874e+001 -1.205537e+000 -2.766739e+001 -1.228842e+000 -2.760747e+001 -7.102793e+000 5.983835e+001
475292875 -6.956422e+000 5.994661e+001 -1.262682e+000 -2.839261e+001 -1.278214e+000 -2.838414e+001 -6.893971e+000 5.919936e+001
487792687.5 -6.764310e+000 5.933324e+001 -1.320863e+000 -2.901831e+001 -1.314140e+000 -2.901320e+001 -6.708454e+000 5.860828e+001
500292500 -6.582429e+000 5.858908e+001 -1.356955e+000 -2.975631e+001 -1.368754e+000 -2.972099e+001 -6.518293e+000 5.809468e+001
512792312.5 -6.379557e+000 5.801153e+001 -1.427242e+000 -3.035172e+001 -1.429780e+000 -3.029663e+001 -6.354823e+000 5.753772e+001
525292125 -6.227837e+000 5.726153e+001 -1.484205e+000 -3.103659e+001 -1.495732e+000 -3.105708e+001 -6.194382e+000 5.694631e+001
537791937.5 -6.062407e+000 5.658724e+001 -1.535524e+000 -3.176596e+001 -1.547100e+000 -3.160958e+001 -6.015388e+000 5.635910e+001
550291750 -5.882825e+000 5.595722e+001 -1.589292e+000 -3.245831e+001 -1.603642e+000 -3.241841e+001 -5.873056e+000 5.583330e+001
562791562.5 -5.730319e+000 5.516954e+001 -1.639636e+000 -3.315538e+001 -1.661443e+000 -3.308693e+001 -5.728060e+000 5.520400e+001
575291375 -5.577430e+000 5.459480e+001 -1.720439e+000 -3.371805e+001 -1.720778e+000 -3.369149e+001 -5.593113e+000 5.460146e+001
587791187.5 -5.421691e+000 5.393362e+001 -1.782485e+000 -3.434648e+001 -1.783457e+000 -3.432685e+001 -5.435600e+000 5.395472e+001
600291000 -5.281216e+000 5.331702e+001 -1.843999e+000 -3.502292e+001 -1.850698e+000 -3.505353e+001 -5.303131e+000 5.324624e+001
612790812.5 -5.132340e+000 5.267285e+001 -1.912122e+000 -3.569851e+001 -1.931568e+000 -3.560461e+001 -5.179919e+000 5.261456e+001
625290625 -4.993783e+000 5.201051e+001 -1.971102e+000 -3.636047e+001 -2.000023e+000 -3.628995e+001 -5.042099e+000 5.184266e+001
637790437.5 -4.870357e+000 5.141040e+001 -2.038527e+000 -3.690863e+001 -2.066018e+000 -3.681477e+001 -4.888553e+000 5.119123e+001
650290250 -4.746605e+000 5.083493e+001 -2.122757e+000 -3.759453e+001 -2.126018e+000 -3.736006e+001 -4.758501e+000 5.054406e+001
662790062.5 -4.621247e+000 5.015704e+001 -2.165096e+000 -3.823611e+001 -2.196395e+000 -3.811103e+001 -4.631797e+000 4.997876e+001
675289875 -4.493007e+000 4.950484e+001 -2.253527e+000 -3.879551e+001 -2.272261e+000 -3.886369e+001 -4.497908e+000 4.932335e+001
687789687.5 -4.365817e+000 4.883342e+001 -2.314537e+000 -3.948025e+001 -2.328869e+000 -3.933617e+001 -4.373525e+000 4.869984e+001
700289500 -4.262548e+000 4.822251e+001 -2.382842e+000 -4.008961e+001 -2.401345e+000 -4.007345e+001 -4.252836e+000 4.816359e+001
712789312.5 -4.143623e+000 4.767441e+001 -2.455417e+000 -4.066680e+001 -2.484273e+000 -4.057966e+001 -4.133553e+000 4.770841e+001
725289125 -4.037899e+000 4.714213e+001 -2.531453e+000 -4.130716e+001 -2.561470e+000 -4.114484e+001 -4.034819e+000 4.714277e+001
737788937.5 -3.925878e+000 4.655613e+001 -2.606312e+000 -4.189055e+001 -2.619887e+000 -4.182563e+001 -3.920899e+000 4.654279e+001
750288750 -3.858507e+000 4.628625e+001 -2.727214e+000 -4.224386e+001 -2.738458e+000 -4.222860e+001 -3.865690e+000 4.612437e+001
762788562.5 -3.647464e+000 4.519147e+001 -2.673344e+000 -4.347660e+001 -2.694231e+000 -4.334000e+001 -3.648458e+000 4.495176e+001
775288375 -3.646851e+000 4.495418e+001 -2.846476e+000 -4.380139e+001 -2.869391e+000 -4.363778e+001 -3.638710e+000 4.467185e+001
787788187.5 -3.541883e+000 4.446824e+001 -2.934467e+000 -4.430016e+001 -2.934626e+000 -4.416685e+001 -3.534345e+000 4.409266e+001
800288000 -3.448857e+000 4.392677e+001 -3.010877e+000 -4.489688e+001 -3.025471e+000 -4.490548e+001 -3.448847e+000 4.339168e+001
812787812.5 -3.363531e+000 4.328775e+001 -3.104813e+000 -4.551283e+001 -3.112940e+000 -4.537771e+001 -3.364144e+000 4.290530e+001
825287625 -3.262540e+000 4.270573e+001 -3.170403e+000 -4.603535e+001 -3.214943e+000 -4.593926e+001 -3.280906e+000 4.235594e+001
837787437.5 -3.183787e+000 4.212596e+001 -3.272492e+000 -4.656168e+001 -3.300439e+000 -4.652335e+001 -3.183328e+000 4.183401e+001
850287250 -3.108985e+000 4.162738e+001 -3.356553e+000 -4.705545e+001 -3.359643e+000 -4.690611e+001 -3.096118e+000 4.135088e+001
862787062.5 -3.028296e+000 4.108714e+001 -3.437020e+000 -4.769140e+001 -3.447468e+000 -4.765093e+001 -3.018716e+000 4.075272e+001
875286875 -2.951171e+000 4.055000e+001 -3.524039e+000 -4.825182e+001 -3.532502e+000 -4.824874e+001 -2.940588e+000 4.026524e+001
887786687.5 -2.875540e+000 3.997863e+001 -3.592505e+000 -4.884213e+001 -3.620310e+000 -4.874176e+001 -2.859855e+000 3.965006e+001
900286500 -2.800893e+000 3.947585e+001 -3.685398e+000 -4.939606e+001 -3.699806e+000 -4.918646e+001 -2.781257e+000 3.911700e+001
912786312.5 -2.741095e+000 3.891664e+001 -3.781150e+000 -5.010935e+001 -3.771971e+000 -4.972096e+001 -2.704527e+000 3.854301e+001
925286125 -2.667269e+000 3.846167e+001 -3.874403e+000 -5.053780e+001 -3.864236e+000 -5.029166e+001 -2.640558e+000 3.793374e+001
937785937.5 -2.598492e+000 3.784152e+001 -3.959568e+000 -5.105072e+001 -3.969953e+000 -5.090333e+001 -2.573704e+000 3.735351e+001
950285750 -2.526910e+000 3.726352e+001 -4.049790e+000 -5.161724e+001 -4.060787e+000 -5.144457e+001 -2.510699e+000 3.685630e+001
962785562.5 -2.466874e+000 3.670705e+001 -4.158526e+000 -5.225063e+001 -4.146710e+000 -5.216780e+001 -2.442874e+000 3.625894e+001
975285375 -2.396407e+000 3.619706e+001 -4.246052e+000 -5.268351e+001 -4.261533e+000 -5.269895e+001 -2.400917e+000 3.582110e+001
987785187.5 -2.321799e+000 3.564276e+001 -4.330410e+000 -5.332620e+001 -4.344817e+000 -5.329563e+001 -2.326051e+000 3.526067e+001
1000285000 -2.268418e+000 3.500748e+001 -4.445249e+000 -5.392442e+001 -4.470100e+000 -5.365303e+001 -2.273992e+000 3.489273e+001
1012784812.5 -2.204885e+000 3.461147e+001 -4.542660e+000 -5.423267e+001 -4.527488e+000 -5.422571e+001 -2.197193e+000 3.437714e+001
1025284625 -2.137162e+000 3.400977e+001 -4.647479e+000 -5.479297e+001 -4.652114e+000 -5.480841e+001 -2.151763e+000 3.385860e+001
1037784437.5 -2.092369e+000 3.338444e+001 -4.738874e+000 -5.559877e+001 -4.768667e+000 -5.523341e+001 -2.097421e+000 3.335965e+001
1050284250 -2.027505e+000 3.289966e+001 -4.846505e+000 -5.602448e+001 -4.857818e+000 -5.583163e+001 -2.028274e+000 3.274802e+001
1062784062.5 -1.980271e+000 3.251501e+001 -4.963278e+000 -5.636984e+001 -4.961247e+000 -5.645968e+001 -1.985912e+000 3.217131e+001
1075283875 -1.924539e+000 3.202792e+001 -5.061274e+000 -5.690559e+001 -5.082364e+000 -5.682568e+001 -1.941965e+000 3.165352e+001
1087783687.5 -1.874905e+000 3.162605e+001 -5.173463e+000 -5.733546e+001 -5.170856e+000 -5.726509e+001 -1.872363e+000 3.121640e+001
1100283500 -1.830953e+000 3.109757e+001 -5.298928e+000 -5.776971e+001 -5.273842e+000 -5.796551e+001 -1.819851e+000 3.059583e+001
1112783312.5 -1.772653e+000 3.052338e+001 -5.398980e+000 -5.835292e+001 -5.421273e+000 -5.832076e+001 -1.780981e+000 3.024796e+001
1125283125 -1.725880e+000 3.003026e+001 -5.507993e+000 -5.889156e+001 -5.498241e+000 -5.889278e+001 -1.710849e+000 2.968253e+001
1137782937.5 -1.662615e+000 2.961870e+001 -5.589337e+000 -5.920038e+001 -5.621228e+000 -5.927069e+001 -1.675762e+000 2.938332e+001
1150282750 -1.628605e+000 2.911103e+001 -5.720771e+000 -5.980038e+001 -5.729455e+000 -5.985565e+001 -1.636594e+000 2.890683e+001
1162782562.5 -1.593008e+000 2.872861e+001 -5.851904e+000 -6.014914e+001 -5.822622e+000 -6.014353e+001 -1.568759e+000 2.853519e+001
1175282375 -1.550469e+000 2.825654e+001 -5.937109e+000 -6.065522e+001 -5.936451e+000 -6.050214e+001 -1.536632e+000 2.807037e+001
1187782187.5 -1.503523e+000 2.775510e+001 -6.059614e+000 -6.124747e+001 -6.068737e+000 -6.123012e+001 -1.507672e+000 2.745208e+001
1200282000 -1.455817e+000 2.741480e+001 -6.175014e+000 -6.159401e+001 -6.180821e+000 -6.149734e+001 -1.447928e+000 2.705593e+001
1212781812.5 -1.414941e+000 2.690837e+001 -6.261681e+000 -6.209010e+001 -6.276416e+000 -6.207322e+001 -1.413574e+000 2.647074e+001
1225281625 -1.372030e+000 2.648870e+001 -6.383898e+000 -6.250726e+001 -6.416280e+000 -6.249400e+001 -1.372397e+000 2.599129e+001
1237781437.5 -1.346820e+000 2.605439e+001 -6.524765e+000 -6.304298e+001 -6.542250e+000 -6.294514e+001 -1.345121e+000 2.556850e+001
1250281250 -1.313043e+000 2.565642e+001 -6.650273e+000 -6.336477e+001 -6.644696e+000 -6.348602e+001 -1.302188e+000 2.506699e+001
1262781062.5 -1.266821e+000 2.523697e+001 -6.765224e+000 -6.377622e+001 -6.766334e+000 -6.384727e+001 -1.261921e+000 2.466323e+001
1275280875 -1.235076e+000 2.469104e+001 -6.880631e+000 -6.430936e+001 -6.927148e+000 -6.417410e+001 -1.246097e+000 2.429781e+001
1287780687.5 -1.207166e+000 2.424828e+001 -7.029471e+000 -6.483318e+001 -7.026234e+000 -6.467367e+001 -1.195372e+000 2.383155e+001
1300280500 -1.175331e+000 2.384354e+001 -7.166494e+000 -6.522049e+001 -7.129329e+000 -6.500598e+001 -1.153558e+000 2.336413e+001
1312780312.5 -1.138564e+000 2.340908e+001 -7.274443e+000 -6.556816e+001 -7.288686e+000 -6.540646e+001 -1.130333e+000 2.308974e+001
1325280125 -1.109662e+000 2.299283e+001 -7.411707e+000 -6.615250e+001 -7.397925e+000 -6.590508e+001 -1.098538e+000 2.250074e+001
1337779937.5 -1.079059e+000 2.260543e+001 -7.528459e+000 -6.637904e+001 -7.550146e+000 -6.641755e+001 -1.081124e+000 2.204837e+001
1350279750 -1.046383e+000 2.215429e+001 -7.639323e+000 -6.699928e+001 -7.665313e+000 -6.694241e+001 -1.040126e+000 2.164153e+001
1362779562.5 -1.014601e+000 2.191291e+001 -7.794178e+000 -6.723063e+001 -7.810883e+000 -6.719894e+001 -1.019083e+000 2.121061e+001
1375279375 -9.980732e-001 2.134094e+001 -7.918845e+000 -6.780382e+001 -7.944742e+000 -6.775537e+001 -9.942113e-001 2.069192e+001
1387779187.5 -9.607965e-001 2.094200e+001 -8.071781e+000 -6.805995e+001 -8.096734e+000 -6.815887e+001 -9.791725e-001 2.033285e+001
1400279000 -9.285838e-001 2.050256e+001 -8.180584e+000 -6.858573e+001 -8.216443e+000 -6.862040e+001 -9.335153e-001 1.981701e+001
1412778812.5 -9.036204e-001 2.005935e+001 -8.332091e+000 -6.881582e+001 -8.369420e+000 -6.895668e+001 -9.156814e-001 1.952334e+001
1425278625 -8.726315e-001 1.961040e+001 -8.474856e+000 -6.925494e+001 -8.481277e+000 -6.938600e+001 -8.772364e-001 1.909512e+001
1437778437.5 -8.593096e-001 1.917960e+001 -8.636003e+000 -6.971908e+001 -8.636822e+000 -6.982582e+001 -8.629446e-001 1.872598e+001
1450278250 -8.417220e-001 1.873228e+001 -8.785323e+000 -7.015727e+001 -8.792388e+000 -7.017497e+001 -8.438220e-001 1.833831e+001
1462778062.5 -7.977245e-001 1.835448e+001 -8.929330e+000 -7.049055e+001 -8.934642e+000 -7.064511e+001 -8.121518e-001 1.789247e+001
1475277875 -7.863258e-001 1.791425e+001 -9.071913e+000 -7.103569e+001 -9.087816e+000 -7.102003e+001 -7.966380e-001 1.757610e+001
1487777687.5 -7.680171e-001 1.753801e+001 -9.231600e+000 -7.137878e+001 -9.238754e+000 -7.138696e+001 -7.795049e-001 1.715416e+001
1500277500 -6.939048e-001 1.708352e+001 -9.322519e+000 -7.193412e+001 -9.369625e+000 -7.179837e+001 -7.199502e-001 1.671983e+001
1512777312.5 -7.242890e-001 1.677921e+001 -9.528297e+000 -7.213816e+001 -9.543654e+000 -7.201425e+001 -7.392247e-001 1.632019e+001
1525277125 -7.113091e-001 1.642358e+001 -9.706900e+000 -7.244893e+001 -9.726810e+000 -7.225323e+001 -7.357243e-001 1.604030e+001
1537776937.5 -6.969624e-001 1.613861e+001 -9.866531e+000 -7.272267e+001 -9.872391e+000 -7.262859e+001 -6.927282e-001 1.559765e+001
1550276750 -6.883737e-001 1.573234e+001 -1.003872e+001 -7.308833e+001 -1.003743e+001 -7.314374e+001 -6.870008e-001 1.518534e+001
1562776562.5 -6.482347e-001 1.535585e+001 -1.018077e+001 -7.331526e+001 -1.023116e+001 -7.357214e+001 -6.703454e-001 1.480651e+001
1575276375 -6.362319e-001 1.494510e+001 -1.036742e+001 -7.395895e+001 -1.039175e+001 -7.376263e+001 -6.493157e-001 1.449196e+001
1587776187.5 -6.060794e-001 1.464789e+001 -1.052659e+001 -7.408336e+001 -1.052110e+001 -7.419585e+001 -6.137248e-001 1.405480e+001
1600276000 -6.096484e-001 1.427584e+001 -1.071974e+001 -7.456391e+001 -1.069845e+001 -7.452075e+001 -6.039317e-001 1.379009e+001
1612775812.5 -5.813764e-001 1.392673e+001 -1.086276e+001 -7.485647e+001 -1.086977e+001 -7.473420e+001 -5.770963e-001 1.337848e+001
1625275625 -5.686865e-001 1.368291e+001 -1.104702e+001 -7.508012e+001 -1.107341e+001 -7.518925e+001 -5.838568e-001 1.303521e+001
1637775437.5 -5.515934e-001 1.332276e+001 -1.121534e+001 -7.552532e+001 -1.122742e+001 -7.545621e+001 -5.624813e-001 1.265516e+001
1650275250 -5.281455e-001 1.306480e+001 -1.140755e+001 -7.582504e+001 -1.140036e+001 -7.585560e+001 -5.443305e-001 1.227534e+001
1662775062.5 -5.300260e-001 1.271393e+001 -1.159711e+001 -7.612074e+001 -1.157751e+001 -7.606570e+001 -5.177730e-001 1.186292e+001
1675274875 -5.245392e-001 1.238581e+001 -1.178545e+001 -7.648814e+001 -1.177693e+001 -7.655276e+001 -5.213559e-001 1.140190e+001
1687774687.5 -5.035840e-001 1.200040e+001 -1.196485e+001 -7.676182e+001 -1.198272e+001 -7.681137e+001 -5.171425e-001 1.110126e+001
1700274500 -4.892046e-001 1.163975e+001 -1.216355e+001 -7.714787e+001 -1.216771e+001 -7.709653e+001 -4.982889e-001 1.071603e+001
1712774312.5 -4.614118e-001 1.128835e+001 -1.233740e+001 -7.742690e+001 -1.235013e+001 -7.739129e+001 -4.773640e-001 1.039930e+001
1725274125 -4.562646e-001 1.100909e+001 -1.254721e+001 -7.759943e+001 -1.255707e+001 -7.769376e+001 -4.702356e-001 1.012871e+001
1737773937.5 -4.360880e-001 1.063929e+001 -1.273363e+001 -7.800795e+001 -1.277106e+001 -7.806171e+001 -4.596670e-001 9.840444e+000
1750273750 -4.153905e-001 1.023633e+001 -1.293795e+001 -7.836253e+001 -1.297748e+001 -7.819777e+001 -4.446276e-001 9.540135e+000
1762773562.5 -4.406106e-001 9.971206e+000 -1.319246e+001 -7.864948e+001 -1.317333e+001 -7.875425e+001 -4.392750e-001 9.122945e+000
1775273375 -4.137453e-001 9.640052e+000 -1.338746e+001 -7.888544e+001 -1.339714e+001 -7.895050e+001 -4.291690e-001 8.845258e+000
1787773187.5 -3.900242e-001 9.303684e+000 -1.357891e+001 -7.921693e+001 -1.358546e+001 -7.928429e+001 -3.971435e-001 8.461819e+000
1800273000 -3.921151e-001 8.964601e+000 -1.381805e+001 -7.966746e+001 -1.381429e+001 -7.953398e+001 -3.985506e-001 8.082799e+000
1812772812.5 -3.821504e-001 8.722474e+000 -1.404233e+001 -7.982045e+001 -1.402406e+001 -7.988164e+001 -3.808953e-001 7.752290e+000
1825272625 -3.668562e-001 8.415306e+000 -1.426599e+001 -7.998378e+001 -1.427703e+001 -8.005886e+001 -3.824991e-001 7.430173e+000
1837772437.5 -3.595130e-001 8.000880e+000 -1.449182e+001 -8.026244e+001 -1.452129e+001 -8.046525e+001 -3.722871e-001 7.113744e+000
1850272250 -3.497324e-001 7.698920e+000 -1.474274e+001 -8.058759e+001 -1.473946e+001 -8.067503e+001 -3.577587e-001 6.806778e+000
1862772062.5 -3.401238e-001 7.438075e+000 -1.499129e+001 -8.081199e+001 -1.498777e+001 -8.099008e+001 -3.484835e-001 6.520667e+000
1875271875 -3.383609e-001 7.071764e+000 -1.524912e+001 -8.110748e+001 -1.523503e+001 -8.117298e+001 -3.381143e-001 6.253189e+000
1887771687.5 -3.318086e-001 6.717394e+000 -1.550261e+001 -8.136869e+001 -1.550490e+001 -8.132376e+001 -3.445643e-001 6.011264e+000
