#	mhz	s	ma	r	50

50	0.82	151.70	0.46	57.80	0.46	57.80	0.82	151.70
100	0.66	136.90	0.65	44.10	0.65	44.10	0.66	136.90
150	0.50	122.00	0.84	30.30	0.84	30.30	0.50	122.00
200	0.42	116.00	0.88	24.50	0.88	24.50	0.42	116.00
250	0.33	109.90	0.93	18.70	0.93	18.70	0.33	109.90
300	0.28	106.70	0.95	15.30	0.95	15.30	0.28	106.70
350	0.23	103.50	0.97	11.90	0.97	11.90	0.23	103.50
400	0.19	100.90	0.97	9.80	0.97	9.80	0.19	100.90
450	0.16	98.30	0.98	7.70	0.98	7.70	0.16	98.30
500	0.13	95.50	0.99	5.70	0.99	5.70	0.13	95.50
550	0.11	92.80	0.99	3.60	0.99	3.60	0.11	92.80
600	0.10	92.60	0.99	2.40	0.99	2.40	0.10	92.60
650	0.08	92.40	1.00	1.10	1.00	1.10	0.08	92.40
700	0.07	91.10	1.00	0.00	1.00	0.00	0.07	91.10
750	0.05	89.80	1.00	-1.00	1.00	-1.00	0.05	89.80
800	0.05	91.10	1.00	-2.10	1.00	-2.10	0.05	91.10
850	0.04	92.30	1.00	-3.10	1.00	-3.10	0.04	92.30
900	0.03	94.60	1.00	-4.00	1.00	-4.00	0.03	94.60
950	0.02	96.90	1.00	-4.90	1.00	-4.90	0.02	96.90
1000	0.01	-35.30	1.00	-5.70	1.00	-5.70	0.01	-35.30
1050	0.00	-167.50	1.00	-6.50	1.00	-6.50	0.00	-167.50
1100	0.01	-139.50	1.00	-7.40	1.00	-7.40	0.01	-139.50
1150	0.01	-111.60	1.00	-8.20	1.00	-8.20	0.01	-111.60
1200	0.02	-109.80	1.00	-9.00	1.00	-9.00	0.02	-109.80
1250	0.03	-108.10	1.00	-9.80	1.00	-9.80	0.03	-108.10
1300	0.03	-109.90	1.00	-10.60	1.00	-10.60	0.03	-109.90
1350	0.04	-111.70	1.00	-11.30	1.00	-11.30	0.04	-111.70
1400	0.05	-111.50	1.00	-12.00	1.00	-12.00	0.05	-111.50
1450	0.05	-111.40	1.00	-12.80	1.00	-12.80	0.05	-111.40
1500	0.06	-112.10	1.00	-13.60	1.00	-13.60	0.06	-112.10
1550	0.06	-112.70	1.00	-14.30	1.00	-14.30	0.06	-112.70
1600	0.07	-112.20	1.00	-15.10	1.00	-15.10	0.07	-112.20
1650	0.08	-111.60	1.00	-15.80	1.00	-15.80	0.08	-111.60
1700	0.08	-113.10	1.00	-16.60	1.00	-16.60	0.08	-113.10
1750	0.09	-114.70	1.00	-17.30	1.00	-17.30	0.09	-114.70
1800	0.09	-114.10	1.00	-18.10	1.00	-18.10	0.09	-114.10
1850	0.10	-113.60	0.99	-18.80	0.99	-18.80	0.10	-113.60
1900	0.10	-114.70	0.99	-19.50	0.99	-19.50	0.10	-114.70
1950	0.11	-115.90	0.99	-20.10	0.99	-20.10	0.11	-115.90
2000	0.12	-115.90	0.99	-21.00	0.99	-21.00	0.12	-115.90
2050	0.12	-115.90	0.99	-21.80	0.99	-21.80	0.12	-115.90
2100	0.13	-116.40	0.99	-22.50	0.99	-22.50	0.13	-116.40
2150	0.13	-116.80	0.99	-23.20	0.99	-23.20	0.13	-116.80
2200	0.14	-117.50	0.99	-23.90	0.99	-23.90	0.14	-117.50
2250	0.14	-118.10	0.99	-24.70	0.99	-24.70	0.14	-118.10
2300	0.15	-118.30	0.99	-25.40	0.99	-25.40	0.15	-118.30
2350	0.16	-118.40	0.99	-26.00	0.99	-26.00	0.16	-118.40
2400	0.16	-119.70	0.99	-26.90	0.99	-26.90	0.16	-119.70
2450	0.17	-120.90	0.98	-27.70	0.98	-27.70	0.17	-120.90
2500	0.17	-121.20	0.98	-28.40	0.98	-28.40	0.17	-121.20
2550	0.18	-121.50	0.98	-29.20	0.98	-29.20	0.18	-121.50
2600	0.19	-122.40	0.98	-29.90	0.98	-29.90	0.19	-122.40
2650	0.20	-123.30	0.98	-30.60	0.98	-30.60	0.20	-123.30
2700	0.20	-123.70	0.98	-31.30	0.98	-31.30	0.20	-123.70
2750	0.21	-124.00	0.97	-32.00	0.97	-32.00	0.21	-124.00
2800	0.22	-124.50	0.97	-32.70	0.97	-32.70	0.22	-124.50
2850	0.22	-125.00	0.97	-33.40	0.97	-33.40	0.22	-125.00
2900	0.23	-125.70	0.97	-34.40	0.97	-34.40	0.23	-125.70
2950	0.23	-126.40	0.96	-35.40	0.96	-35.40	0.23	-126.40
3000	0.24	-127.70	0.96	-35.60	0.96	-35.60	0.24	-127.70
3050	0.24	-128.90	0.96	-35.90	0.96	-35.90	0.24	-128.90
3100	0.25	-129.90	0.96	-36.80	0.96	-36.80	0.25	-129.90
3150	0.25	-130.80	0.96	-37.80	0.96	-37.80	0.25	-130.80
3200	0.26	-130.50	0.96	-38.40	0.96	-38.40	0.26	-130.50
3250	0.26	-130.20	0.96	-39.10	0.96	-39.10	0.26	-130.20
3300	0.27	-131.00	0.96	-39.90	0.96	-39.90	0.27	-131.00
3350	0.28	-131.80	0.96	-40.80	0.96	-40.80	0.28	-131.80
3400	0.28	-132.40	0.95	-41.50	0.95	-41.50	0.28	-132.40
3450	0.29	-133.00	0.95	-42.30	0.95	-42.30	0.29	-133.00
3500	0.29	-133.30	0.95	-43.10	0.95	-43.10	0.29	-133.30
3550	0.29	-133.60	0.95	-43.90	0.95	-43.90	0.29	-133.60
3600	0.30	-134.00	0.94	-44.60	0.94	-44.60	0.30	-134.00
3650	0.31	-134.40	0.94	-45.30	0.94	-45.30	0.31	-134.40
3700	0.31	-134.70	0.94	-46.30	0.94	-46.30	0.31	-134.70
3750	0.32	-135.00	0.94	-47.30	0.94	-47.30	0.32	-135.00
3800	0.33	-135.30	0.94	-48.10	0.94	-48.10	0.33	-135.30
3850	0.34	-135.70	0.93	-48.90	0.93	-48.90	0.34	-135.70
3900	0.34	-136.30	0.93	-50.00	0.93	-50.00	0.34	-136.30
3950	0.34	-137.00	0.92	-51.10	0.92	-51.10	0.34	-137.00
4000	0.36	-137.40	0.92	-52.00	0.92	-52.00	0.36	-137.40
4050	0.37	-137.70	0.91	-52.90	0.91	-52.90	0.37	-137.70
4100	0.38	-138.50	0.91	-54.00	0.91	-54.00	0.38	-138.50
4150	0.38	-139.40	0.90	-55.10	0.90	-55.10	0.38	-139.40
4200	0.40	-141.00	0.89	-56.50	0.89	-56.50	0.40	-141.00
4250	0.42	-142.60	0.88	-57.90	0.88	-57.90	0.42	-142.60
4300	0.43	-144.50	0.87	-59.20	0.87	-59.20	0.43	-144.50
4350	0.45	-146.40	0.85	-60.50	0.85	-60.50	0.45	-146.40
4400	0.47	-149.70	0.83	-62.50	0.83	-62.50	0.47	-149.70
4450	0.50	-153.10	0.80	-64.50	0.80	-64.50	0.50	-153.10
4500	0.53	-158.90	0.75	-66.50	0.75	-66.50	0.53	-158.90
4550	0.56	-164.70	0.69	-68.50	0.69	-68.50	0.56	-164.70
4600	0.56	2.60	0.59	-64.30	0.59	-64.30	0.56	2.60
4650	0.57	169.90	0.49	-60.10	0.49	-60.10	0.57	169.90
4700	0.46	153.50	0.57	-45.60	0.57	-45.60	0.46	153.50
4750	0.34	137.10	0.65	-31.10	0.65	-31.10	0.34	137.10
4800	0.23	148.00	0.75	-35.20	0.75	-35.20	0.23	148.00
4850	0.11	159.00	0.86	-39.30	0.86	-39.30	0.11	159.00
4900	0.13	5.40	0.89	-43.20	0.89	-43.20	0.13	5.40
4950	0.15	-148.30	0.92	-47.10	0.92	-47.10	0.15	-148.30
5000	0.19	-145.50	0.92	-49.60	0.92	-49.60	0.19	-145.50
5050	0.22	-142.70	0.93	-52.10	0.93	-52.10	0.22	-142.70
5100	0.24	-143.20	0.93	-53.80	0.93	-53.80	0.24	-143.20
5150	0.27	-143.80	0.93	-55.50	0.93	-55.50	0.27	-143.80
5200	0.29	-145.10	0.93	-56.90	0.93	-56.90	0.29	-145.10
5250	0.31	-146.40	0.93	-58.20	0.93	-58.20	0.31	-146.40
5300	0.32	-148.00	0.92	-59.60	0.92	-59.60	0.32	-148.00
5350	0.34	-149.70	0.92	-61.00	0.92	-61.00	0.34	-149.70
5400	0.35	-150.80	0.91	-62.00	0.91	-62.00	0.35	-150.80
5450	0.36	-151.80	0.91	-63.00	0.91	-63.00	0.36	-151.80
5500	0.37	-153.30	0.90	-64.00	0.90	-64.00	0.37	-153.30
5550	0.38	-154.80	0.90	-65.00	0.90	-65.00	0.38	-154.80
5600	0.39	-155.80	0.90	-65.90	0.90	-65.90	0.39	-155.80
5650	0.40	-156.80	0.89	-66.80	0.89	-66.80	0.40	-156.80
5700	0.41	-158.10	0.89	-67.70	0.89	-67.70	0.41	-158.10
5750	0.42	-159.50	0.89	-68.60	0.89	-68.60	0.42	-159.50
5800	0.43	-160.30	0.88	-69.40	0.88	-69.40	0.43	-160.30
5850	0.43	-161.10	0.88	-70.20	0.88	-70.20	0.43	-161.10
5900	0.44	-162.20	0.88	-71.00	0.88	-71.00	0.44	-162.20
5950	0.46	-163.20	0.87	-71.70	0.87	-71.70	0.46	-163.20
6000	0.47	-163.90	0.86	-72.70	0.86	-72.70	0.47	-163.90
6050	0.49	-164.60	0.86	-73.70	0.86	-73.70	0.49	-164.60
6100	0.50	-165.50	0.85	-74.40	0.85	-74.40	0.50	-165.50
6150	0.50	-166.40	0.85	-75.00	0.85	-75.00	0.50	-166.40
6200	0.51	-167.70	0.84	-75.90	0.84	-75.90	0.51	-167.70
6250	0.52	-169.00	0.84	-76.70	0.84	-76.70	0.52	-169.00
6300	0.52	-169.70	0.83	-77.40	0.83	-77.40	0.52	-169.70
6350	0.53	-170.40	0.83	-78.20	0.83	-78.20	0.53	-170.40
6400	0.54	-171.10	0.82	-78.90	0.82	-78.90	0.54	-171.10
6450	0.55	-171.90	0.82	-79.70	0.82	-79.70	0.55	-171.90
6500	0.55	-172.60	0.81	-80.60	0.81	-80.60	0.55	-172.60
6550	0.55	-173.40	0.81	-81.40	0.81	-81.40	0.55	-173.40
6600	0.56	-174.40	0.80	-82.10	0.80	-82.10	0.56	-174.40
6650	0.57	-175.50	0.80	-82.90	0.80	-82.90	0.57	-175.50
6700	0.57	-176.30	0.80	-83.40	0.80	-83.40	0.57	-176.30
6750	0.57	-177.10	0.79	-83.90	0.79	-83.90	0.57	-177.10
6800	0.58	1.40	0.79	-84.90	0.79	-84.90	0.58	1.40
6850	0.59	179.90	0.78	-86.00	0.78	-86.00	0.59	179.90
6900	0.59	179.20	0.78	-86.80	0.78	-86.80	0.59	179.20
6950	0.59	178.50	0.77	-87.50	0.77	-87.50	0.59	178.50
7000	0.60	176.90	0.77	-88.70	0.77	-88.70	0.60	176.90
7050	0.61	175.30	0.76	-89.80	0.76	-89.80	0.61	175.30
7100	0.62	174.10	0.76	-90.70	0.76	-90.70	0.62	174.10
7150	0.62	173.00	0.75	-91.60	0.75	-91.60	0.62	173.00
7200	0.63	171.60	0.75	-92.90	0.75	-92.90	0.63	171.60
7250	0.65	170.20	0.74	-94.20	0.74	-94.20	0.65	170.20
7300	0.65	168.40	0.73	-95.40	0.73	-95.40	0.65	168.40
7350	0.66	166.70	0.71	-96.60	0.71	-96.60	0.66	166.70
7400	0.67	165.40	0.70	-97.90	0.70	-97.90	0.67	165.40
7450	0.68	164.10	0.69	-99.10	0.69	-99.10	0.68	164.10
7500	0.69	161.90	0.67	-100.60	0.67	-100.60	0.69	161.90
7550	0.70	159.60	0.65	-102.20	0.65	-102.20	0.70	159.60
7600	0.71	157.80	0.63	-103.40	0.63	-103.40	0.71	157.80
7650	0.71	156.00	0.61	-104.70	0.61	-104.70	0.71	156.00
7700	0.73	153.30	0.59	-106.20	0.59	-106.20	0.73	153.30
7750	0.74	150.50	0.56	-107.80	0.56	-107.80	0.74	150.50
7800	0.75	146.80	0.52	-108.90	0.52	-108.90	0.75	146.80
7850	0.75	143.10	0.48	-110.10	0.48	-110.10	0.75	143.10
7900	0.76	139.00	0.44	-109.20	0.44	-109.20	0.76	139.00
7950	0.77	134.90	0.39	-108.40	0.39	-108.40	0.77	134.90
8000	0.77	129.20	0.34	-101.40	0.34	-101.40	0.77	129.20
8050	0.76	123.40	0.29	-94.40	0.29	-94.40	0.76	123.40
8100	0.73	116.50	0.30	-79.30	0.30	-79.30	0.73	116.50
8150	0.69	109.60	0.31	-64.10	0.31	-64.10	0.69	109.60
8200	0.62	103.50	0.39	-58.20	0.39	-58.20	0.62	103.50
8250	0.55	97.40	0.47	-52.20	0.47	-52.20	0.55	97.40
8300	0.46	93.90	0.56	-55.30	0.56	-55.30	0.46	93.90
8350	0.37	90.50	0.65	-58.40	0.65	-58.40	0.37	90.50
8400	0.30	96.70	0.71	-63.20	0.71	-63.20	0.30	96.70
8450	0.24	102.90	0.76	-68.00	0.76	-68.00	0.24	102.90
8500	0.22	117.90	0.79	-72.60	0.79	-72.60	0.22	117.90
8550	0.20	133.00	0.82	-77.20	0.82	-77.20	0.20	133.00
8600	0.23	141.80	0.83	-81.20	0.83	-81.20	0.23	141.80
8650	0.26	150.60	0.83	-85.10	0.83	-85.10	0.26	150.60
8700	0.29	153.60	0.83	-88.40	0.83	-88.40	0.29	153.60
8750	0.33	156.60	0.83	-91.70	0.83	-91.70	0.33	156.60
8800	0.36	156.10	0.82	-94.20	0.82	-94.20	0.36	156.10
8850	0.40	155.60	0.82	-96.70	0.82	-96.70	0.40	155.60
8900	0.42	154.70	0.80	-99.40	0.80	-99.40	0.42	154.70
8950	0.45	153.90	0.79	-102.10	0.79	-102.10	0.45	153.90
9000	0.48	153.00	0.78	-104.20	0.78	-104.20	0.48	153.00
9050	0.51	152.10	0.76	-106.30	0.76	-106.30	0.51	152.10
9100	0.53	150.80	0.75	-108.40	0.75	-108.40	0.53	150.80
9150	0.56	149.50	0.74	-110.40	0.74	-110.40	0.56	149.50
9200	0.58	147.50	0.73	-112.70	0.73	-112.70	0.58	147.50
9250	0.60	145.50	0.71	-115.10	0.71	-115.10	0.60	145.50
9300	0.61	145.10	0.69	-116.50	0.69	-116.50	0.61	145.10
9350	0.63	144.60	0.67	-118.00	0.67	-118.00	0.63	144.60
9400	0.64	143.00	0.65	-119.70	0.65	-119.70	0.64	143.00
9450	0.66	141.50	0.64	-121.50	0.64	-121.50	0.66	141.50
9500	0.67	140.50	0.62	-123.00	0.62	-123.00	0.67	140.50
9550	0.68	139.50	0.59	-124.60	0.59	-124.60	0.68	139.50
9600	0.70	138.40	0.57	-125.90	0.57	-125.90	0.70	138.40
9650	0.72	137.30	0.56	-127.20	0.56	-127.20	0.72	137.30
9700	0.72	136.00	0.54	-128.40	0.54	-128.40	0.72	136.00
9750	0.73	134.80	0.51	-129.60	0.51	-129.60	0.73	134.80
9800	0.74	134.60	0.49	-130.40	0.49	-130.40	0.74	134.60
9850	0.74	134.30	0.47	-131.20	0.47	-131.20	0.74	134.30
9900	0.76	133.00	0.46	-132.00	0.46	-132.00	0.76	133.00
9950	0.78	131.70	0.44	-132.80	0.44	-132.80	0.78	131.70
10000	0.78	130.40	0.42	-133.30	0.42	-133.30	0.78	130.40
10050	0.79	129.00	0.39	-133.90	0.39	-133.90	0.79	129.00
10100	0.80	128.50	0.38	-133.60	0.38	-133.60	0.80	128.50
10150	0.82	128.00	0.37	-133.40	0.37	-133.40	0.82	128.00
10200	0.82	126.60	0.35	-134.70	0.35	-134.70	0.82	126.60
10250	0.83	125.10	0.34	-135.90	0.34	-135.90	0.83	125.10
10300	0.84	123.50	0.31	-136.70	0.31	-136.70	0.84	123.50
10350	0.86	121.90	0.29	-137.40	0.29	-137.40	0.86	121.90
10400	0.85	120.40	0.27	-136.70	0.27	-136.70	0.85	120.40
10450	0.83	118.90	0.25	-135.90	0.25	-135.90	0.83	118.90
10500	0.85	117.10	0.23	-134.70	0.23	-134.70	0.85	117.10
10550	0.86	115.30	0.21	-133.50	0.21	-133.50	0.86	115.30
10600	0.85	113.50	0.20	-130.10	0.20	-130.10	0.85	113.50
10650	0.84	111.60	0.18	-126.70	0.18	-126.70	0.84	111.60
10700	0.85	110.70	0.17	-124.90	0.17	-124.90	0.85	110.70
10750	0.86	109.70	0.16	-123.00	0.16	-123.00	0.86	109.70
10800	0.87	108.50	0.15	-119.70	0.15	-119.70	0.87	108.50
10850	0.88	107.30	0.13	-116.40	0.13	-116.40	0.88	107.30
10900	0.88	104.80	0.11	-106.40	0.11	-106.40	0.88	104.80
10950	0.87	102.20	0.10	-96.40	0.10	-96.40	0.87	102.20
11000	0.88	100.10	0.10	-80.50	0.10	-80.50	0.88	100.10
11050	0.89	97.90	0.11	-64.60	0.11	-64.60	0.89	97.90
11100	0.89	95.00	0.13	-54.70	0.13	-54.70	0.89	95.00
11150	0.88	92.10	0.15	-44.70	0.15	-44.70	0.88	92.10
11200	0.87	89.40	0.18	-42.00	0.18	-42.00	0.87	89.40
11250	0.86	86.60	0.21	-39.30	0.21	-39.30	0.86	86.60
11300	0.85	83.90	0.25	-39.10	0.25	-39.10	0.85	83.90
11350	0.84	81.20	0.29	-38.80	0.29	-38.80	0.84	81.20
11400	0.81	78.10	0.32	-40.60	0.32	-40.60	0.81	78.10
11450	0.79	75.00	0.35	-42.40	0.35	-42.40	0.79	75.00
11500	0.76	72.50	0.40	-44.40	0.40	-44.40	0.76	72.50
11550	0.74	69.90	0.43	-46.40	0.43	-46.40	0.74	69.90
11600	0.71	67.60	0.47	-49.60	0.47	-49.60	0.71	67.60
11650	0.68	65.20	0.50	-52.70	0.50	-52.70	0.68	65.20
11700	0.64	63.20	0.54	-56.30	0.54	-56.30	0.64	63.20
11750	0.59	61.20	0.58	-59.90	0.58	-59.90	0.59	61.20
11800	0.55	61.20	0.61	-63.80	0.61	-63.80	0.55	61.20
11850	0.51	61.30	0.64	-67.60	0.64	-67.60	0.51	61.30
11900	0.46	64.10	0.66	-72.50	0.66	-72.50	0.46	64.10
11950	0.40	66.90	0.68	-77.50	0.68	-77.50	0.40	66.90
12000	0.37	73.70	0.69	-82.20	0.69	-82.20	0.37	73.70
12050	0.34	80.50	0.70	-87.00	0.70	-87.00	0.34	80.50
12100	0.35	89.40	0.69	-92.40	0.69	-92.40	0.35	89.40
12150	0.37	98.30	0.68	-97.70	0.68	-97.70	0.37	98.30
12200	0.41	103.30	0.66	-102.50	0.66	-102.50	0.41	103.30
12250	0.44	108.30	0.63	-107.30	0.63	-107.30	0.44	108.30
12300	0.50	109.40	0.59	-111.70	0.59	-111.70	0.50	109.40
12350	0.55	110.40	0.55	-116.10	0.55	-116.10	0.55	110.40
12400	0.60	108.20	0.51	-119.30	0.51	-119.30	0.60	108.20
12450	0.65	106.00	0.47	-122.50	0.47	-122.50	0.65	106.00
12500	0.68	103.20	0.41	-124.00	0.41	-124.00	0.68	103.20
12550	0.72	100.30	0.36	-125.50	0.36	-125.50	0.72	100.30
12600	0.75	97.40	0.32	-123.90	0.32	-123.90	0.75	97.40
12650	0.78	94.40	0.27	-122.20	0.27	-122.20	0.78	94.40
12700	0.79	91.10	0.24	-115.20	0.24	-115.20	0.79	91.10
12750	0.81	87.80	0.21	-108.30	0.21	-108.30	0.81	87.80
12800	0.81	84.30	0.20	-97.90	0.20	-97.90	0.81	84.30
12850	0.82	80.70	0.20	-87.50	0.20	-87.50	0.82	80.70
12900	0.82	78.00	0.22	-78.80	0.22	-78.80	0.82	78.00
12950	0.83	75.20	0.24	-70.20	0.24	-70.20	0.83	75.20
13000	0.81	72.30	0.26	-66.90	0.26	-66.90	0.81	72.30
13050	0.80	69.40	0.29	-63.60	0.29	-63.60	0.80	69.40
13100	0.79	66.90	0.32	-62.60	0.32	-62.60	0.79	66.90
13150	0.78	64.40	0.36	-61.70	0.36	-61.70	0.78	64.40
13200	0.77	62.30	0.39	-62.20	0.39	-62.20	0.77	62.30
13250	0.77	60.10	0.41	-62.60	0.41	-62.60	0.77	60.10
13300	0.73	59.50	0.44	-64.60	0.44	-64.60	0.73	59.50
13350	0.70	58.80	0.47	-66.70	0.47	-66.70	0.70	58.80
13400	0.70	55.80	0.49	-68.50	0.49	-68.50	0.70	55.80
13450	0.71	52.70	0.51	-70.40	0.51	-70.40	0.71	52.70
13500	0.69	51.10	0.53	-72.90	0.53	-72.90	0.69	51.10
13550	0.67	49.50	0.54	-75.40	0.54	-75.40	0.67	49.50
13600	0.66	48.60	0.55	-78.40	0.55	-78.40	0.66	48.60
13650	0.65	47.70	0.56	-81.40	0.56	-81.40	0.65	47.70
13700	0.65	46.80	0.55	-83.50	0.55	-83.50	0.65	46.80
13750	0.65	45.80	0.53	-85.60	0.53	-85.60	0.65	45.80
13800	0.65	44.10	0.51	-85.40	0.51	-85.40	0.65	44.10
13850	0.66	42.40	0.49	-85.10	0.49	-85.10	0.66	42.40
13900	0.68	39.10	0.50	-82.80	0.50	-82.80	0.68	39.10
13950	0.69	35.70	0.50	-80.50	0.50	-80.50	0.69	35.70
14000	0.68	32.20	0.52	-79.50	0.52	-79.50	0.68	32.20
14050	0.68	28.70	0.53	-78.50	0.53	-78.50	0.68	28.70
14100	0.68	25.80	0.56	-78.60	0.56	-78.60	0.68	25.80
14150	0.68	22.80	0.58	-78.60	0.58	-78.60	0.68	22.80
14200	0.67	19.70	0.60	-79.50	0.60	-79.50	0.67	19.70
14250	0.66	16.70	0.61	-80.30	0.61	-80.30	0.66	16.70
14300	0.65	14.40	0.63	-81.20	0.63	-81.20	0.65	14.40
14350	0.64	12.10	0.64	-82.20	0.64	-82.20	0.64	12.10
14400	0.64	9.90	0.65	-83.10	0.65	-83.10	0.64	9.90
14450	0.64	7.80	0.67	-84.10	0.67	-84.10	0.64	7.80
14500	0.63	6.20	0.68	-84.90	0.68	-84.90	0.63	6.20
14550	0.61	4.70	0.69	-85.80	0.69	-85.80	0.61	4.70
14600	0.61	3.30	0.70	-86.80	0.70	-86.80	0.61	3.30
14650	0.60	1.90	0.71	-87.80	0.71	-87.80	0.60	1.90
14700	0.59	0.30	0.72	-88.90	0.72	-88.90	0.59	0.30
14750	0.57	-1.30	0.73	-90.00	0.73	-90.00	0.57	-1.30
14800	0.57	-2.30	0.74	-91.20	0.74	-91.20	0.57	-2.30
14850	0.56	-3.40	0.75	-92.50	0.75	-92.50	0.56	-3.40
14900	0.55	-3.50	0.76	-93.30	0.76	-93.30	0.55	-3.50
14950	0.53	-3.70	0.77	-94.20	0.77	-94.20	0.53	-3.70
15000	0.52	-5.30	0.77	-95.70	0.77	-95.70	0.52	-5.30
15050	0.51	-7.00	0.78	-97.20	0.78	-97.20	0.51	-7.00
15100	0.50	-7.20	0.79	-98.10	0.79	-98.10	0.50	-7.20
15150	0.48	-7.40	0.79	-99.00	0.79	-99.00	0.48	-7.40
15200	0.48	-7.60	0.80	-100.20	0.80	-100.20	0.48	-7.60
15250	0.47	-7.70	0.81	-101.40	0.81	-101.40	0.47	-7.70
15300	0.46	-9.00	0.81	-103.00	0.81	-103.00	0.46	-9.00
15350	0.45	-10.20	0.81	-104.60	0.81	-104.60	0.45	-10.20
15400	0.44	-9.30	0.80	-105.60	0.80	-105.60	0.44	-9.30
15450	0.43	-8.30	0.80	-106.60	0.80	-106.60	0.43	-8.30
15500	0.43	-8.20	0.80	-107.80	0.80	-107.80	0.43	-8.20
15550	0.43	-8.00	0.80	-109.00	0.80	-109.00	0.43	-8.00
15600	0.42	-7.60	0.80	-109.90	0.80	-109.90	0.42	-7.60
15650	0.41	-7.30	0.80	-110.80	0.80	-110.80	0.41	-7.30
15700	0.41	-6.80	0.80	-112.10	0.80	-112.10	0.41	-6.80
15750	0.41	-6.20	0.79	-113.50	0.79	-113.50	0.41	-6.20
15800	0.39	-5.10	0.79	-114.70	0.79	-114.70	0.39	-5.10
15850	0.37	-4.00	0.79	-116.00	0.79	-116.00	0.37	-4.00
15900	0.36	-0.10	0.77	-117.70	0.77	-117.70	0.36	-0.10
15950	0.36	3.70	0.75	-119.50	0.75	-119.50	0.36	3.70
16000	0.35	9.50	0.73	-120.50	0.73	-120.50	0.35	9.50
16050	0.35	15.40	0.71	-121.50	0.71	-121.50	0.35	15.40
16100	0.37	19.80	0.67	-121.40	0.67	-121.40	0.37	19.80
16150	0.40	24.30	0.64	-121.20	0.64	-121.20	0.40	24.30
16200	0.42	23.50	0.62	-118.80	0.62	-118.80	0.42	23.50
16250	0.45	22.60	0.61	-116.50	0.61	-116.50	0.45	22.60
16300	0.45	21.70	0.62	-114.50	0.62	-114.50	0.45	21.70
16350	0.46	20.80	0.62	-112.50	0.62	-112.50	0.46	20.80
16400	0.46	19.40	0.63	-111.80	0.63	-111.80	0.46	19.40
16450	0.47	17.90	0.64	-111.10	0.64	-111.10	0.47	17.90
16500	0.46	15.80	0.65	-110.20	0.65	-110.20	0.46	15.80
16550	0.46	13.70	0.66	-109.20	0.66	-109.20	0.46	13.70
16600	0.46	11.30	0.68	-108.70	0.68	-108.70	0.46	11.30
16650	0.47	9.00	0.71	-108.30	0.71	-108.30	0.47	9.00
16700	0.45	5.60	0.73	-109.10	0.73	-109.10	0.45	5.60
16750	0.44	2.20	0.76	-109.90	0.76	-109.90	0.44	2.20
16800	0.42	0.10	0.77	-111.40	0.77	-111.40	0.42	0.10
16850	0.41	-1.90	0.78	-112.90	0.78	-112.90	0.41	-1.90
16900	0.40	-2.80	0.79	-114.50	0.79	-114.50	0.40	-2.80
16950	0.40	-3.60	0.79	-116.10	0.79	-116.10	0.40	-3.60
17000	0.40	-4.30	0.78	-117.20	0.78	-117.20	0.40	-4.30
17050	0.39	-5.00	0.77	-118.30	0.77	-118.30	0.39	-5.00
17100	0.40	-6.40	0.75	-118.20	0.75	-118.20	0.40	-6.40
17150	0.41	-7.70	0.74	-118.20	0.74	-118.20	0.41	-7.70
17200	0.41	-11.20	0.75	-116.60	0.75	-116.60	0.41	-11.20
17250	0.41	-14.70	0.75	-115.10	0.75	-115.10	0.41	-14.70
17300	0.38	-17.00	0.77	-114.70	0.77	-114.70	0.38	-17.00
17350	0.35	-19.40	0.80	-114.30	0.80	-114.30	0.35	-19.40
17400	0.33	-20.40	0.82	-114.90	0.82	-114.90	0.33	-20.40
17450	0.31	-21.40	0.85	-115.50	0.85	-115.50	0.31	-21.40
17500	0.28	-20.40	0.87	-117.00	0.87	-117.00	0.28	-20.40
17550	0.25	-19.30	0.89	-118.50	0.89	-118.50	0.25	-19.30
17600	0.23	-14.90	0.90	-120.00	0.90	-120.00	0.23	-14.90
17650	0.22	-10.40	0.91	-121.40	0.91	-121.40	0.22	-10.40
17700	0.21	-8.40	0.92	-122.70	0.92	-122.70	0.21	-8.40
17750	0.19	-6.30	0.93	-124.00	0.93	-124.00	0.19	-6.30
17800	0.18	-2.80	0.93	-125.40	0.93	-125.40	0.18	-2.80
17850	0.17	0.70	0.93	-126.80	0.93	-126.80	0.17	0.70
17900	0.17	1.40	0.93	-127.90	0.93	-127.90	0.17	1.40
17950	0.17	2.20	0.93	-128.90	0.93	-128.90	0.17	2.20
18000	0.16	1.60	0.93	-130.20	0.93	-130.20	0.16	1.60
18050	0.16	1.00	0.94	-131.40	0.94	-131.40	0.16	1.00
18100	0.16	-1.00	0.93	-132.30	0.93	-132.30	0.16	-1.00
18150	0.16	-2.90	0.93	-133.30	0.93	-133.30	0.16	-2.90
18200	0.16	-6.10	0.94	-134.30	0.94	-134.30	0.16	-6.10
18250	0.17	-9.30	0.94	-135.40	0.94	-135.40	0.17	-9.30
18300	0.17	-12.40	0.94	-136.30	0.94	-136.30	0.17	-12.40
18350	0.18	-15.50	0.94	-137.20	0.94	-137.20	0.18	-15.50
18400	0.19	-17.90	0.93	-138.00	0.93	-138.00	0.19	-17.90
18450	0.19	-20.30	0.93	-138.90	0.93	-138.90	0.19	-20.30
18500	0.20	-20.40	0.93	-139.60	0.93	-139.60	0.20	-20.40
18550	0.22	-20.50	0.94	-140.40	0.94	-140.40	0.22	-20.50
18600	0.22	-23.80	0.93	-141.40	0.93	-141.40	0.22	-23.80
