#	mhz	s	ma	r	50

50	0.97	177.70	0.03	81.70	0.03	81.70	0.97	177.70
100	0.99	176.00	0.06	81.70	0.06	81.70	0.99	176.00
150	1.00	174.20	0.09	81.70	0.09	81.70	1.00	174.20
200	0.99	172.60	0.11	80.40	0.11	80.40	0.99	172.60
250	0.98	171.00	0.14	79.10	0.14	79.10	0.98	171.00
300	0.98	168.90	0.17	77.10	0.17	77.10	0.98	168.90
350	0.98	166.90	0.19	75.10	0.19	75.10	0.98	166.90
400	0.97	165.40	0.22	73.70	0.22	73.70	0.97	165.40
450	0.96	164.00	0.24	72.30	0.24	72.30	0.96	164.00
500	0.95	160.70	0.28	70.10	0.28	70.10	0.95	160.70
550	0.94	157.50	0.32	67.80	0.32	67.80	0.94	157.50
600	0.94	155.80	0.34	65.80	0.34	65.80	0.94	155.80
650	0.93	154.00	0.37	63.90	0.37	63.90	0.93	154.00
700	0.92	152.00	0.39	62.30	0.39	62.30	0.92	152.00
750	0.90	149.90	0.41	60.80	0.41	60.80	0.90	149.90
800	0.90	148.40	0.44	58.80	0.44	58.80	0.90	148.40
850	0.89	146.80	0.46	56.90	0.46	56.90	0.89	146.80
900	0.87	144.90	0.48	55.10	0.48	55.10	0.87	144.90
950	0.86	143.10	0.50	53.40	0.50	53.40	0.86	143.10
1000	0.84	141.50	0.52	51.70	0.52	51.70	0.84	141.50
1050	0.83	139.80	0.54	50.00	0.54	50.00	0.83	139.80
1100	0.82	137.90	0.55	48.50	0.55	48.50	0.82	137.90
1150	0.81	136.10	0.57	47.00	0.57	47.00	0.81	136.10
1200	0.80	134.50	0.59	45.40	0.59	45.40	0.80	134.50
1250	0.78	132.90	0.60	43.70	0.60	43.70	0.78	132.90
1300	0.77	131.10	0.62	42.50	0.62	42.50	0.77	131.10
1350	0.77	129.30	0.63	41.20	0.63	41.20	0.77	129.30
1400	0.75	128.00	0.64	39.60	0.64	39.60	0.75	128.00
1450	0.74	126.70	0.66	38.00	0.66	38.00	0.74	126.70
1500	0.73	125.00	0.67	36.70	0.67	36.70	0.73	125.00
1550	0.72	123.40	0.68	35.50	0.68	35.50	0.72	123.40
1600	0.71	121.90	0.69	34.10	0.69	34.10	0.71	121.90
1650	0.70	120.30	0.70	32.80	0.70	32.80	0.70	120.30
1700	0.69	118.90	0.71	31.50	0.71	31.50	0.69	118.90
1750	0.68	117.50	0.73	30.10	0.73	30.10	0.68	117.50
1800	0.67	116.40	0.73	29.20	0.73	29.20	0.67	116.40
1850	0.66	115.30	0.74	28.20	0.74	28.20	0.66	115.30
1900	0.65	113.90	0.75	27.00	0.75	27.00	0.65	113.90
1950	0.64	112.40	0.76	25.80	0.76	25.80	0.64	112.40
2000	0.63	111.30	0.77	24.60	0.77	24.60	0.63	111.30
2050	0.62	110.10	0.77	23.40	0.77	23.40	0.62	110.10
2100	0.61	109.10	0.78	22.40	0.78	22.40	0.61	109.10
2150	0.60	108.10	0.79	21.50	0.79	21.50	0.60	108.10
2200	0.59	106.90	0.80	20.30	0.80	20.30	0.59	106.90
2250	0.59	105.60	0.80	19.20	0.80	19.20	0.59	105.60
2300	0.57	104.90	0.81	18.30	0.81	18.30	0.57	104.90
2350	0.56	104.10	0.81	17.40	0.81	17.40	0.56	104.10
2400	0.55	103.20	0.82	16.40	0.82	16.40	0.55	103.20
2450	0.55	102.40	0.82	15.50	0.82	15.50	0.55	102.40
2500	0.54	101.70	0.83	14.40	0.83	14.40	0.54	101.70
2550	0.53	101.00	0.84	13.40	0.84	13.40	0.53	101.00
2600	0.52	100.30	0.84	12.50	0.84	12.50	0.52	100.30
2650	0.51	99.70	0.85	11.60	0.85	11.60	0.51	99.70
2700	0.50	99.20	0.85	10.80	0.85	10.80	0.50	99.20
2750	0.50	98.80	0.86	9.90	0.86	9.90	0.50	98.80
2800	0.49	98.20	0.86	9.00	0.86	9.00	0.49	98.20
2850	0.48	97.70	0.87	8.20	0.87	8.20	0.48	97.70
2900	0.47	97.40	0.87	7.00	0.87	7.00	0.47	97.40
2950	0.46	97.10	0.88	5.90	0.88	5.90	0.46	97.10
3000	0.46	96.70	0.88	5.10	0.88	5.10	0.46	96.70
3050	0.45	96.40	0.89	4.30	0.89	4.30	0.45	96.40
3100	0.44	95.90	0.89	3.20	0.89	3.20	0.44	95.90
3150	0.43	95.30	0.89	2.10	0.89	2.10	0.43	95.30
3200	0.42	95.20	0.89	1.50	0.89	1.50	0.42	95.20
3250	0.42	95.00	0.90	0.90	0.90	0.90	0.42	95.00
3300	0.41	95.10	0.90	-0.10	0.90	-0.10	0.41	95.10
3350	0.41	95.20	0.91	-1.10	0.91	-1.10	0.41	95.20
3400	0.40	94.70	0.91	-1.80	0.91	-1.80	0.40	94.70
3450	0.40	94.20	0.91	-2.60	0.91	-2.60	0.40	94.20
3500	0.39	94.40	0.91	-3.30	0.91	-3.30	0.39	94.40
3550	0.38	94.70	0.91	-4.00	0.91	-4.00	0.38	94.70
3600	0.37	94.70	0.92	-4.80	0.92	-4.80	0.37	94.70
3650	0.37	94.80	0.92	-5.60	0.92	-5.60	0.37	94.80
3700	0.37	94.30	0.92	-6.50	0.92	-6.50	0.37	94.30
3750	0.36	93.70	0.92	-7.30	0.92	-7.30	0.36	93.70
3800	0.35	93.60	0.93	-7.90	0.93	-7.90	0.35	93.60
3850	0.35	93.50	0.93	-8.60	0.93	-8.60	0.35	93.50
3900	0.35	93.00	0.93	-9.50	0.93	-9.50	0.35	93.00
3950	0.34	92.60	0.93	-10.30	0.93	-10.30	0.34	92.60
4000	0.34	92.30	0.94	-11.00	0.94	-11.00	0.34	92.30
4050	0.33	91.90	0.94	-11.70	0.94	-11.70	0.33	91.90
4100	0.33	91.20	0.94	-12.50	0.94	-12.50	0.33	91.20
4150	0.32	90.50	0.94	-13.20	0.94	-13.20	0.32	90.50
4200	0.32	89.70	0.94	-14.00	0.94	-14.00	0.32	89.70
4250	0.32	88.90	0.94	-14.70	0.94	-14.70	0.32	88.90
4300	0.31	88.10	0.94	-15.20	0.94	-15.20	0.31	88.10
4350	0.31	87.20	0.94	-15.80	0.94	-15.80	0.31	87.20
4400	0.30	86.60	0.95	-16.60	0.95	-16.60	0.30	86.60
4450	0.29	86.00	0.95	-17.30	0.95	-17.30	0.29	86.00
4500	0.29	84.50	0.95	-18.20	0.95	-18.20	0.29	84.50
4550	0.28	83.10	0.95	-19.20	0.95	-19.20	0.28	83.10
4600	0.28	82.20	0.95	-19.90	0.95	-19.90	0.28	82.20
4650	0.27	81.40	0.96	-20.60	0.96	-20.60	0.27	81.40
4700	0.26	80.20	0.96	-21.20	0.96	-21.20	0.26	80.20
4750	0.26	79.00	0.96	-21.90	0.96	-21.90	0.26	79.00
4800	0.25	78.10	0.96	-22.60	0.96	-22.60	0.25	78.10
4850	0.24	77.20	0.96	-23.40	0.96	-23.40	0.24	77.20
4900	0.24	76.00	0.96	-24.10	0.96	-24.10	0.24	76.00
4950	0.23	74.90	0.96	-24.80	0.96	-24.80	0.23	74.90
5000	0.23	74.30	0.97	-25.50	0.97	-25.50	0.23	74.30
5050	0.22	73.70	0.97	-26.20	0.97	-26.20	0.22	73.70
5100	0.21	72.60	0.97	-27.00	0.97	-27.00	0.21	72.60
5150	0.21	71.50	0.97	-27.80	0.97	-27.80	0.21	71.50
5200	0.20	72.00	0.97	-28.30	0.97	-28.30	0.20	72.00
5250	0.19	72.60	0.97	-28.90	0.97	-28.90	0.19	72.60
5300	0.19	71.80	0.97	-29.60	0.97	-29.60	0.19	71.80
5350	0.19	71.00	0.98	-30.30	0.98	-30.30	0.19	71.00
5400	0.18	70.80	0.98	-31.10	0.98	-31.10	0.18	70.80
5450	0.17	70.50	0.98	-32.00	0.98	-32.00	0.17	70.50
5500	0.16	71.00	0.98	-32.60	0.98	-32.60	0.16	71.00
5550	0.16	71.40	0.98	-33.20	0.98	-33.20	0.16	71.40
5600	0.15	71.30	0.98	-34.00	0.98	-34.00	0.15	71.30
5650	0.15	71.20	0.99	-34.70	0.99	-34.70	0.15	71.20
5700	0.14	72.90	0.99	-35.50	0.99	-35.50	0.14	72.90
5750	0.14	74.60	0.99	-36.20	0.99	-36.20	0.14	74.60
5800	0.13	74.10	0.98	-36.90	0.98	-36.90	0.13	74.10
5850	0.13	73.60	0.98	-37.50	0.98	-37.50	0.13	73.60
5900	0.12	76.50	0.98	-38.10	0.98	-38.10	0.12	76.50
5950	0.12	79.40	0.98	-38.70	0.98	-38.70	0.12	79.40
6000	0.10	80.20	0.99	-39.40	0.99	-39.40	0.10	80.20
6050	0.09	80.90	0.99	-40.10	0.99	-40.10	0.09	80.90
6100	0.08	84.90	0.99	-40.60	0.99	-40.60	0.08	84.90
6150	0.08	89.00	0.99	-41.10	0.99	-41.10	0.08	89.00
6200	0.08	93.00	0.99	-41.80	0.99	-41.80	0.08	93.00
6250	0.08	97.00	0.99	-42.50	0.99	-42.50	0.08	97.00
6300	0.08	102.00	0.99	-43.10	0.99	-43.10	0.08	102.00
6350	0.08	107.00	0.99	-43.70	0.99	-43.70	0.08	107.00
6400	0.08	111.50	0.99	-44.40	0.99	-44.40	0.08	111.50
6450	0.08	116.10	0.98	-45.00	0.98	-45.00	0.08	116.10
6500	0.08	118.10	0.98	-45.70	0.98	-45.70	0.08	118.10
6550	0.08	120.10	0.98	-46.30	0.98	-46.30	0.08	120.10
6600	0.08	122.40	0.98	-47.00	0.98	-47.00	0.08	122.40
6650	0.08	124.70	0.98	-47.60	0.98	-47.60	0.08	124.70
6700	0.08	126.80	0.98	-48.00	0.98	-48.00	0.08	126.80
6750	0.09	128.90	0.98	-48.50	0.98	-48.50	0.09	128.90
6800	0.09	129.10	0.98	-49.10	0.98	-49.10	0.09	129.10
6850	0.09	129.40	0.99	-49.70	0.99	-49.70	0.09	129.40
6900	0.09	129.50	0.98	-50.30	0.98	-50.30	0.09	129.50
6950	0.09	129.50	0.98	-51.00	0.98	-51.00	0.09	129.50
7000	0.10	130.10	0.98	-51.60	0.98	-51.60	0.10	130.10
7050	0.11	130.60	0.98	-52.30	0.98	-52.30	0.11	130.60
7100	0.11	129.50	0.98	-52.80	0.98	-52.80	0.11	129.50
7150	0.11	128.30	0.98	-53.40	0.98	-53.40	0.11	128.30
7200	0.11	130.10	0.98	-54.00	0.98	-54.00	0.11	130.10
7250	0.12	131.80	0.99	-54.60	0.99	-54.60	0.12	131.80
7300	0.12	129.60	0.98	-55.20	0.98	-55.20	0.12	129.60
7350	0.12	127.40	0.98	-55.70	0.98	-55.70	0.12	127.40
7400	0.12	128.20	0.98	-56.30	0.98	-56.30	0.12	128.20
7450	0.12	129.10	0.98	-56.90	0.98	-56.90	0.12	129.10
7500	0.12	127.40	0.98	-57.50	0.98	-57.50	0.12	127.40
7550	0.12	125.70	0.98	-58.10	0.98	-58.10	0.12	125.70
7600	0.12	124.50	0.98	-58.60	0.98	-58.60	0.12	124.50
7650	0.11	123.40	0.98	-59.20	0.98	-59.20	0.11	123.40
7700	0.11	121.80	0.98	-59.70	0.98	-59.70	0.11	121.80
7750	0.11	120.10	0.98	-60.30	0.98	-60.30	0.11	120.10
7800	0.11	117.50	0.98	-60.90	0.98	-60.90	0.11	117.50
7850	0.11	114.80	0.98	-61.50	0.98	-61.50	0.11	114.80
7900	0.10	114.00	0.98	-62.00	0.98	-62.00	0.10	114.00
7950	0.09	113.10	0.98	-62.50	0.98	-62.50	0.09	113.10
8000	0.09	110.20	0.98	-63.10	0.98	-63.10	0.09	110.20
8050	0.09	107.30	0.99	-63.70	0.99	-63.70	0.09	107.30
8100	0.09	104.80	0.99	-64.30	0.99	-64.30	0.09	104.80
8150	0.08	102.30	0.98	-64.90	0.98	-64.90	0.08	102.30
8200	0.08	102.40	0.98	-65.40	0.98	-65.40	0.08	102.40
8250	0.08	102.60	0.98	-65.90	0.98	-65.90	0.08	102.60
8300	0.07	99.70	0.98	-66.50	0.98	-66.50	0.07	99.70
8350	0.07	96.80	0.99	-67.10	0.99	-67.10	0.07	96.80
8400	0.06	98.10	0.99	-67.60	0.99	-67.60	0.06	98.10
8450	0.06	99.40	0.99	-68.20	0.99	-68.20	0.06	99.40
8500	0.06	96.10	0.99	-68.80	0.99	-68.80	0.06	96.10
8550	0.05	92.90	0.99	-69.30	0.99	-69.30	0.05	92.90
8600	0.05	93.10	0.99	-70.00	0.99	-70.00	0.05	93.10
8650	0.05	93.20	0.99	-70.60	0.99	-70.60	0.05	93.20
8700	0.04	92.00	0.99	-71.20	0.99	-71.20	0.04	92.00
8750	0.04	90.80	0.99	-71.70	0.99	-71.70	0.04	90.80
8800	0.04	90.90	0.99	-72.10	0.99	-72.10	0.04	90.90
8850	0.04	91.10	0.99	-72.50	0.99	-72.50	0.04	91.10
8900	0.04	93.10	0.99	-73.20	0.99	-73.20	0.04	93.10
8950	0.04	95.10	0.99	-73.90	0.99	-73.90	0.04	95.10
9000	0.04	98.70	0.99	-74.50	0.99	-74.50	0.04	98.70
9050	0.04	102.30	0.99	-75.10	0.99	-75.10	0.04	102.30
9100	0.04	103.80	0.99	-75.70	0.99	-75.70	0.04	103.80
9150	0.04	105.30	0.99	-76.20	0.99	-76.20	0.04	105.30
9200	0.04	109.70	0.99	-77.00	0.99	-77.00	0.04	109.70
9250	0.03	114.20	0.99	-77.70	0.99	-77.70	0.03	114.20
9300	0.03	117.60	0.99	-78.00	0.99	-78.00	0.03	117.60
9350	0.03	121.10	0.99	-78.30	0.99	-78.30	0.03	121.10
9400	0.03	125.80	0.99	-78.90	0.99	-78.90	0.03	125.80
9450	0.03	130.50	0.99	-79.40	0.99	-79.40	0.03	130.50
9500	0.03	133.20	0.99	-80.00	0.99	-80.00	0.03	133.20
9550	0.03	136.00	0.98	-80.60	0.98	-80.60	0.03	136.00
9600	0.03	141.50	0.99	-81.30	0.99	-81.30	0.03	141.50
9650	0.03	147.00	0.99	-81.90	0.99	-81.90	0.03	147.00
9700	0.03	155.30	0.99	-82.50	0.99	-82.50	0.03	155.30
9750	0.03	163.50	0.99	-83.00	0.99	-83.00	0.03	163.50
9800	0.04	168.40	0.99	-83.50	0.99	-83.50	0.04	168.40
9850	0.04	173.30	0.99	-84.00	0.99	-84.00	0.04	173.30
9900	0.04	-3.30	0.99	-84.60	0.99	-84.60	0.04	-3.30
9950	0.05	-180.00	0.99	-85.20	0.99	-85.20	0.05	-180.00
10000	0.05	-176.30	0.99	-85.80	0.99	-85.80	0.05	-176.30
10050	0.06	-172.70	0.98	-86.40	0.98	-86.40	0.06	-172.70
10100	0.07	-172.50	0.98	-86.90	0.98	-86.90	0.07	-172.50
10150	0.08	-172.30	0.99	-87.40	0.99	-87.40	0.08	-172.30
10200	0.09	-169.20	0.99	-88.10	0.99	-88.10	0.09	-169.20
10250	0.10	-166.20	0.99	-88.80	0.99	-88.80	0.10	-166.20
10300	0.11	-167.60	0.98	-89.40	0.98	-89.40	0.11	-167.60
10350	0.12	-168.90	0.97	-90.10	0.97	-90.10	0.12	-168.90
10400	0.12	-167.90	0.98	-90.80	0.98	-90.80	0.12	-167.90
10450	0.13	-166.90	0.98	-91.50	0.98	-91.50	0.13	-166.90
10500	0.14	-167.20	0.98	-92.20	0.98	-92.20	0.14	-167.20
10550	0.15	-167.60	0.98	-92.90	0.98	-92.90	0.15	-167.60
10600	0.16	-172.10	0.97	-93.40	0.97	-93.40	0.16	-172.10
10650	0.16	-176.60	0.97	-94.00	0.97	-94.00	0.16	-176.60
10700	0.17	-175.70	0.97	-94.80	0.97	-94.80	0.17	-175.70
10750	0.19	-174.70	0.97	-95.50	0.97	-95.50	0.19	-174.70
10800	0.19	-177.20	0.97	-95.90	0.97	-95.90	0.19	-177.20
10850	0.20	-179.70	0.96	-96.20	0.96	-96.20	0.20	-179.70
10900	0.20	-2.00	0.96	-97.00	0.96	-97.00	0.20	-2.00
10950	0.21	175.70	0.96	-97.80	0.96	-97.80	0.21	175.70
11000	0.22	174.50	0.96	-98.30	0.96	-98.30	0.22	174.50
11050	0.23	173.40	0.96	-98.70	0.96	-98.70	0.23	173.40
11100	0.24	171.00	0.96	-99.40	0.96	-99.40	0.24	171.00
11150	0.24	168.50	0.95	-100.00	0.95	-100.00	0.24	168.50
11200	0.25	167.10	0.95	-100.50	0.95	-100.50	0.25	167.10
11250	0.25	165.80	0.96	-101.00	0.96	-101.00	0.25	165.80
11300	0.26	164.10	0.95	-101.60	0.95	-101.60	0.26	164.10
11350	0.26	162.40	0.95	-102.10	0.95	-102.10	0.26	162.40
11400	0.27	160.80	0.95	-102.80	0.95	-102.80	0.27	160.80
11450	0.27	159.20	0.95	-103.50	0.95	-103.50	0.27	159.20
11500	0.27	157.10	0.95	-104.00	0.95	-104.00	0.27	157.10
11550	0.28	155.00	0.95	-104.50	0.95	-104.50	0.28	155.00
11600	0.28	153.40	0.95	-105.20	0.95	-105.20	0.28	153.40
11650	0.29	151.80	0.95	-105.80	0.95	-105.80	0.29	151.80
11700	0.29	150.90	0.95	-106.40	0.95	-106.40	0.29	150.90
11750	0.29	149.90	0.95	-106.90	0.95	-106.90	0.29	149.90
11800	0.30	148.00	0.94	-107.30	0.94	-107.30	0.30	148.00
11850	0.31	146.10	0.94	-107.80	0.94	-107.80	0.31	146.10
11900	0.32	146.30	0.94	-108.50	0.94	-108.50	0.32	146.30
11950	0.32	146.40	0.94	-109.20	0.94	-109.20	0.32	146.40
12000	0.33	145.80	0.93	-109.60	0.93	-109.60	0.33	145.80
12050	0.33	145.20	0.93	-110.10	0.93	-110.10	0.33	145.20
12100	0.34	144.40	0.93	-110.70	0.93	-110.70	0.34	144.40
12150	0.34	143.60	0.93	-111.30	0.93	-111.30	0.34	143.60
12200	0.35	143.40	0.93	-111.80	0.93	-111.80	0.35	143.40
12250	0.35	143.30	0.93	-112.30	0.93	-112.30	0.35	143.30
12300	0.35	142.90	0.93	-113.10	0.93	-113.10	0.35	142.90
12350	0.36	142.50	0.92	-113.80	0.92	-113.80	0.36	142.50
12400	0.35	141.80	0.93	-114.20	0.93	-114.20	0.35	141.80
12450	0.35	141.10	0.93	-114.60	0.93	-114.60	0.35	141.10
12500	0.36	139.80	0.93	-115.40	0.93	-115.40	0.36	139.80
12550	0.36	138.50	0.92	-116.20	0.92	-116.20	0.36	138.50
12600	0.36	138.20	0.92	-116.70	0.92	-116.70	0.36	138.20
12650	0.36	137.80	0.92	-117.20	0.92	-117.20	0.36	137.80
12700	0.36	136.90	0.92	-117.80	0.92	-117.80	0.36	136.90
12750	0.36	135.90	0.92	-118.30	0.92	-118.30	0.36	135.90
12800	0.36	134.60	0.92	-119.20	0.92	-119.20	0.36	134.60
12850	0.36	133.20	0.92	-120.20	0.92	-120.20	0.36	133.20
12900	0.36	132.40	0.92	-120.50	0.92	-120.50	0.36	132.40
12950	0.36	131.50	0.92	-120.90	0.92	-120.90	0.36	131.50
13000	0.36	130.60	0.92	-121.90	0.92	-121.90	0.36	130.60
13050	0.36	129.80	0.92	-122.90	0.92	-122.90	0.36	129.80
13100	0.36	129.20	0.92	-123.40	0.92	-123.40	0.36	129.20
13150	0.36	128.70	0.92	-123.90	0.92	-123.90	0.36	128.70
13200	0.36	127.50	0.92	-124.50	0.92	-124.50	0.36	127.50
13250	0.36	126.30	0.92	-125.00	0.92	-125.00	0.36	126.30
13300	0.35	127.30	0.92	-126.20	0.92	-126.20	0.35	127.30
13350	0.34	128.20	0.92	-127.30	0.92	-127.30	0.34	128.20
13400	0.35	125.40	0.91	-128.20	0.91	-128.20	0.35	125.40
13450	0.36	122.50	0.91	-129.00	0.91	-129.00	0.36	122.50
13500	0.36	122.00	0.91	-130.00	0.91	-130.00	0.36	122.00
13550	0.36	121.40	0.91	-130.90	0.91	-130.90	0.36	121.40
13600	0.37	121.00	0.91	-131.90	0.91	-131.90	0.37	121.00
13650	0.37	120.60	0.91	-132.80	0.91	-132.80	0.37	120.60
13700	0.37	119.60	0.91	-133.90	0.91	-133.90	0.37	119.60
13750	0.37	118.60	0.90	-135.00	0.90	-135.00	0.37	118.60
13800	0.37	118.60	0.90	-136.00	0.90	-136.00	0.37	118.60
13850	0.37	118.50	0.90	-136.90	0.90	-136.90	0.37	118.50
13900	0.37	117.20	0.90	-137.90	0.90	-137.90	0.37	117.20
13950	0.38	115.80	0.90	-139.00	0.90	-139.00	0.38	115.80
14000	0.38	114.60	0.89	-140.40	0.89	-140.40	0.38	114.60
14050	0.38	113.30	0.88	-141.80	0.88	-141.80	0.38	113.30
14100	0.39	112.20	0.88	-142.80	0.88	-142.80	0.39	112.20
14150	0.41	111.10	0.87	-143.80	0.87	-143.80	0.41	111.10
14200	0.41	109.30	0.86	-145.20	0.86	-145.20	0.41	109.30
14250	0.41	107.40	0.86	-146.70	0.86	-146.70	0.41	107.40
14300	0.43	105.40	0.85	-148.10	0.85	-148.10	0.43	105.40
14350	0.45	103.40	0.84	-149.50	0.84	-149.50	0.45	103.40
14400	0.46	101.30	0.82	-151.00	0.82	-151.00	0.46	101.30
14450	0.47	99.30	0.81	-152.60	0.81	-152.60	0.47	99.30
14500	0.49	96.90	0.80	-154.10	0.80	-154.10	0.49	96.90
14550	0.50	94.60	0.78	-155.50	0.78	-155.50	0.50	94.60
14600	0.52	92.50	0.76	-156.90	0.76	-156.90	0.52	92.50
14650	0.54	90.40	0.74	-158.40	0.74	-158.40	0.54	90.40
14700	0.56	88.00	0.73	-160.20	0.73	-160.20	0.56	88.00
14750	0.57	85.60	0.71	-162.10	0.71	-162.10	0.57	85.60
14800	0.60	82.50	0.68	-163.90	0.68	-163.90	0.60	82.50
14850	0.62	79.40	0.66	-165.70	0.66	-165.70	0.62	79.40
14900	0.64	78.10	0.63	-167.00	0.63	-167.00	0.64	78.10
14950	0.65	76.80	0.60	-168.40	0.60	-168.40	0.65	76.80
15000	0.67	73.20	0.57	-170.10	0.57	-170.10	0.67	73.20
15050	0.69	69.70	0.54	-171.90	0.54	-171.90	0.69	69.70
15100	0.70	67.60	0.50	-172.40	0.50	-172.40	0.70	67.60
15150	0.70	65.50	0.46	-172.90	0.46	-172.90	0.70	65.50
15200	0.71	62.40	0.43	-172.00	0.43	-172.00	0.71	62.40
15250	0.73	59.30	0.39	-171.20	0.39	-171.20	0.73	59.30
15300	0.73	56.20	0.36	-168.10	0.36	-168.10	0.73	56.20
15350	0.72	53.00	0.33	-165.00	0.33	-165.00	0.72	53.00
15400	0.70	50.70	0.32	-160.30	0.32	-160.30	0.70	50.70
15450	0.68	48.40	0.31	-155.60	0.31	-155.60	0.68	48.40
15500	0.68	48.10	0.31	-153.30	0.31	-153.30	0.68	48.10
15550	0.68	47.90	0.32	-151.00	0.32	-151.00	0.68	47.90
15600	0.69	47.60	0.31	-150.70	0.31	-150.70	0.69	47.60
15650	0.69	47.30	0.31	-150.50	0.31	-150.50	0.69	47.30
15700	0.71	45.80	0.29	-149.60	0.29	-149.60	0.71	45.80
15750	0.73	44.40	0.27	-148.80	0.27	-148.80	0.73	44.40
15800	0.74	43.70	0.25	-144.50	0.25	-144.50	0.74	43.70
15850	0.74	42.90	0.23	-140.20	0.23	-140.20	0.74	42.90
15900	0.76	40.20	0.23	-132.90	0.23	-132.90	0.76	40.20
15950	0.78	37.50	0.22	-125.60	0.22	-125.60	0.78	37.50
16000	0.77	36.50	0.23	-117.60	0.23	-117.60	0.77	36.50
16050	0.76	35.60	0.24	-109.60	0.24	-109.60	0.76	35.60
16100	0.76	33.80	0.27	-105.80	0.27	-105.80	0.76	33.80
16150	0.75	32.10	0.29	-102.00	0.29	-102.00	0.75	32.10
16200	0.73	30.50	0.32	-101.00	0.32	-101.00	0.73	30.50
16250	0.71	29.00	0.35	-100.00	0.35	-100.00	0.71	29.00
16300	0.68	28.90	0.38	-101.20	0.38	-101.20	0.68	28.90
16350	0.65	28.90	0.40	-102.30	0.40	-102.30	0.65	28.90
16400	0.64	29.80	0.41	-104.70	0.41	-104.70	0.64	29.80
16450	0.63	30.80	0.41	-107.00	0.41	-107.00	0.63	30.80
16500	0.62	31.30	0.40	-106.40	0.40	-106.40	0.62	31.30
16550	0.62	31.80	0.38	-105.90	0.38	-105.90	0.62	31.80
16600	0.65	30.30	0.39	-101.80	0.39	-101.80	0.65	30.30
16650	0.68	28.90	0.39	-97.70	0.39	-97.70	0.68	28.90
16700	0.68	25.30	0.42	-94.30	0.42	-94.30	0.68	25.30
16750	0.69	21.80	0.45	-90.80	0.45	-90.80	0.69	21.80
16800	0.68	17.60	0.49	-90.20	0.49	-90.20	0.68	17.60
16850	0.67	13.40	0.53	-89.60	0.53	-89.60	0.67	13.40
16900	0.65	9.60	0.57	-90.70	0.57	-90.70	0.65	9.60
16950	0.64	5.80	0.61	-91.80	0.61	-91.80	0.64	5.80
17000	0.61	2.60	0.64	-93.50	0.64	-93.50	0.61	2.60
17050	0.58	-0.50	0.68	-95.20	0.68	-95.20	0.58	-0.50
17100	0.56	-2.50	0.70	-97.10	0.70	-97.10	0.56	-2.50
17150	0.53	-4.50	0.73	-99.10	0.73	-99.10	0.53	-4.50
17200	0.51	-6.00	0.75	-100.80	0.75	-100.80	0.51	-6.00
17250	0.48	-7.50	0.78	-102.40	0.78	-102.40	0.48	-7.50
17300	0.45	-8.10	0.80	-104.30	0.80	-104.30	0.45	-8.10
17350	0.42	-8.70	0.82	-106.10	0.82	-106.10	0.42	-8.70
17400	0.40	-9.20	0.83	-107.70	0.83	-107.70	0.40	-9.20
17450	0.38	-9.80	0.85	-109.30	0.85	-109.30	0.38	-9.80
17500	0.36	-9.20	0.87	-111.30	0.87	-111.30	0.36	-9.20
17550	0.33	-8.60	0.88	-113.20	0.88	-113.20	0.33	-8.60
17600	0.31	-6.50	0.89	-115.00	0.89	-115.00	0.31	-6.50
17650	0.30	-4.50	0.90	-116.80	0.90	-116.80	0.30	-4.50
17700	0.28	-3.40	0.91	-118.30	0.91	-118.30	0.28	-3.40
17750	0.26	-2.20	0.92	-119.70	0.92	-119.70	0.26	-2.20
17800	0.25	-1.10	0.92	-121.40	0.92	-121.40	0.25	-1.10
17850	0.23	0.00	0.93	-123.10	0.93	-123.10	0.23	0.00
17900	0.23	1.60	0.93	-124.30	0.93	-124.30	0.23	1.60
17950	0.22	3.20	0.93	-125.50	0.93	-125.50	0.22	3.20
18000	0.21	2.50	0.93	-126.80	0.93	-126.80	0.21	2.50
18050	0.20	1.70	0.93	-128.20	0.93	-128.20	0.20	1.70
18100	0.19	0.80	0.93	-129.20	0.93	-129.20	0.19	0.80
18150	0.19	-0.20	0.93	-130.30	0.93	-130.30	0.19	-0.20
18200	0.19	-2.60	0.94	-131.50	0.94	-131.50	0.19	-2.60
18250	0.19	-4.90	0.94	-132.60	0.94	-132.60	0.19	-4.90
18300	0.19	-7.30	0.94	-133.60	0.94	-133.60	0.19	-7.30
18350	0.19	-9.70	0.94	-134.50	0.94	-134.50	0.19	-9.70
18400	0.20	-11.40	0.94	-135.40	0.94	-135.40	0.20	-11.40
18450	0.20	-13.00	0.94	-136.30	0.94	-136.30	0.20	-13.00
18500	0.20	-13.60	0.94	-137.10	0.94	-137.10	0.20	-13.60
18550	0.21	-14.20	0.95	-137.80	0.95	-137.80	0.21	-14.20
18600	0.20	-16.90	0.95	-138.80	0.95	-138.80	0.20	-16.90
18650	0.19	-19.60	0.94	-139.70	0.94	-139.70	0.19	-19.60
18700	0.20	-19.80	0.95	-140.50	0.95	-140.50	0.20	-19.80
18750	0.20	-20.00	0.95	-141.30	0.95	-141.30	0.20	-20.00
18800	0.19	-23.40	0.95	-142.10	0.95	-142.10	0.19	-23.40
18850	0.19	-26.70	0.95	-142.80	0.95	-142.80	0.19	-26.70
