#	mhz	s	ma	r	50

50	0.94	169.40	0.18	75.50	0.18	75.50	0.94	169.40
100	0.90	160.30	0.32	67.30	0.32	67.30	0.90	160.30
150	0.87	151.30	0.47	59.10	0.47	59.10	0.87	151.30
200	0.80	144.80	0.57	52.70	0.57	52.70	0.80	144.80
250	0.73	138.20	0.66	46.20	0.66	46.20	0.73	138.20
300	0.67	133.20	0.72	40.90	0.72	40.90	0.67	133.20
350	0.60	128.10	0.78	35.60	0.78	35.60	0.60	128.10
400	0.55	124.50	0.81	32.00	0.81	32.00	0.55	124.50
450	0.50	120.90	0.85	28.40	0.85	28.40	0.50	120.90
500	0.44	116.30	0.88	24.30	0.88	24.30	0.44	116.30
550	0.39	111.60	0.92	20.20	0.92	20.20	0.39	111.60
600	0.36	110.10	0.93	18.00	0.93	18.00	0.36	110.10
650	0.33	108.60	0.94	15.80	0.94	15.80	0.33	108.60
700	0.31	106.50	0.95	14.00	0.95	14.00	0.31	106.50
750	0.28	104.40	0.96	12.20	0.96	12.20	0.28	104.40
800	0.26	103.60	0.96	10.50	0.96	10.50	0.26	103.60
850	0.24	102.80	0.97	8.90	0.97	8.90	0.24	102.80
900	0.22	101.70	0.97	7.50	0.97	7.50	0.22	101.70
950	0.21	100.60	0.98	6.10	0.98	6.10	0.21	100.60
1000	0.19	100.00	0.98	4.80	0.98	4.80	0.19	100.00
1050	0.17	99.40	0.98	3.60	0.98	3.60	0.17	99.40
1100	0.16	98.20	0.98	2.40	0.98	2.40	0.16	98.20
1150	0.15	97.00	0.99	1.30	0.99	1.30	0.15	97.00
1200	0.14	96.70	0.99	0.20	0.99	0.20	0.14	96.70
1250	0.13	96.40	0.99	-0.80	0.99	-0.80	0.13	96.40
1300	0.12	96.20	0.99	-1.80	0.99	-1.80	0.12	96.20
1350	0.11	96.00	0.99	-2.80	0.99	-2.80	0.11	96.00
1400	0.10	96.40	0.99	-3.70	0.99	-3.70	0.10	96.40
1450	0.09	96.90	0.99	-4.70	0.99	-4.70	0.09	96.90
1500	0.08	97.10	0.99	-5.60	0.99	-5.60	0.08	97.10
1550	0.07	97.40	0.99	-6.50	0.99	-6.50	0.07	97.40
1600	0.07	97.30	1.00	-7.40	1.00	-7.40	0.07	97.30
1650	0.06	97.20	1.00	-8.30	1.00	-8.30	0.06	97.20
1700	0.05	100.70	1.00	-9.20	1.00	-9.20	0.05	100.70
1750	0.05	104.30	1.00	-10.10	1.00	-10.10	0.05	104.30
1800	0.04	107.70	1.00	-10.90	1.00	-10.90	0.04	107.70
1850	0.03	111.10	1.00	-11.70	1.00	-11.70	0.03	111.10
1900	0.03	121.80	1.00	-12.40	1.00	-12.40	0.03	121.80
1950	0.02	132.50	1.00	-13.20	1.00	-13.20	0.02	132.50
2000	0.02	153.00	1.00	-14.00	1.00	-14.00	0.02	153.00
2050	0.02	173.40	1.00	-14.90	1.00	-14.90	0.02	173.40
2100	0.02	12.20	1.00	-15.60	1.00	-15.60	0.02	12.20
2150	0.02	-149.00	1.00	-16.40	1.00	-16.40	0.02	-149.00
2200	0.03	-143.30	1.00	-17.20	1.00	-17.20	0.03	-143.30
2250	0.03	-137.60	1.00	-18.00	1.00	-18.00	0.03	-137.60
2300	0.04	-133.00	1.00	-18.70	1.00	-18.70	0.04	-133.00
2350	0.04	-128.40	1.00	-19.40	1.00	-19.40	0.04	-128.40
2400	0.05	-128.50	1.00	-20.20	1.00	-20.20	0.05	-128.50
2450	0.06	-128.70	0.99	-21.00	0.99	-21.00	0.06	-128.70
2500	0.06	-127.30	0.99	-21.80	0.99	-21.80	0.06	-127.30
2550	0.07	-125.90	0.99	-22.50	0.99	-22.50	0.07	-125.90
2600	0.08	-126.10	0.99	-23.20	0.99	-23.20	0.08	-126.10
2650	0.09	-126.40	0.99	-23.90	0.99	-23.90	0.09	-126.40
2700	0.09	-126.30	0.99	-24.60	0.99	-24.60	0.09	-126.30
2750	0.09	-126.20	0.99	-25.30	0.99	-25.30	0.09	-126.20
2800	0.10	-126.40	0.99	-26.00	0.99	-26.00	0.10	-126.40
2850	0.11	-126.60	0.99	-26.60	0.99	-26.60	0.11	-126.60
2900	0.12	-127.50	0.99	-27.50	0.99	-27.50	0.12	-127.50
2950	0.12	-128.40	0.99	-28.40	0.99	-28.40	0.12	-128.40
3000	0.13	-128.20	0.99	-29.00	0.99	-29.00	0.13	-128.20
3050	0.13	-127.90	0.99	-29.70	0.99	-29.70	0.13	-127.90
3100	0.14	-129.30	0.98	-30.50	0.98	-30.50	0.14	-129.30
3150	0.14	-130.60	0.98	-31.30	0.98	-31.30	0.14	-130.60
3200	0.15	-130.10	0.98	-31.90	0.98	-31.90	0.15	-130.10
3250	0.15	-129.60	0.98	-32.40	0.98	-32.40	0.15	-129.60
3300	0.16	-130.60	0.98	-33.20	0.98	-33.20	0.16	-130.60
3350	0.16	-131.60	0.98	-34.00	0.98	-34.00	0.16	-131.60
3400	0.17	-131.90	0.98	-34.60	0.98	-34.60	0.17	-131.90
3450	0.17	-132.20	0.98	-35.30	0.98	-35.30	0.17	-132.20
3500	0.17	-132.50	0.98	-36.00	0.98	-36.00	0.17	-132.50
3550	0.18	-132.80	0.98	-36.70	0.98	-36.70	0.18	-132.80
3600	0.18	-132.80	0.98	-37.30	0.98	-37.30	0.18	-132.80
3650	0.19	-132.80	0.98	-37.90	0.98	-37.90	0.19	-132.80
3700	0.19	-132.60	0.98	-38.70	0.98	-38.70	0.19	-132.60
3750	0.19	-132.50	0.98	-39.50	0.98	-39.50	0.19	-132.50
3800	0.20	-132.30	0.98	-40.10	0.98	-40.10	0.20	-132.30
3850	0.20	-132.20	0.97	-40.70	0.97	-40.70	0.20	-132.20
3900	0.20	-132.50	0.97	-41.60	0.97	-41.60	0.20	-132.50
3950	0.21	-132.80	0.97	-42.50	0.97	-42.50	0.21	-132.80
4000	0.21	-132.40	0.97	-43.10	0.97	-43.10	0.21	-132.40
4050	0.22	-131.90	0.97	-43.70	0.97	-43.70	0.22	-131.90
4100	0.22	-131.90	0.97	-44.40	0.97	-44.40	0.22	-131.90
4150	0.22	-132.00	0.97	-45.10	0.97	-45.10	0.22	-132.00
4200	0.23	-132.30	0.97	-45.90	0.97	-45.90	0.23	-132.30
4250	0.24	-132.50	0.97	-46.70	0.97	-46.70	0.24	-132.50
4300	0.24	-132.60	0.96	-47.20	0.96	-47.20	0.24	-132.60
4350	0.24	-132.70	0.96	-47.80	0.96	-47.80	0.24	-132.70
4400	0.25	-133.30	0.96	-48.60	0.96	-48.60	0.25	-133.30
4450	0.26	-134.00	0.96	-49.50	0.96	-49.50	0.26	-134.00
4500	0.26	-134.10	0.96	-50.30	0.96	-50.30	0.26	-134.10
4550	0.27	-134.30	0.96	-51.10	0.96	-51.10	0.27	-134.30
4600	0.28	-135.60	0.95	-52.00	0.95	-52.00	0.28	-135.60
4650	0.28	-137.00	0.95	-52.90	0.95	-52.90	0.28	-137.00
4700	0.29	-137.60	0.95	-53.60	0.95	-53.60	0.29	-137.60
4750	0.29	-138.30	0.94	-54.20	0.94	-54.20	0.29	-138.30
4800	0.30	-139.30	0.94	-54.90	0.94	-54.90	0.30	-139.30
4850	0.31	-140.30	0.94	-55.70	0.94	-55.70	0.31	-140.30
4900	0.31	-141.40	0.94	-56.50	0.94	-56.50	0.31	-141.40
4950	0.32	-142.60	0.94	-57.30	0.94	-57.30	0.32	-142.60
5000	0.33	-143.90	0.93	-58.00	0.93	-58.00	0.33	-143.90
5050	0.34	-145.10	0.92	-58.80	0.92	-58.80	0.34	-145.10
5100	0.34	-146.10	0.92	-59.40	0.92	-59.40	0.34	-146.10
5150	0.34	-147.20	0.92	-60.00	0.92	-60.00	0.34	-147.20
5200	0.35	-148.40	0.92	-60.70	0.92	-60.70	0.35	-148.40
5250	0.36	-149.60	0.92	-61.30	0.92	-61.30	0.36	-149.60
5300	0.37	-151.20	0.92	-62.30	0.92	-62.30	0.37	-151.20
5350	0.38	-152.70	0.91	-63.20	0.91	-63.20	0.38	-152.70
5400	0.38	-153.60	0.91	-63.90	0.91	-63.90	0.38	-153.60
5450	0.39	-154.50	0.90	-64.60	0.90	-64.60	0.39	-154.50
5500	0.40	-155.80	0.90	-65.40	0.90	-65.40	0.40	-155.80
5550	0.40	-157.10	0.90	-66.10	0.90	-66.10	0.40	-157.10
5600	0.41	-158.10	0.89	-66.90	0.89	-66.90	0.41	-158.10
5650	0.42	-159.00	0.89	-67.60	0.89	-67.60	0.42	-159.00
5700	0.43	-160.20	0.89	-68.30	0.89	-68.30	0.43	-160.20
5750	0.44	-161.30	0.89	-69.00	0.89	-69.00	0.44	-161.30
5800	0.44	-162.20	0.88	-69.80	0.88	-69.80	0.44	-162.20
5850	0.44	-163.10	0.88	-70.60	0.88	-70.60	0.44	-163.10
5900	0.45	-164.10	0.87	-71.30	0.87	-71.30	0.45	-164.10
5950	0.46	-165.00	0.87	-72.10	0.87	-72.10	0.46	-165.00
6000	0.48	-165.50	0.86	-73.00	0.86	-73.00	0.48	-165.50
6050	0.50	-166.00	0.85	-74.00	0.85	-74.00	0.50	-166.00
6100	0.50	-166.90	0.85	-74.60	0.85	-74.60	0.50	-166.90
6150	0.51	-167.80	0.85	-75.20	0.85	-75.20	0.51	-167.80
6200	0.52	-169.10	0.84	-76.00	0.84	-76.00	0.52	-169.10
6250	0.52	-170.50	0.83	-76.70	0.83	-76.70	0.52	-170.50
6300	0.53	-171.20	0.83	-77.40	0.83	-77.40	0.53	-171.20
6350	0.54	-171.90	0.83	-78.20	0.83	-78.20	0.54	-171.90
6400	0.55	-172.60	0.82	-79.00	0.82	-79.00	0.55	-172.60
6450	0.55	-173.30	0.81	-79.80	0.81	-79.80	0.55	-173.30
6500	0.56	-174.10	0.81	-80.60	0.81	-80.60	0.56	-174.10
6550	0.56	-174.90	0.80	-81.50	0.80	-81.50	0.56	-174.90
6600	0.57	-175.90	0.80	-82.30	0.80	-82.30	0.57	-175.90
6650	0.57	-177.00	0.80	-83.20	0.80	-83.20	0.57	-177.00
6700	0.58	-177.80	0.79	-83.80	0.79	-83.80	0.58	-177.80
6750	0.58	-178.60	0.79	-84.50	0.79	-84.50	0.58	-178.60
6800	0.59	-0.10	0.78	-85.70	0.78	-85.70	0.59	-0.10
6850	0.60	178.50	0.78	-86.80	0.78	-86.80	0.60	178.50
6900	0.61	177.70	0.77	-87.60	0.77	-87.60	0.61	177.70
6950	0.61	176.90	0.76	-88.50	0.76	-88.50	0.61	176.90
7000	0.62	175.30	0.76	-89.70	0.76	-89.70	0.62	175.30
7050	0.63	173.70	0.75	-90.90	0.75	-90.90	0.63	173.70
7100	0.63	172.50	0.74	-91.90	0.74	-91.90	0.63	172.50
7150	0.64	171.30	0.74	-92.80	0.74	-92.80	0.64	171.30
7200	0.65	170.00	0.73	-94.20	0.73	-94.20	0.65	170.00
7250	0.67	168.60	0.72	-95.60	0.72	-95.60	0.67	168.60
7300	0.68	167.10	0.71	-96.90	0.71	-96.90	0.68	167.10
7350	0.68	165.50	0.70	-98.20	0.70	-98.20	0.68	165.50
7400	0.69	164.20	0.69	-99.40	0.69	-99.40	0.69	164.20
7450	0.70	163.00	0.67	-100.70	0.67	-100.70	0.70	163.00
7500	0.71	161.10	0.66	-102.40	0.66	-102.40	0.71	161.10
7550	0.72	159.10	0.64	-104.00	0.64	-104.00	0.72	159.10
7600	0.73	157.70	0.63	-105.30	0.63	-105.30	0.73	157.70
7650	0.74	156.20	0.61	-106.60	0.61	-106.60	0.74	156.20
7700	0.75	154.20	0.59	-108.40	0.59	-108.40	0.75	154.20
7750	0.76	152.20	0.58	-110.10	0.58	-110.10	0.76	152.20
7800	0.77	149.60	0.55	-112.00	0.55	-112.00	0.77	149.60
7850	0.78	147.00	0.53	-113.80	0.53	-113.80	0.78	147.00
7900	0.80	144.80	0.50	-115.40	0.50	-115.40	0.80	144.80
7950	0.81	142.60	0.47	-117.00	0.47	-117.00	0.81	142.60
8000	0.82	139.70	0.44	-118.50	0.44	-118.50	0.82	139.70
8050	0.83	136.80	0.41	-120.00	0.41	-120.00	0.83	136.80
8100	0.84	133.50	0.38	-121.60	0.38	-121.60	0.84	133.50
8150	0.85	130.20	0.35	-123.20	0.35	-123.20	0.85	130.20
8200	0.86	127.30	0.31	-123.20	0.31	-123.20	0.86	127.30
8250	0.87	124.40	0.27	-123.20	0.27	-123.20	0.87	124.40
8300	0.87	120.90	0.23	-121.30	0.23	-121.30	0.87	120.90
8350	0.87	117.40	0.19	-119.40	0.19	-119.40	0.87	117.40
8400	0.87	114.40	0.16	-109.60	0.16	-109.60	0.87	114.40
8450	0.88	111.30	0.12	-99.80	0.12	-99.80	0.88	111.30
8500	0.87	107.80	0.12	-78.70	0.12	-78.70	0.87	107.80
8550	0.85	104.40	0.11	-57.70	0.11	-57.70	0.85	104.40
8600	0.85	101.20	0.14	-44.30	0.14	-44.30	0.85	101.20
8650	0.85	97.90	0.17	-31.00	0.17	-31.00	0.85	97.90
8700	0.83	95.00	0.21	-27.50	0.21	-27.50	0.83	95.00
8750	0.82	92.10	0.25	-24.00	0.25	-24.00	0.82	92.10
8800	0.81	88.50	0.30	-24.00	0.30	-24.00	0.81	88.50
8850	0.80	84.90	0.34	-24.00	0.34	-24.00	0.80	84.90
8900	0.78	82.50	0.38	-25.30	0.38	-25.30	0.78	82.50
8950	0.75	80.20	0.42	-26.60	0.42	-26.60	0.75	80.20
9000	0.74	77.50	0.46	-28.60	0.46	-28.60	0.74	77.50
9050	0.72	74.80	0.50	-30.60	0.50	-30.60	0.72	74.80
9100	0.70	72.40	0.54	-32.90	0.54	-32.90	0.70	72.40
9150	0.68	69.90	0.57	-35.20	0.57	-35.20	0.68	69.90
9200	0.65	67.10	0.60	-37.60	0.60	-37.60	0.65	67.10
9250	0.61	64.30	0.63	-40.10	0.63	-40.10	0.61	64.30
9300	0.59	63.30	0.65	-41.80	0.65	-41.80	0.59	63.30
9350	0.56	62.30	0.68	-43.60	0.68	-43.60	0.56	62.30
9400	0.54	59.90	0.70	-45.90	0.70	-45.90	0.54	59.90
9450	0.51	57.60	0.73	-48.20	0.73	-48.20	0.51	57.60
9500	0.48	56.60	0.74	-50.10	0.74	-50.10	0.48	56.60
9550	0.46	55.60	0.76	-52.10	0.76	-52.10	0.46	55.60
9600	0.44	54.40	0.78	-54.20	0.78	-54.20	0.44	54.40
9650	0.41	53.30	0.80	-56.40	0.80	-56.40	0.41	53.30
9700	0.39	52.00	0.81	-58.20	0.81	-58.20	0.39	52.00
9750	0.36	50.80	0.83	-60.00	0.83	-60.00	0.36	50.80
9800	0.34	50.50	0.84	-61.80	0.84	-61.80	0.34	50.50
9850	0.31	50.30	0.86	-63.70	0.86	-63.70	0.31	50.30
9900	0.29	49.40	0.87	-65.70	0.87	-65.70	0.29	49.40
9950	0.26	48.60	0.88	-67.80	0.88	-67.80	0.26	48.60
10000	0.23	48.60	0.88	-69.60	0.88	-69.60	0.23	48.60
10050	0.20	48.50	0.89	-71.40	0.89	-71.40	0.20	48.50
10100	0.18	51.10	0.90	-73.30	0.90	-73.30	0.18	51.10
10150	0.15	53.70	0.91	-75.20	0.91	-75.20	0.15	53.70
10200	0.12	58.30	0.91	-77.20	0.91	-77.20	0.12	58.30
10250	0.09	62.90	0.91	-79.20	0.91	-79.20	0.09	62.90
10300	0.08	84.10	0.91	-81.20	0.91	-81.20	0.08	84.10
10350	0.07	105.40	0.91	-83.20	0.91	-83.20	0.07	105.40
10400	0.07	126.00	0.91	-85.20	0.91	-85.20	0.07	126.00
10450	0.08	146.70	0.91	-87.20	0.91	-87.20	0.08	146.70
10500	0.11	155.30	0.91	-89.20	0.91	-89.20	0.11	155.30
10550	0.14	164.00	0.91	-91.30	0.91	-91.30	0.14	164.00
10600	0.16	162.10	0.90	-93.20	0.90	-93.20	0.16	162.10
10650	0.19	160.30	0.89	-95.00	0.89	-95.00	0.19	160.30
10700	0.22	162.00	0.89	-97.10	0.89	-97.10	0.22	162.00
10750	0.25	163.70	0.88	-99.10	0.88	-99.10	0.25	163.70
10800	0.28	162.00	0.87	-100.80	0.87	-100.80	0.28	162.00
10850	0.31	160.30	0.86	-102.40	0.86	-102.40	0.31	160.30
10900	0.34	157.70	0.84	-104.40	0.84	-104.40	0.34	157.70
10950	0.36	155.00	0.83	-106.50	0.83	-106.50	0.36	155.00
11000	0.39	153.90	0.82	-108.20	0.82	-108.20	0.39	153.90
11050	0.42	152.80	0.81	-109.90	0.81	-109.90	0.42	152.80
11100	0.45	149.70	0.79	-111.80	0.79	-111.80	0.45	149.70
11150	0.47	146.70	0.77	-113.70	0.77	-113.70	0.47	146.70
11200	0.49	144.70	0.76	-115.40	0.76	-115.40	0.49	144.70
11250	0.52	142.70	0.75	-117.20	0.75	-117.20	0.52	142.70
11300	0.54	140.40	0.73	-118.90	0.73	-118.90	0.54	140.40
11350	0.57	138.10	0.71	-120.60	0.71	-120.60	0.57	138.10
11400	0.59	135.40	0.69	-122.70	0.69	-122.70	0.59	135.40
11450	0.61	132.80	0.67	-124.70	0.67	-124.70	0.61	132.80
11500	0.63	130.30	0.65	-126.20	0.65	-126.20	0.63	130.30
11550	0.65	127.80	0.62	-127.80	0.62	-127.80	0.65	127.80
11600	0.68	125.20	0.60	-129.70	0.60	-129.70	0.68	125.20
11650	0.70	122.60	0.57	-131.70	0.57	-131.70	0.70	122.60
11700	0.72	120.30	0.55	-133.10	0.55	-133.10	0.72	120.30
11750	0.74	117.90	0.52	-134.60	0.52	-134.60	0.74	117.90
11800	0.75	115.60	0.49	-135.80	0.49	-135.80	0.75	115.60
11850	0.77	113.30	0.45	-136.90	0.45	-136.90	0.77	113.30
11900	0.79	111.20	0.42	-138.20	0.42	-138.20	0.79	111.20
11950	0.81	109.10	0.39	-139.50	0.39	-139.50	0.81	109.10
12000	0.82	107.00	0.35	-139.00	0.35	-139.00	0.82	107.00
12050	0.83	105.00	0.32	-138.50	0.32	-138.50	0.83	105.00
12100	0.84	102.10	0.29	-137.60	0.29	-137.60	0.84	102.10
12150	0.86	99.30	0.25	-136.70	0.25	-136.70	0.86	99.30
12200	0.86	96.90	0.22	-132.20	0.22	-132.20	0.86	96.90
12250	0.87	94.60	0.19	-127.70	0.19	-127.70	0.87	94.60
12300	0.86	92.30	0.17	-117.60	0.17	-117.60	0.86	92.30
12350	0.86	90.10	0.15	-107.60	0.15	-107.60	0.86	90.10
12400	0.87	86.70	0.15	-93.70	0.15	-93.70	0.87	86.70
12450	0.87	83.40	0.15	-79.80	0.15	-79.80	0.87	83.40
12500	0.87	80.80	0.17	-70.10	0.17	-70.10	0.87	80.80
12550	0.86	78.30	0.20	-60.40	0.20	-60.40	0.86	78.30
12600	0.85	75.60	0.23	-56.90	0.23	-56.90	0.85	75.60
12650	0.84	73.00	0.26	-53.30	0.26	-53.30	0.84	73.00
12700	0.83	70.30	0.30	-52.30	0.30	-52.30	0.83	70.30
12750	0.82	67.60	0.34	-51.30	0.34	-51.30	0.82	67.60
12800	0.80	64.80	0.37	-52.30	0.37	-52.30	0.80	64.80
12850	0.79	62.10	0.40	-53.20	0.40	-53.20	0.79	62.10
12900	0.78	59.90	0.44	-54.40	0.44	-54.40	0.78	59.90
12950	0.77	57.70	0.47	-55.60	0.47	-55.60	0.77	57.70
13000	0.74	55.60	0.50	-57.20	0.50	-57.20	0.74	55.60
13050	0.72	53.50	0.52	-58.90	0.52	-58.90	0.72	53.50
13100	0.70	51.40	0.55	-60.50	0.55	-60.50	0.70	51.40
13150	0.68	49.40	0.57	-62.10	0.57	-62.10	0.68	49.40
13200	0.67	47.60	0.60	-63.60	0.60	-63.60	0.67	47.60
13250	0.66	45.80	0.62	-65.00	0.62	-65.00	0.66	45.80
13300	0.63	45.50	0.63	-67.20	0.63	-67.20	0.63	45.50
13350	0.60	45.20	0.65	-69.40	0.65	-69.40	0.60	45.20
13400	0.60	42.20	0.67	-71.00	0.67	-71.00	0.60	42.20
13450	0.60	39.20	0.68	-72.50	0.68	-72.50	0.60	39.20
13500	0.59	37.40	0.69	-74.10	0.69	-74.10	0.59	37.40
13550	0.57	35.60	0.70	-75.60	0.70	-75.60	0.57	35.60
13600	0.56	33.90	0.71	-77.30	0.71	-77.30	0.56	33.90
13650	0.56	32.20	0.72	-78.90	0.72	-78.90	0.56	32.20
13700	0.55	30.10	0.73	-80.00	0.73	-80.00	0.55	30.10
13750	0.54	28.00	0.74	-81.20	0.74	-81.20	0.54	28.00
13800	0.53	25.50	0.75	-82.40	0.75	-82.40	0.53	25.50
13850	0.52	23.10	0.75	-83.60	0.75	-83.60	0.52	23.10
13900	0.52	20.50	0.76	-84.60	0.76	-84.60	0.52	20.50
13950	0.52	18.00	0.77	-85.60	0.77	-85.60	0.52	18.00
14000	0.51	15.50	0.78	-86.60	0.78	-86.60	0.51	15.50
14050	0.50	13.10	0.78	-87.60	0.78	-87.60	0.50	13.10
14100	0.50	10.70	0.79	-88.60	0.79	-88.60	0.50	10.70
14150	0.50	8.30	0.80	-89.60	0.80	-89.60	0.50	8.30
14200	0.49	6.00	0.80	-90.50	0.80	-90.50	0.49	6.00
14250	0.49	3.60	0.81	-91.50	0.81	-91.50	0.49	3.60
14300	0.48	1.70	0.81	-92.40	0.81	-92.40	0.48	1.70
14350	0.47	-0.30	0.82	-93.20	0.82	-93.20	0.47	-0.30
14400	0.47	-2.30	0.82	-94.10	0.82	-94.10	0.47	-2.30
14450	0.47	-4.20	0.83	-94.90	0.83	-94.90	0.47	-4.20
14500	0.46	-5.50	0.83	-95.50	0.83	-95.50	0.46	-5.50
14550	0.45	-6.70	0.83	-96.10	0.83	-96.10	0.45	-6.70
14600	0.45	-8.00	0.84	-96.90	0.84	-96.90	0.45	-8.00
14650	0.44	-9.20	0.85	-97.80	0.85	-97.80	0.44	-9.20
14700	0.43	-10.70	0.85	-98.60	0.85	-98.60	0.43	-10.70
14750	0.42	-12.20	0.86	-99.50	0.86	-99.50	0.42	-12.20
14800	0.42	-12.80	0.86	-100.40	0.86	-100.40	0.42	-12.80
14850	0.41	-13.40	0.86	-101.30	0.86	-101.30	0.41	-13.40
14900	0.40	-13.60	0.87	-102.00	0.87	-102.00	0.40	-13.60
14950	0.39	-13.80	0.88	-102.60	0.88	-102.60	0.39	-13.80
15000	0.38	-15.00	0.88	-103.70	0.88	-103.70	0.38	-15.00
15050	0.38	-16.20	0.88	-104.80	0.88	-104.80	0.38	-16.20
15100	0.37	-16.10	0.88	-105.40	0.88	-105.40	0.37	-16.10
15150	0.36	-15.90	0.88	-106.00	0.88	-106.00	0.36	-15.90
15200	0.36	-16.10	0.89	-106.80	0.89	-106.80	0.36	-16.10
15250	0.35	-16.30	0.89	-107.50	0.89	-107.50	0.35	-16.30
15300	0.35	-17.00	0.89	-108.60	0.89	-108.60	0.35	-17.00
15350	0.35	-17.70	0.89	-109.80	0.89	-109.80	0.35	-17.70
15400	0.34	-16.80	0.88	-110.20	0.88	-110.20	0.34	-16.80
15450	0.34	-16.00	0.88	-110.70	0.88	-110.70	0.34	-16.00
15500	0.34	-15.30	0.88	-111.40	0.88	-111.40	0.34	-15.30
15550	0.35	-14.60	0.88	-112.10	0.88	-112.10	0.35	-14.60
15600	0.35	-14.90	0.88	-112.30	0.88	-112.30	0.35	-14.90
15650	0.35	-15.20	0.88	-112.60	0.88	-112.60	0.35	-15.20
15700	0.36	-15.20	0.88	-113.10	0.88	-113.10	0.36	-15.20
15750	0.37	-15.10	0.88	-113.60	0.88	-113.60	0.37	-15.10
15800	0.35	-16.30	0.88	-113.80	0.88	-113.80	0.35	-16.30
15850	0.34	-17.50	0.88	-114.00	0.88	-114.00	0.34	-17.50
15900	0.35	-17.20	0.88	-114.40	0.88	-114.40	0.35	-17.20
15950	0.35	-16.90	0.89	-114.90	0.89	-114.90	0.35	-16.90
16000	0.34	-17.90	0.89	-115.30	0.89	-115.30	0.34	-17.90
16050	0.32	-18.80	0.90	-115.60	0.90	-115.60	0.32	-18.80
16100	0.30	-19.10	0.90	-116.40	0.90	-116.40	0.30	-19.10
16150	0.29	-19.30	0.90	-117.10	0.90	-117.10	0.29	-19.30
16200	0.28	-20.40	0.91	-117.80	0.91	-117.80	0.28	-20.40
16250	0.26	-21.60	0.91	-118.40	0.91	-118.40	0.26	-21.60
16300	0.24	-22.70	0.91	-119.20	0.91	-119.20	0.24	-22.70
16350	0.21	-23.80	0.92	-120.00	0.92	-120.00	0.21	-23.80
16400	0.21	-23.30	0.92	-120.50	0.92	-120.50	0.21	-23.30
16450	0.20	-22.80	0.91	-121.00	0.91	-121.00	0.20	-22.80
16500	0.19	-27.10	0.91	-121.20	0.91	-121.20	0.19	-27.10
16550	0.17	-31.50	0.91	-121.40	0.91	-121.40	0.17	-31.50
16600	0.16	-33.70	0.93	-122.10	0.93	-122.10	0.16	-33.70
16650	0.15	-36.00	0.94	-122.70	0.94	-122.70	0.15	-36.00
16700	0.14	-41.60	0.94	-123.50	0.94	-123.50	0.14	-41.60
16750	0.12	-47.20	0.95	-124.30	0.95	-124.30	0.12	-47.20
16800	0.10	-53.00	0.96	-125.20	0.96	-125.20	0.10	-53.00
16850	0.08	-58.80	0.96	-126.00	0.96	-126.00	0.08	-58.80
16900	0.07	-58.70	0.96	-127.00	0.96	-127.00	0.07	-58.70
16950	0.06	-58.60	0.96	-127.90	0.96	-127.90	0.06	-58.60
17000	0.04	-67.90	0.96	-128.80	0.96	-128.80	0.04	-67.90
17050	0.02	-77.30	0.97	-129.70	0.97	-129.70	0.02	-77.30
17100	0.02	-4.10	0.97	-130.60	0.97	-130.60	0.02	-4.10
17150	0.01	69.00	0.97	-131.60	0.97	-131.60	0.01	69.00
17200	0.03	75.30	0.96	-132.20	0.96	-132.20	0.03	75.30
17250	0.05	81.60	0.96	-132.80	0.96	-132.80	0.05	81.60
17300	0.07	85.90	0.96	-133.70	0.96	-133.70	0.07	85.90
17350	0.09	90.20	0.97	-134.60	0.97	-134.60	0.09	90.20
17400	0.10	86.20	0.96	-135.10	0.96	-135.10	0.10	86.20
17450	0.12	82.20	0.96	-135.70	0.96	-135.70	0.12	82.20
17500	0.13	81.60	0.96	-136.40	0.96	-136.40	0.13	81.60
17550	0.14	81.00	0.96	-137.10	0.96	-137.10	0.14	81.00
17600	0.16	79.60	0.96	-137.80	0.96	-137.80	0.16	79.60
17650	0.17	78.20	0.95	-138.60	0.95	-138.60	0.17	78.20
17700	0.18	77.70	0.95	-139.00	0.95	-139.00	0.18	77.70
17750	0.19	77.30	0.95	-139.50	0.95	-139.50	0.19	77.30
17800	0.19	77.20	0.95	-140.30	0.95	-140.30	0.19	77.20
17850	0.19	77.10	0.96	-141.00	0.96	-141.00	0.19	77.10
17900	0.19	76.10	0.95	-141.60	0.95	-141.60	0.19	76.10
17950	0.19	75.00	0.95	-142.10	0.95	-142.10	0.19	75.00
18000	0.18	75.10	0.95	-142.90	0.95	-142.90	0.18	75.10
18050	0.18	75.20	0.95	-143.70	0.95	-143.70	0.18	75.20
18100	0.17	73.60	0.95	-144.20	0.95	-144.20	0.17	73.60
18150	0.17	72.10	0.95	-144.80	0.95	-144.80	0.17	72.10
18200	0.16	69.60	0.95	-145.50	0.95	-145.50	0.16	69.60
18250	0.15	67.20	0.95	-146.30	0.95	-146.30	0.15	67.20
18300	0.14	63.80	0.95	-146.90	0.95	-146.90	0.14	63.80
18350	0.14	60.50	0.95	-147.50	0.95	-147.50	0.14	60.50
18400	0.13	56.70	0.95	-148.20	0.95	-148.20	0.13	56.70
18450	0.13	53.00	0.95	-149.00	0.95	-149.00	0.13	53.00
18500	0.13	50.60	0.95	-149.50	0.95	-149.50	0.13	50.60
18550	0.13	48.30	0.95	-150.10	0.95	-150.10	0.13	48.30
18600	0.12	47.90	0.95	-150.80	0.95	-150.80	0.12	47.90
