#	mhz	s	ma	r	50

50	0.92	164.80	0.25	71.10	0.25	71.10	0.92	164.80
100	0.84	153.30	0.44	60.20	0.44	60.20	0.84	153.30
150	0.76	141.70	0.62	49.40	0.62	49.40	0.76	141.70
200	0.67	134.70	0.70	42.40	0.70	42.40	0.67	134.70
250	0.59	127.80	0.79	35.40	0.79	35.40	0.59	127.80
300	0.52	123.20	0.83	30.40	0.83	30.40	0.52	123.20
350	0.45	118.70	0.88	25.50	0.88	25.50	0.45	118.70
400	0.40	115.60	0.90	22.40	0.90	22.40	0.40	115.60
450	0.35	112.60	0.92	19.20	0.92	19.20	0.35	112.60
500	0.31	108.80	0.94	15.90	0.94	15.90	0.31	108.80
550	0.26	105.10	0.96	12.60	0.96	12.60	0.26	105.10
600	0.24	104.20	0.97	10.80	0.97	10.80	0.24	104.20
650	0.22	103.30	0.97	9.00	0.97	9.00	0.22	103.30
700	0.20	101.70	0.98	7.50	0.98	7.50	0.20	101.70
750	0.18	100.20	0.98	6.00	0.98	6.00	0.18	100.20
800	0.16	100.20	0.99	4.70	0.99	4.70	0.16	100.20
850	0.15	100.20	0.99	3.40	0.99	3.40	0.15	100.20
900	0.14	99.80	0.99	2.20	0.99	2.20	0.14	99.80
950	0.12	99.40	0.99	1.00	0.99	1.00	0.12	99.40
1000	0.11	100.10	0.99	0.00	0.99	0.00	0.11	100.10
1050	0.09	100.90	0.99	-1.10	0.99	-1.10	0.09	100.90
1100	0.09	100.20	0.99	-2.10	0.99	-2.10	0.09	100.20
1150	0.08	99.60	1.00	-3.10	1.00	-3.10	0.08	99.60
1200	0.07	101.10	1.00	-4.00	1.00	-4.00	0.07	101.10
1250	0.06	102.50	1.00	-4.90	1.00	-4.90	0.06	102.50
1300	0.05	104.70	1.00	-5.80	1.00	-5.80	0.05	104.70
1350	0.05	106.90	1.00	-6.60	1.00	-6.60	0.05	106.90
1400	0.04	113.40	1.00	-7.50	1.00	-7.50	0.04	113.40
1450	0.03	119.90	1.00	-8.30	1.00	-8.30	0.03	119.90
1500	0.03	130.50	1.00	-9.10	1.00	-9.10	0.03	130.50
1550	0.02	141.20	1.00	-10.00	1.00	-10.00	0.02	141.20
1600	0.02	156.60	1.00	-10.80	1.00	-10.80	0.02	156.60
1650	0.02	172.00	1.00	-11.60	1.00	-11.60	0.02	172.00
1700	0.02	5.20	1.00	-12.40	1.00	-12.40	0.02	5.20
1750	0.03	-161.60	1.00	-13.30	1.00	-13.30	0.03	-161.60
1800	0.03	-150.70	1.00	-14.00	1.00	-14.00	0.03	-150.70
1850	0.03	-139.80	1.00	-14.70	1.00	-14.70	0.03	-139.80
1900	0.04	-137.50	1.00	-15.40	1.00	-15.40	0.04	-137.50
1950	0.04	-135.20	1.00	-16.10	1.00	-16.10	0.04	-135.20
2000	0.05	-131.70	1.00	-16.90	1.00	-16.90	0.05	-131.70
2050	0.05	-128.20	1.00	-17.80	1.00	-17.80	0.05	-128.20
2100	0.06	-127.00	1.00	-18.50	1.00	-18.50	0.06	-127.00
2150	0.07	-125.80	1.00	-19.20	1.00	-19.20	0.07	-125.80
2200	0.07	-125.30	1.00	-19.90	1.00	-19.90	0.07	-125.30
2250	0.08	-124.80	1.00	-20.70	1.00	-20.70	0.08	-124.80
2300	0.08	-123.90	1.00	-21.40	1.00	-21.40	0.08	-123.90
2350	0.09	-123.10	1.00	-22.00	1.00	-22.00	0.09	-123.10
2400	0.09	-124.00	0.99	-22.80	0.99	-22.80	0.09	-124.00
2450	0.10	-125.00	0.99	-23.60	0.99	-23.60	0.10	-125.00
2500	0.11	-124.80	0.99	-24.40	0.99	-24.40	0.11	-124.80
2550	0.11	-124.70	0.99	-25.10	0.99	-25.10	0.11	-124.70
2600	0.12	-125.40	0.99	-25.80	0.99	-25.80	0.12	-125.40
2650	0.13	-126.00	0.99	-26.40	0.99	-26.40	0.13	-126.00
2700	0.13	-126.20	0.99	-27.10	0.99	-27.10	0.13	-126.20
2750	0.14	-126.40	0.99	-27.80	0.99	-27.80	0.14	-126.40
2800	0.14	-126.50	0.99	-28.40	0.99	-28.40	0.14	-126.50
2850	0.15	-126.60	0.99	-29.00	0.99	-29.00	0.15	-126.60
2900	0.16	-127.50	0.99	-29.90	0.99	-29.90	0.16	-127.50
2950	0.16	-128.40	0.98	-30.80	0.98	-30.80	0.16	-128.40
3000	0.17	-128.20	0.98	-31.40	0.98	-31.40	0.17	-128.20
3050	0.17	-127.90	0.98	-32.00	0.98	-32.00	0.17	-127.90
3100	0.18	-129.60	0.98	-32.80	0.98	-32.80	0.18	-129.60
3150	0.18	-131.30	0.97	-33.60	0.97	-33.60	0.18	-131.30
3200	0.19	-130.80	0.98	-34.20	0.98	-34.20	0.19	-130.80
3250	0.19	-130.30	0.98	-34.70	0.98	-34.70	0.19	-130.30
3300	0.19	-131.20	0.98	-35.50	0.98	-35.50	0.19	-131.20
3350	0.20	-132.10	0.98	-36.20	0.98	-36.20	0.20	-132.10
3400	0.21	-132.50	0.97	-36.90	0.97	-36.90	0.21	-132.50
3450	0.21	-132.90	0.97	-37.50	0.97	-37.50	0.21	-132.90
3500	0.21	-133.00	0.97	-38.20	0.97	-38.20	0.21	-133.00
3550	0.21	-133.10	0.97	-38.90	0.97	-38.90	0.21	-133.10
3600	0.22	-133.40	0.97	-39.50	0.97	-39.50	0.22	-133.40
3650	0.23	-133.70	0.97	-40.10	0.97	-40.10	0.23	-133.70
3700	0.23	-133.60	0.97	-41.00	0.97	-41.00	0.23	-133.60
3750	0.23	-133.40	0.97	-41.80	0.97	-41.80	0.23	-133.40
3800	0.23	-133.50	0.97	-42.30	0.97	-42.30	0.23	-133.50
3850	0.24	-133.60	0.96	-42.90	0.96	-42.90	0.24	-133.60
3900	0.24	-133.80	0.96	-43.80	0.96	-43.80	0.24	-133.80
3950	0.24	-134.00	0.96	-44.70	0.96	-44.70	0.24	-134.00
4000	0.25	-133.70	0.96	-45.30	0.96	-45.30	0.25	-133.70
4050	0.26	-133.50	0.96	-45.90	0.96	-45.90	0.26	-133.50
4100	0.26	-133.50	0.96	-46.70	0.96	-46.70	0.26	-133.50
4150	0.26	-133.50	0.96	-47.40	0.96	-47.40	0.26	-133.50
4200	0.27	-134.10	0.96	-48.20	0.96	-48.20	0.27	-134.10
4250	0.28	-134.60	0.95	-49.00	0.95	-49.00	0.28	-134.60
4300	0.28	-134.90	0.95	-49.60	0.95	-49.60	0.28	-134.90
4350	0.28	-135.10	0.95	-50.20	0.95	-50.20	0.28	-135.10
4400	0.29	-136.10	0.94	-51.10	0.94	-51.10	0.29	-136.10
4450	0.29	-137.00	0.94	-52.00	0.94	-52.00	0.29	-137.00
4500	0.30	-136.10	0.94	-52.60	0.94	-52.60	0.30	-136.10
4550	0.30	-135.20	0.94	-53.10	0.94	-53.10	0.30	-135.20
4600	0.31	-136.90	0.94	-54.20	0.94	-54.20	0.31	-136.90
4650	0.32	-138.60	0.94	-55.20	0.94	-55.20	0.32	-138.60
4700	0.33	-139.40	0.93	-55.90	0.93	-55.90	0.33	-139.40
4750	0.34	-140.30	0.93	-56.60	0.93	-56.60	0.34	-140.30
4800	0.34	-141.40	0.93	-57.40	0.93	-57.40	0.34	-141.40
4850	0.35	-142.50	0.92	-58.10	0.92	-58.10	0.35	-142.50
4900	0.36	-143.90	0.92	-59.00	0.92	-59.00	0.36	-143.90
4950	0.37	-145.20	0.92	-59.90	0.92	-59.90	0.37	-145.20
5000	0.37	-146.40	0.91	-60.70	0.91	-60.70	0.37	-146.40
5050	0.38	-147.60	0.90	-61.50	0.90	-61.50	0.38	-147.60
5100	0.38	-148.80	0.90	-62.10	0.90	-62.10	0.38	-148.80
5150	0.39	-149.90	0.90	-62.80	0.90	-62.80	0.39	-149.90
5200	0.40	-151.10	0.90	-63.50	0.90	-63.50	0.40	-151.10
5250	0.41	-152.40	0.90	-64.30	0.90	-64.30	0.41	-152.40
5300	0.42	-154.10	0.89	-65.40	0.89	-65.40	0.42	-154.10
5350	0.43	-155.70	0.88	-66.40	0.88	-66.40	0.43	-155.70
5400	0.44	-156.70	0.88	-67.20	0.88	-67.20	0.44	-156.70
5450	0.45	-157.60	0.88	-67.90	0.88	-67.90	0.45	-157.60
5500	0.45	-159.00	0.87	-68.80	0.87	-68.80	0.45	-159.00
5550	0.46	-160.50	0.86	-69.70	0.86	-69.70	0.46	-160.50
5600	0.47	-161.50	0.86	-70.50	0.86	-70.50	0.47	-161.50
5650	0.48	-162.50	0.86	-71.40	0.86	-71.40	0.48	-162.50
5700	0.49	-163.90	0.85	-72.30	0.85	-72.30	0.49	-163.90
5750	0.50	-165.30	0.85	-73.20	0.85	-73.20	0.50	-165.30
5800	0.51	-166.30	0.84	-74.20	0.84	-74.20	0.51	-166.30
5850	0.52	-167.40	0.83	-75.20	0.83	-75.20	0.52	-167.40
5900	0.53	-168.60	0.82	-76.20	0.82	-76.20	0.53	-168.60
5950	0.55	-169.80	0.81	-77.20	0.81	-77.20	0.55	-169.80
6000	0.56	-170.90	0.80	-78.40	0.80	-78.40	0.56	-170.90
6050	0.58	-172.00	0.78	-79.70	0.78	-79.70	0.58	-172.00
6100	0.60	-173.30	0.77	-80.70	0.77	-80.70	0.60	-173.30
6150	0.61	-174.60	0.76	-81.80	0.76	-81.80	0.61	-174.60
6200	0.62	-176.40	0.75	-83.10	0.75	-83.10	0.62	-176.40
6250	0.64	-178.30	0.73	-84.50	0.73	-84.50	0.64	-178.30
6300	0.65	0.10	0.71	-85.80	0.71	-85.80	0.65	0.10
6350	0.67	178.60	0.69	-87.20	0.69	-87.20	0.67	178.60
6400	0.69	176.70	0.67	-88.80	0.67	-88.80	0.69	176.70
6450	0.70	174.70	0.64	-90.40	0.64	-90.40	0.70	174.70
6500	0.72	172.10	0.61	-92.10	0.61	-92.10	0.72	172.10
6550	0.74	169.50	0.57	-93.90	0.57	-93.90	0.74	169.50
6600	0.76	165.80	0.53	-95.30	0.53	-95.30	0.76	165.80
6650	0.78	162.10	0.48	-96.70	0.48	-96.70	0.78	162.10
6700	0.79	157.40	0.41	-95.10	0.41	-95.10	0.79	157.40
6750	0.81	152.60	0.34	-93.50	0.34	-93.50	0.81	152.60
6800	0.80	145.30	0.28	-76.60	0.28	-76.60	0.80	145.30
6850	0.80	138.10	0.23	-59.70	0.23	-59.70	0.80	138.10
6900	0.74	130.30	0.31	-42.80	0.31	-42.80	0.74	130.30
6950	0.69	122.40	0.40	-25.80	0.40	-25.80	0.69	122.40
7000	0.60	116.20	0.52	-28.40	0.52	-28.40	0.60	116.20
7050	0.51	110.00	0.64	-30.90	0.64	-30.90	0.51	110.00
7100	0.43	108.70	0.72	-36.30	0.72	-36.30	0.43	108.70
7150	0.34	107.50	0.80	-41.70	0.80	-41.70	0.34	107.50
7200	0.29	114.40	0.83	-46.40	0.83	-46.40	0.29	114.40
7250	0.24	121.40	0.87	-51.10	0.87	-51.10	0.24	121.40
7300	0.23	129.70	0.89	-54.70	0.89	-54.70	0.23	129.70
7350	0.22	137.90	0.90	-58.20	0.90	-58.20	0.22	137.90
7400	0.22	146.20	0.91	-61.00	0.91	-61.00	0.22	146.20
7450	0.23	154.40	0.92	-63.90	0.92	-63.90	0.23	154.40
7500	0.25	157.20	0.92	-66.20	0.92	-66.20	0.25	157.20
7550	0.26	160.00	0.92	-68.60	0.92	-68.60	0.26	160.00
7600	0.27	162.50	0.92	-70.50	0.92	-70.50	0.27	162.50
7650	0.28	165.10	0.92	-72.30	0.92	-72.30	0.28	165.10
7700	0.29	165.70	0.92	-74.10	0.92	-74.10	0.29	165.70
7750	0.31	166.20	0.91	-75.80	0.91	-75.80	0.31	166.20
7800	0.32	165.90	0.91	-77.50	0.91	-77.50	0.32	165.90
7850	0.33	165.50	0.91	-79.20	0.91	-79.20	0.33	165.50
7900	0.34	165.80	0.90	-80.60	0.90	-80.60	0.34	165.80
7950	0.35	166.20	0.90	-82.10	0.90	-82.10	0.35	166.20
8000	0.36	165.10	0.90	-83.50	0.90	-83.50	0.36	165.10
8050	0.37	163.90	0.89	-85.00	0.89	-85.00	0.37	163.90
8100	0.38	163.60	0.89	-86.40	0.89	-86.40	0.38	163.60
8150	0.39	163.30	0.89	-87.90	0.89	-87.90	0.39	163.30
8200	0.40	162.40	0.88	-89.20	0.88	-89.20	0.40	162.40
8250	0.42	161.40	0.87	-90.60	0.87	-90.60	0.42	161.40
8300	0.43	160.90	0.87	-92.10	0.87	-92.10	0.43	160.90
8350	0.44	160.30	0.87	-93.50	0.87	-93.50	0.44	160.30
8400	0.45	159.30	0.86	-94.90	0.86	-94.90	0.45	159.30
8450	0.46	158.30	0.85	-96.30	0.85	-96.30	0.46	158.30
8500	0.47	157.50	0.84	-97.90	0.84	-97.90	0.47	157.50
8550	0.48	156.80	0.83	-99.40	0.83	-99.40	0.48	156.80
8600	0.49	155.40	0.82	-100.80	0.82	-100.80	0.49	155.40
8650	0.50	153.90	0.81	-102.20	0.81	-102.20	0.50	153.90
8700	0.52	153.20	0.80	-103.60	0.80	-103.60	0.52	153.20
8750	0.53	152.50	0.79	-105.00	0.79	-105.00	0.53	152.50
8800	0.54	150.80	0.78	-106.20	0.78	-106.20	0.54	150.80
8850	0.56	149.10	0.77	-107.30	0.77	-107.30	0.56	149.10
8900	0.57	148.00	0.76	-109.00	0.76	-109.00	0.57	148.00
8950	0.58	146.90	0.74	-110.60	0.74	-110.60	0.58	146.90
9000	0.60	145.90	0.73	-111.90	0.73	-111.90	0.60	145.90
9050	0.61	144.90	0.71	-113.30	0.71	-113.30	0.61	144.90
9100	0.63	143.70	0.70	-114.70	0.70	-114.70	0.63	143.70
9150	0.65	142.40	0.69	-116.10	0.69	-116.10	0.65	142.40
9200	0.66	140.40	0.68	-118.00	0.68	-118.00	0.66	140.40
9250	0.67	138.40	0.66	-119.90	0.66	-119.90	0.67	138.40
9300	0.68	138.00	0.64	-121.00	0.64	-121.00	0.68	138.00
9350	0.69	137.60	0.62	-122.00	0.62	-122.00	0.69	137.60
9400	0.70	136.00	0.60	-123.50	0.60	-123.50	0.70	136.00
9450	0.71	134.30	0.58	-125.00	0.58	-125.00	0.71	134.30
9500	0.72	133.30	0.56	-126.20	0.56	-126.20	0.72	133.30
9550	0.72	132.20	0.53	-127.30	0.53	-127.30	0.72	132.20
9600	0.73	131.00	0.51	-128.20	0.51	-128.20	0.73	131.00
9650	0.75	129.70	0.49	-129.10	0.49	-129.10	0.75	129.70
9700	0.74	128.40	0.47	-129.60	0.47	-129.60	0.74	128.40
9750	0.74	127.20	0.45	-130.10	0.45	-130.10	0.74	127.20
9800	0.74	127.80	0.43	-130.20	0.43	-130.20	0.74	127.80
9850	0.74	128.40	0.41	-130.40	0.41	-130.40	0.74	128.40
9900	0.77	127.30	0.40	-131.50	0.40	-131.50	0.77	127.30
9950	0.79	126.20	0.38	-132.50	0.38	-132.50	0.79	126.20
10000	0.80	124.80	0.36	-133.40	0.36	-133.40	0.80	124.80
10050	0.80	123.30	0.33	-134.20	0.33	-134.20	0.80	123.30
10100	0.82	122.50	0.31	-133.90	0.31	-133.90	0.82	122.50
10150	0.84	121.70	0.29	-133.60	0.29	-133.60	0.84	121.70
10200	0.84	119.80	0.27	-133.40	0.27	-133.40	0.84	119.80
10250	0.85	118.00	0.24	-133.20	0.24	-133.20	0.85	118.00
10300	0.86	116.10	0.22	-131.40	0.22	-131.40	0.86	116.10
10350	0.87	114.10	0.19	-129.50	0.19	-129.50	0.87	114.10
10400	0.86	112.40	0.17	-124.40	0.17	-124.40	0.86	112.40
10450	0.84	110.60	0.16	-119.20	0.16	-119.20	0.84	110.60
10500	0.85	108.60	0.14	-111.80	0.14	-111.80	0.85	108.60
10550	0.86	106.60	0.13	-104.40	0.13	-104.40	0.86	106.60
10600	0.85	104.70	0.13	-95.50	0.13	-95.50	0.85	104.70
10650	0.84	102.90	0.13	-86.50	0.13	-86.50	0.84	102.90
10700	0.84	101.70	0.13	-80.60	0.13	-80.60	0.84	101.70
10750	0.85	100.60	0.14	-74.70	0.14	-74.70	0.85	100.60
10800	0.86	99.30	0.14	-65.90	0.14	-65.90	0.86	99.30
10850	0.87	98.00	0.14	-57.00	0.14	-57.00	0.87	98.00
10900	0.86	95.20	0.16	-48.10	0.16	-48.10	0.86	95.20
10950	0.86	92.40	0.17	-39.30	0.17	-39.30	0.86	92.40
11000	0.86	89.80	0.20	-36.00	0.20	-36.00	0.86	89.80
11050	0.87	87.30	0.24	-32.70	0.24	-32.70	0.87	87.30
11100	0.86	84.20	0.27	-31.90	0.27	-31.90	0.86	84.20
11150	0.85	81.20	0.31	-31.00	0.31	-31.00	0.85	81.20
11200	0.83	78.30	0.34	-32.40	0.34	-32.40	0.83	78.30
11250	0.82	75.40	0.38	-33.80	0.38	-33.80	0.82	75.40
11300	0.80	72.70	0.42	-35.30	0.42	-35.30	0.80	72.70
11350	0.79	69.90	0.45	-36.80	0.45	-36.80	0.79	69.90
11400	0.76	67.10	0.48	-39.10	0.48	-39.10	0.76	67.10
11450	0.74	64.40	0.51	-41.40	0.51	-41.40	0.74	64.40
11500	0.72	62.10	0.54	-43.40	0.54	-43.40	0.72	62.10
11550	0.70	59.90	0.58	-45.30	0.58	-45.30	0.70	59.90
11600	0.68	57.90	0.60	-47.60	0.60	-47.60	0.68	57.90
11650	0.65	55.90	0.63	-50.00	0.63	-50.00	0.65	55.90
11700	0.63	53.90	0.65	-52.30	0.65	-52.30	0.63	53.90
11750	0.60	51.90	0.68	-54.50	0.68	-54.50	0.60	51.90
11800	0.58	51.00	0.70	-56.60	0.70	-56.60	0.58	51.00
11850	0.56	50.10	0.73	-58.60	0.73	-58.60	0.56	50.10
11900	0.52	49.50	0.74	-61.10	0.74	-61.10	0.52	49.50
11950	0.49	48.80	0.76	-63.70	0.76	-63.70	0.49	48.80
12000	0.46	47.80	0.79	-65.80	0.79	-65.80	0.46	47.80
12050	0.44	46.90	0.81	-67.80	0.81	-67.80	0.44	46.90
12100	0.41	47.10	0.82	-70.50	0.82	-70.50	0.41	47.10
12150	0.37	47.30	0.83	-73.10	0.83	-73.10	0.37	47.30
12200	0.34	47.80	0.85	-75.40	0.85	-75.40	0.34	47.80
12250	0.31	48.20	0.86	-77.70	0.86	-77.70	0.31	48.20
12300	0.29	51.80	0.87	-80.10	0.87	-80.10	0.29	51.80
12350	0.26	55.50	0.87	-82.50	0.87	-82.50	0.26	55.50
12400	0.24	58.20	0.88	-85.10	0.88	-85.10	0.24	58.20
12450	0.22	61.00	0.89	-87.70	0.89	-87.70	0.22	61.00
12500	0.21	68.20	0.89	-90.20	0.89	-90.20	0.21	68.20
12550	0.20	75.50	0.89	-92.70	0.89	-92.70	0.20	75.50
12600	0.21	82.60	0.89	-95.20	0.89	-95.20	0.21	82.60
12650	0.21	89.70	0.88	-97.70	0.88	-97.70	0.21	89.70
12700	0.22	94.70	0.88	-100.20	0.88	-100.20	0.22	94.70
12750	0.23	99.60	0.87	-102.70	0.87	-102.70	0.23	99.60
12800	0.26	102.30	0.86	-105.60	0.86	-105.60	0.26	102.30
12850	0.28	105.10	0.85	-108.50	0.85	-108.50	0.28	105.10
12900	0.31	106.30	0.83	-111.10	0.83	-111.10	0.31	106.30
12950	0.34	107.60	0.81	-113.60	0.81	-113.60	0.34	107.60
13000	0.38	107.10	0.79	-116.70	0.79	-116.70	0.38	107.10
13050	0.41	106.60	0.76	-119.80	0.76	-119.80	0.41	106.60
13100	0.44	105.20	0.73	-122.50	0.73	-122.50	0.44	105.20
13150	0.48	103.70	0.69	-125.10	0.69	-125.10	0.48	103.70
13200	0.52	100.90	0.65	-127.40	0.65	-127.40	0.52	100.90
13250	0.56	98.10	0.61	-129.80	0.61	-129.80	0.56	98.10
13300	0.58	96.20	0.56	-131.90	0.56	-131.90	0.58	96.20
13350	0.60	94.30	0.50	-134.10	0.50	-134.10	0.60	94.30
13400	0.64	88.70	0.45	-133.40	0.45	-133.40	0.64	88.70
13450	0.68	83.20	0.39	-132.70	0.39	-132.70	0.68	83.20
13500	0.70	78.60	0.35	-127.90	0.35	-127.90	0.70	78.60
13550	0.71	74.10	0.31	-123.10	0.31	-123.10	0.71	74.10
13600	0.72	69.70	0.29	-114.00	0.29	-114.00	0.72	69.70
13650	0.74	65.40	0.28	-104.80	0.28	-104.80	0.74	65.40
13700	0.73	60.80	0.29	-96.50	0.29	-96.50	0.73	60.80
13750	0.73	56.10	0.31	-88.20	0.31	-88.20	0.73	56.10
13800	0.72	51.80	0.34	-84.20	0.34	-84.20	0.72	51.80
13850	0.70	47.60	0.37	-80.20	0.37	-80.20	0.70	47.60
13900	0.70	43.10	0.41	-78.80	0.41	-78.80	0.70	43.10
13950	0.70	38.70	0.44	-77.50	0.44	-77.50	0.70	38.70
14000	0.68	34.50	0.47	-77.70	0.47	-77.70	0.68	34.50
14050	0.67	30.20	0.50	-78.00	0.50	-78.00	0.67	30.20
14100	0.66	26.70	0.54	-78.60	0.54	-78.60	0.66	26.70
14150	0.65	23.20	0.57	-79.30	0.57	-79.30	0.65	23.20
14200	0.64	19.40	0.59	-80.50	0.59	-80.50	0.64	19.40
14250	0.63	15.60	0.61	-81.80	0.61	-81.80	0.63	15.60
14300	0.61	12.90	0.63	-83.20	0.63	-83.20	0.61	12.90
14350	0.59	10.10	0.65	-84.50	0.65	-84.50	0.59	10.10
14400	0.58	7.40	0.67	-86.00	0.67	-86.00	0.58	7.40
14450	0.58	4.70	0.69	-87.40	0.69	-87.40	0.58	4.70
14500	0.55	3.00	0.70	-88.70	0.70	-88.70	0.55	3.00
14550	0.53	1.30	0.71	-90.00	0.71	-90.00	0.53	1.30
14600	0.51	0.30	0.72	-91.70	0.72	-91.70	0.51	0.30
14650	0.50	-0.80	0.73	-93.30	0.73	-93.30	0.50	-0.80
14700	0.48	-0.50	0.72	-94.80	0.72	-94.80	0.48	-0.50
14750	0.45	-0.20	0.72	-96.20	0.72	-96.20	0.45	-0.20
14800	0.47	1.10	0.71	-96.30	0.71	-96.30	0.47	1.10
14850	0.47	2.40	0.70	-96.40	0.70	-96.40	0.47	2.40
14900	0.48	2.00	0.72	-95.80	0.72	-95.80	0.48	2.00
14950	0.49	1.50	0.73	-95.20	0.73	-95.20	0.49	1.50
15000	0.48	-1.40	0.75	-96.10	0.75	-96.10	0.48	-1.40
15050	0.48	-4.30	0.76	-97.00	0.76	-97.00	0.48	-4.30
15100	0.47	-5.50	0.78	-97.70	0.78	-97.70	0.47	-5.50
15150	0.46	-6.60	0.79	-98.50	0.79	-98.50	0.46	-6.60
15200	0.45	-7.30	0.80	-99.70	0.80	-99.70	0.45	-7.30
15250	0.45	-7.90	0.81	-100.80	0.81	-100.80	0.45	-7.90
15300	0.44	-9.50	0.81	-102.30	0.81	-102.30	0.44	-9.50
15350	0.43	-11.10	0.82	-103.80	0.82	-103.80	0.43	-11.10
15400	0.42	-10.20	0.81	-104.60	0.81	-104.60	0.42	-10.20
15450	0.41	-9.20	0.81	-105.40	0.81	-105.40	0.41	-9.20
15500	0.41	-9.10	0.81	-106.20	0.81	-106.20	0.41	-9.10
15550	0.42	-8.90	0.81	-107.00	0.81	-107.00	0.42	-8.90
15600	0.42	-8.90	0.81	-107.20	0.81	-107.20	0.42	-8.90
15650	0.42	-8.90	0.81	-107.40	0.81	-107.40	0.42	-8.90
15700	0.44	-9.30	0.81	-107.80	0.81	-107.80	0.44	-9.30
15750	0.45	-9.70	0.81	-108.30	0.81	-108.30	0.45	-9.70
15800	0.44	-10.70	0.82	-108.40	0.82	-108.40	0.44	-10.70
15850	0.42	-11.60	0.82	-108.60	0.82	-108.60	0.42	-11.60
15900	0.43	-11.60	0.83	-109.20	0.83	-109.20	0.43	-11.60
15950	0.43	-11.60	0.83	-109.70	0.83	-109.70	0.43	-11.60
16000	0.41	-12.20	0.84	-110.10	0.84	-110.10	0.41	-12.20
16050	0.40	-12.70	0.85	-110.50	0.85	-110.50	0.40	-12.70
16100	0.38	-12.60	0.86	-111.30	0.86	-111.30	0.38	-12.60
16150	0.37	-12.40	0.86	-112.20	0.86	-112.20	0.37	-12.40
16200	0.35	-13.60	0.87	-112.90	0.87	-112.90	0.35	-13.60
16250	0.33	-14.90	0.87	-113.70	0.87	-113.70	0.33	-14.90
16300	0.31	-15.10	0.88	-114.60	0.88	-114.60	0.31	-15.10
16350	0.28	-15.40	0.88	-115.40	0.88	-115.40	0.28	-15.40
16400	0.27	-15.50	0.88	-116.20	0.88	-116.20	0.27	-15.50
16450	0.26	-15.60	0.88	-116.90	0.88	-116.90	0.26	-15.60
16500	0.24	-18.20	0.88	-117.20	0.88	-117.20	0.24	-18.20
16550	0.22	-20.80	0.88	-117.50	0.88	-117.50	0.22	-20.80
16600	0.22	-22.50	0.89	-118.00	0.89	-118.00	0.22	-22.50
16650	0.21	-24.30	0.90	-118.50	0.90	-118.50	0.21	-24.30
16700	0.19	-29.50	0.91	-119.30	0.91	-119.30	0.19	-29.50
16750	0.17	-34.80	0.93	-120.10	0.93	-120.10	0.17	-34.80
16800	0.16	-38.90	0.93	-121.20	0.93	-121.20	0.16	-38.90
16850	0.14	-43.00	0.94	-122.20	0.94	-122.20	0.14	-43.00
16900	0.12	-43.00	0.94	-123.40	0.94	-123.40	0.12	-43.00
16950	0.10	-43.10	0.95	-124.50	0.95	-124.50	0.10	-43.10
17000	0.08	-43.80	0.95	-125.60	0.95	-125.60	0.08	-43.80
17050	0.06	-44.60	0.95	-126.70	0.95	-126.70	0.06	-44.60
17100	0.05	-22.70	0.95	-128.00	0.95	-128.00	0.05	-22.70
17150	0.04	-0.80	0.95	-129.20	0.95	-129.20	0.04	-0.80
17200	0.04	22.40	0.95	-130.10	0.95	-130.10	0.04	22.40
17250	0.05	45.70	0.95	-130.90	0.95	-130.90	0.05	45.70
17300	0.07	60.40	0.95	-132.00	0.95	-132.00	0.07	60.40
17350	0.10	75.20	0.95	-133.20	0.95	-133.20	0.10	75.20
17400	0.12	72.80	0.94	-134.00	0.94	-134.00	0.12	72.80
17450	0.13	70.50	0.94	-134.80	0.94	-134.80	0.13	70.50
17500	0.15	72.40	0.93	-135.80	0.93	-135.80	0.15	72.40
17550	0.17	74.40	0.93	-136.80	0.93	-136.80	0.17	74.40
17600	0.19	73.10	0.92	-137.80	0.92	-137.80	0.19	73.10
17650	0.22	71.70	0.92	-138.80	0.92	-138.80	0.22	71.70
17700	0.23	71.10	0.91	-139.60	0.91	-139.60	0.23	71.10
17750	0.24	70.40	0.90	-140.40	0.90	-140.40	0.24	70.40
17800	0.25	69.20	0.89	-141.30	0.89	-141.30	0.25	69.20
17850	0.27	67.90	0.88	-142.30	0.88	-142.30	0.27	67.90
17900	0.27	64.10	0.86	-142.60	0.86	-142.60	0.27	64.10
17950	0.28	60.20	0.84	-142.90	0.84	-142.90	0.28	60.20
18000	0.27	54.60	0.82	-142.10	0.82	-142.10	0.27	54.60
18050	0.27	49.00	0.80	-141.40	0.80	-141.40	0.27	49.00
18100	0.25	41.50	0.81	-139.90	0.81	-139.90	0.25	41.50
18150	0.23	33.90	0.82	-138.30	0.82	-138.30	0.23	33.90
18200	0.20	28.10	0.84	-138.20	0.84	-138.20	0.20	28.10
18250	0.17	22.30	0.87	-138.20	0.87	-138.20	0.17	22.30
18300	0.16	18.30	0.89	-139.00	0.89	-139.00	0.16	18.30
18350	0.15	14.30	0.90	-139.80	0.90	-139.80	0.15	14.30
18400	0.14	11.80	0.91	-140.90	0.91	-140.90	0.14	11.80
18450	0.13	9.40	0.92	-142.10	0.92	-142.10	0.13	9.40
18500	0.13	9.80	0.93	-143.00	0.93	-143.00	0.13	9.80
18550	0.13	10.10	0.94	-143.90	0.94	-143.90	0.13	10.10
18600	0.12	8.40	0.94	-145.10	0.94	-145.10	0.12	8.40
