#	mhz	s	ma	r	50

50	0.89	160.80	0.32	67.90	0.32	67.90	0.89	160.80
100	0.79	147.50	0.51	55.30	0.51	55.30	0.79	147.50
150	0.68	134.10	0.70	42.80	0.70	42.80	0.68	134.10
200	0.59	127.00	0.78	35.80	0.78	35.80	0.59	127.00
250	0.49	119.90	0.86	28.90	0.86	28.90	0.49	119.90
300	0.43	115.70	0.89	24.40	0.89	24.40	0.43	115.70
350	0.36	111.40	0.92	19.90	0.92	19.90	0.36	111.40
400	0.32	108.20	0.94	17.20	0.94	17.20	0.32	108.20
450	0.27	105.00	0.95	14.40	0.95	14.40	0.27	105.00
500	0.24	101.60	0.96	11.60	0.96	11.60	0.24	101.60
550	0.20	98.20	0.98	8.80	0.98	8.80	0.20	98.20
600	0.18	97.30	0.98	7.20	0.98	7.20	0.18	97.30
650	0.16	96.40	0.99	5.60	0.99	5.60	0.16	96.40
700	0.14	94.40	0.99	4.30	0.99	4.30	0.14	94.40
750	0.12	92.40	0.99	3.00	0.99	3.00	0.12	92.40
800	0.11	92.30	0.99	1.80	0.99	1.80	0.11	92.30
850	0.10	92.10	0.99	0.60	0.99	0.60	0.10	92.10
900	0.09	91.20	1.00	-0.50	1.00	-0.50	0.09	91.20
950	0.08	90.30	1.00	-1.50	1.00	-1.50	0.08	90.30
1000	0.06	91.30	1.00	-2.50	1.00	-2.50	0.06	91.30
1050	0.05	92.20	1.00	-3.50	1.00	-3.50	0.05	92.20
1100	0.04	91.00	1.00	-4.40	1.00	-4.40	0.04	91.00
1150	0.04	89.80	1.00	-5.30	1.00	-5.30	0.04	89.80
1200	0.03	92.00	1.00	-6.20	1.00	-6.20	0.03	92.00
1250	0.02	94.30	1.00	-7.10	1.00	-7.10	0.02	94.30
1300	0.01	107.20	1.00	-7.90	1.00	-7.90	0.01	107.20
1350	0.01	120.20	1.00	-8.70	1.00	-8.70	0.01	120.20
1400	0.01	-7.20	1.00	-9.50	1.00	-9.50	0.01	-7.20
1450	0.01	-134.50	1.00	-10.30	1.00	-10.30	0.01	-134.50
1500	0.02	-128.30	1.00	-11.10	1.00	-11.10	0.02	-128.30
1550	0.02	-122.10	1.00	-11.90	1.00	-11.90	0.02	-122.10
1600	0.03	-118.10	1.00	-12.70	1.00	-12.70	0.03	-118.10
1650	0.03	-114.20	1.00	-13.50	1.00	-13.50	0.03	-114.20
1700	0.04	-115.10	1.00	-14.30	1.00	-14.30	0.04	-115.10
1750	0.05	-116.00	1.00	-15.10	1.00	-15.10	0.05	-116.00
1800	0.05	-114.30	1.00	-15.80	1.00	-15.80	0.05	-114.30
1850	0.06	-112.50	1.00	-16.50	1.00	-16.50	0.06	-112.50
1900	0.07	-113.20	1.00	-17.20	1.00	-17.20	0.07	-113.20
1950	0.07	-113.90	1.00	-17.90	1.00	-17.90	0.07	-113.90
2000	0.08	-113.60	1.00	-18.80	1.00	-18.80	0.08	-113.60
2050	0.08	-113.30	1.00	-19.60	1.00	-19.60	0.08	-113.30
2100	0.09	-113.90	1.00	-20.30	1.00	-20.30	0.09	-113.90
2150	0.09	-114.50	1.00	-21.00	1.00	-21.00	0.09	-114.50
2200	0.10	-115.30	0.99	-21.80	0.99	-21.80	0.10	-115.30
2250	0.11	-116.00	0.99	-22.50	0.99	-22.50	0.11	-116.00
2300	0.11	-115.90	0.99	-23.20	0.99	-23.20	0.11	-115.90
2350	0.12	-115.80	0.99	-23.90	0.99	-23.90	0.12	-115.80
2400	0.13	-117.20	0.99	-24.70	0.99	-24.70	0.13	-117.20
2450	0.13	-118.60	0.99	-25.50	0.99	-25.50	0.13	-118.60
2500	0.14	-118.60	0.99	-26.30	0.99	-26.30	0.14	-118.60
2550	0.14	-118.60	0.99	-27.00	0.99	-27.00	0.14	-118.60
2600	0.15	-119.70	0.99	-27.70	0.99	-27.70	0.15	-119.70
2650	0.16	-120.90	0.99	-28.40	0.99	-28.40	0.16	-120.90
2700	0.16	-121.40	0.98	-29.00	0.98	-29.00	0.16	-121.40
2750	0.17	-121.80	0.98	-29.70	0.98	-29.70	0.17	-121.80
2800	0.18	-122.40	0.98	-30.40	0.98	-30.40	0.18	-122.40
2850	0.18	-122.90	0.98	-31.00	0.98	-31.00	0.18	-122.90
2900	0.19	-123.90	0.98	-31.90	0.98	-31.90	0.19	-123.90
2950	0.19	-124.80	0.98	-32.80	0.98	-32.80	0.19	-124.80
3000	0.20	-124.70	0.98	-33.40	0.98	-33.40	0.20	-124.70
3050	0.21	-124.60	0.97	-34.10	0.97	-34.10	0.21	-124.60
3100	0.21	-126.20	0.97	-34.90	0.97	-34.90	0.21	-126.20
3150	0.21	-127.80	0.97	-35.70	0.97	-35.70	0.21	-127.80
3200	0.22	-127.50	0.97	-36.30	0.97	-36.30	0.22	-127.50
3250	0.22	-127.10	0.97	-36.90	0.97	-36.90	0.22	-127.10
3300	0.23	-128.10	0.97	-37.70	0.97	-37.70	0.23	-128.10
3350	0.23	-129.00	0.97	-38.40	0.97	-38.40	0.23	-129.00
3400	0.24	-129.60	0.97	-39.10	0.97	-39.10	0.24	-129.60
3450	0.25	-130.10	0.96	-39.80	0.96	-39.80	0.25	-130.10
3500	0.25	-130.30	0.96	-40.50	0.96	-40.50	0.25	-130.30
3550	0.25	-130.50	0.96	-41.30	0.96	-41.30	0.25	-130.50
3600	0.26	-130.80	0.96	-41.90	0.96	-41.90	0.26	-130.80
3650	0.26	-131.10	0.96	-42.50	0.96	-42.50	0.26	-131.10
3700	0.26	-131.30	0.96	-43.40	0.96	-43.40	0.26	-131.30
3750	0.27	-131.40	0.96	-44.30	0.96	-44.30	0.27	-131.40
3800	0.27	-131.50	0.95	-44.90	0.95	-44.90	0.27	-131.50
3850	0.28	-131.60	0.95	-45.50	0.95	-45.50	0.28	-131.60
3900	0.28	-132.00	0.95	-46.50	0.95	-46.50	0.28	-132.00
3950	0.28	-132.50	0.95	-47.50	0.95	-47.50	0.28	-132.50
4000	0.29	-132.30	0.95	-48.10	0.95	-48.10	0.29	-132.30
4050	0.30	-132.20	0.95	-48.80	0.95	-48.80	0.30	-132.20
4100	0.30	-132.40	0.94	-49.50	0.94	-49.50	0.30	-132.40
4150	0.31	-132.50	0.94	-50.30	0.94	-50.30	0.31	-132.50
4200	0.31	-133.20	0.94	-51.20	0.94	-51.20	0.31	-133.20
4250	0.32	-133.90	0.94	-52.00	0.94	-52.00	0.32	-133.90
4300	0.33	-134.30	0.93	-52.70	0.93	-52.70	0.33	-134.30
4350	0.33	-134.70	0.93	-53.30	0.93	-53.30	0.33	-134.70
4400	0.34	-135.60	0.93	-54.20	0.93	-54.20	0.34	-135.60
4450	0.35	-136.50	0.93	-55.10	0.93	-55.10	0.35	-136.50
4500	0.36	-136.90	0.92	-56.00	0.92	-56.00	0.36	-136.90
4550	0.36	-137.40	0.92	-56.90	0.92	-56.90	0.36	-137.40
4600	0.37	-139.00	0.92	-58.00	0.92	-58.00	0.37	-139.00
4650	0.38	-140.60	0.91	-59.10	0.91	-59.10	0.38	-140.60
4700	0.39	-141.50	0.91	-59.80	0.91	-59.80	0.39	-141.50
4750	0.40	-142.40	0.90	-60.60	0.90	-60.60	0.40	-142.40
4800	0.40	-143.70	0.90	-61.40	0.90	-61.40	0.40	-143.70
4850	0.41	-144.90	0.89	-62.20	0.89	-62.20	0.41	-144.90
4900	0.42	-146.40	0.89	-63.20	0.89	-63.20	0.42	-146.40
4950	0.43	-147.90	0.89	-64.30	0.89	-64.30	0.43	-147.90
5000	0.44	-149.30	0.88	-65.10	0.88	-65.10	0.44	-149.30
5050	0.45	-150.60	0.87	-66.00	0.87	-66.00	0.45	-150.60
5100	0.45	-152.00	0.86	-66.80	0.86	-66.80	0.45	-152.00
5150	0.46	-153.30	0.86	-67.60	0.86	-67.60	0.46	-153.30
5200	0.47	-154.80	0.86	-68.50	0.86	-68.50	0.47	-154.80
5250	0.49	-156.40	0.85	-69.50	0.85	-69.50	0.49	-156.40
5300	0.50	-158.40	0.84	-70.70	0.84	-70.70	0.50	-158.40
5350	0.51	-160.40	0.83	-71.90	0.83	-71.90	0.51	-160.40
5400	0.52	-161.70	0.82	-72.90	0.82	-72.90	0.52	-161.70
5450	0.53	-163.00	0.81	-73.90	0.81	-73.90	0.53	-163.00
5500	0.54	-165.00	0.80	-75.10	0.80	-75.10	0.54	-165.00
5550	0.55	-166.90	0.79	-76.20	0.79	-76.20	0.55	-166.90
5600	0.57	-168.40	0.78	-77.40	0.78	-77.40	0.57	-168.40
5650	0.58	-170.00	0.77	-78.60	0.77	-78.60	0.58	-170.00
5700	0.60	-172.00	0.76	-79.90	0.76	-79.90	0.60	-172.00
5750	0.62	-174.00	0.74	-81.30	0.74	-81.30	0.62	-174.00
5800	0.63	-176.00	0.72	-82.70	0.72	-82.70	0.63	-176.00
5850	0.64	-178.10	0.70	-84.10	0.70	-84.10	0.64	-178.10
5900	0.66	-0.60	0.68	-85.60	0.68	-85.60	0.66	-0.60
5950	0.68	176.90	0.65	-87.10	0.65	-87.10	0.68	176.90
6000	0.70	174.10	0.61	-88.60	0.61	-88.60	0.70	174.10
6050	0.73	171.30	0.57	-90.00	0.57	-90.00	0.73	171.30
6100	0.75	167.60	0.52	-90.90	0.52	-90.90	0.75	167.60
6150	0.76	163.80	0.48	-91.70	0.48	-91.70	0.76	163.80
6200	0.77	158.60	0.41	-89.70	0.41	-89.70	0.77	158.60
6250	0.78	153.40	0.35	-87.70	0.35	-87.70	0.78	153.40
6300	0.77	147.00	0.30	-74.20	0.30	-74.20	0.77	147.00
6350	0.76	140.60	0.26	-60.60	0.26	-60.60	0.76	140.60
6400	0.71	133.00	0.31	-44.60	0.31	-44.60	0.71	133.00
6450	0.66	125.50	0.37	-28.50	0.37	-28.50	0.66	125.50
6500	0.57	118.80	0.48	-28.50	0.48	-28.50	0.57	118.80
6550	0.49	112.10	0.59	-28.50	0.59	-28.50	0.49	112.10
6600	0.40	109.90	0.67	-33.00	0.67	-33.00	0.40	109.90
6650	0.31	107.60	0.75	-37.60	0.75	-37.60	0.31	107.60
6700	0.25	114.40	0.80	-41.90	0.80	-41.90	0.25	114.40
6750	0.19	121.20	0.84	-46.10	0.84	-46.10	0.19	121.20
6800	0.17	135.10	0.86	-49.80	0.86	-49.80	0.17	135.10
6850	0.16	149.10	0.88	-53.40	0.88	-53.40	0.16	149.10
6900	0.17	159.80	0.89	-56.30	0.89	-56.30	0.17	159.80
6950	0.19	170.50	0.90	-59.20	0.90	-59.20	0.19	170.50
7000	0.21	173.90	0.90	-61.60	0.90	-61.60	0.21	173.90
7050	0.24	177.30	0.91	-64.00	0.91	-64.00	0.24	177.30
7100	0.25	178.40	0.91	-65.90	0.91	-65.90	0.25	178.40
7150	0.27	179.60	0.91	-67.70	0.91	-67.70	0.27	179.60
7200	0.29	-0.10	0.91	-69.60	0.91	-69.60	0.29	-0.10
7250	0.31	-179.70	0.91	-71.40	0.91	-71.40	0.31	-179.70
7300	0.33	-0.60	0.90	-73.00	0.90	-73.00	0.33	-0.60
7350	0.34	178.50	0.90	-74.60	0.90	-74.60	0.34	178.50
7400	0.35	178.60	0.90	-76.00	0.90	-76.00	0.35	178.60
7450	0.37	178.60	0.89	-77.40	0.89	-77.40	0.37	178.60
7500	0.38	177.30	0.89	-78.90	0.89	-78.90	0.38	177.30
7550	0.39	175.90	0.88	-80.40	0.88	-80.40	0.39	175.90
7600	0.40	175.80	0.88	-81.60	0.88	-81.60	0.40	175.80
7650	0.40	175.70	0.88	-82.80	0.88	-82.80	0.40	175.70
7700	0.41	174.80	0.87	-84.10	0.87	-84.10	0.41	174.80
7750	0.42	173.90	0.87	-85.50	0.87	-85.50	0.42	173.90
7800	0.43	172.40	0.86	-86.90	0.86	-86.90	0.43	172.40
7850	0.44	170.80	0.86	-88.30	0.86	-88.30	0.44	170.80
7900	0.45	170.20	0.85	-89.60	0.85	-89.60	0.45	170.20
7950	0.46	169.60	0.85	-90.80	0.85	-90.80	0.46	169.60
8000	0.47	168.00	0.84	-92.20	0.84	-92.20	0.47	168.00
8050	0.48	166.30	0.83	-93.50	0.83	-93.50	0.48	166.30
8100	0.49	165.20	0.83	-94.90	0.83	-94.90	0.49	165.20
8150	0.50	164.10	0.83	-96.40	0.83	-96.40	0.50	164.10
8200	0.51	162.60	0.81	-97.80	0.81	-97.80	0.51	162.60
8250	0.53	161.10	0.80	-99.10	0.80	-99.10	0.53	161.10
8300	0.54	159.90	0.80	-100.70	0.80	-100.70	0.54	159.90
8350	0.55	158.70	0.79	-102.30	0.79	-102.30	0.55	158.70
8400	0.56	157.20	0.78	-103.70	0.78	-103.70	0.56	157.20
8450	0.58	155.80	0.76	-105.10	0.76	-105.10	0.58	155.80
8500	0.58	154.50	0.75	-106.70	0.75	-106.70	0.58	154.50
8550	0.59	153.20	0.74	-108.40	0.74	-108.40	0.59	153.20
8600	0.61	151.50	0.73	-109.80	0.73	-109.80	0.61	151.50
8650	0.62	149.80	0.71	-111.30	0.71	-111.30	0.62	149.80
8700	0.63	148.70	0.69	-112.80	0.69	-112.80	0.63	148.70
8750	0.64	147.50	0.68	-114.40	0.68	-114.40	0.64	147.50
8800	0.66	145.60	0.66	-115.60	0.66	-115.60	0.66	145.60
8850	0.67	143.60	0.65	-116.80	0.65	-116.80	0.67	143.60
8900	0.68	142.30	0.63	-118.50	0.63	-118.50	0.68	142.30
8950	0.69	140.90	0.61	-120.20	0.61	-120.20	0.69	140.90
9000	0.71	139.50	0.59	-121.50	0.59	-121.50	0.71	139.50
9050	0.73	138.10	0.57	-122.90	0.57	-122.90	0.73	138.10
9100	0.75	136.50	0.55	-124.30	0.55	-124.30	0.75	136.50
9150	0.76	134.80	0.54	-125.80	0.54	-125.80	0.76	134.80
9200	0.77	132.30	0.51	-127.70	0.51	-127.70	0.77	132.30
9250	0.78	129.90	0.49	-129.50	0.49	-129.50	0.78	129.90
9300	0.78	129.10	0.46	-130.10	0.46	-130.10	0.78	129.10
9350	0.78	128.30	0.44	-130.60	0.44	-130.60	0.78	128.30
9400	0.79	126.30	0.41	-131.10	0.41	-131.10	0.79	126.30
9450	0.80	124.30	0.39	-131.70	0.39	-131.70	0.80	124.30
9500	0.79	123.50	0.37	-131.80	0.37	-131.80	0.79	123.50
9550	0.79	122.60	0.35	-131.90	0.35	-131.90	0.79	122.60
9600	0.81	121.50	0.33	-132.40	0.33	-132.40	0.81	121.50
9650	0.82	120.50	0.31	-132.80	0.31	-132.80	0.82	120.50
9700	0.82	119.00	0.28	-132.60	0.28	-132.60	0.82	119.00
9750	0.82	117.50	0.26	-132.30	0.26	-132.30	0.82	117.50
9800	0.83	117.10	0.23	-130.70	0.23	-130.70	0.83	117.10
9850	0.83	116.70	0.21	-129.10	0.21	-129.10	0.83	116.70
9900	0.85	115.00	0.19	-126.20	0.19	-126.20	0.85	115.00
9950	0.86	113.30	0.17	-123.30	0.17	-123.30	0.86	113.30
10000	0.85	111.80	0.16	-117.80	0.16	-117.80	0.85	111.80
10050	0.84	110.30	0.14	-112.30	0.14	-112.30	0.84	110.30
10100	0.86	109.50	0.13	-102.80	0.13	-102.80	0.86	109.50
10150	0.87	108.70	0.12	-93.30	0.12	-93.30	0.87	108.70
10200	0.87	106.60	0.12	-81.50	0.12	-81.50	0.87	106.60
10250	0.86	104.50	0.12	-69.70	0.12	-69.70	0.86	104.50
10300	0.87	102.60	0.13	-60.90	0.13	-60.90	0.87	102.60
10350	0.87	100.70	0.14	-52.20	0.14	-52.20	0.87	100.70
10400	0.85	98.90	0.17	-47.40	0.17	-47.40	0.85	98.90
10450	0.83	97.00	0.19	-42.60	0.19	-42.60	0.83	97.00
10500	0.83	95.00	0.21	-41.30	0.21	-41.30	0.83	95.00
10550	0.83	92.90	0.23	-40.00	0.23	-40.00	0.83	92.90
10600	0.82	91.00	0.25	-39.10	0.25	-39.10	0.82	91.00
10650	0.81	89.10	0.27	-38.20	0.27	-38.20	0.81	89.10
10700	0.80	87.70	0.29	-38.40	0.29	-38.40	0.80	87.70
10750	0.79	86.30	0.31	-38.50	0.31	-38.50	0.79	86.30
10800	0.80	84.80	0.33	-37.10	0.33	-37.10	0.80	84.80
10850	0.80	83.20	0.35	-35.60	0.35	-35.60	0.80	83.20
10900	0.79	80.10	0.38	-35.20	0.38	-35.20	0.79	80.10
10950	0.77	77.00	0.41	-34.90	0.41	-34.90	0.77	77.00
11000	0.76	74.50	0.44	-36.60	0.44	-36.60	0.76	74.50
11050	0.75	72.00	0.48	-38.30	0.48	-38.30	0.75	72.00
11100	0.73	68.90	0.51	-39.60	0.51	-39.60	0.73	68.90
11150	0.71	65.90	0.54	-40.90	0.54	-40.90	0.71	65.90
11200	0.69	63.40	0.57	-43.40	0.57	-43.40	0.69	63.40
11250	0.66	60.90	0.60	-45.80	0.60	-45.80	0.66	60.90
11300	0.64	58.30	0.63	-48.00	0.63	-48.00	0.64	58.30
11350	0.61	55.80	0.66	-50.10	0.66	-50.10	0.61	55.80
11400	0.58	53.60	0.67	-52.50	0.67	-52.50	0.58	53.60
11450	0.56	51.50	0.69	-55.00	0.69	-55.00	0.56	51.50
11500	0.53	49.80	0.72	-57.10	0.72	-57.10	0.53	49.80
11550	0.51	48.10	0.74	-59.30	0.74	-59.30	0.51	48.10
11600	0.48	46.90	0.75	-61.60	0.75	-61.60	0.48	46.90
11650	0.45	45.70	0.77	-63.90	0.77	-63.90	0.45	45.70
11700	0.43	44.70	0.79	-66.30	0.79	-66.30	0.43	44.70
11750	0.40	43.60	0.81	-68.60	0.81	-68.60	0.40	43.60
11800	0.37	44.30	0.81	-70.70	0.81	-70.70	0.37	44.30
11850	0.35	45.00	0.82	-72.80	0.82	-72.80	0.35	45.00
11900	0.31	46.80	0.83	-75.20	0.83	-75.20	0.31	46.80
11950	0.28	48.70	0.84	-77.70	0.84	-77.70	0.28	48.70
12000	0.25	51.00	0.85	-79.90	0.85	-79.90	0.25	51.00
12050	0.23	53.20	0.86	-82.20	0.86	-82.20	0.23	53.20
12100	0.21	59.80	0.86	-84.70	0.86	-84.70	0.21	59.80
12150	0.19	66.40	0.86	-87.30	0.86	-87.30	0.19	66.40
12200	0.18	75.20	0.86	-89.60	0.86	-89.60	0.18	75.20
12250	0.17	83.90	0.86	-92.00	0.86	-92.00	0.17	83.90
12300	0.18	94.80	0.86	-94.60	0.86	-94.60	0.18	94.80
12350	0.19	105.70	0.85	-97.10	0.85	-97.10	0.19	105.70
12400	0.21	110.40	0.84	-99.70	0.84	-99.70	0.21	110.40
12450	0.23	115.10	0.84	-102.20	0.84	-102.20	0.23	115.10
12500	0.26	117.90	0.82	-105.00	0.82	-105.00	0.26	117.90
12550	0.29	120.80	0.81	-107.70	0.81	-107.70	0.29	120.80
12600	0.32	120.90	0.78	-110.40	0.78	-110.40	0.32	120.90
12650	0.36	121.00	0.76	-113.00	0.76	-113.00	0.36	121.00
12700	0.39	119.60	0.74	-115.60	0.74	-115.60	0.39	119.60
12750	0.43	118.30	0.71	-118.10	0.71	-118.10	0.43	118.30
12800	0.47	115.50	0.67	-121.00	0.67	-121.00	0.47	115.50
12850	0.51	112.70	0.63	-123.90	0.63	-123.90	0.51	112.70
12900	0.54	109.80	0.59	-125.40	0.59	-125.40	0.54	109.80
12950	0.58	106.90	0.54	-126.90	0.54	-126.90	0.58	106.90
13000	0.61	102.80	0.49	-127.70	0.49	-127.70	0.61	102.80
13050	0.64	98.70	0.44	-128.50	0.44	-128.50	0.64	98.70
13100	0.66	94.60	0.39	-125.50	0.39	-125.50	0.66	94.60
13150	0.68	90.50	0.34	-122.60	0.34	-122.60	0.68	90.50
13200	0.70	86.10	0.31	-115.10	0.31	-115.10	0.70	86.10
13250	0.72	81.70	0.28	-107.60	0.28	-107.60	0.72	81.70
13300	0.71	78.90	0.29	-99.00	0.29	-99.00	0.71	78.90
13350	0.69	76.10	0.29	-90.40	0.29	-90.40	0.69	76.10
13400	0.71	70.80	0.32	-84.50	0.32	-84.50	0.71	70.80
13450	0.72	65.50	0.35	-78.70	0.35	-78.70	0.72	65.50
13500	0.71	61.70	0.38	-76.70	0.38	-76.70	0.71	61.70
13550	0.70	57.80	0.41	-74.70	0.41	-74.70	0.70	57.80
13600	0.69	54.50	0.45	-74.80	0.45	-74.80	0.69	54.50
13650	0.68	51.20	0.48	-74.90	0.48	-74.90	0.68	51.20
13700	0.67	47.80	0.51	-75.40	0.51	-75.40	0.67	47.80
13750	0.66	44.30	0.54	-75.90	0.54	-75.90	0.66	44.30
13800	0.64	41.00	0.56	-77.00	0.56	-77.00	0.64	41.00
13850	0.62	37.70	0.58	-78.00	0.58	-78.00	0.62	37.70
13900	0.62	34.20	0.60	-79.00	0.60	-79.00	0.62	34.20
13950	0.62	30.80	0.63	-79.90	0.63	-79.90	0.62	30.80
14000	0.60	27.40	0.64	-81.10	0.64	-81.10	0.60	27.40
14050	0.59	24.00	0.66	-82.30	0.66	-82.30	0.59	24.00
14100	0.58	21.10	0.68	-83.40	0.68	-83.40	0.58	21.10
14150	0.57	18.30	0.69	-84.50	0.69	-84.50	0.57	18.30
14200	0.57	15.30	0.70	-85.80	0.70	-85.80	0.57	15.30
14250	0.56	12.20	0.71	-87.00	0.71	-87.00	0.56	12.20
14300	0.55	9.90	0.73	-88.20	0.73	-88.20	0.55	9.90
14350	0.53	7.60	0.74	-89.40	0.74	-89.40	0.53	7.60
14400	0.53	5.30	0.75	-90.50	0.75	-90.50	0.53	5.30
14450	0.52	3.00	0.76	-91.70	0.76	-91.70	0.52	3.00
14500	0.51	1.50	0.76	-92.60	0.76	-92.60	0.51	1.50
14550	0.49	0.00	0.76	-93.50	0.76	-93.50	0.49	0.00
14600	0.48	-1.00	0.77	-94.70	0.77	-94.70	0.48	-1.00
14650	0.47	-2.00	0.78	-95.80	0.78	-95.80	0.47	-2.00
14700	0.45	-2.60	0.78	-96.70	0.78	-96.70	0.45	-2.60
14750	0.44	-3.20	0.78	-97.60	0.78	-97.60	0.44	-3.20
14800	0.44	-3.00	0.78	-98.10	0.78	-98.10	0.44	-3.00
14850	0.44	-2.70	0.78	-98.70	0.78	-98.70	0.44	-2.70
14900	0.44	-2.60	0.79	-98.80	0.79	-98.80	0.44	-2.60
14950	0.44	-2.50	0.80	-98.90	0.80	-98.90	0.44	-2.50
15000	0.43	-4.70	0.80	-100.00	0.80	-100.00	0.43	-4.70
15050	0.43	-6.80	0.81	-101.00	0.81	-101.00	0.43	-6.80
15100	0.43	-7.40	0.82	-101.60	0.82	-101.60	0.43	-7.40
15150	0.42	-8.00	0.83	-102.20	0.83	-102.20	0.42	-8.00
15200	0.41	-8.40	0.84	-103.10	0.84	-103.10	0.41	-8.40
15250	0.41	-8.80	0.84	-104.10	0.84	-104.10	0.41	-8.80
15300	0.41	-10.20	0.84	-105.30	0.84	-105.30	0.41	-10.20
15350	0.40	-11.60	0.85	-106.60	0.85	-106.60	0.40	-11.60
15400	0.39	-10.70	0.84	-107.30	0.84	-107.30	0.39	-10.70
15450	0.38	-9.90	0.84	-107.90	0.84	-107.90	0.38	-9.90
15500	0.39	-9.80	0.84	-108.70	0.84	-108.70	0.39	-9.80
15550	0.40	-9.80	0.84	-109.40	0.84	-109.40	0.40	-9.80
15600	0.40	-10.00	0.84	-109.60	0.84	-109.60	0.40	-10.00
15650	0.40	-10.10	0.84	-109.90	0.84	-109.90	0.40	-10.10
15700	0.41	-10.30	0.84	-110.40	0.84	-110.40	0.41	-10.30
15750	0.42	-10.50	0.84	-110.90	0.84	-110.90	0.42	-10.50
15800	0.41	-11.60	0.84	-111.10	0.84	-111.10	0.41	-11.60
15850	0.39	-12.80	0.85	-111.30	0.85	-111.30	0.39	-12.80
15900	0.40	-12.60	0.85	-111.80	0.85	-111.80	0.40	-12.60
15950	0.40	-12.50	0.85	-112.30	0.85	-112.30	0.40	-12.50
16000	0.39	-13.10	0.86	-112.70	0.86	-112.70	0.39	-13.10
16050	0.37	-13.80	0.87	-113.00	0.87	-113.00	0.37	-13.80
16100	0.35	-13.50	0.87	-113.90	0.87	-113.90	0.35	-13.50
16150	0.34	-13.30	0.87	-114.70	0.87	-114.70	0.34	-13.30
16200	0.32	-14.50	0.88	-115.40	0.88	-115.40	0.32	-14.50
16250	0.31	-15.70	0.88	-116.00	0.88	-116.00	0.31	-15.70
16300	0.28	-15.80	0.89	-116.80	0.89	-116.80	0.28	-15.80
16350	0.26	-16.00	0.89	-117.60	0.89	-117.60	0.26	-16.00
16400	0.25	-16.70	0.89	-118.20	0.89	-118.20	0.25	-16.70
16450	0.24	-17.30	0.89	-118.70	0.89	-118.70	0.24	-17.30
16500	0.22	-20.60	0.89	-119.10	0.89	-119.10	0.22	-20.60
16550	0.21	-23.90	0.89	-119.50	0.89	-119.50	0.21	-23.90
16600	0.19	-25.90	0.90	-120.20	0.90	-120.20	0.19	-25.90
16650	0.18	-27.90	0.92	-120.90	0.92	-120.90	0.18	-27.90
16700	0.16	-32.80	0.93	-121.80	0.93	-121.80	0.16	-32.80
16750	0.15	-37.70	0.93	-122.70	0.93	-122.70	0.15	-37.70
16800	0.13	-41.60	0.94	-123.70	0.94	-123.70	0.13	-41.60
16850	0.11	-45.40	0.94	-124.70	0.94	-124.70	0.11	-45.40
16900	0.09	-44.00	0.94	-125.80	0.94	-125.80	0.09	-44.00
16950	0.08	-42.50	0.94	-126.90	0.94	-126.90	0.08	-42.50
17000	0.06	-41.40	0.95	-128.00	0.95	-128.00	0.06	-41.40
17050	0.04	-40.30	0.95	-129.00	0.95	-129.00	0.04	-40.30
17100	0.03	-3.40	0.95	-130.20	0.95	-130.20	0.03	-3.40
17150	0.03	33.40	0.95	-131.40	0.95	-131.40	0.03	33.40
17200	0.05	49.20	0.94	-132.20	0.94	-132.20	0.05	49.20
17250	0.06	64.90	0.94	-133.00	0.94	-133.00	0.06	64.90
17300	0.09	73.70	0.94	-134.10	0.94	-134.10	0.09	73.70
17350	0.11	82.40	0.94	-135.20	0.94	-135.20	0.11	82.40
17400	0.13	79.40	0.93	-136.00	0.93	-136.00	0.13	79.40
17450	0.14	76.50	0.93	-136.80	0.93	-136.80	0.14	76.50
17500	0.16	77.80	0.92	-137.80	0.92	-137.80	0.16	77.80
17550	0.17	79.20	0.92	-138.80	0.92	-138.80	0.17	79.20
17600	0.20	77.90	0.91	-139.80	0.91	-139.80	0.20	77.90
17650	0.22	76.60	0.91	-140.80	0.91	-140.80	0.22	76.60
17700	0.23	76.40	0.90	-141.60	0.90	-141.60	0.23	76.40
17750	0.24	76.20	0.89	-142.50	0.89	-142.50	0.24	76.20
17800	0.25	76.00	0.88	-143.50	0.88	-143.50	0.25	76.00
17850	0.27	75.80	0.87	-144.60	0.87	-144.60	0.27	75.80
17900	0.28	74.10	0.86	-145.40	0.86	-145.40	0.28	74.10
17950	0.29	72.30	0.84	-146.20	0.84	-146.20	0.29	72.30
18000	0.30	70.60	0.82	-146.90	0.82	-146.90	0.30	70.60
18050	0.31	68.90	0.80	-147.50	0.80	-147.50	0.31	68.90
18100	0.31	64.00	0.77	-147.00	0.77	-147.00	0.31	64.00
18150	0.32	59.00	0.75	-146.50	0.75	-146.50	0.32	59.00
18200	0.32	52.50	0.74	-144.80	0.74	-144.80	0.32	52.50
18250	0.32	45.90	0.72	-143.20	0.72	-143.20	0.32	45.90
18300	0.33	37.70	0.74	-141.00	0.74	-141.00	0.33	37.70
18350	0.33	29.50	0.75	-138.90	0.75	-138.90	0.33	29.50
18400	0.31	22.90	0.77	-138.40	0.77	-138.40	0.31	22.90
18450	0.30	16.40	0.79	-137.80	0.79	-137.80	0.30	16.40
18500	0.30	12.10	0.82	-137.90	0.82	-137.90	0.30	12.10
18550	0.30	7.80	0.84	-138.10	0.84	-138.10	0.30	7.80
18600	0.28	3.50	0.86	-139.10	0.86	-139.10	0.28	3.50
