# MHZ S MA R 50

      50  0.06   77.60    0.99   -2.50    0.99   -2.50    0.06   77.60
     100  0.13   76.30    0.98   -6.00    0.98   -6.00    0.13   76.30
     150  0.19   75.00    0.97   -9.60    0.97   -9.60    0.19   75.00
     200  0.25   72.20    0.95   -13.10   0.95   -13.10   0.25   72.20
     250  0.31   69.30    0.94   -16.60   0.94   -16.60   0.31   69.30
     300  0.36   66.00    0.92   -20.10   0.92   -20.10   0.36   66.00
     350  0.41   62.60    0.89   -23.60   0.89   -23.60   0.41   62.60
     400  0.46   59.20    0.87   -26.80   0.87   -26.80   0.46   59.20
     450  0.51   55.90    0.84   -30.00   0.84   -30.00   0.51   55.90
     500  0.59   54.80    0.80   -34.80   0.80   -34.80   0.59   54.80
     550  0.66   53.80    0.76   -39.60   0.76   -39.60   0.66   53.80
     600  0.69   51.00    0.73   -42.40   0.73   -42.40   0.69   51.00
     650  0.71   48.10    0.69   -45.20   0.69   -45.20   0.71   48.10
     700  0.75   46.00    0.66   -48.00   0.66   -48.00   0.75   46.00
     750  0.79   43.90    0.63   -50.90   0.63   -50.90   0.79   43.90
     800  0.80   41.00    0.59   -53.30   0.59   -53.30   0.80   41.00
     850  0.81   38.00    0.56   -55.60   0.56   -55.60   0.81   38.00
     900  0.85   35.70    0.53   -57.90   0.53   -57.90   0.85   35.70
     950  0.88   33.40    0.49   -60.10   0.49   -60.10   0.88   33.40
    1000  0.89   31.10    0.46   -62.30   0.46   -62.30   0.89   31.10
    1050  0.90   28.80    0.43   -64.50   0.43   -64.50   0.90   28.80
    1100  0.92   26.70    0.39   -66.70   0.39   -66.70   0.92   26.70
    1150  0.94   24.70    0.36   -68.80   0.36   -68.80   0.94   24.70
    1200  0.95   22.90    0.33   -70.40   0.33   -70.40   0.95   22.90
    1250  0.96   21.20    0.30   -71.90   0.30   -71.90   0.96   21.20
    1300  0.97   18.90    0.28   -73.90   0.28   -73.90   0.97   18.90
    1350  0.98   16.60    0.25   -75.90   0.25   -75.90   0.98   16.60
    1400  0.98   15.00    0.22   -77.10   0.22   -77.10   0.98   15.00
    1450  0.98   13.50    0.19   -78.20   0.19   -78.20   0.98   13.50
    1500  0.99   11.40    0.16   -79.70   0.16   -79.70   0.99   11.40
    1550  0.99    9.30    0.14   -81.10   0.14   -81.10   0.99    9.30
    1600  0.99    7.50    0.11   -81.80   0.11   -81.80   0.99    7.50
    1650  1.00    5.60    0.09   -82.40   0.09   -82.40   1.00    5.60
    1700  0.99    4.10    0.06   -80.60   0.06   -80.60   0.99    4.10
    1750  0.99    2.50    0.04   -78.90   0.04   -78.90   0.99    2.50
    1800  1.00    0.70    0.03   -17.90   0.03   -17.90   1.00    0.70
    1850  1.00   -1.20    0.01   43.00    0.01   43.00    1.00   -1.20
    1900  1.00   -2.80    0.03   59.20    0.03   59.20    1.00   -2.80
    1950  0.99   -4.40    0.05   75.50    0.05   75.50    0.99   -4.40
    2000  0.99   -6.10    0.08   75.90    0.08   75.90    0.99   -6.10
    2050  0.98   -7.80    0.10   76.40    0.10   76.40    0.98   -7.80
    2100  0.98   -9.00    0.12   75.90    0.12   75.90    0.98   -9.00
    2150  0.98   -10.30   0.14   75.40    0.14   75.40    0.98   -10.30
    2200  0.98   -12.10   0.16   74.40    0.16   74.40    0.98   -12.10
    2250  0.97   -13.80   0.18   73.30    0.18   73.30    0.97   -13.80
    2300  0.97   -14.90   0.20   72.60    0.20   72.60    0.97   -14.90
    2350  0.96   -16.00   0.22   71.80    0.22   71.80    0.96   -16.00
    2400  0.96   -17.70   0.23   70.50    0.23   70.50    0.96   -17.70
    2450  0.96   -19.40   0.25   69.20    0.25   69.20    0.96   -19.40
    2500  0.95   -20.70   0.27   68.10    0.27   68.10    0.95   -20.70
    2550  0.95   -21.90   0.29   67.10    0.29   67.10    0.95   -21.90
    2600  0.94   -23.00   0.30   66.20    0.30   66.20    0.94   -23.00
    2650  0.94   -24.00   0.32   65.30    0.32   65.30    0.94   -24.00
    2700  0.93   -25.20   0.34   64.20    0.34   64.20    0.93   -25.20
    2750  0.92   -26.40   0.35   63.10    0.35   63.10    0.92   -26.40
    2800  0.92   -27.60   0.37   62.20    0.37   62.20    0.92   -27.60
    2850  0.91   -28.70   0.38   61.40    0.38   61.40    0.91   -28.70
    2900  0.91   -29.70   0.40   60.20    0.40   60.20    0.91   -29.70
    2950  0.90   -30.70   0.41   59.00    0.41   59.00    0.90   -30.70
    3000  0.89   -31.60   0.42   58.10    0.42   58.10    0.89   -31.60
    3050  0.89   -32.50   0.44   57.20    0.44   57.20    0.89   -32.50
    3100  0.88   -33.60   0.45   56.40    0.45   56.40    0.88   -33.60
    3150  0.87   -34.70   0.46   55.60    0.46   55.60    0.87   -34.70
    3200  0.87   -35.30   0.47   54.80    0.47   54.80    0.87   -35.30
    3250  0.86   -36.00   0.49   54.10    0.49   54.10    0.86   -36.00
    3300  0.85   -36.70   0.50   53.20    0.50   53.20    0.85   -36.70
    3350  0.85   -37.50   0.51   52.20    0.51   52.20    0.85   -37.50
    3400  0.84   -38.40   0.52   51.60    0.52   51.60    0.84   -38.40
    3450  0.83   -39.30   0.53   50.90    0.53   50.90    0.83   -39.30
    3500  0.82   -40.20   0.54   50.10    0.54   50.10    0.82   -40.20
    3550  0.81   -41.20   0.56   49.20    0.56   49.20    0.81   -41.20
    3600  0.81   -41.70   0.56   48.60    0.56   48.60    0.81   -41.70
    3650  0.80   -42.30   0.57   47.90    0.57   47.90    0.80   -42.30
    3700  0.80   -43.40   0.58   47.10    0.58   47.10    0.80   -43.40
    3750  0.79   -44.50   0.59   46.30    0.59   46.30    0.79   -44.50
    3800  0.78   -45.10   0.60   45.70    0.60   45.70    0.78   -45.10
    3850  0.77   -45.70   0.61   45.10    0.61   45.10    0.77   -45.70
    3900  0.77   -46.70   0.62   44.10    0.62   44.10    0.77   -46.70
    3950  0.76   -47.70   0.63   43.10    0.63   43.10    0.76   -47.70
    4000  0.75   -48.50   0.63   42.50    0.63   42.50    0.75   -48.50
    4050  0.75   -49.30   0.64   42.00    0.64   42.00    0.75   -49.30
    4100  0.74   -49.90   0.65   41.40    0.65   41.40    0.74   -49.90
    4150  0.73   -50.50   0.65   40.70    0.65   40.70    0.73   -50.50
    4200  0.73   -51.50   0.66   40.10    0.66   40.10    0.73   -51.50
    4250  0.73   -52.50   0.67   39.50    0.67   39.50    0.73   -52.50
    4300  0.71   -53.30   0.68   39.00    0.68   39.00    0.71   -53.30
    4350  0.70   -54.00   0.68   38.40    0.68   38.40    0.70   -54.00
    4400  0.70   -54.90   0.69   37.60    0.69   37.60    0.70   -54.90
    4450  0.70   -55.80   0.69   36.80    0.69   36.80    0.70   -55.80
    4500  0.69   -56.40   0.70   36.80    0.70   36.80    0.69   -56.40
    4550  0.68   -57.00   0.70   36.90    0.70   36.90    0.68   -57.00
    4600  0.68   -58.10   0.71   36.00    0.71   36.00    0.68   -58.10
    4650  0.68   -59.30   0.73   35.00    0.73   35.00    0.68   -59.30
    4700  0.67   -60.00   0.73   34.40    0.73   34.40    0.67   -60.00
    4750  0.65   -60.70   0.74   33.80    0.74   33.80    0.65   -60.70
    4800  0.64   -61.70   0.74   33.20    0.74   33.20    0.64   -61.70
    4850  0.64   -62.60   0.74   32.50    0.74   32.50    0.64   -62.60
    4900  0.63   -63.10   0.75   32.00    0.75   32.00    0.63   -63.10
    4950  0.63   -63.60   0.76   31.50    0.76   31.50    0.63   -63.60
    5000  0.62   -64.90   0.76   30.60    0.76   30.60    0.62   -64.90
    5050  0.61   -66.10   0.77   29.60    0.77   29.60    0.61   -66.10
    5100  0.60   -66.50   0.77   29.20    0.77   29.20    0.60   -66.50
    5150  0.59   -66.90   0.77   28.80    0.77   28.80    0.59   -66.90
    5200  0.59   -67.20   0.78   28.50    0.78   28.50    0.59   -67.20
    5250  0.58   -67.50   0.79   28.30    0.79   28.30    0.58   -67.50
    5300  0.58   -68.60   0.79   27.20    0.79   27.20    0.58   -68.60
    5350  0.58   -69.70   0.80   26.10    0.80   26.10    0.58   -69.70
    5400  0.57   -70.00   0.80   25.60    0.80   25.60    0.57   -70.00
    5450  0.55   -70.30   0.81   25.00    0.81   25.00    0.55   -70.30
    5500  0.55   -70.80   0.81   24.40    0.81   24.40    0.55   -70.80
    5550  0.55   -71.30   0.82   23.70    0.82   23.70    0.55   -71.30
    5600  0.53   -71.80   0.82   23.00    0.82   23.00    0.53   -71.80
    5650  0.52   -72.20   0.83   22.30    0.83   22.30    0.52   -72.20
    5700  0.52   -72.60   0.83   21.90    0.83   21.90    0.52   -72.60
    5750  0.51   -73.00   0.83   21.40    0.83   21.40    0.51   -73.00
    5800  0.50   -73.00   0.84   20.70    0.84   20.70    0.50   -73.00
    5850  0.49   -73.00   0.84   19.90    0.84   19.90    0.49   -73.00
    5900  0.48   -73.20   0.85   19.40    0.85   19.40    0.48   -73.20
    5950  0.48   -73.40   0.85   18.90    0.85   18.90    0.48   -73.40
    6000  0.46   -74.50   0.86   17.60    0.86   17.60    0.46   -74.50
    6050  0.45   -75.60   0.87   16.30    0.87   16.30    0.45   -75.60
    6100  0.44   -75.90   0.87   15.80    0.87   15.80    0.44   -75.90
    6150  0.43   -76.30   0.87   15.30    0.87   15.30    0.43   -76.30
    6200  0.42   -76.00   0.88   14.40    0.88   14.40    0.42   -76.00
    6250  0.41   -75.70   0.88   13.40    0.88   13.40    0.41   -75.70
    6300  0.40   -76.10   0.89   12.60    0.89   12.60    0.40   -76.10
    6350  0.38   -76.60   0.89   11.70    0.89   11.70    0.38   -76.60
    6400  0.37   -76.30   0.89   10.70    0.89   10.70    0.37   -76.30
    6450  0.35   -76.00   0.90    9.70    0.90    9.70    0.35   -76.00
    6500  0.34   -76.00   0.90    8.50    0.90    8.50    0.34   -76.00
    6550  0.32   -76.00   0.90    7.40    0.90    7.40    0.32   -76.00
    6600  0.30   -75.60   0.91    6.00    0.91    6.00    0.30   -75.60
    6650  0.28   -75.20   0.91    4.70    0.91    4.70    0.28   -75.20
    6700  0.26   -74.00   0.91    3.20    0.91    3.20    0.26   -74.00
    6750  0.24   -72.90   0.91    1.80    0.91    1.80    0.24   -72.90
    6800  0.21   -69.60   0.92   -0.20    0.92   -0.20    0.21   -69.60
    6850  0.17   -66.40   0.92   -2.30    0.92   -2.30    0.17   -66.40
    6900  0.14   -53.80   0.91   -5.10    0.91   -5.10    0.14   -53.80
    6950  0.11   -41.30   0.90   -7.80    0.90   -7.80    0.11   -41.30
    7000  0.13   -12.70   0.88   -11.60   0.88   -11.60   0.13   -12.70
    7050  0.14   15.80    0.86   -15.30   0.86   -15.30   0.14   15.80
    7100  0.22   22.80    0.81   -20.20   0.81   -20.20   0.22   22.80
    7150  0.31   29.90    0.76   -25.00   0.76   -25.00   0.31   29.90
    7200  0.41   24.90    0.66   -29.50   0.66   -29.50   0.41   24.90
    7250  0.52   19.90    0.55   -34.00   0.55   -34.00   0.52   19.90
    7300  0.61   10.90    0.43   -28.70   0.43   -28.70   0.61   10.90
    7350  0.71    1.90    0.31   -23.50   0.31   -23.50   0.71    1.90
    7400  0.73   -6.70    0.30   -1.90    0.30   -1.90    0.73   -6.70
    7450  0.76   -15.30   0.30   19.60    0.30   19.60    0.76   -15.30
    7500  0.76   -21.80   0.37   25.90    0.37   25.90    0.76   -21.80
    7550  0.76   -28.40   0.45   32.30    0.45   32.30    0.76   -28.40
    7600  0.74   -33.10   0.50   31.80    0.50   31.80    0.74   -33.10
    7650  0.71   -37.90   0.56   31.40    0.56   31.40    0.71   -37.90
    7700  0.69   -41.20   0.60   30.20    0.60   30.20    0.69   -41.20
    7750  0.67   -44.60   0.64   29.00    0.64   29.00    0.67   -44.60
    7800  0.65   -47.10   0.67   27.70    0.67   27.70    0.65   -47.10
    7850  0.63   -49.60   0.70   26.40    0.70   26.40    0.63   -49.60
    7900  0.62   -52.20   0.72   25.10    0.72   25.10    0.62   -52.20
    7950  0.60   -54.80   0.74   23.70    0.74   23.70    0.60   -54.80
    8000  0.58   -56.60   0.75   22.50    0.75   22.50    0.58   -56.60
    8050  0.57   -58.50   0.77   21.30    0.77   21.30    0.57   -58.50
    8100  0.55   -59.90   0.78   20.60    0.78   20.60    0.55   -59.90
    8150  0.54   -61.40   0.79   20.00    0.79   20.00    0.54   -61.40
    8200  0.52   -62.90   0.80   18.90    0.80   18.90    0.52   -62.90
    8250  0.51   -64.30   0.81   17.80    0.81   17.80    0.51   -64.30
    8300  0.50   -65.40   0.82   17.20    0.82   17.20    0.50   -65.40
    8350  0.49   -66.60   0.83   16.60    0.83   16.60    0.49   -66.60
    8400  0.48   -67.60   0.84   15.60    0.84   15.60    0.48   -67.60
    8450  0.47   -68.60   0.85   14.60    0.85   14.60    0.47   -68.60
    8500  0.46   -69.30   0.85   14.00    0.85   14.00    0.46   -69.30
    8550  0.45   -70.00   0.86   13.40    0.86   13.40    0.45   -70.00
    8600  0.44   -70.40   0.87   12.60    0.87   12.60    0.44   -70.40
    8650  0.43   -70.80   0.87   11.70    0.87   11.70    0.43   -70.80
    8700  0.43   -71.10   0.88   11.00    0.88   11.00    0.43   -71.10
    8750  0.42   -71.50   0.88   10.30    0.88   10.30    0.42   -71.50
    8800  0.41   -71.60   0.88   10.00    0.88   10.00    0.41   -71.60
    8850  0.40   -71.70   0.88    9.80    0.88    9.80    0.40   -71.70
    8900  0.39   -71.70   0.89    9.00    0.89    9.00    0.39   -71.70
    8950  0.38   -71.70   0.89    8.30    0.89    8.30    0.38   -71.70
    9000  0.38   -71.80   0.89    7.80    0.89    7.80    0.38   -71.80
    9050  0.37   -71.90   0.89    7.30    0.89    7.30    0.37   -71.90
    9100  0.36   -72.30   0.90    6.90    0.90    6.90    0.36   -72.30
    9150  0.35   -72.70   0.90    6.40    0.90    6.40    0.35   -72.70
    9200  0.35   -73.40   0.91    6.10    0.91    6.10    0.35   -73.40
    9250  0.34   -74.10   0.91    5.70    0.91    5.70    0.34   -74.10
    9300  0.33   -73.90   0.91    5.10    0.91    5.10    0.33   -73.90
    9350  0.32   -73.70   0.92    4.60    0.92    4.60    0.32   -73.70
    9400  0.32   -73.90   0.92    4.30    0.92    4.30    0.32   -73.90
    9450  0.31   -74.10   0.92    4.00    0.92    4.00    0.31   -74.10
    9500  0.31   -74.00   0.92    3.30    0.92    3.30    0.31   -74.00
    9550  0.30   -73.80   0.93    2.60    0.93    2.60    0.30   -73.80
    9600  0.29   -73.70   0.93    2.00    0.93    2.00    0.29   -73.70
    9650  0.29   -73.50   0.93    1.40    0.93    1.40    0.29   -73.50
    9700  0.28   -74.40   0.93    1.10    0.93    1.10    0.28   -74.40
    9750  0.27   -75.40   0.93    0.70    0.93    0.70    0.27   -75.40
    9800  0.26   -75.10   0.93    0.50    0.93    0.50    0.26   -75.10
    9850  0.25   -74.80   0.93    0.30    0.93    0.30    0.25   -74.80
    9900  0.24   -73.60   0.94    0.00    0.94    0.00    0.24   -73.60
    9950  0.23   -72.50   0.94   -0.20    0.94   -0.20    0.23   -72.50
   10000  0.23   -72.10   0.94   -0.70    0.94   -0.70    0.23   -72.10
   10050  0.22   -71.80   0.95   -1.20    0.95   -1.20    0.22   -71.80
   10100  0.22   -70.80   0.95   -1.60    0.95   -1.60    0.22   -70.80
   10150  0.21   -69.80   0.95   -2.00    0.95   -2.00    0.21   -69.80
   10200  0.20   -69.60   0.95   -2.50    0.95   -2.50    0.20   -69.60
   10250  0.20   -69.30   0.96   -3.00    0.96   -3.00    0.20   -69.30
   10300  0.19   -69.40   0.95   -3.40    0.95   -3.40    0.19   -69.40
   10350  0.19   -69.50   0.95   -3.80    0.95   -3.80    0.19   -69.50
   10400  0.18   -70.00   0.96   -4.30    0.96   -4.30    0.18   -70.00
   10450  0.17   -70.40   0.96   -4.90    0.96   -4.90    0.17   -70.40
   10500  0.17   -70.20   0.96   -5.20    0.96   -5.20    0.17   -70.20
   10550  0.17   -69.90   0.96   -5.60    0.96   -5.60    0.17   -69.90
   10600  0.15   -70.30   0.96   -6.10    0.96   -6.10    0.15   -70.30
   10650  0.14   -70.70   0.96   -6.60    0.96   -6.60    0.14   -70.70
   10700  0.14   -71.20   0.97   -7.00    0.97   -7.00    0.14   -71.20
   10750  0.13   -71.80   0.97   -7.50    0.97   -7.50    0.13   -71.80
   10800  0.13   -72.80   0.97   -7.70    0.97   -7.70    0.13   -72.80
   10850  0.12   -73.90   0.97   -7.90    0.97   -7.90    0.12   -73.90
   10900  0.12   -75.30   0.97   -8.60    0.97   -8.60    0.12   -75.30
   10950  0.11   -76.60   0.97   -9.20    0.97   -9.20    0.11   -76.60
   11000  0.10   -77.90   0.97   -9.60    0.97   -9.60    0.10   -77.90
   11050  0.09   -79.30   0.97   -10.00   0.97   -10.00   0.09   -79.30
   11100  0.09   -80.50   0.97   -10.50   0.97   -10.50   0.09   -80.50
   11150  0.09   -81.70   0.97   -10.90   0.97   -10.90   0.09   -81.70
   11200  0.09   -80.70   0.97   -11.40   0.97   -11.40   0.09   -80.70
   11250  0.08   -79.70   0.97   -11.90   0.97   -11.90   0.08   -79.70
   11300  0.08   -79.00   0.97   -12.50   0.97   -12.50   0.08   -79.00
   11350  0.07   -78.20   0.97   -13.10   0.97   -13.10   0.07   -78.20
   11400  0.07   -72.80   0.97   -13.50   0.97   -13.50   0.07   -72.80
   11450  0.06   -67.40   0.97   -14.00   0.97   -14.00   0.06   -67.40
   11500  0.05   -60.30   0.97   -14.70   0.97   -14.70   0.05   -60.30
   11550  0.05   -53.10   0.96   -15.40   0.96   -15.40   0.05   -53.10
   11600  0.04   -41.50   0.96   -16.00   0.96   -16.00   0.04   -41.50
   11650  0.04   -30.00   0.97   -16.70   0.97   -16.70   0.04   -30.00
   11700  0.04   -13.40   0.96   -17.40   0.96   -17.40   0.04   -13.40
   11750  0.04    3.20    0.96   -18.10   0.96   -18.10   0.04    3.20
   11800  0.05   15.60    0.96   -18.80   0.96   -18.80   0.05   15.60
   11850  0.05   28.00    0.95   -19.50   0.95   -19.50   0.05   28.00
   11900  0.06   34.90    0.95   -20.40   0.95   -20.40   0.06   34.90
   11950  0.08   41.80    0.94   -21.40   0.94   -21.40   0.08   41.80
   12000  0.09   43.50    0.94   -22.30   0.94   -22.30   0.09   43.50
   12050  0.10   45.30    0.93   -23.30   0.93   -23.30   0.10   45.30
   12100  0.11   45.60    0.93   -24.50   0.93   -24.50   0.11   45.60
   12150  0.13   45.80    0.92   -25.80   0.92   -25.80   0.13   45.80
   12200  0.15   44.00    0.90   -27.10   0.90   -27.10   0.15   44.00
   12250  0.17   42.30    0.89   -28.40   0.89   -28.40   0.17   42.30
   12300  0.19   39.80    0.87   -30.00   0.87   -30.00   0.19   39.80
   12350  0.22   37.30    0.85   -31.60   0.85   -31.60   0.22   37.30
   12400  0.25   32.20    0.81   -33.60   0.81   -33.60   0.25   32.20
   12450  0.28   27.00    0.78   -35.50   0.78   -35.50   0.28   27.00
   12500  0.32   21.70    0.73   -36.80   0.73   -36.80   0.32   21.70
   12550  0.37   16.50    0.68   -38.00   0.68   -38.00   0.37   16.50
   12600  0.41    8.60    0.61   -37.10   0.61   -37.10   0.41    8.60
   12650  0.45    0.80    0.54   -36.30   0.54   -36.30   0.45    0.80
   12700  0.49   -7.80    0.49   -29.00   0.49   -29.00   0.49   -7.80
   12750  0.52   -16.30   0.44   -21.80   0.44   -21.80   0.52   -16.30
   12800  0.53   -24.50   0.46   -11.90   0.46   -11.90   0.53   -24.50
   12850  0.53   -32.60   0.47   -2.00    0.47   -2.00    0.53   -32.60
   12900  0.52   -39.30   0.53    1.40    0.53    1.40    0.52   -39.30
   12950  0.50   -46.00   0.59    4.80    0.59    4.80    0.50   -46.00
   13000  0.48   -50.80   0.64    5.00    0.64    5.00    0.48   -50.80
   13050  0.46   -55.60   0.70    5.10    0.70    5.10    0.46   -55.60
   13100  0.43   -58.80   0.74    3.90    0.74    3.90    0.43   -58.80
   13150  0.40   -62.00   0.77    2.60    0.77    2.60    0.40   -62.00
   13200  0.38   -64.40   0.80    1.60    0.80    1.60    0.38   -64.40
   13250  0.35   -66.80   0.82    0.50    0.82    0.50    0.35   -66.80
   13300  0.33   -66.70   0.84   -0.90    0.84   -0.90    0.33   -66.70
   13350  0.30   -66.60   0.85   -2.20    0.85   -2.20    0.30   -66.60
   13400  0.29   -69.10   0.87   -3.40    0.87   -3.40    0.29   -69.10
   13450  0.27   -71.60   0.88   -4.60    0.88   -4.60    0.27   -71.60
   13500  0.26   -72.70   0.89   -5.50    0.89   -5.50    0.26   -72.70
   13550  0.24   -73.90   0.89   -6.30    0.89   -6.30    0.24   -73.90
   13600  0.23   -74.90   0.90   -7.20    0.90   -7.20    0.23   -74.90
   13650  0.22   -75.90   0.90   -8.00    0.90   -8.00    0.22   -75.90
   13700  0.21   -76.00   0.91   -8.80    0.91   -8.80    0.21   -76.00
   13750  0.20   -76.20   0.92   -9.60    0.92   -9.60    0.20   -76.20
   13800  0.19   -76.50   0.92   -10.20   0.92   -10.20   0.19   -76.50
   13850  0.19   -76.90   0.92   -10.70   0.92   -10.70   0.19   -76.90
   13900  0.18   -75.80   0.92   -11.30   0.92   -11.30   0.18   -75.80
