#	mhz	s	ma	r	50
50	0.03	74.40	1.00	-0.40	1.00	-0.40	0.03	74.40
100	0.06	76.90	0.99	-2.00	0.99	-2.00	0.06	76.90
150	0.09	79.30	0.99	-3.60	0.99	-3.60	0.09	79.30
200	0.12	78.70	0.99	-5.40	0.99	-5.40	0.12	78.70
250	0.14	78.00	0.98	-7.10	0.98	-7.10	0.14	78.00
300	0.17	76.50	0.98	-8.90	0.98	-8.90	0.17	76.50
350	0.19	75.00	0.97	-10.60	0.97	-10.60	0.19	75.00
400	0.22	73.10	0.96	-12.20	0.96	-12.20	0.22	73.10
450	0.25	71.30	0.96	-13.80	0.96	-13.80	0.25	71.30
500	0.29	72.50	0.95	-16.50	0.95	-16.50	0.29	72.50
550	0.34	73.70	0.94	-19.10	0.94	-19.10	0.34	73.70
600	0.36	72.10	0.93	-20.80	0.93	-20.80	0.36	72.10
650	0.38	70.50	0.92	-22.40	0.92	-22.40	0.38	70.50
700	0.41	69.50	0.90	-24.20	0.90	-24.20	0.41	69.50
750	0.44	68.50	0.89	-25.90	0.89	-25.90	0.44	68.50
800	0.46	66.50	0.88	-27.50	0.88	-27.50	0.46	66.50
850	0.47	64.40	0.87	-29.10	0.87	-29.10	0.47	64.40
900	0.50	62.80	0.85	-30.70	0.85	-30.70	0.50	62.80
950	0.53	61.20	0.84	-32.20	0.84	-32.20	0.53	61.20
1000	0.55	59.50	0.82	-33.90	0.82	-33.90	0.55	59.50
1050	0.57	57.80	0.81	-35.50	0.81	-35.50	0.57	57.80
1100	0.60	56.40	0.80	-37.10	0.80	-37.10	0.60	56.40
1150	0.62	54.90	0.78	-38.80	0.78	-38.80	0.62	54.90
1200	0.64	53.50	0.76	-40.10	0.76	-40.10	0.64	53.50
1250	0.66	52.10	0.75	-41.50	0.75	-41.50	0.66	52.10
1300	0.68	50.30	0.73	-43.10	0.73	-43.10	0.68	50.30
1350	0.69	48.50	0.72	-44.70	0.72	-44.70	0.69	48.50
1400	0.71	47.10	0.70	-46.00	0.70	-46.00	0.71	47.10
1450	0.72	45.70	0.68	-47.20	0.68	-47.20	0.72	45.70
1500	0.74	43.90	0.67	-48.80	0.67	-48.80	0.74	43.90
1550	0.75	42.20	0.65	-50.40	0.65	-50.40	0.75	42.20
1600	0.77	40.50	0.63	-51.70	0.63	-51.70	0.77	40.50
1650	0.78	38.90	0.61	-53.10	0.61	-53.10	0.78	38.90
1700	0.79	37.50	0.60	-54.40	0.60	-54.40	0.79	37.50
1750	0.80	36.10	0.58	-55.70	0.58	-55.70	0.80	36.10
1800	0.82	34.50	0.56	-57.00	0.56	-57.00	0.82	34.50
1850	0.83	32.80	0.55	-58.30	0.55	-58.30	0.83	32.80
1900	0.84	31.30	0.53	-59.40	0.53	-59.40	0.84	31.30
1950	0.85	29.70	0.51	-60.60	0.51	-60.60	0.85	29.70
2000	0.86	28.10	0.49	-61.90	0.49	-61.90	0.86	28.10
2050	0.86	26.40	0.48	-63.10	0.48	-63.10	0.86	26.40
2100	0.87	25.30	0.46	-64.20	0.46	-64.20	0.87	25.30
2150	0.88	24.10	0.44	-65.20	0.44	-65.20	0.88	24.10
2200	0.89	22.40	0.42	-66.60	0.42	-66.60	0.89	22.40
2250	0.90	20.60	0.41	-67.90	0.41	-67.90	0.90	20.60
2300	0.91	19.50	0.39	-68.70	0.39	-68.70	0.91	19.50
2350	0.91	18.50	0.37	-69.60	0.37	-69.60	0.91	18.50
2400	0.92	16.90	0.35	-70.90	0.35	-70.90	0.92	16.90
2450	0.93	15.30	0.34	-72.20	0.34	-72.20	0.93	15.30
2500	0.94	13.90	0.32	-73.30	0.32	-73.30	0.94	13.90
2550	0.94	12.50	0.30	-74.40	0.30	-74.40	0.94	12.50
2600	0.95	11.50	0.28	-75.30	0.28	-75.30	0.95	11.50
2650	0.95	10.40	0.27	-76.20	0.27	-76.20	0.95	10.40
2700	0.96	9.10	0.25	-77.20	0.25	-77.20	0.96	9.10
2750	0.96	7.80	0.23	-78.20	0.23	-78.20	0.96	7.80
2800	0.97	6.60	0.21	-78.90	0.21	-78.90	0.97	6.60
2850	0.97	5.40	0.20	-79.60	0.20	-79.60	0.97	5.40
2900	0.98	4.30	0.18	-80.70	0.18	-80.70	0.98	4.30
2950	0.98	3.10	0.16	-81.70	0.16	-81.70	0.98	3.10
3000	0.98	2.00	0.14	-82.20	0.14	-82.20	0.98	2.00
3050	0.98	0.90	0.13	-82.70	0.13	-82.70	0.98	0.90
3100	0.98	-0.40	0.11	-82.90	0.11	-82.90	0.98	-0.40
3150	0.98	-1.70	0.09	-83.10	0.09	-83.10	0.98	-1.70
3200	0.99	-2.40	0.08	-82.10	0.08	-82.10	0.99	-2.40
3250	0.99	-3.00	0.06	-81.10	0.06	-81.10	0.99	-3.00
3300	0.99	-4.00	0.05	-76.90	0.05	-76.90	0.99	-4.00
3350	0.99	-5.00	0.03	-72.60	0.03	-72.60	0.99	-5.00
3400	0.99	-6.00	0.02	-30.20	0.02	-30.20	0.99	-6.00
3450	0.99	-7.10	0.01	12.10	0.01	12.10	0.99	-7.10
3500	0.99	-8.00	0.02	38.80	0.02	38.80	0.99	-8.00
3550	0.99	-9.00	0.04	65.50	0.04	65.50	0.99	-9.00
3600	0.99	-9.90	0.05	68.70	0.05	68.70	0.99	-9.90
3650	0.98	-10.70	0.06	71.80	0.06	71.80	0.98	-10.70
3700	0.98	-11.90	0.08	72.40	0.08	72.40	0.98	-11.90
3750	0.99	-13.00	0.09	72.90	0.09	72.90	0.99	-13.00
3800	0.98	-13.90	0.11	72.90	0.11	72.90	0.98	-13.90
3850	0.98	-14.80	0.12	72.90	0.12	72.90	0.98	-14.80
3900	0.98	-15.90	0.14	72.20	0.14	72.20	0.98	-15.90
3950	0.98	-17.10	0.15	71.40	0.15	71.40	0.98	-17.10
4000	0.97	-18.10	0.16	71.00	0.16	71.00	0.97	-18.10
4050	0.97	-19.10	0.18	70.60	0.18	70.60	0.97	-19.10
4100	0.96	-20.00	0.19	70.00	0.19	70.00	0.96	-20.00
4150	0.96	-21.00	0.20	69.30	0.20	69.30	0.96	-21.00
4200	0.96	-22.00	0.22	68.80	0.22	68.80	0.96	-22.00
4250	0.97	-23.10	0.23	68.40	0.23	68.40	0.97	-23.10
4300	0.96	-24.10	0.24	67.80	0.24	67.80	0.96	-24.10
4350	0.95	-25.10	0.25	67.20	0.25	67.20	0.95	-25.10
4400	0.95	-26.10	0.26	66.40	0.26	66.40	0.95	-26.10
4450	0.95	-27.20	0.28	65.50	0.28	65.50	0.95	-27.20
4500	0.94	-27.80	0.29	65.00	0.29	65.00	0.94	-27.80
4550	0.94	-28.40	0.29	64.40	0.29	64.40	0.94	-28.40
4600	0.94	-29.70	0.31	63.70	0.31	63.70	0.94	-29.70
4650	0.95	-30.90	0.32	62.90	0.32	62.90	0.95	-30.90
4700	0.94	-31.80	0.33	62.20	0.33	62.20	0.94	-31.80
4750	0.93	-32.70	0.34	61.60	0.34	61.60	0.93	-32.70
4800	0.92	-33.80	0.35	60.80	0.35	60.80	0.92	-33.80
4850	0.91	-34.90	0.36	60.00	0.36	60.00	0.91	-34.90
4900	0.92	-35.50	0.37	59.60	0.37	59.60	0.92	-35.50
4950	0.92	-36.00	0.38	59.20	0.38	59.20	0.92	-36.00
5000	0.91	-37.50	0.39	58.10	0.39	58.10	0.91	-37.50
5050	0.91	-39.00	0.40	56.90	0.40	56.90	0.91	-39.00
5100	0.89	-39.50	0.41	56.40	0.41	56.40	0.89	-39.50
5150	0.88	-40.10	0.42	55.90	0.42	55.90	0.88	-40.10
5200	0.88	-40.20	0.43	55.70	0.43	55.70	0.88	-40.20
5250	0.88	-40.40	0.44	55.60	0.44	55.60	0.88	-40.40
5300	0.88	-41.70	0.45	54.40	0.45	54.40	0.88	-41.70
5350	0.89	-43.00	0.46	53.20	0.46	53.20	0.89	-43.00
5400	0.88	-43.40	0.47	52.60	0.47	52.60	0.88	-43.40
5450	0.86	-43.90	0.47	51.90	0.47	51.90	0.86	-43.90
5500	0.86	-44.50	0.48	51.30	0.48	51.30	0.86	-44.50
5550	0.86	-45.00	0.49	50.60	0.49	50.60	0.86	-45.00
5600	0.85	-45.60	0.50	49.90	0.50	49.90	0.85	-45.60
5650	0.84	-46.10	0.51	49.10	0.51	49.10	0.84	-46.10
5700	0.84	-46.50	0.51	48.60	0.51	48.60	0.84	-46.50
5750	0.83	-47.00	0.52	48.10	0.52	48.10	0.83	-47.00
5800	0.83	-47.10	0.53	47.50	0.53	47.50	0.83	-47.10
5850	0.82	-47.20	0.53	46.90	0.53	46.90	0.82	-47.20
5900	0.82	-47.10	0.54	46.50	0.54	46.50	0.82	-47.10
5950	0.81	-47.10	0.55	46.20	0.55	46.20	0.81	-47.10
6000	0.80	-48.60	0.56	44.90	0.56	44.90	0.80	-48.60
6050	0.80	-50.10	0.57	43.50	0.57	43.50	0.80	-50.10
6100	0.79	-50.10	0.58	43.30	0.58	43.30	0.79	-50.10
6150	0.79	-50.10	0.58	43.10	0.58	43.10	0.79	-50.10
6200	0.78	-49.90	0.59	42.30	0.59	42.30	0.78	-49.90
6250	0.78	-49.80	0.60	41.50	0.60	41.50	0.78	-49.80
6300	0.77	-49.90	0.61	41.00	0.61	41.00	0.77	-49.90
6350	0.77	-50.00	0.61	40.50	0.61	40.50	0.77	-50.00
6400	0.76	-49.80	0.62	39.90	0.62	39.90	0.76	-49.80
6450	0.76	-49.50	0.63	39.30	0.63	39.30	0.76	-49.50
6500	0.75	-49.50	0.63	38.70	0.63	38.70	0.75	-49.50
6550	0.75	-49.60	0.63	38.10	0.63	38.10	0.75	-49.60
6600	0.74	-49.40	0.64	37.50	0.64	37.50	0.74	-49.40
6650	0.74	-49.20	0.65	36.90	0.65	36.90	0.74	-49.20
6700	0.73	-48.90	0.65	36.60	0.65	36.60	0.73	-48.90
6750	0.73	-48.70	0.66	36.30	0.66	36.30	0.73	-48.70
6800	0.72	-48.70	0.67	35.80	0.67	35.80	0.72	-48.70
6850	0.72	-48.60	0.68	35.30	0.68	35.30	0.72	-48.60
6900	0.71	-48.80	0.68	34.70	0.68	34.70	0.71	-48.80
6950	0.70	-48.90	0.68	34.10	0.68	34.10	0.70	-48.90
7000	0.70	-48.80	0.69	33.60	0.69	33.60	0.70	-48.80
7050	0.69	-48.60	0.69	33.10	0.69	33.10	0.69	-48.60
7100	0.69	-48.80	0.70	32.60	0.70	32.60	0.69	-48.80
7150	0.68	-49.00	0.70	32.20	0.70	32.20	0.68	-49.00
7200	0.67	-49.00	0.71	31.80	0.71	31.80	0.67	-49.00
7250	0.67	-49.00	0.71	31.50	0.71	31.50	0.67	-49.00
7300	0.67	-49.60	0.72	30.90	0.72	30.90	0.67	-49.60
7350	0.67	-50.30	0.73	30.30	0.73	30.30	0.67	-50.30
7400	0.65	-50.70	0.73	29.80	0.73	29.80	0.65	-50.70
7450	0.64	-51.10	0.74	29.20	0.74	29.20	0.64	-51.10
7500	0.64	-51.90	0.74	28.70	0.74	28.70	0.64	-51.90
7550	0.64	-52.80	0.75	28.10	0.75	28.10	0.64	-52.80
7600	0.63	-53.50	0.76	27.50	0.76	27.50	0.63	-53.50
7650	0.62	-54.30	0.76	26.80	0.76	26.80	0.62	-54.30
7700	0.61	-55.10	0.76	26.40	0.76	26.40	0.61	-55.10
7750	0.60	-55.90	0.77	26.00	0.77	26.00	0.60	-55.90
7800	0.60	-56.70	0.77	25.50	0.77	25.50	0.60	-56.70
7850	0.59	-57.60	0.78	24.90	0.78	24.90	0.59	-57.60
7900	0.58	-58.90	0.79	24.30	0.79	24.30	0.58	-58.90
7950	0.58	-60.30	0.79	23.60	0.79	23.60	0.58	-60.30
8000	0.57	-61.30	0.80	23.00	0.80	23.00	0.57	-61.30
8050	0.56	-62.30	0.80	22.30	0.80	22.30	0.56	-62.30
8100	0.55	-63.20	0.80	22.10	0.80	22.10	0.55	-63.20
8150	0.54	-64.00	0.81	21.80	0.81	21.80	0.54	-64.00
8200	0.53	-65.10	0.81	21.00	0.81	21.00	0.53	-65.10
8250	0.52	-66.10	0.82	20.20	0.82	20.20	0.52	-66.10
8300	0.51	-66.90	0.82	19.90	0.82	19.90	0.51	-66.90
8350	0.51	-67.70	0.83	19.50	0.83	19.50	0.51	-67.70
8400	0.50	-68.50	0.83	18.70	0.83	18.70	0.50	-68.50
8450	0.49	-69.30	0.84	17.90	0.84	17.90	0.49	-69.30
8500	0.49	-70.00	0.85	17.40	0.85	17.40	0.49	-70.00
8550	0.48	-70.60	0.85	16.80	0.85	16.80	0.48	-70.60
8600	0.47	-70.90	0.86	16.10	0.86	16.10	0.47	-70.90
8650	0.46	-71.30	0.86	15.30	0.86	15.30	0.46	-71.30
8700	0.46	-71.70	0.86	14.60	0.86	14.60	0.46	-71.70
8750	0.45	-72.10	0.86	13.90	0.86	13.90	0.45	-72.10
8800	0.44	-72.20	0.86	13.60	0.86	13.60	0.44	-72.20
8850	0.44	-72.30	0.86	13.20	0.86	13.20	0.44	-72.30
8900	0.43	-72.90	0.86	12.80	0.86	12.80	0.43	-72.90
8950	0.42	-73.50	0.86	12.30	0.86	12.30	0.42	-73.50
9000	0.41	-74.10	0.87	12.20	0.87	12.20	0.41	-74.10
9050	0.40	-74.60	0.87	12.10	0.87	12.10	0.40	-74.60
9100	0.39	-75.10	0.88	11.60	0.88	11.60	0.39	-75.10
9150	0.38	-75.60	0.88	11.10	0.88	11.10	0.38	-75.60
9200	0.37	-76.30	0.89	10.70	0.89	10.70	0.37	-76.30
9250	0.37	-77.00	0.90	10.30	0.90	10.30	0.37	-77.00
9300	0.36	-76.90	0.90	9.60	0.90	9.60	0.36	-76.90
9350	0.35	-76.90	0.91	8.90	0.91	8.90	0.35	-76.90
9400	0.34	-77.20	0.91	8.60	0.91	8.60	0.34	-77.20
9450	0.33	-77.50	0.91	8.20	0.91	8.20	0.33	-77.50
9500	0.32	-77.50	0.92	7.40	0.92	7.40	0.32	-77.50
9550	0.31	-77.60	0.92	6.70	0.92	6.70	0.31	-77.60
9600	0.30	-77.40	0.92	6.10	0.92	6.10	0.30	-77.40
9650	0.30	-77.30	0.93	5.40	0.93	5.40	0.30	-77.30
9700	0.29	-77.90	0.93	4.90	0.93	4.90	0.29	-77.90
9750	0.28	-78.60	0.94	4.50	0.94	4.50	0.28	-78.60
9800	0.27	-77.90	0.94	3.80	0.94	3.80	0.27	-77.90
9850	0.26	-77.30	0.94	3.20	0.94	3.20	0.26	-77.30
9900	0.25	-77.00	0.94	2.70	0.94	2.70	0.25	-77.00
9950	0.24	-76.70	0.94	2.30	0.94	2.30	0.24	-76.70
10000	0.23	-76.80	0.94	1.80	0.94	1.80	0.23	-76.80
10050	0.23	-77.00	0.95	1.20	0.95	1.20	0.23	-77.00
10100	0.22	-76.40	0.95	0.80	0.95	0.80	0.22	-76.40
10150	0.21	-75.80	0.95	0.30	0.95	0.30	0.21	-75.80
10200	0.20	-75.70	0.95	-0.30	0.95	-0.30	0.20	-75.70
10250	0.19	-75.70	0.96	-0.80	0.96	-0.80	0.19	-75.70
10300	0.18	-76.00	0.95	-1.30	0.95	-1.30	0.18	-76.00
10350	0.17	-76.40	0.95	-1.80	0.95	-1.80	0.17	-76.40
10400	0.16	-77.10	0.96	-2.50	0.96	-2.50	0.16	-77.10
10450	0.15	-77.90	0.96	-3.10	0.96	-3.10	0.15	-77.90
10500	0.15	-77.70	0.96	-3.60	0.96	-3.60	0.15	-77.70
10550	0.14	-77.60	0.96	-4.10	0.96	-4.10	0.14	-77.60
10600	0.13	-78.40	0.96	-4.70	0.96	-4.70	0.13	-78.40
10650	0.12	-79.20	0.96	-5.30	0.96	-5.30	0.12	-79.20
10700	0.11	-80.10	0.97	-5.90	0.97	-5.90	0.11	-80.10
10750	0.10	-81.00	0.97	-6.40	0.97	-6.40	0.10	-81.00
10800	0.10	-82.90	0.97	-6.70	0.97	-6.70	0.10	-82.90
10850	0.09	-84.70	0.97	-7.10	0.97	-7.10	0.09	-84.70
10900	0.08	-86.40	0.97	-7.80	0.97	-7.80	0.08	-86.40
10950	0.07	-88.10	0.97	-8.60	0.97	-8.60	0.07	-88.10
11000	0.06	-90.90	0.97	-9.00	0.97	-9.00	0.06	-90.90
11050	0.06	-93.70	0.97	-9.50	0.97	-9.50	0.06	-93.70
11100	0.05	-95.50	0.97	-10.10	0.97	-10.10	0.05	-95.50
11150	0.05	-97.40	0.97	-10.70	0.97	-10.70	0.05	-97.40
11200	0.04	-96.00	0.97	-11.20	0.97	-11.20	0.04	-96.00
11250	0.04	-94.60	0.97	-11.80	0.97	-11.80	0.04	-94.60
11300	0.03	-93.50	0.97	-12.40	0.97	-12.40	0.03	-93.50
11350	0.02	-92.40	0.97	-13.10	0.97	-13.10	0.02	-92.40
11400	0.02	-64.60	0.97	-13.60	0.97	-13.60	0.02	-64.60
11450	0.01	-36.80	0.97	-14.10	0.97	-14.10	0.01	-36.80
11500	0.01	7.00	0.97	-14.80	0.97	-14.80	0.01	7.00
11550	0.02	50.70	0.97	-15.40	0.97	-15.40	0.02	50.70
11600	0.03	56.00	0.97	-16.10	0.97	-16.10	0.03	56.00
11650	0.04	61.20	0.97	-16.70	0.97	-16.70	0.04	61.20
11700	0.05	63.50	0.97	-17.40	0.97	-17.40	0.05	63.50
11750	0.06	65.80	0.97	-18.00	0.97	-18.00	0.06	65.80
11800	0.07	68.00	0.96	-18.50	0.96	-18.50	0.07	68.00
11850	0.08	70.30	0.96	-19.10	0.96	-19.10	0.08	70.30
11900	0.09	72.40	0.96	-19.80	0.96	-19.80	0.09	72.40
11950	0.10	74.50	0.96	-20.60	0.96	-20.60	0.10	74.50
12000	0.11	74.70	0.96	-21.10	0.96	-21.10	0.11	74.70
12050	0.12	74.80	0.96	-21.70	0.96	-21.70	0.12	74.80
12100	0.12	75.20	0.95	-22.50	0.95	-22.50	0.12	75.20
12150	0.13	75.50	0.95	-23.30	0.95	-23.30	0.13	75.50
12200	0.14	75.30	0.95	-24.00	0.95	-24.00	0.14	75.30
12250	0.14	75.10	0.95	-24.60	0.95	-24.60	0.14	75.10
12300	0.15	74.50	0.94	-25.30	0.94	-25.30	0.15	74.50
12350	0.16	73.80	0.94	-26.10	0.94	-26.10	0.16	73.80
12400	0.17	72.60	0.94	-26.90	0.94	-26.90	0.17	72.60
12450	0.17	71.40	0.93	-27.60	0.93	-27.60	0.17	71.40
12500	0.19	69.70	0.93	-28.30	0.93	-28.30	0.19	69.70
12550	0.20	68.00	0.93	-29.00	0.93	-29.00	0.20	68.00
12600	0.20	66.90	0.92	-29.80	0.92	-29.80	0.20	66.90
12650	0.21	65.80	0.91	-30.60	0.91	-30.60	0.21	65.80
12700	0.23	63.20	0.91	-31.30	0.91	-31.30	0.23	63.20
12750	0.24	60.70	0.91	-32.00	0.91	-32.00	0.24	60.70
12800	0.25	59.10	0.90	-32.90	0.90	-32.90	0.25	59.10
12850	0.27	57.40	0.89	-33.80	0.89	-33.80	0.27	57.40
12900	0.28	55.70	0.89	-34.50	0.89	-34.50	0.28	55.70
12950	0.30	54.00	0.89	-35.30	0.89	-35.30	0.30	54.00
13000	0.31	52.40	0.88	-36.10	0.88	-36.10	0.31	52.40
13050	0.32	50.90	0.87	-37.00	0.87	-37.00	0.32	50.90
13100	0.34	49.00	0.86	-37.80	0.86	-37.80	0.34	49.00
13150	0.35	47.20	0.86	-38.70	0.86	-38.70	0.35	47.20
13200	0.37	46.40	0.85	-39.40	0.85	-39.40	0.37	46.40
13250	0.39	45.50	0.84	-40.10	0.84	-40.10	0.39	45.50
13300	0.39	45.60	0.83	-41.50	0.83	-41.50	0.39	45.60
13350	0.39	45.60	0.82	-42.90	0.82	-42.90	0.39	45.60
13400	0.42	42.70	0.81	-43.90	0.81	-43.90	0.42	42.70
13450	0.44	39.70	0.81	-44.90	0.81	-44.90	0.44	39.70
13500	0.46	38.60	0.79	-46.10	0.79	-46.10	0.46	38.60
13550	0.47	37.40	0.78	-47.20	0.78	-47.20	0.47	37.40
13600	0.49	35.20	0.77	-48.60	0.77	-48.60	0.49	35.20
13650	0.50	32.90	0.75	-50.10	0.75	-50.10	0.50	32.90
13700	0.52	31.10	0.74	-51.20	0.74	-51.20	0.52	31.10
13750	0.54	29.30	0.72	-52.30	0.72	-52.30	0.54	29.30
13800	0.55	26.50	0.70	-53.50	0.70	-53.50	0.55	26.50
13850	0.56	23.70	0.69	-54.80	0.69	-54.80	0.56	23.70
13900	0.58	21.10	0.67	-55.80	0.67	-55.80	0.58	21.10
13950	0.60	18.50	0.65	-56.90	0.65	-56.90	0.60	18.50
14000	0.62	16.00	0.63	-58.00	0.63	-58.00	0.62	16.00
14050	0.64	13.50	0.61	-59.20	0.61	-59.20	0.64	13.50
14100	0.66	10.60	0.59	-60.30	0.59	-60.30	0.66	10.60
14150	0.68	7.60	0.56	-61.40	0.56	-61.40	0.68	7.60
14200	0.70	5.30	0.54	-62.60	0.54	-62.60	0.70	5.30
14250	0.72	3.00	0.51	-63.70	0.51	-63.70	0.72	3.00
14300	0.73	0.20	0.48	-64.60	0.48	-64.60	0.73	0.20
14350	0.75	-2.60	0.45	-65.50	0.45	-65.50	0.75	-2.60
14400	0.77	-5.00	0.42	-65.80	0.42	-65.80	0.77	-5.00
14450	0.79	-7.30	0.39	-66.10	0.39	-66.10	0.79	-7.30
14500	0.79	-9.60	0.36	-65.40	0.36	-65.40	0.79	-9.60
14550	0.80	-11.90	0.32	-64.80	0.32	-64.80	0.80	-11.90
14600	0.81	-14.30	0.29	-62.80	0.29	-62.80	0.81	-14.30
14650	0.83	-16.80	0.26	-60.90	0.26	-60.90	0.83	-16.80
14700	0.83	-19.40	0.23	-55.60	0.23	-55.60	0.83	-19.40
14750	0.83	-22.10	0.20	-50.30	0.20	-50.30	0.83	-22.10
14800	0.83	-24.70	0.18	-39.90	0.18	-39.90	0.83	-24.70
14850	0.83	-27.30	0.16	-29.50	0.16	-29.50	0.83	-27.30
14900	0.83	-29.40	0.17	-16.40	0.17	-16.40	0.83	-29.40
14950	0.83	-31.40	0.17	-3.30	0.17	-3.30	0.83	-31.40
15000	0.82	-34.70	0.20	5.00	0.20	5.00	0.82	-34.70
15050	0.81	-38.10	0.22	13.30	0.22	13.30	0.81	-38.10
15100	0.80	-39.90	0.26	17.30	0.26	17.30	0.80	-39.90
15150	0.79	-41.70	0.30	21.40	0.30	21.40	0.79	-41.70
15200	0.77	-44.20	0.33	22.50	0.33	22.50	0.77	-44.20
15250	0.76	-46.70	0.37	23.60	0.37	23.60	0.76	-46.70
15300	0.75	-49.20	0.41	23.00	0.41	23.00	0.75	-49.20
15350	0.73	-51.80	0.44	22.30	0.44	22.30	0.73	-51.80
15400	0.70	-53.10	0.48	21.90	0.48	21.90	0.70	-53.10
15450	0.68	-54.40	0.51	21.50	0.51	21.50	0.68	-54.40
15500	0.67	-55.80	0.55	19.70	0.55	19.70	0.67	-55.80
15550	0.65	-57.30	0.58	17.80	0.58	17.80	0.65	-57.30
15600	0.63	-58.30	0.61	16.50	0.61	16.50	0.63	-58.30
15650	0.61	-59.40	0.64	15.20	0.64	15.20	0.61	-59.40
15700	0.58	-59.80	0.66	13.50	0.66	13.50	0.58	-59.80
15750	0.55	-60.20	0.69	11.80	0.69	11.80	0.55	-60.20
15800	0.52	-60.70	0.71	10.30	0.71	10.30	0.52	-60.70
15850	0.49	-61.10	0.73	8.80	0.73	8.80	0.49	-61.10
15900	0.47	-60.90	0.75	7.20	0.75	7.20	0.47	-60.90
15950	0.45	-60.70	0.77	5.70	0.77	5.70	0.45	-60.70
16000	0.41	-59.60	0.79	4.00	0.79	4.00	0.41	-59.60
16050	0.38	-58.50	0.81	2.40	0.81	2.40	0.38	-58.50
16100	0.35	-57.90	0.81	0.60	0.81	0.60	0.35	-57.90
16150	0.33	-57.20	0.82	-1.20	0.82	-1.20	0.33	-57.20
16200	0.30	-55.30	0.83	-2.60	0.83	-2.60	0.30	-55.30
16250	0.28	-53.40	0.84	-4.00	0.84	-4.00	0.28	-53.40
16300	0.26	-52.20	0.84	-5.30	0.84	-5.30	0.26	-52.20
16350	0.24	-51.10	0.85	-6.70	0.85	-6.70	0.24	-51.10
16400	0.23	-49.00	0.85	-7.70	0.85	-7.70	0.23	-49.00
16450	0.21	-46.90	0.85	-8.60	0.85	-8.60	0.21	-46.90
16500	0.20	-48.50	0.84	-9.10	0.84	-9.10	0.20	-48.50
16550	0.19	-50.10	0.84	-9.60	0.84	-9.60	0.19	-50.10
16600	0.19	-49.40	0.85	-10.20	0.85	-10.20	0.19	-49.40
16650	0.17	-48.80	0.86	-10.80	0.86	-10.80	0.17	-48.80
16700	0.16	-51.10	0.87	-11.20	0.87	-11.20	0.16	-51.10
16750	0.15	-53.50	0.88	-11.70	0.88	-11.70	0.15	-53.50
16800	0.14	-53.30	0.89	-12.40	0.89	-12.40	0.14	-53.30
16850	0.12	-53.10	0.89	-13.00	0.89	-13.00	0.12	-53.10
16900	0.11	-50.50	0.90	-14.00	0.90	-14.00	0.11	-50.50
16950	0.09	-47.90	0.91	-14.90	0.91	-14.90	0.09	-47.90
17000	0.08	-40.50	0.92	-15.90	0.92	-15.90	0.08	-40.50
17050	0.07	-33.20	0.92	-16.90	0.92	-16.90	0.07	-33.20
17100	0.06	-17.30	0.93	-18.00	0.93	-18.00	0.06	-17.30
17150	0.06	-1.40	0.93	-19.00	0.93	-19.00	0.06	-1.40
17200	0.07	14.40	0.93	-19.90	0.93	-19.90	0.07	14.40
17250	0.08	30.10	0.93	-20.70	0.93	-20.70	0.08	30.10
17300	0.09	38.20	0.93	-21.70	0.93	-21.70	0.09	38.20
17350	0.10	46.40	0.93	-22.70	0.93	-22.70	0.10	46.40
17400	0.12	51.60	0.93	-23.50	0.93	-23.50	0.12	51.60
17450	0.13	56.80	0.93	-24.30	0.93	-24.30	0.13	56.80
17500	0.15	58.20	0.93	-25.20	0.93	-25.20	0.15	58.20
17550	0.17	59.70	0.93	-26.00	0.93	-26.00	0.17	59.70
17600	0.18	61.70	0.92	-26.90	0.92	-26.90	0.18	61.70
17650	0.20	63.80	0.92	-27.80	0.92	-27.80	0.20	63.80
17700	0.21	65.50	0.92	-28.50	0.92	-28.50	0.21	65.50
17750	0.22	67.20	0.92	-29.10	0.92	-29.10	0.22	67.20
17800	0.23	67.10	0.92	-30.00	0.92	-30.00	0.23	67.10
17850	0.24	67.00	0.92	-30.80	0.92	-30.80	0.24	67.00
17900	0.25	68.20	0.91	-31.60	0.91	-31.60	0.25	68.20
17950	0.25	69.50	0.91	-32.40	0.91	-32.40	0.25	69.50
18000	0.26	68.90	0.91	-33.20	0.91	-33.20	0.26	68.90
18050	0.27	68.40	0.91	-34.00	0.91	-34.00	0.27	68.40
18100	0.27	67.80	0.90	-34.70	0.90	-34.70	0.27	67.80
18150	0.27	67.30	0.90	-35.40	0.90	-35.40	0.27	67.30
18200	0.28	65.80	0.90	-36.30	0.90	-36.30	0.28	65.80
18250	0.28	64.40	0.90	-37.20	0.90	-37.20	0.28	64.40
18300	0.29	62.50	0.90	-37.70	0.90	-37.70	0.29	62.50
18350	0.29	60.60	0.90	-38.30	0.90	-38.30	0.29	60.60
18400	0.30	58.20	0.89	-39.20	0.89	-39.20	0.30	58.20
18450	0.31	55.70	0.89	-40.10	0.89	-40.10	0.31	55.70
18500	0.33	55.40	0.88	-40.40	0.88	-40.40	0.33	55.40
18550	0.34	55.10	0.88	-40.70	0.88	-40.70	0.34	55.10
18600	0.35	54.20	0.88	-41.40	0.88	-41.40	0.35	54.20
18650	0.37	53.40	0.88	-42.10	0.88	-42.10	0.37	53.40
18700	0.37	52.40	0.88	-42.90	0.88	-42.90	0.37	52.40
18750	0.38	51.40	0.87	-43.80	0.87	-43.80	0.38	51.40
18800	0.39	50.70	0.87	-44.20	0.87	-44.20	0.39	50.70
18850	0.40	50.00	0.86	-44.50	0.86	-44.50	0.40	50.00
18900	0.41	50.00	0.86	-45.30	0.86	-45.30	0.41	50.00
18950	0.42	49.90	0.86	-46.20	0.86	-46.20	0.42	49.90
19000	0.41	49.30	0.86	-46.70	0.86	-46.70	0.41	49.30
19050	0.41	48.60	0.85	-47.20	0.85	-47.20	0.41	48.60
19100	0.42	47.00	0.85	-47.90	0.85	-47.90	0.42	47.00
19150	0.43	45.40	0.84	-48.70	0.84	-48.70	0.43	45.40
19200	0.42	43.50	0.83	-49.40	0.83	-49.40	0.42	43.50
19250	0.42	41.70	0.83	-50.10	0.83	-50.10	0.42	41.70
19300	0.43	39.00	0.82	-50.80	0.82	-50.80	0.43	39.00
19350	0.44	36.40	0.81	-51.40	0.81	-51.40	0.44	36.40
19400	0.45	33.90	0.81	-52.60	0.81	-52.60	0.45	33.90
19450	0.46	31.50	0.80	-53.70	0.80	-53.70	0.46	31.50
