# MHZ S MA R 50

      50  0.05    6.80    0.95    0.90    0.95    0.90    0.05    6.80
     100  0.05   16.50    0.95    0.40    0.95    0.40    0.05   16.50
     150  0.06   26.20    0.95   -0.10    0.95   -0.10    0.06   26.20
     200  0.06   31.90    0.95   -0.70    0.95   -0.70    0.06   31.90
     250  0.07   37.60    0.95   -1.40    0.95   -1.40    0.07   37.60
     300  0.07   41.10    0.95   -2.10    0.95   -2.10    0.07   41.10
     350  0.08   44.50    0.95   -2.70    0.95   -2.70    0.08   44.50
     400  0.08   47.30    0.95   -3.20    0.95   -3.20    0.08   47.30
     450  0.09   50.20    0.95   -3.80    0.95   -3.80    0.09   50.20
     500  0.10   55.70    0.94   -4.70    0.94   -4.70    0.10   55.70
     550  0.12   61.20    0.94   -5.70    0.94   -5.70    0.12   61.20
     600  0.12   62.40    0.94   -6.30    0.94   -6.30    0.12   62.40
     650  0.13   63.50    0.94   -6.90    0.94   -6.90    0.13   63.50
     700  0.14   64.80    0.94   -7.50    0.94   -7.50    0.14   64.80
     750  0.15   66.10    0.94   -8.20    0.94   -8.20    0.15   66.10
     800  0.16   66.20    0.94   -8.80    0.94   -8.80    0.16   66.20
     850  0.16   66.40    0.93   -9.40    0.93   -9.40    0.16   66.40
     900  0.17   67.00    0.93   -10.00   0.93   -10.00   0.17   67.00
     950  0.18   67.50    0.93   -10.60   0.93   -10.60   0.18   67.50
    1000  0.19   67.30    0.93   -11.20   0.93   -11.20   0.19   67.30
    1050  0.20   67.10    0.93   -11.90   0.93   -11.90   0.20   67.10
    1100  0.21   67.40    0.93   -12.50   0.93   -12.50   0.21   67.40
    1150  0.22   67.70    0.92   -13.20   0.92   -13.20   0.22   67.70
    1200  0.22   67.70    0.92   -13.80   0.92   -13.80   0.22   67.70
    1250  0.23   67.70    0.92   -14.30   0.92   -14.30   0.23   67.70
    1300  0.24   67.30    0.92   -15.00   0.92   -15.00   0.24   67.30
    1350  0.25   66.90    0.92   -15.60   0.92   -15.60   0.25   66.90
    1400  0.26   66.60    0.91   -16.20   0.91   -16.20   0.26   66.60
    1450  0.27   66.30    0.91   -16.70   0.91   -16.70   0.27   66.30
    1500  0.28   65.80    0.91   -17.40   0.91   -17.40   0.28   65.80
    1550  0.28   65.30    0.91   -18.10   0.91   -18.10   0.28   65.30
    1600  0.29   64.80    0.90   -18.80   0.90   -18.80   0.29   64.80
    1650  0.30   64.20    0.90   -19.40   0.90   -19.40   0.30   64.20
    1700  0.31   63.90    0.90   -20.00   0.90   -20.00   0.31   63.90
    1750  0.32   63.50    0.90   -20.60   0.90   -20.60   0.32   63.50
    1800  0.32   62.90    0.89   -21.20   0.89   -21.20   0.32   62.90
    1850  0.33   62.30    0.89   -21.80   0.89   -21.80   0.33   62.30
    1900  0.34   61.40    0.89   -22.30   0.89   -22.30   0.34   61.40
    1950  0.35   60.60    0.89   -22.90   0.89   -22.90   0.35   60.60
    2000  0.36   60.00    0.88   -23.60   0.88   -23.60   0.36   60.00
    2050  0.36   59.40    0.88   -24.30   0.88   -24.30   0.36   59.40
    2100  0.37   58.90    0.88   -24.80   0.88   -24.80   0.37   58.90
    2150  0.38   58.40    0.87   -25.30   0.87   -25.30   0.38   58.40
    2200  0.39   57.70    0.87   -26.00   0.87   -26.00   0.39   57.70
    2250  0.40   57.00    0.87   -26.70   0.87   -26.70   0.40   57.00
    2300  0.40   56.40    0.86   -27.10   0.86   -27.10   0.40   56.40
    2350  0.41   55.90    0.86   -27.60   0.86   -27.60   0.41   55.90
    2400  0.42   55.20    0.86   -28.30   0.86   -28.30   0.42   55.20
    2450  0.43   54.50    0.85   -28.90   0.85   -28.90   0.43   54.50
    2500  0.44   53.80    0.85   -29.60   0.85   -29.60   0.44   53.80
    2550  0.45   53.20    0.84   -30.30   0.84   -30.30   0.45   53.20
    2600  0.46   52.70    0.84   -30.80   0.84   -30.80   0.46   52.70
    2650  0.46   52.20    0.84   -31.40   0.84   -31.40   0.46   52.20
    2700  0.47   51.60    0.83   -32.00   0.83   -32.00   0.47   51.60
    2750  0.48   51.00    0.83   -32.60   0.83   -32.60   0.48   51.00
    2800  0.49   50.30    0.82   -33.20   0.82   -33.20   0.49   50.30
    2850  0.50   49.70    0.82   -33.80   0.82   -33.80   0.50   49.70
    2900  0.51   49.00    0.81   -34.60   0.81   -34.60   0.51   49.00
    2950  0.52   48.40    0.81   -35.50   0.81   -35.50   0.52   48.40
    3000  0.53   47.90    0.80   -36.10   0.80   -36.10   0.53   47.90
    3050  0.54   47.50    0.80   -36.70   0.80   -36.70   0.54   47.50
    3100  0.54   46.30    0.79   -37.50   0.79   -37.50   0.54   46.30
    3150  0.55   45.10    0.78   -38.40   0.78   -38.40   0.55   45.10
    3200  0.56   45.00    0.78   -38.70   0.78   -38.70   0.56   45.00
    3250  0.57   44.80    0.77   -39.10   0.77   -39.10   0.57   44.80
    3300  0.58   44.20    0.77   -40.00   0.77   -40.00   0.58   44.20
    3350  0.59   43.50    0.76   -40.90   0.76   -40.90   0.59   43.50
    3400  0.60   42.80    0.75   -41.40   0.75   -41.40   0.60   42.80
    3450  0.60   42.00    0.75   -41.90   0.75   -41.90   0.60   42.00
    3500  0.61   41.60    0.74   -42.50   0.74   -42.50   0.61   41.60
    3550  0.62   41.20    0.74   -43.10   0.74   -43.10   0.62   41.20
    3600  0.63   40.50    0.73   -43.90   0.73   -43.90   0.63   40.50
    3650  0.64   39.80    0.72   -44.70   0.72   -44.70   0.64   39.80
    3700  0.65   39.00    0.71   -45.40   0.71   -45.40   0.65   39.00
    3750  0.66   38.20    0.71   -46.10   0.71   -46.10   0.66   38.20
    3800  0.67   37.50    0.70   -46.70   0.70   -46.70   0.67   37.50
    3850  0.67   36.90    0.69   -47.40   0.69   -47.40   0.67   36.90
    3900  0.68   36.00    0.69   -48.30   0.69   -48.30   0.68   36.00
    3950  0.69   35.20    0.68   -49.30   0.68   -49.30   0.69   35.20
    4000  0.70   34.40    0.67   -50.00   0.67   -50.00   0.70   34.40
    4050  0.71   33.50    0.66   -50.70   0.66   -50.70   0.71   33.50
    4100  0.72   32.70    0.65   -51.60   0.65   -51.60   0.72   32.70
    4150  0.73   31.80    0.64   -52.50   0.64   -52.50   0.73   31.80
    4200  0.74   30.80    0.63   -53.10   0.63   -53.10   0.74   30.80
    4250  0.75   29.90    0.62   -53.80   0.62   -53.80   0.75   29.90
    4300  0.75   28.90    0.61   -54.50   0.61   -54.50   0.75   28.90
    4350  0.76   28.00    0.60   -55.30   0.60   -55.30   0.76   28.00
    4400  0.77   27.00    0.60   -56.20   0.60   -56.20   0.77   27.00
    4450  0.78   25.90    0.59   -57.00   0.59   -57.00   0.78   25.90
    4500  0.79   24.90    0.57   -58.00   0.57   -58.00   0.79   24.90
    4550  0.79   23.90    0.56   -59.00   0.56   -59.00   0.79   23.90
    4600  0.80   22.90    0.55   -59.70   0.55   -59.70   0.80   22.90
    4650  0.82   21.90    0.55   -60.30   0.55   -60.30   0.82   21.90
    4700  0.82   21.00    0.54   -61.20   0.54   -61.20   0.82   21.00
    4750  0.82   20.00    0.52   -62.00   0.52   -62.00   0.82   20.00
    4800  0.83   18.80    0.51   -62.90   0.51   -62.90   0.83   18.80
    4850  0.83   17.60    0.50   -63.90   0.50   -63.90   0.83   17.60
    4900  0.84   17.00    0.49   -64.40   0.49   -64.40   0.84   17.00
    4950  0.85   16.30    0.48   -65.00   0.48   -65.00   0.85   16.30
    5000  0.86   14.90    0.47   -66.10   0.47   -66.10   0.86   14.90
    5050  0.87   13.50    0.46   -67.20   0.46   -67.20   0.87   13.50
    5100  0.87   12.50    0.45   -68.30   0.45   -68.30   0.87   12.50
    5150  0.87   11.50    0.44   -69.30   0.44   -69.30   0.87   11.50
    5200  0.87   11.30    0.42   -69.70   0.42   -69.70   0.87   11.30
    5250  0.88   11.10    0.41   -70.10   0.41   -70.10   0.88   11.10
    5300  0.90   10.00    0.40   -70.90   0.40   -70.90   0.90   10.00
    5350  0.92    8.90    0.39   -71.80   0.39   -71.80   0.92    8.90
    5400  0.91    8.10    0.38   -72.90   0.38   -72.90   0.91    8.10
    5450  0.91    7.30    0.37   -74.00   0.37   -74.00   0.91    7.30
    5500  0.92    6.60    0.35   -74.60   0.35   -74.60   0.92    6.60
    5550  0.93    5.90    0.34   -75.20   0.34   -75.20   0.93    5.90
    5600  0.93    5.10    0.33   -76.30   0.33   -76.30   0.93    5.10
    5650  0.93    4.30    0.32   -77.30   0.32   -77.30   0.93    4.30
    5700  0.94    3.70    0.31   -78.10   0.31   -78.10   0.94    3.70
    5750  0.94    3.00    0.29   -79.00   0.29   -79.00   0.94    3.00
    5800  0.94    2.60    0.28   -79.60   0.28   -79.60   0.94    2.60
    5850  0.94    2.10    0.27   -80.30   0.27   -80.30   0.94    2.10
    5900  0.95    2.10    0.25   -80.80   0.25   -80.80   0.95    2.10
    5950  0.95    2.00    0.24   -81.30   0.24   -81.30   0.95    2.00
    6000  0.95    0.70    0.23   -82.10   0.23   -82.10   0.95    0.70
    6050  0.96   -0.50    0.23   -83.00   0.23   -83.00   0.96   -0.50
    6100  0.96   -0.70    0.21   -83.40   0.21   -83.40   0.96   -0.70
    6150  0.96   -0.90    0.20   -83.80   0.20   -83.80   0.96   -0.90
    6200  0.97   -1.00    0.19   -84.40   0.19   -84.40   0.97   -1.00
    6250  0.98   -1.00    0.18   -85.10   0.18   -85.10   0.98   -1.00
    6300  0.98   -1.20    0.16   -85.60   0.16   -85.60   0.98   -1.20
    6350  0.98   -1.50    0.15   -86.10   0.15   -86.10   0.98   -1.50
    6400  0.98   -1.60    0.14   -86.50   0.14   -86.50   0.98   -1.60
    6450  0.98   -1.80    0.13   -86.90   0.13   -86.90   0.98   -1.80
    6500  0.98   -2.10    0.11   -87.00   0.11   -87.00   0.98   -2.10
    6550  0.98   -2.40    0.10   -87.20   0.10   -87.20   0.98   -2.40
    6600  0.99   -2.50    0.09   -86.90   0.09   -86.90   0.99   -2.50
    6650  0.99   -2.70    0.08   -86.60   0.08   -86.60   0.99   -2.70
    6700  0.98   -2.80    0.06   -84.70   0.06   -84.70   0.98   -2.80
    6750  0.98   -3.00    0.05   -82.90   0.05   -82.90   0.98   -3.00
    6800  0.99   -3.30    0.04   -76.40   0.04   -76.40   0.99   -3.30
    6850  1.00   -3.50    0.03   -69.90   0.03   -69.90   1.00   -3.50
    6900  0.99   -4.20    0.02   -38.00   0.02   -38.00   0.99   -4.20
    6950  0.99   -4.90    0.01   -6.10    0.01   -6.10    0.99   -4.90
    7000  0.99   -5.10    0.02   21.70    0.02   21.70    0.99   -5.10
    7050  0.99   -5.30    0.03   49.40    0.03   49.40    0.99   -5.30
    7100  0.98   -5.90    0.04   54.80    0.04   54.80    0.98   -5.90
    7150  0.97   -6.60    0.05   60.10    0.05   60.10    0.97   -6.60
    7200  0.97   -6.80    0.06   62.00    0.06   62.00    0.97   -6.80
    7250  0.97   -6.90    0.08   63.80    0.08   63.80    0.97   -6.90
    7300  0.98   -7.80    0.09   64.30    0.09   64.30    0.98   -7.80
    7350  0.99   -8.60    0.10   64.80    0.10   64.80    0.99   -8.60
    7400  0.98   -9.30    0.11   64.70    0.11   64.70    0.98   -9.30
    7450  0.96   -10.00   0.12   64.50    0.12   64.50    0.96   -10.00
    7500  0.97   -11.00   0.13   64.40    0.13   64.40    0.97   -11.00
    7550  0.98   -12.00   0.15   64.40    0.15   64.40    0.98   -12.00
    7600  0.97   -13.20   0.16   63.70    0.16   63.70    0.97   -13.20
    7650  0.96   -14.40   0.17   63.10    0.17   63.10    0.96   -14.40
    7700  0.96   -15.50   0.18   62.70    0.18   62.70    0.96   -15.50
    7750  0.96   -16.70   0.19   62.20    0.19   62.20    0.96   -16.70
    7800  0.95   -17.60   0.20   61.90    0.20   61.90    0.95   -17.60
    7850  0.95   -18.50   0.22   61.50    0.22   61.50    0.95   -18.50
    7900  0.95   -20.20   0.23   60.70    0.23   60.70    0.95   -20.20
    7950  0.95   -21.90   0.24   59.80    0.24   59.80    0.95   -21.90
    8000  0.94   -23.30   0.25   59.00    0.25   59.00    0.94   -23.30
    8050  0.94   -24.80   0.26   58.20    0.26   58.20    0.94   -24.80
    8100  0.93   -25.90   0.27   57.80    0.27   57.80    0.93   -25.90
    8150  0.92   -27.00   0.28   57.40    0.28   57.40    0.92   -27.00
    8200  0.91   -28.40   0.30   56.50    0.30   56.50    0.91   -28.40
    8250  0.91   -29.70   0.31   55.60    0.31   55.60    0.91   -29.70
    8300  0.90   -30.80   0.32   55.10    0.32   55.10    0.90   -30.80
    8350  0.90   -31.90   0.33   54.60    0.33   54.60    0.90   -31.90
    8400  0.89   -33.20   0.34   53.50    0.34   53.50    0.89   -33.20
    8450  0.89   -34.50   0.36   52.40    0.36   52.40    0.89   -34.50
    8500  0.88   -35.60   0.37   51.70    0.37   51.70    0.88   -35.60
    8550  0.88   -36.70   0.38   51.10    0.38   51.10    0.88   -36.70
    8600  0.88   -37.70   0.39   49.90    0.39   49.90    0.88   -37.70
    8650  0.87   -38.80   0.40   48.70    0.40   48.70    0.87   -38.80
    8700  0.87   -39.60   0.41   47.50    0.41   47.50    0.87   -39.60
    8750  0.86   -40.40   0.42   46.40    0.42   46.40    0.86   -40.40
    8800  0.85   -41.10   0.43   45.70    0.43   45.70    0.85   -41.10
    8850  0.84   -41.70   0.43   45.00    0.43   45.00    0.84   -41.70
    8900  0.83   -42.10   0.44   44.40    0.44   44.40    0.83   -42.10
    8950  0.83   -42.40   0.45   43.70    0.45   43.70    0.83   -42.40
    9000  0.83   -42.90   0.45   43.30    0.45   43.30    0.83   -42.90
    9050  0.83   -43.50   0.46   42.90    0.46   42.90    0.83   -43.50
    9100  0.82   -44.30   0.47   42.50    0.47   42.50    0.82   -44.30
    9150  0.81   -45.10   0.47   42.20    0.47   42.20    0.81   -45.10
    9200  0.81   -45.80   0.48   42.20    0.48   42.20    0.81   -45.80
    9250  0.80   -46.60   0.49   42.20    0.49   42.20    0.80   -46.60
    9300  0.80   -47.00   0.50   41.50    0.50   41.50    0.80   -47.00
    9350  0.79   -47.30   0.52   40.90    0.52   40.90    0.79   -47.30
    9400  0.79   -48.00   0.52   40.60    0.52   40.60    0.79   -48.00
    9450  0.78   -48.60   0.53   40.30    0.53   40.30    0.78   -48.60
    9500  0.77   -49.00   0.54   39.60    0.54   39.60    0.77   -49.00
    9550  0.77   -49.40   0.56   38.80    0.56   38.80    0.77   -49.40
    9600  0.76   -50.00   0.56   38.10    0.56   38.10    0.76   -50.00
    9650  0.76   -50.60   0.57   37.40    0.57   37.40    0.76   -50.60
    9700  0.75   -51.30   0.58   36.90    0.58   36.90    0.75   -51.30
    9750  0.74   -51.90   0.59   36.50    0.59   36.50    0.74   -51.90
    9800  0.74   -52.10   0.60   35.60    0.60   35.60    0.74   -52.10
    9850  0.74   -52.40   0.61   34.80    0.61   34.80    0.74   -52.40
    9900  0.73   -52.70   0.62   34.20    0.62   34.20    0.73   -52.70
    9950  0.71   -53.10   0.62   33.70    0.62   33.70    0.71   -53.10
   10000  0.71   -53.60   0.63   33.20    0.63   33.20    0.71   -53.60
   10050  0.70   -54.10   0.65   32.70    0.65   32.70    0.70   -54.10
   10100  0.69   -54.60   0.65   32.00    0.65   32.00    0.69   -54.60
   10150  0.68   -55.10   0.66   31.20    0.66   31.20    0.68   -55.10
   10200  0.67   -55.50   0.67   30.70    0.67   30.70    0.67   -55.50
   10250  0.66   -56.00   0.68   30.20    0.68   30.20    0.66   -56.00
   10300  0.66   -56.70   0.68   29.70    0.68   29.70    0.66   -56.70
   10350  0.65   -57.40   0.69   29.30    0.69   29.30    0.65   -57.40
   10400  0.64   -58.60   0.70   28.30    0.70   28.30    0.64   -58.60
   10450  0.62   -59.90   0.72   27.40    0.72   27.40    0.62   -59.90
   10500  0.62   -60.20   0.72   27.00    0.72   27.00    0.62   -60.20
   10550  0.62   -60.60   0.73   26.50    0.73   26.50    0.62   -60.60
   10600  0.61   -62.40   0.73   25.50    0.73   25.50    0.61   -62.40
   10650  0.59   -64.10   0.74   24.40    0.74   24.40    0.59   -64.10
   10700  0.58   -64.30   0.75   24.00    0.75   24.00    0.58   -64.30
   10750  0.58   -64.50   0.75   23.60    0.75   23.60    0.58   -64.50
   10800  0.57   -65.60   0.76   23.00    0.76   23.00    0.57   -65.60
   10850  0.57   -66.80   0.77   22.40    0.77   22.40    0.57   -66.80
   10900  0.56   -68.30   0.77   21.30    0.77   21.30    0.56   -68.30
   10950  0.54   -69.90   0.78   20.30    0.78   20.30    0.54   -69.90
   11000  0.53   -70.40   0.78   19.90    0.78   19.90    0.53   -70.40
   11050  0.52   -70.90   0.78   19.50    0.78   19.50    0.52   -70.90
   11100  0.52   -72.40   0.79   18.80    0.79   18.80    0.52   -72.40
   11150  0.52   -73.90   0.80   18.00    0.80   18.00    0.52   -73.90
   11200  0.52   -73.90   0.80   17.50    0.80   17.50    0.52   -73.90
   11250  0.51   -74.00   0.80   16.90    0.80   16.90    0.51   -74.00
   11300  0.50   -75.30   0.80   16.10    0.80   16.10    0.50   -75.30
   11350  0.50   -76.60   0.81   15.40    0.81   15.40    0.50   -76.60
   11400  0.49   -76.10   0.81   15.20    0.81   15.20    0.49   -76.10
   11450  0.49   -75.60   0.81   15.00    0.81   15.00    0.49   -75.60
   11500  0.48   -76.70   0.82   14.20    0.82   14.20    0.48   -76.70
   11550  0.47   -77.80   0.82   13.30    0.82   13.30    0.47   -77.80
   11600  0.46   -78.00   0.83   12.90    0.83   12.90    0.46   -78.00
   11650  0.46   -78.10   0.83   12.50    0.83   12.50    0.46   -78.10
   11700  0.45   -78.80   0.84   11.80    0.84   11.80    0.45   -78.80
   11750  0.43   -79.50   0.84   11.20    0.84   11.20    0.43   -79.50
   11800  0.43   -80.30   0.84   10.60    0.84   10.60    0.43   -80.30
   11850  0.42   -81.00   0.85   10.00    0.85   10.00    0.42   -81.00
   11900  0.41   -81.50   0.85    9.60    0.85    9.60    0.41   -81.50
   11950  0.40   -81.90   0.85    9.10    0.85    9.10    0.40   -81.90
   12000  0.39   -83.60   0.86    8.10    0.86    8.10    0.39   -83.60
   12050  0.38   -85.40   0.86    7.20    0.86    7.20    0.38   -85.40
   12100  0.38   -86.30   0.86    6.70    0.86    6.70    0.38   -86.30
   12150  0.37   -87.10   0.86    6.20    0.86    6.20    0.37   -87.10
   12200  0.36   -88.30   0.86    5.70    0.86    5.70    0.36   -88.30
   12250  0.35   -89.50   0.86    5.10    0.86    5.10    0.35   -89.50
   12300  0.35   -89.80   0.87    4.50    0.87    4.50    0.35   -89.80
   12350  0.34   -90.10   0.87    3.90    0.87    3.90    0.34   -90.10
   12400  0.34   -91.00   0.87    3.50    0.87    3.50    0.34   -91.00
   12450  0.34   -91.90   0.86    3.20    0.86    3.20    0.34   -91.90
   12500  0.33   -91.50   0.87    2.70    0.87    2.70    0.33   -91.50
   12550  0.32   -91.10   0.88    2.20    0.88    2.20    0.32   -91.10
   12600  0.32   -91.20   0.88    1.80    0.88    1.80    0.32   -91.20
   12650  0.32   -91.30   0.87    1.50    0.87    1.50    0.32   -91.30
   12700  0.31   -90.50   0.88    1.10    0.88    1.10    0.31   -90.50
   12750  0.30   -89.70   0.88    0.60    0.88    0.60    0.30   -89.70
   12800  0.30   -89.50   0.88    0.20    0.88    0.20    0.30   -89.50
   12850  0.29   -89.20   0.89   -0.20    0.89   -0.20    0.29   -89.20
   12900  0.28   -88.20   0.89   -0.60    0.89   -0.60    0.28   -88.20
   12950  0.28   -87.10   0.89   -1.10    0.89   -1.10    0.28   -87.10
   13000  0.27   -87.10   0.90   -1.50    0.90   -1.50    0.27   -87.10
   13050  0.27   -87.20   0.90   -1.90    0.90   -1.90    0.27   -87.20
   13100  0.26   -86.10   0.90   -2.40    0.90   -2.40    0.26   -86.10
   13150  0.25   -85.10   0.90   -2.90    0.90   -2.90    0.25   -85.10
   13200  0.24   -85.60   0.90   -3.20    0.90   -3.20    0.24   -85.60
   13250  0.23   -86.00   0.91   -3.50    0.91   -3.50    0.23   -86.00
   13300  0.22   -83.90   0.91   -4.20    0.91   -4.20    0.22   -83.90
   13350  0.21   -81.80   0.91   -4.90    0.91   -4.90    0.21   -81.80
   13400  0.20   -82.90   0.91   -5.50    0.91   -5.50    0.20   -82.90
   13450  0.20   -83.90   0.91   -6.20    0.91   -6.20    0.20   -83.90
   13500  0.19   -84.50   0.92   -6.60    0.92   -6.60    0.19   -84.50
   13550  0.18   -85.20   0.92   -7.10    0.92   -7.10    0.18   -85.20
   13600  0.18   -84.40   0.92   -7.60    0.92   -7.60    0.18   -84.40
   13650  0.17   -83.70   0.92   -8.10    0.92   -8.10    0.17   -83.70
   13700  0.17   -83.60   0.92   -8.70    0.92   -8.70    0.17   -83.60
   13750  0.16   -83.50   0.92   -9.30    0.92   -9.30    0.16   -83.50
   13800  0.15   -81.80   0.92   -9.70    0.92   -9.70    0.15   -81.80
   13850  0.15   -80.20   0.92   -10.10   0.92   -10.10   0.15   -80.20
   13900  0.14   -78.60   0.92   -10.60   0.92   -10.60   0.14   -78.60
   13950  0.14   -76.90   0.93   -11.00   0.93   -11.00   0.14   -76.90
