# MHZ S MA R 50

      50  0.02   15.90    0.99    0.70    0.99    0.70    0.02   15.90
     100  0.02   32.00    0.99    0.30    0.99    0.30    0.02   32.00
     150  0.03   48.00    0.98   -0.10    0.98   -0.10    0.03   48.00
     200  0.03   54.50    0.98   -0.70    0.98   -0.70    0.03   54.50
     250  0.04   61.00    0.98   -1.20    0.98   -1.20    0.04   61.00
     300  0.05   64.00    0.98   -1.80    0.98   -1.80    0.05   64.00
     350  0.05   66.90    0.98   -2.30    0.98   -2.30    0.05   66.90
     400  0.06   66.40    0.98   -2.80    0.98   -2.80    0.06   66.40
     450  0.06   65.90    0.98   -3.20    0.98   -3.20    0.06   65.90
     500  0.08   71.10    0.98   -4.00    0.98   -4.00    0.08   71.10
     550  0.09   76.30    0.98   -4.80    0.98   -4.80    0.09   76.30
     600  0.09   77.40    0.98   -5.30    0.98   -5.30    0.09   77.40
     650  0.10   78.60    0.98   -5.90    0.98   -5.90    0.10   78.60
     700  0.11   79.00    0.98   -6.40    0.98   -6.40    0.11   79.00
     750  0.11   79.40    0.98   -6.90    0.98   -6.90    0.11   79.40
     800  0.12   79.30    0.97   -7.50    0.97   -7.50    0.12   79.30
     850  0.13   79.10    0.97   -8.00    0.97   -8.00    0.13   79.10
     900  0.14   79.00    0.97   -8.50    0.97   -8.50    0.14   79.00
     950  0.14   79.00    0.97   -9.00    0.97   -9.00    0.14   79.00
    1000  0.15   78.80    0.97   -9.60    0.97   -9.60    0.15   78.80
    1050  0.16   78.70    0.97   -10.10   0.97   -10.10   0.16   78.70
    1100  0.17   78.40    0.97   -10.70   0.97   -10.70   0.17   78.40
    1150  0.17   78.00    0.96   -11.20   0.96   -11.20   0.17   78.00
    1200  0.18   77.80    0.96   -11.70   0.96   -11.70   0.18   77.80
    1250  0.19   77.50    0.96   -12.20   0.96   -12.20   0.19   77.50
    1300  0.20   77.20    0.96   -12.80   0.96   -12.80   0.20   77.20
    1350  0.20   76.90    0.96   -13.30   0.96   -13.30   0.20   76.90
    1400  0.21   76.40    0.96   -13.80   0.96   -13.80   0.21   76.40
    1450  0.22   75.90    0.95   -14.30   0.95   -14.30   0.22   75.90
    1500  0.22   75.30    0.95   -14.90   0.95   -14.90   0.22   75.30
    1550  0.23   74.80    0.95   -15.50   0.95   -15.50   0.23   74.80
    1600  0.24   73.70    0.95   -16.00   0.95   -16.00   0.24   73.70
    1650  0.25   72.60    0.95   -16.50   0.95   -16.50   0.25   72.60
    1700  0.25   72.30    0.95   -17.10   0.95   -17.10   0.25   72.30
    1750  0.26   71.90    0.94   -17.70   0.94   -17.70   0.26   71.90
    1800  0.27   71.00    0.94   -18.10   0.94   -18.10   0.27   71.00
    1850  0.28   70.10    0.94   -18.50   0.94   -18.50   0.28   70.10
    1900  0.28   69.30    0.94   -19.00   0.94   -19.00   0.28   69.30
    1950  0.29   68.40    0.94   -19.50   0.94   -19.50   0.29   68.40
    2000  0.30   67.50    0.94   -20.10   0.94   -20.10   0.30   67.50
    2050  0.30   66.60    0.93   -20.70   0.93   -20.70   0.30   66.60
    2100  0.31   66.00    0.93   -21.10   0.93   -21.10   0.31   66.00
    2150  0.32   65.40    0.93   -21.50   0.93   -21.50   0.32   65.40
    2200  0.32   64.50    0.93   -22.10   0.93   -22.10   0.32   64.50
    2250  0.33   63.70    0.92   -22.80   0.92   -22.80   0.33   63.70
    2300  0.34   62.90    0.92   -23.10   0.92   -23.10   0.34   62.90
    2350  0.34   62.20    0.92   -23.50   0.92   -23.50   0.34   62.20
    2400  0.35   61.70    0.92   -24.10   0.92   -24.10   0.35   61.70
    2450  0.36   61.20    0.91   -24.70   0.91   -24.70   0.36   61.20
    2500  0.37   60.40    0.91   -25.30   0.91   -25.30   0.37   60.40
    2550  0.37   59.60    0.91   -25.90   0.91   -25.90   0.37   59.60
    2600  0.38   59.30    0.90   -26.40   0.90   -26.40   0.38   59.30
    2650  0.39   59.00    0.90   -26.80   0.90   -26.80   0.39   59.00
    2700  0.39   58.50    0.90   -27.40   0.90   -27.40   0.39   58.50
    2750  0.40   58.10    0.89   -27.90   0.89   -27.90   0.40   58.10
    2800  0.41   57.30    0.89   -28.40   0.89   -28.40   0.41   57.30
    2850  0.41   56.60    0.89   -28.90   0.89   -28.90   0.41   56.60
    2900  0.42   56.30    0.89   -29.70   0.89   -29.70   0.42   56.30
    2950  0.43   56.00    0.88   -30.50   0.88   -30.50   0.43   56.00
    3000  0.44   55.30    0.88   -31.00   0.88   -31.00   0.44   55.30
    3050  0.45   54.60    0.88   -31.50   0.88   -31.50   0.45   54.60
    3100  0.46   53.90    0.87   -32.30   0.87   -32.30   0.46   53.90
    3150  0.46   53.30    0.86   -33.10   0.86   -33.10   0.46   53.30
    3200  0.47   52.90    0.86   -33.40   0.86   -33.40   0.47   52.90
    3250  0.48   52.50    0.86   -33.80   0.86   -33.80   0.48   52.50
    3300  0.49   52.10    0.85   -34.60   0.85   -34.60   0.49   52.10
    3350  0.50   51.70    0.85   -35.40   0.85   -35.40   0.50   51.70
    3400  0.51   51.00    0.84   -35.90   0.84   -35.90   0.51   51.00
    3450  0.52   50.20    0.83   -36.40   0.83   -36.40   0.52   50.20
    3500  0.52   49.70    0.83   -36.90   0.83   -36.90   0.52   49.70
    3550  0.53   49.10    0.82   -37.50   0.82   -37.50   0.53   49.10
    3600  0.54   48.70    0.82   -38.20   0.82   -38.20   0.54   48.70
    3650  0.55   48.40    0.81   -38.90   0.81   -38.90   0.55   48.40
    3700  0.56   47.30    0.81   -39.50   0.81   -39.50   0.56   47.30
    3750  0.57   46.30    0.80   -40.20   0.80   -40.20   0.57   46.30
    3800  0.58   45.80    0.79   -40.80   0.79   -40.80   0.58   45.80
    3850  0.59   45.20    0.79   -41.40   0.79   -41.40   0.59   45.20
    3900  0.60   44.40    0.78   -42.20   0.78   -42.20   0.60   44.40
    3950  0.61   43.50    0.77   -43.00   0.77   -43.00   0.61   43.50
    4000  0.62   42.60    0.77   -43.60   0.77   -43.60   0.62   42.60
    4050  0.63   41.70    0.76   -44.30   0.76   -44.30   0.63   41.70
    4100  0.64   40.80    0.75   -45.10   0.75   -45.10   0.64   40.80
    4150  0.64   39.80    0.74   -45.90   0.74   -45.90   0.64   39.80
    4200  0.66   38.80    0.74   -46.50   0.74   -46.50   0.66   38.80
    4250  0.67   37.80    0.73   -47.00   0.73   -47.00   0.67   37.80
    4300  0.68   36.80    0.72   -47.70   0.72   -47.70   0.68   36.80
    4350  0.68   35.80    0.71   -48.30   0.71   -48.30   0.68   35.80
    4400  0.69   34.80    0.70   -49.10   0.70   -49.10   0.69   34.80
    4450  0.70   33.80    0.70   -49.90   0.70   -49.90   0.70   33.80
    4500  0.71   32.80    0.69   -50.90   0.69   -50.90   0.71   32.80
    4550  0.72   31.70    0.67   -51.80   0.67   -51.80   0.72   31.70
    4600  0.73   30.60    0.67   -52.40   0.67   -52.40   0.73   30.60
    4650  0.74   29.50    0.66   -53.10   0.66   -53.10   0.74   29.50
    4700  0.74   28.50    0.65   -53.90   0.65   -53.90   0.74   28.50
    4750  0.75   27.50    0.64   -54.70   0.64   -54.70   0.75   27.50
    4800  0.75   26.20    0.63   -55.60   0.63   -55.60   0.75   26.20
    4850  0.76   25.00    0.62   -56.60   0.62   -56.60   0.76   25.00
    4900  0.77   24.30    0.61   -57.20   0.61   -57.20   0.77   24.30
    4950  0.78   23.60    0.60   -57.90   0.60   -57.90   0.78   23.60
    5000  0.79   22.30    0.59   -58.90   0.59   -58.90   0.79   22.30
    5050  0.80   21.10    0.59   -60.00   0.59   -60.00   0.80   21.10
    5100  0.81   20.00    0.57   -61.10   0.57   -61.10   0.81   20.00
    5150  0.81   19.00    0.56   -62.10   0.56   -62.10   0.81   19.00
    5200  0.81   18.80    0.55   -62.70   0.55   -62.70   0.81   18.80
    5250  0.81   18.60    0.53   -63.20   0.53   -63.20   0.81   18.60
    5300  0.84   17.60    0.53   -64.00   0.53   -64.00   0.84   17.60
    5350  0.86   16.70    0.52   -64.80   0.52   -64.80   0.86   16.70
    5400  0.86   15.70    0.51   -66.10   0.51   -66.10   0.86   15.70
    5450  0.85   14.70    0.49   -67.30   0.49   -67.30   0.85   14.70
    5500  0.87   14.30    0.48   -68.00   0.48   -68.00   0.87   14.30
    5550  0.88   13.80    0.47   -68.80   0.47   -68.80   0.88   13.80
    5600  0.88   12.80    0.46   -69.90   0.46   -69.90   0.88   12.80
    5650  0.89   11.80    0.44   -71.00   0.44   -71.00   0.89   11.80
    5700  0.89   11.10    0.43   -72.00   0.43   -72.00   0.89   11.10
    5750  0.89   10.50    0.42   -73.00   0.42   -73.00   0.89   10.50
    5800  0.90    9.70    0.40   -73.90   0.40   -73.90   0.90    9.70
    5850  0.91    8.90    0.39   -74.90   0.39   -74.90   0.91    8.90
    5900  0.91    8.60    0.37   -75.60   0.37   -75.60   0.91    8.60
    5950  0.91    8.40    0.36   -76.40   0.36   -76.40   0.91    8.40
    6000  0.92    7.00    0.35   -77.30   0.35   -77.30   0.92    7.00
    6050  0.93    5.70    0.34   -78.30   0.34   -78.30   0.93    5.70
    6100  0.93    5.20    0.33   -79.00   0.33   -79.00   0.93    5.20
    6150  0.94    4.80    0.31   -79.70   0.31   -79.70   0.94    4.80
    6200  0.94    4.70    0.30   -80.60   0.30   -80.60   0.94    4.70
    6250  0.95    4.60    0.28   -81.60   0.28   -81.60   0.95    4.60
    6300  0.96    4.00    0.27   -82.40   0.27   -82.40   0.96    4.00
    6350  0.96    3.30    0.25   -83.20   0.25   -83.20   0.96    3.30
    6400  0.96    3.20    0.23   -84.10   0.23   -84.10   0.96    3.20
    6450  0.96    3.00    0.22   -84.90   0.22   -84.90   0.96    3.00
    6500  0.97    2.60    0.20   -85.70   0.20   -85.70   0.97    2.60
    6550  0.97    2.10    0.19   -86.40   0.19   -86.40   0.97    2.10
    6600  0.98    1.80    0.17   -87.10   0.17   -87.10   0.98    1.80
    6650  0.98    1.50    0.16   -87.80   0.16   -87.80   0.98    1.50
    6700  0.98    1.30    0.14   -88.00   0.14   -88.00   0.98    1.30
    6750  0.98    1.00    0.13   -88.20   0.13   -88.20   0.98    1.00
    6800  0.99    0.80    0.11   -88.00   0.11   -88.00   0.99    0.80
    6850  0.99    0.60    0.10   -87.70   0.10   -87.70   0.99    0.60
    6900  0.99   -0.30    0.08   -87.00   0.08   -87.00   0.99   -0.30
    6950  0.99   -1.20    0.07   -86.40   0.07   -86.40   0.99   -1.20
    7000  0.99   -1.40    0.05   -82.20   0.05   -82.20   0.99   -1.40
    7050  0.99   -1.60    0.04   -78.00   0.04   -78.00   0.99   -1.60
    7100  0.98   -2.40    0.03   -52.40   0.03   -52.40   0.98   -2.40
    7150  0.98   -3.30    0.01   -26.90   0.01   -26.90   0.98   -3.30
    7200  0.98   -3.70    0.02   10.90    0.02   10.90    0.98   -3.70
    7250  0.97   -4.20    0.03   48.70    0.03   48.70    0.97   -4.20
    7300  0.98   -5.10    0.04   54.80    0.04   54.80    0.98   -5.10
    7350  0.99   -5.90    0.06   60.90    0.06   60.90    0.99   -5.90
    7400  0.98   -7.30    0.07   62.10    0.07   62.10    0.98   -7.30
    7450  0.97   -8.70    0.09   63.30    0.09   63.30    0.97   -8.70
    7500  0.98   -9.60    0.10   63.80    0.10   63.80    0.98   -9.60
    7550  0.98   -10.40   0.12   64.20    0.12   64.20    0.98   -10.40
    7600  0.98   -12.20   0.13   63.70    0.13   63.70    0.98   -12.20
    7650  0.98   -14.00   0.15   63.20    0.15   63.20    0.98   -14.00
    7700  0.97   -15.30   0.16   62.80    0.16   62.80    0.97   -15.30
    7750  0.96   -16.50   0.18   62.50    0.18   62.50    0.96   -16.50
    7800  0.96   -17.60   0.19   62.10    0.19   62.10    0.96   -17.60
    7850  0.95   -18.60   0.21   61.70    0.21   61.70    0.95   -18.60
    7900  0.95   -20.70   0.22   60.80    0.22   60.80    0.95   -20.70
    7950  0.95   -22.70   0.24   59.90    0.24   59.90    0.95   -22.70
    8000  0.95   -24.10   0.25   59.00    0.25   59.00    0.95   -24.10
    8050  0.94   -25.50   0.27   58.00    0.27   58.00    0.94   -25.50
    8100  0.93   -26.90   0.28   57.50    0.28   57.50    0.93   -26.90
    8150  0.92   -28.30   0.30   57.00    0.30   57.00    0.92   -28.30
    8200  0.91   -29.70   0.31   56.00    0.31   56.00    0.91   -29.70
    8250  0.91   -31.20   0.33   55.00    0.33   55.00    0.91   -31.20
    8300  0.90   -32.30   0.34   54.30    0.34   54.30    0.90   -32.30
    8350  0.89   -33.40   0.36   53.50    0.36   53.50    0.89   -33.40
    8400  0.89   -35.00   0.37   52.20    0.37   52.20    0.89   -35.00
    8450  0.88   -36.60   0.39   50.90    0.39   50.90    0.88   -36.60
    8500  0.87   -37.60   0.41   50.00    0.41   50.00    0.87   -37.60
    8550  0.86   -38.70   0.42   49.10    0.42   49.10    0.86   -38.70
    8600  0.86   -39.90   0.44   47.50    0.44   47.50    0.86   -39.90
    8650  0.85   -41.10   0.45   46.00    0.45   46.00    0.85   -41.10
    8700  0.84   -42.10   0.46   44.60    0.46   44.60    0.84   -42.10
    8750  0.84   -43.00   0.47   43.20    0.47   43.20    0.84   -43.00
    8800  0.82   -43.80   0.48   42.30    0.48   42.30    0.82   -43.80
    8850  0.81   -44.50   0.48   41.30    0.48   41.30    0.81   -44.50
    8900  0.81   -44.70   0.49   40.50    0.49   40.50    0.81   -44.70
    8950  0.80   -44.90   0.50   39.70    0.50   39.70    0.80   -44.90
    9000  0.80   -45.70   0.50   39.10    0.50   39.10    0.80   -45.70
    9050  0.80   -46.50   0.51   38.60    0.51   38.60    0.80   -46.50
    9100  0.79   -47.20   0.52   38.10    0.52   38.10    0.79   -47.20
    9150  0.79   -47.90   0.53   37.70    0.53   37.70    0.79   -47.90
    9200  0.78   -48.90   0.54   37.60    0.54   37.60    0.78   -48.90
    9250  0.77   -49.90   0.55   37.50    0.55   37.50    0.77   -49.90
    9300  0.76   -50.30   0.56   36.70    0.56   36.70    0.76   -50.30
    9350  0.76   -50.80   0.57   36.00    0.57   36.00    0.76   -50.80
    9400  0.75   -51.40   0.58   35.70    0.58   35.70    0.75   -51.40
    9450  0.75   -52.00   0.59   35.40    0.59   35.40    0.75   -52.00
    9500  0.74   -52.60   0.60   34.60    0.60   34.60    0.74   -52.60
    9550  0.73   -53.30   0.62   33.80    0.62   33.80    0.73   -53.30
    9600  0.73   -53.80   0.63   33.10    0.63   33.10    0.73   -53.80
    9650  0.72   -54.30   0.64   32.30    0.64   32.30    0.72   -54.30
    9700  0.71   -55.10   0.65   31.90    0.65   31.90    0.71   -55.10
    9750  0.70   -55.80   0.66   31.40    0.66   31.40    0.70   -55.80
    9800  0.69   -56.50   0.67   30.60    0.67   30.60    0.69   -56.50
    9850  0.68   -57.20   0.68   29.80    0.68   29.80    0.68   -57.20
    9900  0.67   -57.30   0.69   29.20    0.69   29.20    0.67   -57.30
    9950  0.66   -57.50   0.69   28.60    0.69   28.60    0.66   -57.50
   10000  0.65   -59.00   0.70   28.10    0.70   28.10    0.65   -59.00
   10050  0.64   -60.60   0.72   27.60    0.72   27.60    0.64   -60.60
   10100  0.62   -60.50   0.72   26.80    0.72   26.80    0.62   -60.50
   10150  0.60   -60.50   0.73   26.00    0.73   26.00    0.60   -60.50
   10200  0.60   -61.70   0.74   25.40    0.74   25.40    0.60   -61.70
   10250  0.60   -62.90   0.75   24.80    0.75   24.80    0.60   -62.90
   10300  0.58   -63.90   0.76   24.30    0.76   24.30    0.58   -63.90
   10350  0.57   -65.00   0.76   23.70    0.76   23.70    0.57   -65.00
   10400  0.56   -65.80   0.78   22.70    0.78   22.70    0.56   -65.80
   10450  0.55   -66.50   0.79   21.60    0.79   21.60    0.55   -66.50
   10500  0.55   -67.60   0.80   21.10    0.80   21.10    0.55   -67.60
   10550  0.54   -68.70   0.80   20.60    0.80   20.60    0.54   -68.70
   10600  0.52   -69.30   0.81   19.50    0.81   19.50    0.52   -69.30
   10650  0.50   -69.80   0.82   18.40    0.82   18.40    0.50   -69.80
   10700  0.50   -70.60   0.82   17.90    0.82   17.90    0.50   -70.60
   10750  0.50   -71.50   0.83   17.40    0.83   17.40    0.50   -71.50
   10800  0.48   -72.20   0.83   16.80    0.83   16.80    0.48   -72.20
   10850  0.47   -72.90   0.84   16.20    0.84   16.20    0.47   -72.90
   10900  0.46   -74.00   0.85   15.10    0.85   15.10    0.46   -74.00
   10950  0.46   -75.10   0.85   14.00    0.85   14.00    0.46   -75.10
   11000  0.44   -76.00   0.85   13.60    0.85   13.60    0.44   -76.00
   11050  0.43   -76.90   0.85   13.10    0.85   13.10    0.43   -76.90
   11100  0.43   -77.10   0.86   12.40    0.86   12.40    0.43   -77.10
   11150  0.43   -77.30   0.87   11.70    0.87   11.70    0.43   -77.30
   11200  0.42   -78.00   0.87   11.10    0.87   11.10    0.42   -78.00
   11250  0.41   -78.70   0.87   10.60    0.87   10.60    0.41   -78.70
   11300  0.41   -79.20   0.87    9.80    0.87    9.80    0.41   -79.20
   11350  0.40   -79.70   0.88    9.00    0.88    9.00    0.40   -79.70
   11400  0.40   -79.60   0.88    8.70    0.88    8.70    0.40   -79.60
   11450  0.39   -79.50   0.88    8.40    0.88    8.40    0.39   -79.50
   11500  0.38   -80.30   0.88    7.60    0.88    7.60    0.38   -80.30
   11550  0.37   -81.20   0.89    6.80    0.89    6.80    0.37   -81.20
   11600  0.37   -81.80   0.89    6.30    0.89    6.30    0.37   -81.80
   11650  0.36   -82.40   0.90    5.90    0.90    5.90    0.36   -82.40
   11700  0.35   -82.90   0.90    5.20    0.90    5.20    0.35   -82.90
   11750  0.34   -83.50   0.90    4.60    0.90    4.60    0.34   -83.50
   11800  0.34   -84.50   0.90    4.10    0.90    4.10    0.34   -84.50
   11850  0.33   -85.40   0.90    3.60    0.90    3.60    0.33   -85.40
   11900  0.32   -86.30   0.90    3.10    0.90    3.10    0.32   -86.30
   11950  0.31   -87.10   0.91    2.60    0.91    2.60    0.31   -87.10
   12000  0.31   -89.00   0.91    1.80    0.91    1.80    0.31   -89.00
   12050  0.31   -90.90   0.91    0.90    0.91    0.90    0.31   -90.90
   12100  0.30   -91.80   0.91    0.50    0.91    0.50    0.30   -91.80
   12150  0.29   -92.60   0.91    0.00    0.91    0.00    0.29   -92.60
   12200  0.28   -93.30   0.91   -0.50    0.91   -0.50    0.28   -93.30
   12250  0.28   -93.90   0.91   -1.00    0.91   -1.00    0.28   -93.90
   12300  0.28   -94.60   0.91   -1.60    0.91   -1.60    0.28   -94.60
   12350  0.27   -95.20   0.91   -2.10    0.91   -2.10    0.27   -95.20
   12400  0.27   -95.10   0.91   -2.40    0.91   -2.40    0.27   -95.10
   12450  0.26   -94.90   0.91   -2.80    0.91   -2.80    0.26   -94.90
   12500  0.26   -95.20   0.91   -3.20    0.91   -3.20    0.26   -95.20
   12550  0.25   -95.40   0.92   -3.70    0.92   -3.70    0.25   -95.40
   12600  0.25   -95.20   0.92   -3.90    0.92   -3.90    0.25   -95.20
   12650  0.25   -94.90   0.91   -4.20    0.91   -4.20    0.25   -94.90
   12700  0.24   -93.70   0.92   -4.60    0.92   -4.60    0.24   -93.70
   12750  0.24   -92.40   0.92   -5.00    0.92   -5.00    0.24   -92.40
   12800  0.23   -91.90   0.92   -5.40    0.92   -5.40    0.23   -91.90
   12850  0.23   -91.50   0.92   -5.70    0.92   -5.70    0.23   -91.50
   12900  0.22   -90.10   0.92   -6.10    0.92   -6.10    0.22   -90.10
   12950  0.22   -88.80   0.92   -6.50    0.92   -6.50    0.22   -88.80
   13000  0.22   -88.60   0.93   -6.80    0.93   -6.80    0.22   -88.60
   13050  0.21   -88.40   0.93   -7.10    0.93   -7.10    0.21   -88.40
   13100  0.21   -88.00   0.93   -7.60    0.93   -7.60    0.21   -88.00
   13150  0.20   -87.60   0.93   -8.00    0.93   -8.00    0.20   -87.60
   13200  0.19   -87.20   0.93   -8.20    0.93   -8.20    0.19   -87.20
   13250  0.18   -86.70   0.94   -8.40    0.94   -8.40    0.18   -86.70
   13300  0.18   -85.80   0.94   -9.10    0.94   -9.10    0.18   -85.80
   13350  0.17   -85.00   0.94   -9.70    0.94   -9.70    0.17   -85.00
   13400  0.16   -86.70   0.94   -10.30   0.94   -10.30   0.16   -86.70
   13450  0.15   -88.40   0.94   -10.80   0.94   -10.80   0.15   -88.40
   13500  0.15   -88.50   0.94   -11.20   0.94   -11.20   0.15   -88.50
   13550  0.14   -88.60   0.94   -11.60   0.94   -11.60   0.14   -88.60
   13600  0.13   -91.10   0.94   -12.10   0.94   -12.10   0.13   -91.10
   13650  0.12   -93.50   0.94   -12.60   0.94   -12.60   0.12   -93.50
   13700  0.12   -90.50   0.94   -13.10   0.94   -13.10   0.12   -90.50
   13750  0.11   -87.40   0.95   -13.60   0.95   -13.60   0.11   -87.40
   13800  0.10   -88.70   0.94   -13.90   0.94   -13.90   0.10   -88.70
   13850  0.09   -90.00   0.94   -14.30   0.94   -14.30   0.09   -90.00
   13900  0.09   -82.90   0.95   -14.70   0.95   -14.70   0.09   -82.90
   13950  0.08   -75.80   0.95   -15.10   0.95   -15.10   0.08   -75.80
