#	mhz	s	ma	r	50

50	0.97	178.30	0.02	79.90	0.02	79.90	0.97	178.30
100	0.99	177.10	0.03	81.70	0.03	81.70	0.99	177.10
150	1.01	176.00	0.05	83.50	0.05	83.50	1.01	176.00
200	1.00	174.90	0.07	83.00	0.07	83.00	1.00	174.90
250	0.99	173.80	0.08	82.40	0.08	82.40	0.99	173.80
300	1.00	172.30	0.10	81.00	0.10	81.00	1.00	172.30
350	1.00	170.80	0.12	79.60	0.12	79.60	1.00	170.80
400	0.99	169.90	0.13	78.80	0.13	78.80	0.99	169.90
450	0.98	168.90	0.15	77.90	0.15	77.90	0.98	168.90
500	0.98	166.50	0.17	76.60	0.17	76.60	0.98	166.50
550	0.98	164.00	0.20	75.30	0.20	75.30	0.98	164.00
600	0.98	162.70	0.21	73.80	0.21	73.80	0.98	162.70
650	0.98	161.50	0.23	72.40	0.23	72.40	0.98	161.50
700	0.97	159.80	0.24	71.30	0.24	71.30	0.97	159.80
750	0.96	158.20	0.26	70.30	0.26	70.30	0.96	158.20
800	0.96	157.00	0.28	68.80	0.28	68.80	0.96	157.00
850	0.96	155.80	0.29	67.30	0.29	67.30	0.96	155.80
900	0.95	154.30	0.31	66.00	0.31	66.00	0.95	154.30
950	0.94	152.70	0.32	64.60	0.32	64.60	0.94	152.70
1000	0.94	151.40	0.33	63.30	0.33	63.30	0.94	151.40
1050	0.93	150.10	0.35	61.90	0.35	61.90	0.93	150.10
1100	0.92	148.60	0.36	60.90	0.36	60.90	0.92	148.60
1150	0.92	147.00	0.38	59.80	0.38	59.80	0.92	147.00
1200	0.91	145.60	0.39	58.40	0.39	58.40	0.91	145.60
1250	0.90	144.20	0.40	56.90	0.40	56.90	0.90	144.20
1300	0.90	142.60	0.42	56.00	0.42	56.00	0.90	142.60
1350	0.90	141.10	0.43	55.10	0.43	55.10	0.90	141.10
1400	0.89	139.80	0.44	53.70	0.44	53.70	0.89	139.80
1450	0.88	138.40	0.45	52.20	0.45	52.20	0.88	138.40
1500	0.88	137.00	0.46	51.20	0.46	51.20	0.88	137.00
1550	0.87	135.50	0.48	50.10	0.48	50.10	0.87	135.50
1600	0.87	134.20	0.49	48.90	0.49	48.90	0.87	134.20
1650	0.86	132.80	0.50	47.80	0.50	47.80	0.86	132.80
1700	0.85	131.40	0.51	46.60	0.51	46.60	0.85	131.40
1750	0.85	130.00	0.52	45.40	0.52	45.40	0.85	130.00
1800	0.84	129.10	0.53	44.60	0.53	44.60	0.84	129.10
1850	0.84	128.10	0.54	43.80	0.54	43.80	0.84	128.10
1900	0.83	126.70	0.55	42.70	0.55	42.70	0.83	126.70
1950	0.82	125.20	0.56	41.60	0.56	41.60	0.82	125.20
2000	0.82	124.10	0.56	40.40	0.56	40.40	0.82	124.10
2050	0.81	122.90	0.57	39.20	0.57	39.20	0.81	122.90
2100	0.80	122.00	0.58	38.30	0.58	38.30	0.80	122.00
2150	0.79	121.00	0.59	37.40	0.59	37.40	0.79	121.00
2200	0.79	119.90	0.60	36.40	0.60	36.40	0.79	119.90
2250	0.79	118.70	0.61	35.40	0.61	35.40	0.79	118.70
2300	0.78	117.90	0.61	34.50	0.61	34.50	0.78	117.90
2350	0.76	117.10	0.62	33.60	0.62	33.60	0.76	117.10
2400	0.76	116.30	0.63	32.80	0.63	32.80	0.76	116.30
2450	0.76	115.40	0.63	31.90	0.63	31.90	0.76	115.40
2500	0.75	114.70	0.64	30.90	0.64	30.90	0.75	114.70
2550	0.75	113.90	0.65	29.90	0.65	29.90	0.75	113.90
2600	0.74	113.20	0.66	29.00	0.66	29.00	0.74	113.20
2650	0.74	112.50	0.66	28.20	0.66	28.20	0.74	112.50
2700	0.73	112.00	0.67	27.30	0.67	27.30	0.73	112.00
2750	0.72	111.50	0.68	26.50	0.68	26.50	0.72	111.50
2800	0.72	110.90	0.69	25.70	0.69	25.70	0.72	110.90
2850	0.71	110.30	0.69	24.80	0.69	24.80	0.71	110.30
2900	0.70	109.80	0.70	23.70	0.70	23.70	0.70	109.80
2950	0.70	109.30	0.71	22.60	0.71	22.60	0.70	109.30
3000	0.69	108.90	0.71	21.80	0.71	21.80	0.69	108.90
3050	0.69	108.40	0.72	21.00	0.72	21.00	0.69	108.40
3100	0.68	107.60	0.72	19.90	0.72	19.90	0.68	107.60
3150	0.67	106.80	0.73	18.70	0.73	18.70	0.67	106.80
3200	0.66	106.60	0.73	18.10	0.73	18.10	0.66	106.60
3250	0.66	106.40	0.74	17.50	0.74	17.50	0.66	106.40
3300	0.65	106.20	0.75	16.40	0.75	16.40	0.65	106.20
3350	0.65	105.90	0.75	15.40	0.75	15.40	0.65	105.90
3400	0.64	105.30	0.76	14.60	0.76	14.60	0.64	105.30
3450	0.64	104.60	0.76	13.80	0.76	13.80	0.64	104.60
3500	0.63	104.60	0.76	13.10	0.76	13.10	0.63	104.60
3550	0.62	104.60	0.77	12.40	0.77	12.40	0.62	104.60
3600	0.62	104.40	0.77	11.50	0.77	11.50	0.62	104.40
3650	0.62	104.30	0.78	10.60	0.78	10.60	0.62	104.30
3700	0.61	103.70	0.78	9.70	0.78	9.70	0.61	103.70
3750	0.60	103.10	0.79	8.80	0.79	8.80	0.60	103.10
3800	0.60	102.90	0.79	8.10	0.79	8.10	0.60	102.90
3850	0.59	102.70	0.79	7.40	0.79	7.40	0.59	102.70
3900	0.59	102.20	0.80	6.50	0.80	6.50	0.59	102.20
3950	0.58	101.60	0.80	5.60	0.80	5.60	0.58	101.60
4000	0.58	101.30	0.81	4.90	0.81	4.90	0.58	101.30
4050	0.57	101.00	0.81	4.20	0.81	4.20	0.57	101.00
4100	0.57	100.10	0.81	3.30	0.81	3.30	0.57	100.10
4150	0.56	99.30	0.82	2.50	0.82	2.50	0.56	99.30
4200	0.56	98.50	0.82	1.80	0.82	1.80	0.56	98.50
4250	0.56	97.70	0.82	1.00	0.82	1.00	0.56	97.70
4300	0.55	96.90	0.82	0.40	0.82	0.40	0.55	96.90
4350	0.55	96.00	0.83	-0.20	0.83	-0.20	0.55	96.00
4400	0.54	95.30	0.83	-0.90	0.83	-0.90	0.54	95.30
4450	0.54	94.60	0.84	-1.70	0.84	-1.70	0.54	94.60
4500	0.53	93.20	0.84	-2.80	0.84	-2.80	0.53	93.20
4550	0.53	91.90	0.84	-3.80	0.84	-3.80	0.53	91.90
4600	0.52	90.90	0.85	-4.40	0.85	-4.40	0.52	90.90
4650	0.52	89.90	0.85	-5.10	0.85	-5.10	0.52	89.90
4700	0.51	88.70	0.85	-5.80	0.85	-5.80	0.51	88.70
4750	0.50	87.50	0.85	-6.50	0.85	-6.50	0.50	87.50
4800	0.50	86.40	0.86	-7.20	0.86	-7.20	0.50	86.40
4850	0.49	85.30	0.86	-8.00	0.86	-8.00	0.49	85.30
4900	0.49	84.10	0.87	-8.70	0.87	-8.70	0.49	84.10
4950	0.48	83.00	0.87	-9.40	0.87	-9.40	0.48	83.00
5000	0.48	82.00	0.87	-10.10	0.87	-10.10	0.48	82.00
5050	0.47	80.90	0.88	-10.80	0.88	-10.80	0.47	80.90
5100	0.46	79.50	0.88	-11.70	0.88	-11.70	0.46	79.50
5150	0.46	78.00	0.88	-12.60	0.88	-12.60	0.46	78.00
5200	0.45	77.60	0.88	-13.20	0.88	-13.20	0.45	77.60
5250	0.44	77.20	0.88	-13.80	0.88	-13.80	0.44	77.20
5300	0.44	76.10	0.89	-14.40	0.89	-14.40	0.44	76.10
5350	0.44	75.00	0.90	-15.00	0.90	-15.00	0.44	75.00
5400	0.43	74.10	0.90	-16.00	0.90	-16.00	0.43	74.10
5450	0.42	73.20	0.90	-16.90	0.90	-16.90	0.42	73.20
5500	0.41	72.70	0.90	-17.50	0.90	-17.50	0.41	72.70
5550	0.41	72.20	0.91	-18.10	0.91	-18.10	0.41	72.20
5600	0.40	71.30	0.91	-18.90	0.91	-18.90	0.40	71.30
5650	0.39	70.40	0.92	-19.80	0.92	-19.80	0.39	70.40
5700	0.39	70.10	0.92	-20.50	0.92	-20.50	0.39	70.10
5750	0.38	69.80	0.92	-21.30	0.92	-21.30	0.38	69.80
5800	0.37	68.60	0.92	-22.10	0.92	-22.10	0.37	68.60
5850	0.37	67.40	0.92	-22.90	0.92	-22.90	0.37	67.40
5900	0.36	67.60	0.92	-23.50	0.92	-23.50	0.36	67.60
5950	0.35	67.80	0.93	-24.20	0.93	-24.20	0.35	67.80
6000	0.34	66.50	0.93	-24.70	0.93	-24.70	0.34	66.50
6050	0.33	65.20	0.94	-25.20	0.94	-25.20	0.33	65.20
6100	0.32	65.40	0.94	-25.90	0.94	-25.90	0.32	65.40
6150	0.31	65.60	0.94	-26.50	0.94	-26.50	0.31	65.60
6200	0.31	65.60	0.94	-27.20	0.94	-27.20	0.31	65.60
6250	0.30	65.60	0.95	-28.00	0.95	-28.00	0.30	65.60
6300	0.30	65.50	0.95	-28.70	0.95	-28.70	0.30	65.50
6350	0.29	65.50	0.95	-29.30	0.95	-29.30	0.29	65.50
6400	0.28	65.50	0.95	-30.10	0.95	-30.10	0.28	65.50
6450	0.28	65.60	0.95	-30.80	0.95	-30.80	0.28	65.60
6500	0.27	65.60	0.95	-31.50	0.95	-31.50	0.27	65.60
6550	0.27	65.60	0.95	-32.30	0.95	-32.30	0.27	65.60
6600	0.26	65.70	0.95	-33.00	0.95	-33.00	0.26	65.70
6650	0.26	65.70	0.95	-33.70	0.95	-33.70	0.26	65.70
6700	0.25	65.80	0.95	-34.20	0.95	-34.20	0.25	65.80
6750	0.25	66.00	0.95	-34.70	0.95	-34.70	0.25	66.00
6800	0.25	66.00	0.95	-35.40	0.95	-35.40	0.25	66.00
6850	0.25	66.10	0.96	-36.00	0.96	-36.00	0.25	66.10
6900	0.24	65.90	0.96	-36.80	0.96	-36.80	0.24	65.90
6950	0.24	65.80	0.96	-37.50	0.96	-37.50	0.24	65.80
7000	0.24	66.60	0.96	-38.30	0.96	-38.30	0.24	66.60
7050	0.24	67.30	0.96	-39.00	0.96	-39.00	0.24	67.30
7100	0.24	66.70	0.96	-39.60	0.96	-39.60	0.24	66.70
7150	0.24	66.10	0.96	-40.20	0.96	-40.20	0.24	66.10
7200	0.23	67.10	0.96	-40.90	0.96	-40.90	0.23	67.10
7250	0.23	68.10	0.96	-41.50	0.96	-41.50	0.23	68.10
7300	0.23	67.30	0.96	-42.10	0.96	-42.10	0.23	67.30
7350	0.24	66.60	0.96	-42.60	0.96	-42.60	0.24	66.60
7400	0.23	66.10	0.96	-43.40	0.96	-43.40	0.23	66.10
7450	0.22	65.60	0.96	-44.10	0.96	-44.10	0.22	65.60
7500	0.23	65.40	0.96	-44.60	0.96	-44.60	0.23	65.40
7550	0.23	65.10	0.96	-45.20	0.96	-45.20	0.23	65.10
7600	0.23	62.80	0.96	-45.80	0.96	-45.80	0.23	62.80
7650	0.22	60.40	0.96	-46.40	0.96	-46.40	0.22	60.40
7700	0.22	59.30	0.96	-47.10	0.96	-47.10	0.22	59.30
7750	0.23	58.20	0.96	-47.70	0.96	-47.70	0.23	58.20
7800	0.23	56.50	0.96	-48.20	0.96	-48.20	0.23	56.50
7850	0.23	54.80	0.96	-48.80	0.96	-48.80	0.23	54.80
7900	0.23	52.80	0.96	-49.30	0.96	-49.30	0.23	52.80
7950	0.23	50.70	0.96	-49.90	0.96	-49.90	0.23	50.70
8000	0.23	49.10	0.96	-50.50	0.96	-50.50	0.23	49.10
8050	0.23	47.50	0.96	-51.10	0.96	-51.10	0.23	47.50
8100	0.23	45.20	0.96	-51.70	0.96	-51.70	0.23	45.20
8150	0.23	42.90	0.95	-52.20	0.95	-52.20	0.23	42.90
8200	0.23	41.70	0.95	-52.70	0.95	-52.70	0.23	41.70
8250	0.23	40.40	0.95	-53.10	0.95	-53.10	0.23	40.40
8300	0.23	38.10	0.95	-53.60	0.95	-53.60	0.23	38.10
8350	0.23	35.80	0.95	-54.20	0.95	-54.20	0.23	35.80
8400	0.23	34.70	0.96	-54.70	0.96	-54.70	0.23	34.70
8450	0.23	33.50	0.96	-55.20	0.96	-55.20	0.23	33.50
8500	0.23	31.40	0.96	-55.70	0.96	-55.70	0.23	31.40
8550	0.23	29.30	0.95	-56.20	0.95	-56.20	0.23	29.30
8600	0.23	28.40	0.96	-56.70	0.96	-56.70	0.23	28.40
8650	0.23	27.50	0.96	-57.30	0.96	-57.30	0.23	27.50
8700	0.23	26.20	0.96	-57.80	0.96	-57.80	0.23	26.20
8750	0.23	24.90	0.96	-58.30	0.96	-58.30	0.23	24.90
8800	0.23	24.20	0.96	-58.70	0.96	-58.70	0.23	24.20
8850	0.23	23.50	0.96	-59.10	0.96	-59.10	0.23	23.50
8900	0.23	23.40	0.96	-59.70	0.96	-59.70	0.23	23.40
8950	0.23	23.30	0.96	-60.30	0.96	-60.30	0.23	23.30
9000	0.23	22.70	0.96	-60.80	0.96	-60.80	0.23	22.70
9050	0.23	22.10	0.96	-61.40	0.96	-61.40	0.23	22.10
9100	0.23	22.20	0.96	-62.00	0.96	-62.00	0.23	22.20
9150	0.24	22.20	0.96	-62.50	0.96	-62.50	0.24	22.20
9200	0.23	21.00	0.96	-63.10	0.96	-63.10	0.23	21.00
9250	0.23	19.90	0.95	-63.70	0.95	-63.70	0.23	19.90
9300	0.23	20.70	0.96	-63.90	0.96	-63.90	0.23	20.70
9350	0.23	21.50	0.96	-64.20	0.96	-64.20	0.23	21.50
9400	0.23	20.40	0.96	-64.70	0.96	-64.70	0.23	20.40
9450	0.23	19.40	0.95	-65.20	0.95	-65.20	0.23	19.40
9500	0.23	19.40	0.95	-65.60	0.95	-65.60	0.23	19.40
9550	0.23	19.40	0.95	-66.00	0.95	-66.00	0.23	19.40
9600	0.23	19.80	0.96	-66.60	0.96	-66.60	0.23	19.80
9650	0.23	20.10	0.96	-67.20	0.96	-67.20	0.23	20.10
9700	0.23	18.80	0.96	-67.50	0.96	-67.50	0.23	18.80
9750	0.23	17.50	0.96	-67.80	0.96	-67.80	0.23	17.50
9800	0.23	18.10	0.96	-68.20	0.96	-68.20	0.23	18.10
9850	0.22	18.70	0.96	-68.60	0.96	-68.60	0.22	18.70
9900	0.23	18.00	0.96	-69.20	0.96	-69.20	0.23	18.00
9950	0.23	17.40	0.96	-69.70	0.96	-69.70	0.23	17.40
10000	0.22	15.60	0.96	-70.00	0.96	-70.00	0.22	15.60
10050	0.21	13.80	0.96	-70.30	0.96	-70.30	0.21	13.80
10100	0.21	14.50	0.96	-70.80	0.96	-70.80	0.21	14.50
10150	0.21	15.10	0.97	-71.30	0.97	-71.30	0.21	15.10
10200	0.21	11.90	0.97	-71.70	0.97	-71.70	0.21	11.90
10250	0.20	8.80	0.97	-72.20	0.97	-72.20	0.20	8.80
10300	0.19	8.70	0.97	-72.70	0.97	-72.70	0.19	8.70
10350	0.18	8.60	0.96	-73.20	0.96	-73.20	0.18	8.60
10400	0.18	5.80	0.97	-73.70	0.97	-73.70	0.18	5.80
10450	0.18	3.00	0.98	-74.30	0.98	-74.30	0.18	3.00
10500	0.17	0.80	0.97	-74.80	0.97	-74.80	0.17	0.80
10550	0.16	-1.40	0.97	-75.40	0.97	-75.40	0.16	-1.40
10600	0.16	0.30	0.97	-75.80	0.97	-75.80	0.16	0.30
10650	0.16	2.00	0.98	-76.30	0.98	-76.30	0.16	2.00
10700	0.15	-2.40	0.98	-76.90	0.98	-76.90	0.15	-2.40
10750	0.14	-6.70	0.98	-77.50	0.98	-77.50	0.14	-6.70
10800	0.13	-5.30	0.98	-77.80	0.98	-77.80	0.13	-5.30
10850	0.12	-4.00	0.98	-78.00	0.98	-78.00	0.12	-4.00
10900	0.12	-7.20	0.98	-78.80	0.98	-78.80	0.12	-7.20
10950	0.12	-10.40	0.98	-79.50	0.98	-79.50	0.12	-10.40
11000	0.10	-10.10	0.99	-80.10	0.99	-80.10	0.10	-10.10
11050	0.09	-9.80	0.99	-80.70	0.99	-80.70	0.09	-9.80
11100	0.09	-11.20	0.99	-81.20	0.99	-81.20	0.09	-11.20
11150	0.09	-12.70	0.99	-81.80	0.99	-81.80	0.09	-12.70
11200	0.08	-11.90	0.99	-82.40	0.99	-82.40	0.08	-11.90
11250	0.07	-11.20	0.99	-83.00	0.99	-83.00	0.07	-11.20
11300	0.06	-12.20	0.99	-83.60	0.99	-83.60	0.06	-12.20
11350	0.06	-13.20	0.99	-84.20	0.99	-84.20	0.06	-13.20
11400	0.06	-9.70	0.99	-84.70	0.99	-84.70	0.06	-9.70
11450	0.06	-6.20	0.99	-85.20	0.99	-85.20	0.06	-6.20
11500	0.05	-0.60	0.99	-85.80	0.99	-85.80	0.05	-0.60
11550	0.05	5.00	0.99	-86.30	0.99	-86.30	0.05	5.00
11600	0.04	11.20	0.99	-86.90	0.99	-86.90	0.04	11.20
11650	0.04	17.40	0.99	-87.40	0.99	-87.40	0.04	17.40
11700	0.04	22.80	0.99	-88.00	0.99	-88.00	0.04	22.80
11750	0.04	28.20	0.99	-88.60	0.99	-88.60	0.04	28.20
11800	0.04	38.80	0.99	-88.90	0.99	-88.90	0.04	38.80
11850	0.04	49.50	0.99	-89.30	0.99	-89.30	0.04	49.50
11900	0.04	62.10	0.99	-89.90	0.99	-89.90	0.04	62.10
11950	0.04	74.70	0.99	-90.40	0.99	-90.40	0.04	74.70
12000	0.04	77.90	0.99	-90.90	0.99	-90.90	0.04	77.90
12050	0.03	81.10	0.99	-91.50	0.99	-91.50	0.03	81.10
12100	0.04	87.70	0.99	-92.00	0.99	-92.00	0.04	87.70
12150	0.05	94.40	0.99	-92.50	0.99	-92.50	0.05	94.40
12200	0.04	95.30	0.99	-93.00	0.99	-93.00	0.04	95.30
12250	0.04	96.20	0.99	-93.50	0.99	-93.50	0.04	96.20
12300	0.05	102.50	0.99	-94.00	0.99	-94.00	0.05	102.50
12350	0.05	108.80	0.99	-94.60	0.99	-94.60	0.05	108.80
12400	0.05	101.80	0.99	-95.10	0.99	-95.10	0.05	101.80
12450	0.05	94.90	0.99	-95.50	0.99	-95.50	0.05	94.90
12500	0.05	96.70	0.99	-96.10	0.99	-96.10	0.05	96.70
12550	0.05	98.50	0.99	-96.70	0.99	-96.70	0.05	98.50
12600	0.05	93.80	0.99	-97.10	0.99	-97.10	0.05	93.80
12650	0.05	89.20	0.99	-97.60	0.99	-97.60	0.05	89.20
12700	0.05	85.00	0.99	-98.10	0.99	-98.10	0.05	85.00
12750	0.06	80.80	0.99	-98.60	0.99	-98.60	0.06	80.80
12800	0.06	77.40	0.99	-99.20	0.99	-99.20	0.06	77.40
12850	0.06	74.10	0.99	-99.80	0.99	-99.80	0.06	74.10
12900	0.06	71.30	0.99	-100.20	0.99	-100.20	0.06	71.30
12950	0.07	68.50	0.99	-100.60	0.99	-100.60	0.07	68.50
13000	0.07	65.30	0.99	-101.10	0.99	-101.10	0.07	65.30
13050	0.07	62.00	0.99	-101.60	0.99	-101.60	0.07	62.00
13100	0.07	60.10	0.99	-102.10	0.99	-102.10	0.07	60.10
13150	0.07	58.20	0.99	-102.50	0.99	-102.50	0.07	58.20
13200	0.08	55.30	0.99	-102.80	0.99	-102.80	0.08	55.30
13250	0.08	52.30	0.99	-103.10	0.99	-103.10	0.08	52.30
13300	0.08	52.30	0.98	-103.90	0.98	-103.90	0.08	52.30
13350	0.08	52.30	0.98	-104.70	0.98	-104.70	0.08	52.30
13400	0.09	49.80	0.98	-105.30	0.98	-105.30	0.09	49.80
13450	0.09	47.30	0.98	-105.80	0.98	-105.80	0.09	47.30
13500	0.09	43.20	0.98	-106.30	0.98	-106.30	0.09	43.20
13550	0.09	39.00	0.98	-106.80	0.98	-106.80	0.09	39.00
13600	0.09	35.20	0.98	-107.40	0.98	-107.40	0.09	35.20
13650	0.09	31.40	0.98	-108.00	0.98	-108.00	0.09	31.40
13700	0.10	25.20	0.98	-108.50	0.98	-108.50	0.10	25.20
13750	0.10	19.10	0.98	-109.00	0.98	-109.00	0.10	19.10
13800	0.10	12.40	0.98	-109.40	0.98	-109.40	0.10	12.40
13850	0.09	5.70	0.98	-109.90	0.98	-109.90	0.09	5.70
13900	0.10	0.70	0.98	-110.30	0.98	-110.30	0.10	0.70
13950	0.11	-4.20	0.98	-110.70	0.98	-110.70	0.11	-4.20
14000	0.11	-10.20	0.98	-111.30	0.98	-111.30	0.11	-10.20
14050	0.12	-16.10	0.98	-111.80	0.98	-111.80	0.12	-16.10
14100	0.12	-18.70	0.98	-112.20	0.98	-112.20	0.12	-18.70
14150	0.12	-21.40	0.98	-112.60	0.98	-112.60	0.12	-21.40
14200	0.13	-24.90	0.98	-113.20	0.98	-113.20	0.13	-24.90
14250	0.14	-28.50	0.98	-113.70	0.98	-113.70	0.14	-28.50
14300	0.13	-30.10	0.98	-114.10	0.98	-114.10	0.13	-30.10
14350	0.13	-31.60	0.98	-114.50	0.98	-114.50	0.13	-31.60
14400	0.13	-33.60	0.98	-115.10	0.98	-115.10	0.13	-33.60
14450	0.14	-35.60	0.98	-115.70	0.98	-115.70	0.14	-35.60
14500	0.14	-36.30	0.97	-115.90	0.97	-115.90	0.14	-36.30
14550	0.13	-37.00	0.97	-116.20	0.97	-116.20	0.13	-37.00
14600	0.13	-36.60	0.97	-116.70	0.97	-116.70	0.13	-36.60
14650	0.13	-36.20	0.97	-117.20	0.97	-117.20	0.13	-36.20
14700	0.13	-38.40	0.97	-117.70	0.97	-117.70	0.13	-38.40
14750	0.12	-40.50	0.98	-118.20	0.98	-118.20	0.12	-40.50
14800	0.12	-38.30	0.98	-118.70	0.98	-118.70	0.12	-38.30
14850	0.12	-36.00	0.97	-119.30	0.97	-119.30	0.12	-36.00
14900	0.12	-36.70	0.98	-119.70	0.98	-119.70	0.12	-36.70
14950	0.11	-37.50	0.98	-120.10	0.98	-120.10	0.11	-37.50
15000	0.11	-37.80	0.98	-120.70	0.98	-120.70	0.11	-37.80
15050	0.11	-38.10	0.98	-121.30	0.98	-121.30	0.11	-38.10
15100	0.11	-38.60	0.98	-121.60	0.98	-121.60	0.11	-38.60
15150	0.11	-39.10	0.98	-121.90	0.98	-121.90	0.11	-39.10
15200	0.11	-36.90	0.98	-122.30	0.98	-122.30	0.11	-36.90
15250	0.11	-34.60	0.98	-122.70	0.98	-122.70	0.11	-34.60
15300	0.11	-37.80	0.98	-123.30	0.98	-123.30	0.11	-37.80
15350	0.12	-40.90	0.98	-123.90	0.98	-123.90	0.12	-40.90
15400	0.11	-38.80	0.98	-124.30	0.98	-124.30	0.11	-38.80
15450	0.11	-36.60	0.97	-124.70	0.97	-124.70	0.11	-36.60
15500	0.12	-37.60	0.97	-125.10	0.97	-125.10	0.12	-37.60
15550	0.13	-38.50	0.97	-125.50	0.97	-125.50	0.13	-38.50
15600	0.13	-39.70	0.98	-125.90	0.98	-125.90	0.13	-39.70
15650	0.13	-40.90	0.98	-126.30	0.98	-126.30	0.13	-40.90
15700	0.13	-38.70	0.98	-126.80	0.98	-126.80	0.13	-38.70
15750	0.14	-36.50	0.97	-127.20	0.97	-127.20	0.14	-36.50
15800	0.13	-41.20	0.97	-127.50	0.97	-127.50	0.13	-41.20
15850	0.12	-45.90	0.97	-127.80	0.97	-127.80	0.12	-45.90
15900	0.12	-42.60	0.97	-128.20	0.97	-128.20	0.12	-42.60
15950	0.12	-39.30	0.97	-128.70	0.97	-128.70	0.12	-39.30
16000	0.11	-43.40	0.98	-129.00	0.98	-129.00	0.11	-43.40
16050	0.10	-47.50	0.98	-129.30	0.98	-129.30	0.10	-47.50
16100	0.08	-51.00	0.98	-130.00	0.98	-130.00	0.08	-51.00
16150	0.06	-54.50	0.97	-130.60	0.97	-130.60	0.06	-54.50
16200	0.06	-64.40	0.98	-131.20	0.98	-131.20	0.06	-64.40
16250	0.05	-74.30	0.98	-131.70	0.98	-131.70	0.05	-74.30
16300	0.05	-105.10	0.98	-132.30	0.98	-132.30	0.05	-105.10
16350	0.04	-136.00	0.98	-132.90	0.98	-132.90	0.04	-136.00
16400	0.05	-144.00	0.98	-133.40	0.98	-133.40	0.05	-144.00
16450	0.06	-152.10	0.98	-133.90	0.98	-133.90	0.06	-152.10
16500	0.07	-160.40	0.97	-134.30	0.97	-134.30	0.07	-160.40
16550	0.09	-168.80	0.96	-134.80	0.96	-134.80	0.09	-168.80
16600	0.10	3.90	0.97	-135.50	0.97	-135.50	0.10	3.90
16650	0.11	176.60	0.97	-136.10	0.97	-136.10	0.11	176.60
16700	0.12	174.80	0.97	-136.50	0.97	-136.50	0.12	174.80
16750	0.13	173.00	0.97	-137.00	0.97	-137.00	0.13	173.00
16800	0.14	168.40	0.97	-137.50	0.97	-137.50	0.14	168.40
16850	0.15	163.80	0.97	-138.10	0.97	-138.10	0.15	163.80
16900	0.15	158.30	0.97	-138.70	0.97	-138.70	0.15	158.30
16950	0.15	152.80	0.97	-139.30	0.97	-139.30	0.15	152.80
17000	0.16	148.90	0.97	-139.80	0.97	-139.80	0.16	148.90
17050	0.17	145.00	0.97	-140.30	0.97	-140.30	0.17	145.00
17100	0.17	138.90	0.97	-141.00	0.97	-141.00	0.17	138.90
17150	0.18	132.90	0.96	-141.70	0.96	-141.70	0.18	132.90
17200	0.18	127.40	0.96	-141.90	0.96	-141.90	0.18	127.40
17250	0.19	122.00	0.96	-142.10	0.96	-142.10	0.19	122.00
17300	0.20	119.00	0.96	-142.70	0.96	-142.70	0.20	119.00
17350	0.22	116.00	0.96	-143.30	0.96	-143.30	0.22	116.00
17400	0.22	111.50	0.95	-143.60	0.95	-143.60	0.22	111.50
17450	0.22	107.00	0.95	-143.80	0.95	-143.80	0.22	107.00
17500	0.23	105.40	0.95	-144.20	0.95	-144.20	0.23	105.40
17550	0.24	103.90	0.95	-144.50	0.95	-144.50	0.24	103.90
17600	0.25	100.70	0.95	-145.00	0.95	-145.00	0.25	100.70
17650	0.25	97.60	0.95	-145.40	0.95	-145.40	0.25	97.60
17700	0.25	96.70	0.95	-145.60	0.95	-145.60	0.25	96.70
17750	0.25	95.90	0.95	-145.90	0.95	-145.90	0.25	95.90
17800	0.25	95.30	0.95	-146.30	0.95	-146.30	0.25	95.30
17850	0.25	94.70	0.95	-146.70	0.95	-146.70	0.25	94.70
17900	0.25	93.80	0.95	-147.10	0.95	-147.10	0.25	93.80
17950	0.24	92.90	0.95	-147.40	0.95	-147.40	0.24	92.90
18000	0.23	93.60	0.95	-148.00	0.95	-148.00	0.23	93.60
18050	0.22	94.20	0.95	-148.60	0.95	-148.60	0.22	94.20
18100	0.21	93.30	0.96	-148.90	0.96	-148.90	0.21	93.30
18150	0.20	92.30	0.96	-149.20	0.96	-149.20	0.20	92.30
18200	0.19	92.30	0.96	-149.90	0.96	-149.90	0.19	92.30
18250	0.17	92.30	0.96	-150.50	0.96	-150.50	0.17	92.30
18300	0.16	89.10	0.96	-150.80	0.96	-150.80	0.16	89.10
18350	0.15	85.90	0.97	-151.20	0.97	-151.20	0.15	85.90
18400	0.14	84.90	0.97	-151.70	0.97	-151.70	0.14	84.90
18450	0.13	83.90	0.97	-152.30	0.97	-152.30	0.13	83.90
18500	0.12	79.30	0.97	-152.60	0.97	-152.60	0.12	79.30
18550	0.12	74.70	0.97	-152.90	0.97	-152.90	0.12	74.70
18600	0.11	76.40	0.97	-153.50	0.97	-153.50	0.11	76.40
18650	0.10	78.10	0.97	-154.00	0.97	-154.00	0.10	78.10
18700	0.10	76.20	0.98	-154.40	0.98	-154.40	0.10	76.20
18750	0.10	74.30	0.98	-154.70	0.98	-154.70	0.10	74.30
18800	0.08	73.70	0.98	-155.30	0.98	-155.30	0.08	73.70
18850	0.06	73.20	0.98	-155.80	0.98	-155.80	0.06	73.20
18900	0.07	86.60	0.98	-156.20	0.98	-156.20	0.07	86.60
18950	0.07	100.00	0.97	-156.60	0.97	-156.60	0.07	100.00
19000	0.05	102.70	0.98	-157.20	0.98	-157.20	0.05	102.70
19050	0.04	105.40	0.98	-157.70	0.98	-157.70	0.04	105.40
