# MHZ S MA R 50

      50  0.23   70.50    0.95   -11.60   0.95   -11.60   0.23   70.50
     100  0.40   60.90    0.87   -22.60   0.87   -22.60   0.40   60.90
     150  0.58   51.40    0.79   -33.50   0.79   -33.50   0.58   51.40
     200  0.68   44.00    0.70   -41.30   0.70   -41.30   0.68   44.00
     250  0.78   36.70    0.61   -49.20   0.61   -49.20   0.78   36.70
     300  0.82   31.20    0.53   -54.60   0.53   -54.60   0.82   31.20
     350  0.87   25.70    0.45   -60.10   0.45   -60.10   0.87   25.70
     400  0.91   21.40    0.38   -64.10   0.38   -64.10   0.91   21.40
     450  0.94   17.10    0.32   -68.20   0.32   -68.20   0.94   17.10
     500  0.98   16.30    0.26   -72.40   0.26   -72.40   0.98   16.30
     550  1.00   15.60    0.20   -76.60   0.20   -76.60   1.00   15.60
     600  1.00   13.30    0.16   -78.30   0.16   -78.30   1.00   13.30
     650  1.00   10.90    0.12   -79.90   0.12   -79.90   1.00   10.90
     700  1.00    9.40    0.09   -80.20   0.09   -80.20   1.00    9.40
     750  1.00    7.90    0.05   -80.50   0.05   -80.50   1.00    7.90
     800  1.00    5.60    0.03   -11.50   0.03   -11.50   1.00    5.60
     850  0.99    3.40    0.01   57.50    0.01   57.50    0.99    3.40
     900  1.00    1.80    0.04   68.90    0.04   68.90    1.00    1.80
     950  1.00    0.20    0.06   80.20    0.06   80.20    1.00    0.20
    1000  1.00   -1.40    0.09   80.00    0.09   80.00    1.00   -1.40
    1050  1.00   -2.90    0.11   79.70    0.11   79.70    1.00   -2.90
    1100  1.00   -4.30    0.14   78.50    0.14   78.50    1.00   -4.30
    1150  1.00   -5.80    0.16   77.20    0.16   77.20    1.00   -5.80
    1200  0.99   -6.90    0.18   76.40    0.18   76.40    0.99   -6.90
    1250  0.99   -8.10    0.20   75.50    0.20   75.50    0.99   -8.10
    1300  0.99   -9.90    0.22   74.10    0.22   74.10    0.99   -9.90
    1350  0.98   -11.60   0.24   72.60    0.24   72.60    0.98   -11.60
    1400  0.97   -12.70   0.26   71.80    0.26   71.80    0.97   -12.70
    1450  0.96   -13.70   0.28   70.90    0.28   70.90    0.96   -13.70
    1500  0.96   -15.40   0.30   69.60    0.30   69.60    0.96   -15.40
    1550  0.95   -17.00   0.31   68.20    0.31   68.20    0.95   -17.00
    1600  0.94   -18.40   0.33   67.10    0.33   67.10    0.94   -18.40
    1650  0.94   -19.90   0.35   66.00    0.35   66.00    0.94   -19.90
    1700  0.93   -21.10   0.37   64.90    0.37   64.90    0.93   -21.10
    1750  0.92   -22.20   0.38   63.90    0.38   63.90    0.92   -22.20
    1800  0.91   -23.90   0.40   62.60    0.40   62.60    0.91   -23.90
    1850  0.91   -25.50   0.42   61.30    0.42   61.30    0.91   -25.50
    1900  0.89   -26.80   0.43   60.40    0.43   60.40    0.89   -26.80
    1950  0.88   -28.10   0.45   59.50    0.45   59.50    0.88   -28.10
    2000  0.87   -29.60   0.46   58.30    0.46   58.30    0.87   -29.60
    2050  0.86   -31.10   0.48   57.20    0.48   57.20    0.86   -31.10
    2100  0.86   -31.70   0.49   56.40    0.49   56.40    0.86   -31.70
    2150  0.85   -32.30   0.51   55.60    0.51   55.60    0.85   -32.30
    2200  0.84   -34.00   0.52   54.50    0.52   54.50    0.84   -34.00
    2250  0.83   -35.60   0.53   53.40    0.53   53.40    0.83   -35.60
    2300  0.82   -36.60   0.55   52.50    0.55   52.50    0.82   -36.60
    2350  0.81   -37.70   0.56   51.60    0.56   51.60    0.81   -37.70
    2400  0.80   -39.10   0.58   50.30    0.58   50.30    0.80   -39.10
    2450  0.79   -40.60   0.59   49.00    0.59   49.00    0.79   -40.60
    2500  0.78   -41.70   0.60   48.00    0.60   48.00    0.78   -41.70
    2550  0.77   -42.80   0.61   47.00    0.61   47.00    0.77   -42.80
    2600  0.76   -43.90   0.63   46.10    0.63   46.10    0.76   -43.90
    2650  0.75   -44.90   0.64   45.10    0.64   45.10    0.75   -44.90
    2700  0.74   -46.00   0.65   43.90    0.65   43.90    0.74   -46.00
    2750  0.73   -47.20   0.66   42.80    0.66   42.80    0.73   -47.20
    2800  0.71   -48.40   0.68   41.70    0.68   41.70    0.71   -48.40
    2850  0.70   -49.60   0.69   40.60    0.69   40.60    0.70   -49.60
    2900  0.69   -50.70   0.70   39.10    0.70   39.10    0.69   -50.70
    2950  0.67   -51.90   0.71   37.50    0.71   37.50    0.67   -51.90
    3000  0.65   -53.10   0.73   36.00    0.73   36.00    0.65   -53.10
    3050  0.63   -54.40   0.74   34.40    0.74   34.40    0.63   -54.40
    3100  0.60   -56.00   0.75   32.10    0.75   32.10    0.60   -56.00
    3150  0.57   -57.70   0.77   29.90    0.77   29.90    0.57   -57.70
    3200  0.51   -58.40   0.79   25.90    0.79   25.90    0.51   -58.40
    3250  0.45   -59.20   0.81   22.00    0.81   22.00    0.45   -59.20
    3300  0.36   -46.10   0.78   13.30    0.78   13.30    0.36   -46.10
    3350  0.27   -33.10   0.76    4.60    0.76    4.60    0.27   -33.10
    3400  0.47   -20.60   0.55    1.50    0.55    1.50    0.47   -20.60
    3450  0.66   -8.10    0.34   -1.50    0.34   -1.50    0.66   -8.10
    3500  0.73   -19.50   0.38   21.60    0.38   21.60    0.73   -19.50
    3550  0.79   -30.80   0.42   44.70    0.42   44.70    0.79   -30.80
    3600  0.78   -35.70   0.49   44.80    0.49   44.80    0.78   -35.70
    3650  0.76   -40.60   0.56   45.00    0.56   45.00    0.76   -40.60
    3700  0.75   -43.60   0.59   43.60    0.59   43.60    0.75   -43.60
    3750  0.74   -46.60   0.63   42.10    0.63   42.10    0.74   -46.60
    3800  0.72   -48.20   0.65   41.10    0.65   41.10    0.72   -48.20
    3850  0.71   -49.70   0.67   40.10    0.67   40.10    0.71   -49.70
    3900  0.69   -51.30   0.69   38.80    0.69   38.80    0.69   -51.30
    3950  0.68   -52.90   0.70   37.50    0.70   37.50    0.68   -52.90
    4000  0.67   -54.00   0.71   36.80    0.71   36.80    0.67   -54.00
    4050  0.66   -55.10   0.72   36.10    0.72   36.10    0.66   -55.10
    4100  0.65   -55.90   0.73   35.40    0.73   35.40    0.65   -55.90
    4150  0.64   -56.80   0.74   34.70    0.74   34.70    0.64   -56.80
    4200  0.64   -57.90   0.75   34.00    0.75   34.00    0.64   -57.90
    4250  0.63   -59.00   0.76   33.40    0.76   33.40    0.63   -59.00
    4300  0.62   -59.90   0.76   32.90    0.76   32.90    0.62   -59.90
    4350  0.61   -60.70   0.76   32.40    0.76   32.40    0.61   -60.70
    4400  0.61   -61.70   0.77   31.60    0.77   31.60    0.61   -61.70
    4450  0.60   -62.60   0.78   30.90    0.78   30.90    0.60   -62.60
    4500  0.59   -63.10   0.78   30.40    0.78   30.40    0.59   -63.10
    4550  0.59   -63.50   0.79   30.00    0.79   30.00    0.59   -63.50
    4600  0.58   -64.70   0.80   29.30    0.80   29.30    0.58   -64.70
    4650  0.58   -65.90   0.81   28.50    0.81   28.50    0.58   -65.90
    4700  0.57   -66.60   0.81   28.00    0.81   28.00    0.57   -66.60
    4750  0.56   -67.20   0.81   27.50    0.81   27.50    0.56   -67.20
    4800  0.55   -68.10   0.81   26.90    0.81   26.90    0.55   -68.10
    4850  0.54   -69.10   0.82   26.30    0.82   26.30    0.54   -69.10
    4900  0.54   -69.50   0.82   25.80    0.82   25.80    0.54   -69.50
    4950  0.53   -70.00   0.83   25.30    0.83   25.30    0.53   -70.00
    5000  0.52   -71.20   0.83   24.50    0.83   24.50    0.52   -71.20
    5050  0.52   -72.40   0.83   23.70    0.83   23.70    0.52   -72.40
    5100  0.50   -72.80   0.84   23.20    0.84   23.20    0.50   -72.80
    5150  0.49   -73.10   0.84   22.80    0.84   22.80    0.49   -73.10
    5200  0.49   -73.40   0.84   22.50    0.84   22.50    0.49   -73.40
    5250  0.48   -73.80   0.85   22.10    0.85   22.10    0.48   -73.80
    5300  0.48   -74.80   0.86   21.00    0.86   21.00    0.48   -74.80
    5350  0.47   -75.80   0.86   19.90    0.86   19.90    0.47   -75.80
    5400  0.46   -76.00   0.86   19.10    0.86   19.10    0.46   -76.00
    5450  0.44   -76.30   0.86   18.30    0.86   18.30    0.44   -76.30
    5500  0.43   -76.70   0.87   17.30    0.87   17.30    0.43   -76.70
    5550  0.42   -77.10   0.87   16.30    0.87   16.30    0.42   -77.10
    5600  0.39   -77.00   0.87   14.80    0.87   14.80    0.39   -77.00
    5650  0.37   -76.80   0.88   13.40    0.88   13.40    0.37   -76.80
    5700  0.34   -74.90   0.87   11.40    0.87   11.40    0.34   -74.90
    5750  0.31   -73.00   0.86    9.30    0.86    9.30    0.31   -73.00
    5800  0.30   -59.80   0.81    6.00    0.81    6.00    0.30   -59.80
    5850  0.28   -46.70   0.76    2.70    0.76    2.70    0.28   -46.70
    5900  0.38   -42.20   0.68    7.20    0.68    7.20    0.38   -42.20
    5950  0.48   -37.60   0.58   11.70    0.58   11.70    0.48   -37.60
    6000  0.52   -46.50   0.63   17.30    0.63   17.30    0.52   -46.50
    6050  0.56   -55.40   0.69   23.00    0.69   23.00    0.56   -55.40
    6100  0.55   -59.40   0.73   23.20    0.73   23.20    0.55   -59.40
    6150  0.54   -63.50   0.77   23.30    0.77   23.30    0.54   -63.50
    6200  0.53   -64.90   0.79   22.30    0.79   22.30    0.53   -64.90
    6250  0.51   -66.30   0.81   21.30    0.81   21.30    0.51   -66.30
    6300  0.51   -67.40   0.82   20.60    0.82   20.60    0.51   -67.40
    6350  0.50   -68.50   0.83   19.90    0.83   19.90    0.50   -68.50
    6400  0.49   -68.60   0.84   19.30    0.84   19.30    0.49   -68.60
    6450  0.48   -68.60   0.85   18.60    0.85   18.60    0.48   -68.60
    6500  0.47   -68.80   0.85   18.00    0.85   18.00    0.47   -68.80
    6550  0.47   -68.90   0.85   17.40    0.85   17.40    0.47   -68.90
    6600  0.46   -68.80   0.86   16.80    0.86   16.80    0.46   -68.80
    6650  0.45   -68.60   0.86   16.30    0.86   16.30    0.45   -68.60
    6700  0.45   -68.20   0.87   16.00    0.87   16.00    0.45   -68.20
    6750  0.44   -67.80   0.87   15.80    0.87   15.80    0.44   -67.80
    6800  0.44   -67.70   0.88   15.30    0.88   15.30    0.44   -67.70
    6850  0.44   -67.50   0.88   14.90    0.88   14.90    0.44   -67.50
    6900  0.43   -67.40   0.88   14.40    0.88   14.40    0.43   -67.40
    6950  0.42   -67.30   0.88   14.00    0.88   14.00    0.42   -67.30
    7000  0.42   -67.10   0.88   13.60    0.88   13.60    0.42   -67.10
    7050  0.41   -66.80   0.89   13.20    0.89   13.20    0.41   -66.80
    7100  0.40   -66.80   0.89   12.90    0.89   12.90    0.40   -66.80
    7150  0.40   -66.90   0.89   12.60    0.89   12.60    0.40   -66.90
    7200  0.39   -66.70   0.89   12.30    0.89   12.30    0.39   -66.70
    7250  0.38   -66.50   0.90   12.00    0.90   12.00    0.38   -66.50
    7300  0.38   -66.90   0.90   11.50    0.90   11.50    0.38   -66.90
    7350  0.38   -67.30   0.91   11.00    0.91   11.00    0.38   -67.30
    7400  0.37   -67.50   0.91   10.60    0.91   10.60    0.37   -67.50
    7450  0.36   -67.70   0.91   10.20    0.91   10.20    0.36   -67.70
    7500  0.36   -68.30   0.91    9.70    0.91    9.70    0.36   -68.30
    7550  0.36   -68.90   0.92    9.20    0.92    9.20    0.36   -68.90
    7600  0.35   -69.10   0.92    8.80    0.92    8.80    0.35   -69.10
    7650  0.34   -69.40   0.92    8.30    0.92    8.30    0.34   -69.40
    7700  0.33   -69.80   0.92    7.80    0.92    7.80    0.33   -69.80
    7750  0.32   -70.20   0.92    7.40    0.92    7.40    0.32   -70.20
    7800  0.31   -70.40   0.92    6.80    0.92    6.80    0.31   -70.40
    7850  0.31   -70.70   0.92    6.30    0.92    6.30    0.31   -70.70
    7900  0.30   -71.40   0.93    5.60    0.93    5.60    0.30   -71.40
    7950  0.29   -72.00   0.93    4.90    0.93    4.90    0.29   -72.00
    8000  0.28   -71.60   0.93    4.10    0.93    4.10    0.28   -71.60
    8050  0.26   -71.10   0.93    3.30    0.93    3.30    0.26   -71.10
    8100  0.25   -70.20   0.92    2.50    0.92    2.50    0.25   -70.20
    8150  0.24   -69.30   0.92    1.70    0.92    1.70    0.24   -69.30
    8200  0.22   -64.90   0.91    0.30    0.91    0.30    0.22   -64.90
    8250  0.21   -60.60   0.90   -1.00    0.90   -1.00    0.21   -60.60
    8300  0.22   -52.20   0.87   -2.10    0.87   -2.10    0.22   -52.20
    8350  0.23   -43.70   0.83   -3.20    0.83   -3.20    0.23   -43.70
    8400  0.28   -42.60   0.79   -1.20    0.79   -1.20    0.28   -42.60
    8450  0.34   -41.40   0.74    0.80    0.74    0.80    0.34   -41.40
    8500  0.37   -48.60   0.76    4.60    0.76    4.60    0.37   -48.60
    8550  0.39   -55.70   0.78    8.40    0.78    8.40    0.39   -55.70
    8600  0.38   -60.20   0.82    8.60    0.82    8.60    0.38   -60.20
    8650  0.38   -64.80   0.85    8.70    0.85    8.70    0.38   -64.80
    8700  0.36   -66.90   0.87    8.00    0.87    8.00    0.36   -66.90
    8750  0.35   -69.10   0.88    7.30    0.88    7.30    0.35   -69.10
    8800  0.34   -70.00   0.89    6.90    0.89    6.90    0.34   -70.00
    8850  0.33   -70.90   0.90    6.60    0.90    6.60    0.33   -70.90
    8900  0.32   -71.20   0.91    5.80    0.91    5.80    0.32   -71.20
    8950  0.31   -71.40   0.92    5.00    0.92    5.00    0.31   -71.40
    9000  0.30   -71.60   0.92    4.60    0.92    4.60    0.30   -71.60
    9050  0.29   -71.80   0.92    4.10    0.92    4.10    0.29   -71.80
    9100  0.28   -72.20   0.93    3.60    0.93    3.60    0.28   -72.20
    9150  0.28   -72.60   0.93    3.20    0.93    3.20    0.28   -72.60
    9200  0.27   -73.40   0.93    2.90    0.93    2.90    0.27   -73.40
    9250  0.26   -74.10   0.94    2.60    0.94    2.60    0.26   -74.10
    9300  0.25   -73.80   0.94    2.10    0.94    2.10    0.25   -73.80
    9350  0.25   -73.60   0.94    1.60    0.94    1.60    0.25   -73.60
    9400  0.24   -73.70   0.94    1.40    0.94    1.40    0.24   -73.70
    9450  0.24   -73.80   0.94    1.10    0.94    1.10    0.24   -73.80
    9500  0.23   -73.60   0.95    0.60    0.95    0.60    0.23   -73.60
    9550  0.22   -73.40   0.95    0.10    0.95    0.10    0.22   -73.40
    9600  0.22   -72.60   0.95   -0.30    0.95   -0.30    0.22   -72.60
    9650  0.21   -71.90   0.95   -0.70    0.95   -0.70    0.21   -71.90
    9700  0.21   -72.00   0.96   -1.00    0.96   -1.00    0.21   -72.00
    9750  0.20   -72.20   0.96   -1.30    0.96   -1.30    0.20   -72.20
    9800  0.19   -70.90   0.96   -1.80    0.96   -1.80    0.19   -70.90
    9850  0.19   -69.50   0.96   -2.20    0.96   -2.20    0.19   -69.50
    9900  0.18   -68.50   0.96   -2.50    0.96   -2.50    0.18   -68.50
    9950  0.18   -67.40   0.96   -2.80    0.96   -2.80    0.18   -67.40
   10000  0.17   -67.10   0.96   -3.20    0.96   -3.20    0.17   -67.10
   10050  0.17   -66.80   0.96   -3.50    0.96   -3.50    0.17   -66.80
   10100  0.16   -65.40   0.96   -3.90    0.96   -3.90    0.16   -65.40
   10150  0.16   -64.00   0.96   -4.20    0.96   -4.20    0.16   -64.00
   10200  0.15   -63.20   0.96   -4.60    0.96   -4.60    0.15   -63.20
   10250  0.14   -62.30   0.97   -5.10    0.97   -5.10    0.14   -62.30
   10300  0.14   -61.40   0.96   -5.50    0.96   -5.50    0.14   -61.40
   10350  0.14   -60.60   0.95   -5.90    0.95   -5.90    0.14   -60.60
   10400  0.13   -59.20   0.96   -6.50    0.96   -6.50    0.13   -59.20
   10450  0.12   -57.90   0.96   -7.00    0.96   -7.00    0.12   -57.90
   10500  0.12   -55.10   0.96   -7.50    0.96   -7.50    0.12   -55.10
   10550  0.12   -52.20   0.96   -8.10    0.96   -8.10    0.12   -52.20
   10600  0.11   -46.80   0.95   -8.80    0.95   -8.80    0.11   -46.80
   10650  0.11   -41.30   0.95   -9.50    0.95   -9.50    0.11   -41.30
   10700  0.11   -35.30   0.93   -10.20   0.93   -10.20   0.11   -35.30
   10750  0.12   -29.30   0.92   -10.90   0.92   -10.90   0.12   -29.30
   10800  0.14   -26.90   0.90   -11.00   0.90   -11.00   0.14   -26.90
   10850  0.16   -24.50   0.87   -11.10   0.87   -11.10   0.16   -24.50
   10900  0.18   -30.70   0.85   -9.60    0.85   -9.60    0.18   -30.70
   10950  0.21   -36.80   0.82   -8.20    0.82   -8.20    0.21   -36.80
   11000  0.21   -46.80   0.83   -5.90    0.83   -5.90    0.21   -46.80
   11050  0.22   -56.90   0.84   -3.60    0.84   -3.60    0.22   -56.90
   11100  0.21   -64.90   0.87   -3.20    0.87   -3.20    0.21   -64.90
   11150  0.21   -72.80   0.90   -2.90    0.90   -2.90    0.21   -72.80
   11200  0.20   -76.40   0.91   -3.40    0.91   -3.40    0.20   -76.40
   11250  0.19   -80.00   0.92   -3.80    0.92   -3.80    0.19   -80.00
   11300  0.19   -82.80   0.93   -4.40    0.93   -4.40    0.19   -82.80
   11350  0.18   -85.60   0.94   -5.00    0.94   -5.00    0.18   -85.60
   11400  0.17   -85.60   0.95   -5.40    0.95   -5.40    0.17   -85.60
   11450  0.17   -85.70   0.95   -5.70    0.95   -5.70    0.17   -85.70
   11500  0.16   -86.90   0.95   -6.30    0.95   -6.30    0.16   -86.90
   11550  0.15   -88.10   0.96   -6.80    0.96   -6.80    0.15   -88.10
   11600  0.14   -88.40   0.96   -7.30    0.96   -7.30    0.14   -88.40
   11650  0.14   -88.70   0.96   -7.70    0.96   -7.70    0.14   -88.70
   11700  0.13   -89.00   0.97   -8.10    0.97   -8.10    0.13   -89.00
   11750  0.13   -89.20   0.97   -8.60    0.97   -8.60    0.13   -89.20
   11800  0.12   -91.10   0.96   -8.90    0.96   -8.90    0.12   -91.10
   11850  0.12   -93.00   0.96   -9.20    0.96   -9.20    0.12   -93.00
   11900  0.11   -95.20   0.96   -9.50    0.96   -9.50    0.11   -95.20
   11950  0.10   -97.40   0.96   -9.80    0.96   -9.80    0.10   -97.40
   12000  0.10  -101.80   0.96   -10.10   0.96   -10.10   0.10  -101.80
   12050  0.10  -106.20   0.96   -10.40   0.96   -10.40   0.10  -106.20
   12100  0.10  -110.20   0.96   -10.60   0.96   -10.60   0.10  -110.20
   12150  0.10  -114.30   0.96   -10.80   0.96   -10.80   0.10  -114.30
   12200  0.10  -115.80   0.96   -11.10   0.96   -11.10   0.10  -115.80
   12250  0.10  -117.30   0.96   -11.40   0.96   -11.40   0.10  -117.30
   12300  0.09  -119.10   0.96   -11.80   0.96   -11.80   0.09  -119.10
   12350  0.09  -120.90   0.96   -12.20   0.96   -12.20   0.09  -120.90
   12400  0.09  -121.00   0.96   -12.40   0.96   -12.40   0.09  -121.00
   12450  0.09  -121.00   0.95   -12.60   0.95   -12.60   0.09  -121.00
   12500  0.09  -120.50   0.96   -12.90   0.96   -12.90   0.09  -120.50
   12550  0.08  -120.00   0.96   -13.30   0.96   -13.30   0.08  -120.00
   12600  0.08  -119.50   0.95   -13.50   0.95   -13.50   0.08  -119.50
   12650  0.08  -118.90   0.95   -13.70   0.95   -13.70   0.08  -118.90
   12700  0.08  -114.10   0.95   -14.00   0.95   -14.00   0.08  -114.10
   12750  0.07  -109.30   0.95   -14.20   0.95   -14.20   0.07  -109.30
   12800  0.06  -105.90   0.95   -14.60   0.95   -14.60   0.06  -105.90
   12850  0.06  -102.50   0.95   -15.00   0.95   -15.00   0.06  -102.50
   12900  0.05   -92.90   0.95   -15.30   0.95   -15.30   0.05   -92.90
   12950  0.05   -83.20   0.95   -15.60   0.95   -15.60   0.05   -83.20
   13000  0.05   -72.50   0.94   -16.00   0.94   -16.00   0.05   -72.50
   13050  0.05   -61.80   0.94   -16.40   0.94   -16.40   0.05   -61.80
   13100  0.05   -47.80   0.94   -16.90   0.94   -16.90   0.05   -47.80
   13150  0.06   -33.80   0.93   -17.40   0.93   -17.40   0.06   -33.80
   13200  0.07   -24.10   0.92   -17.60   0.92   -17.60   0.07   -24.10
   13250  0.08   -14.40   0.91   -17.80   0.91   -17.80   0.08   -14.40
   13300  0.10   -14.90   0.89   -18.10   0.89   -18.10   0.10   -14.90
   13350  0.12   -15.30   0.87   -18.30   0.87   -18.30   0.12   -15.30
   13400  0.14   -22.30   0.85   -17.00   0.85   -17.00   0.14   -22.30
   13450  0.16   -29.40   0.84   -15.70   0.84   -15.70   0.16   -29.40
   13500  0.16   -38.30   0.85   -14.20   0.85   -14.20   0.16   -38.30
   13550  0.16   -47.20   0.86   -12.60   0.86   -12.60   0.16   -47.20
   13600  0.15   -53.70   0.88   -12.50   0.88   -12.50   0.15   -53.70
   13650  0.14   -60.20   0.89   -12.30   0.89   -12.30   0.14   -60.20
   13700  0.13   -62.70   0.91   -12.70   0.91   -12.70   0.13   -62.70
   13750  0.13   -65.10   0.92   -13.10   0.92   -13.10   0.13   -65.10
   13800  0.12   -66.70   0.93   -13.50   0.93   -13.50   0.12   -66.70
   13850  0.11   -68.20   0.93   -13.80   0.93   -13.80   0.11   -68.20
