#	mhz	s	ma	r	50

50	0.96	175.90	0.06	79.80	0.06	79.80	0.96	175.90
100	0.97	172.20	0.12	77.90	0.12	77.90	0.97	172.20
150	0.98	168.50	0.18	76.00	0.18	76.00	0.98	168.50
200	0.96	165.20	0.23	73.20	0.23	73.20	0.96	165.20
250	0.94	162.00	0.29	70.30	0.29	70.30	0.94	162.00
300	0.93	158.40	0.34	66.90	0.34	66.90	0.93	158.40
350	0.91	154.90	0.39	63.40	0.39	63.40	0.91	154.90
400	0.89	152.10	0.43	60.70	0.43	60.70	0.89	152.10
450	0.86	149.20	0.47	58.00	0.47	58.00	0.86	149.20
500	0.83	144.20	0.53	54.10	0.53	54.10	0.83	144.20
550	0.80	139.20	0.59	50.20	0.59	50.20	0.80	139.20
600	0.77	136.80	0.62	47.50	0.62	47.50	0.77	136.80
650	0.75	134.40	0.65	44.80	0.65	44.80	0.75	134.40
700	0.73	131.50	0.68	42.50	0.68	42.50	0.73	131.50
750	0.70	128.60	0.71	40.30	0.71	40.30	0.70	128.60
800	0.68	126.70	0.73	38.00	0.73	38.00	0.68	126.70
850	0.66	124.80	0.75	35.70	0.75	35.70	0.66	124.80
900	0.63	122.60	0.76	33.70	0.76	33.70	0.63	122.60
950	0.61	120.40	0.78	31.70	0.78	31.70	0.61	120.40
1000	0.59	118.60	0.80	29.80	0.80	29.80	0.59	118.60
1050	0.56	116.80	0.81	27.90	0.81	27.90	0.56	116.80
1100	0.55	114.70	0.83	26.30	0.83	26.30	0.55	114.70
1150	0.53	112.50	0.84	24.60	0.84	24.60	0.53	112.50
1200	0.51	111.00	0.85	23.10	0.85	23.10	0.51	111.00
1250	0.49	109.40	0.86	21.50	0.86	21.50	0.49	109.40
1300	0.48	107.50	0.87	20.20	0.87	20.20	0.48	107.50
1350	0.47	105.50	0.88	18.80	0.88	18.80	0.47	105.50
1400	0.45	104.30	0.89	17.40	0.89	17.40	0.45	104.30
1450	0.43	103.00	0.89	16.00	0.89	16.00	0.43	103.00
1500	0.42	101.50	0.90	14.80	0.90	14.80	0.42	101.50
1550	0.41	99.90	0.90	13.50	0.90	13.50	0.41	99.90
1600	0.40	98.40	0.91	12.30	0.91	12.30	0.40	98.40
1650	0.38	96.90	0.92	11.10	0.92	11.10	0.38	96.90
1700	0.37	95.60	0.92	10.00	0.92	10.00	0.37	95.60
1750	0.36	94.40	0.93	8.80	0.93	8.80	0.36	94.40
1800	0.35	93.00	0.93	7.90	0.93	7.90	0.35	93.00
1850	0.34	91.70	0.93	6.90	0.93	6.90	0.34	91.70
1900	0.33	90.40	0.94	5.90	0.94	5.90	0.33	90.40
1950	0.32	89.00	0.94	5.00	0.94	5.00	0.32	89.00
2000	0.31	87.80	0.94	3.90	0.94	3.90	0.31	87.80
2050	0.30	86.50	0.95	2.80	0.95	2.80	0.30	86.50
2100	0.29	85.60	0.95	2.00	0.95	2.00	0.29	85.60
2150	0.28	84.60	0.95	1.10	0.95	1.10	0.28	84.60
2200	0.28	83.40	0.95	0.10	0.95	0.10	0.28	83.40
2250	0.27	82.20	0.96	-0.80	0.96	-0.80	0.27	82.20
2300	0.26	81.20	0.96	-1.60	0.96	-1.60	0.26	81.20
2350	0.25	80.20	0.96	-2.40	0.96	-2.40	0.25	80.20
2400	0.24	79.40	0.96	-3.30	0.96	-3.30	0.24	79.40
2450	0.24	78.70	0.96	-4.20	0.96	-4.20	0.24	78.70
2500	0.23	77.70	0.97	-5.10	0.97	-5.10	0.23	77.70
2550	0.22	76.60	0.97	-6.00	0.97	-6.00	0.22	76.60
2600	0.21	76.30	0.97	-6.70	0.97	-6.70	0.21	76.30
2650	0.20	76.00	0.97	-7.50	0.97	-7.50	0.20	76.00
2700	0.20	75.50	0.97	-8.30	0.97	-8.30	0.20	75.50
2750	0.19	75.00	0.98	-9.00	0.98	-9.00	0.19	75.00
2800	0.18	74.50	0.98	-9.70	0.98	-9.70	0.18	74.50
2850	0.17	74.00	0.98	-10.50	0.98	-10.50	0.17	74.00
2900	0.17	74.10	0.98	-11.50	0.98	-11.50	0.17	74.10
2950	0.16	74.20	0.98	-12.40	0.98	-12.40	0.16	74.20
3000	0.15	73.40	0.98	-13.10	0.98	-13.10	0.15	73.40
3050	0.15	72.70	0.98	-13.80	0.98	-13.80	0.15	72.70
3100	0.14	73.30	0.98	-14.70	0.98	-14.70	0.14	73.30
3150	0.13	73.90	0.98	-15.60	0.98	-15.60	0.13	73.90
3200	0.13	73.20	0.98	-16.10	0.98	-16.10	0.13	73.20
3250	0.13	72.50	0.99	-16.60	0.99	-16.60	0.13	72.50
3300	0.12	74.00	0.99	-17.50	0.99	-17.50	0.12	74.00
3350	0.11	75.50	0.99	-18.40	0.99	-18.40	0.11	75.50
3400	0.11	75.10	0.99	-19.00	0.99	-19.00	0.11	75.10
3450	0.11	74.60	0.99	-19.60	0.99	-19.60	0.11	74.60
3500	0.10	75.20	0.99	-20.30	0.99	-20.30	0.10	75.20
3550	0.09	75.80	0.99	-21.00	0.99	-21.00	0.09	75.80
3600	0.09	76.90	0.99	-21.60	0.99	-21.60	0.09	76.90
3650	0.09	78.00	0.99	-22.20	0.99	-22.20	0.09	78.00
3700	0.09	76.80	0.99	-23.00	0.99	-23.00	0.09	76.80
3750	0.08	75.60	0.99	-23.80	0.99	-23.80	0.08	75.60
3800	0.08	75.80	0.99	-24.30	0.99	-24.30	0.08	75.80
3850	0.07	76.00	0.99	-24.90	0.99	-24.90	0.07	76.00
3900	0.07	75.30	0.99	-25.70	0.99	-25.70	0.07	75.30
3950	0.07	74.50	0.99	-26.60	0.99	-26.60	0.07	74.50
4000	0.06	73.30	0.99	-27.20	0.99	-27.20	0.06	73.30
4050	0.06	72.00	0.99	-27.70	0.99	-27.70	0.06	72.00
4100	0.06	69.60	0.99	-28.40	0.99	-28.40	0.06	69.60
4150	0.05	67.20	0.99	-29.10	0.99	-29.10	0.05	67.20
4200	0.05	64.80	0.99	-29.80	0.99	-29.80	0.05	64.80
4250	0.05	62.40	1.00	-30.40	1.00	-30.40	0.05	62.40
4300	0.04	58.60	0.99	-30.90	0.99	-30.90	0.04	58.60
4350	0.04	54.90	0.99	-31.40	0.99	-31.40	0.04	54.90
4400	0.04	52.50	0.99	-32.20	0.99	-32.20	0.04	52.50
4450	0.03	50.10	1.00	-32.90	1.00	-32.90	0.03	50.10
4500	0.03	38.90	1.00	-33.70	1.00	-33.70	0.03	38.90
4550	0.03	27.70	0.99	-34.40	0.99	-34.40	0.03	27.70
4600	0.02	17.10	1.00	-35.20	1.00	-35.20	0.02	17.10
4650	0.02	6.40	1.00	-36.00	1.00	-36.00	0.02	6.40
4700	0.02	-14.10	0.99	-36.60	0.99	-36.60	0.02	-14.10
4750	0.02	-34.60	0.99	-37.20	0.99	-37.20	0.02	-34.60
4800	0.02	-51.00	0.99	-37.80	0.99	-37.80	0.02	-51.00
4850	0.02	-67.40	0.99	-38.50	0.99	-38.50	0.02	-67.40
4900	0.03	-77.40	0.99	-39.10	0.99	-39.10	0.03	-77.40
4950	0.03	-87.40	0.99	-39.80	0.99	-39.80	0.03	-87.40
5000	0.03	-95.20	0.99	-40.50	0.99	-40.50	0.03	-95.20
5050	0.04	-103.00	0.99	-41.20	0.99	-41.20	0.04	-103.00
5100	0.04	-105.60	0.99	-41.80	0.99	-41.80	0.04	-105.60
5150	0.05	-108.10	0.99	-42.40	0.99	-42.40	0.05	-108.10
5200	0.05	-114.10	0.99	-42.80	0.99	-42.80	0.05	-114.10
5250	0.06	-120.20	0.99	-43.30	0.99	-43.30	0.06	-120.20
5300	0.06	-122.80	0.99	-44.10	0.99	-44.10	0.06	-122.80
5350	0.07	-125.40	0.99	-44.90	0.99	-44.90	0.07	-125.40
5400	0.07	-127.50	0.99	-45.50	0.99	-45.50	0.07	-127.50
5450	0.08	-129.50	0.99	-46.20	0.99	-46.20	0.08	-129.50
5500	0.08	-132.70	0.99	-46.80	0.99	-46.80	0.08	-132.70
5550	0.09	-135.90	0.99	-47.40	0.99	-47.40	0.09	-135.90
5600	0.09	-136.70	0.99	-48.00	0.99	-48.00	0.09	-136.70
5650	0.10	-137.50	0.99	-48.70	0.99	-48.70	0.10	-137.50
5700	0.11	-140.30	0.99	-49.30	0.99	-49.30	0.11	-140.30
5750	0.11	-143.20	0.98	-49.90	0.98	-49.90	0.11	-143.20
5800	0.12	-142.90	0.98	-50.50	0.98	-50.50	0.12	-142.90
5850	0.12	-142.60	0.98	-51.10	0.98	-51.10	0.12	-142.60
5900	0.13	-144.90	0.98	-51.60	0.98	-51.60	0.13	-144.90
5950	0.13	-147.30	0.98	-52.20	0.98	-52.20	0.13	-147.30
6000	0.14	-146.30	0.98	-52.90	0.98	-52.90	0.14	-146.30
6050	0.16	-145.20	0.98	-53.70	0.98	-53.70	0.16	-145.20
6100	0.17	-146.90	0.98	-54.10	0.98	-54.10	0.17	-146.90
6150	0.17	-148.50	0.98	-54.50	0.98	-54.50	0.17	-148.50
6200	0.17	-150.50	0.98	-55.20	0.98	-55.20	0.17	-150.50
6250	0.18	-152.40	0.98	-55.80	0.98	-55.80	0.18	-152.40
6300	0.19	-153.20	0.97	-56.30	0.97	-56.30	0.19	-153.20
6350	0.19	-153.90	0.97	-56.90	0.97	-56.90	0.19	-153.90
6400	0.19	-154.80	0.97	-57.40	0.97	-57.40	0.19	-154.80
6450	0.20	-155.70	0.97	-58.00	0.97	-58.00	0.20	-155.70
6500	0.20	-156.60	0.96	-58.60	0.96	-58.60	0.20	-156.60
6550	0.20	-157.60	0.96	-59.20	0.96	-59.20	0.20	-157.60
6600	0.21	-158.80	0.96	-59.70	0.96	-59.70	0.21	-158.80
6650	0.21	-159.90	0.96	-60.30	0.96	-60.30	0.21	-159.90
6700	0.21	-160.40	0.96	-60.60	0.96	-60.60	0.21	-160.40
6750	0.21	-161.00	0.96	-61.00	0.96	-61.00	0.21	-161.00
6800	0.22	-162.80	0.96	-61.60	0.96	-61.60	0.22	-162.80
6850	0.22	-164.60	0.96	-62.20	0.96	-62.20	0.22	-164.60
6900	0.22	-165.20	0.96	-62.80	0.96	-62.80	0.22	-165.20
6950	0.22	-165.80	0.96	-63.30	0.96	-63.30	0.22	-165.80
7000	0.22	-167.70	0.96	-63.90	0.96	-63.90	0.22	-167.70
7050	0.22	-169.70	0.96	-64.60	0.96	-64.60	0.22	-169.70
7100	0.22	-170.80	0.96	-65.10	0.96	-65.10	0.22	-170.80
7150	0.22	-172.00	0.96	-65.50	0.96	-65.50	0.22	-172.00
7200	0.23	-172.90	0.96	-66.20	0.96	-66.20	0.23	-172.90
7250	0.23	-173.80	0.97	-66.80	0.97	-66.80	0.23	-173.80
7300	0.23	-175.50	0.96	-67.40	0.96	-67.40	0.23	-175.50
7350	0.23	-177.20	0.96	-68.10	0.96	-68.10	0.23	-177.20
7400	0.23	-177.10	0.96	-68.60	0.96	-68.60	0.23	-177.10
7450	0.23	-177.00	0.96	-69.20	0.96	-69.20	0.23	-177.00
7500	0.23	1.40	0.96	-69.90	0.96	-69.90	0.23	1.40
7550	0.23	179.70	0.96	-70.60	0.96	-70.60	0.23	179.70
7600	0.23	0.30	0.96	-71.10	0.96	-71.10	0.23	0.30
7650	0.22	-179.10	0.96	-71.70	0.96	-71.70	0.22	-179.10
7700	0.22	0.30	0.96	-72.30	0.96	-72.30	0.22	0.30
7750	0.22	179.70	0.96	-72.90	0.96	-72.90	0.22	179.70
7800	0.22	178.60	0.96	-73.60	0.96	-73.60	0.22	178.60
7850	0.22	177.50	0.96	-74.30	0.96	-74.30	0.22	177.50
7900	0.22	178.20	0.96	-75.00	0.96	-75.00	0.22	178.20
7950	0.22	178.90	0.96	-75.60	0.96	-75.60	0.22	178.90
8000	0.22	177.70	0.96	-76.30	0.96	-76.30	0.22	177.70
8050	0.22	176.50	0.96	-77.00	0.96	-77.00	0.22	176.50
8100	0.22	176.90	0.96	-77.70	0.96	-77.70	0.22	176.90
8150	0.22	177.40	0.96	-78.30	0.96	-78.30	0.22	177.40
8200	0.22	177.00	0.96	-79.00	0.96	-79.00	0.22	177.00
8250	0.23	176.60	0.96	-79.80	0.96	-79.80	0.23	176.60
8300	0.22	177.20	0.96	-80.50	0.96	-80.50	0.22	177.20
8350	0.22	177.90	0.96	-81.20	0.96	-81.20	0.22	177.90
8400	0.23	177.50	0.96	-82.00	0.96	-82.00	0.23	177.50
8450	0.24	177.20	0.96	-82.80	0.96	-82.80	0.24	177.20
8500	0.24	177.90	0.96	-83.60	0.96	-83.60	0.24	177.90
8550	0.24	178.60	0.96	-84.40	0.96	-84.40	0.24	178.60
8600	0.24	177.80	0.95	-85.20	0.95	-85.20	0.24	177.80
8650	0.25	176.90	0.95	-86.00	0.95	-86.00	0.25	176.90
8700	0.25	177.30	0.95	-86.90	0.95	-86.90	0.25	177.30
8750	0.25	177.70	0.95	-87.70	0.95	-87.70	0.25	177.70
8800	0.26	176.50	0.94	-88.20	0.94	-88.20	0.26	176.50
8850	0.26	175.20	0.94	-88.70	0.94	-88.70	0.26	175.20
8900	0.27	174.70	0.94	-89.70	0.94	-89.70	0.27	174.70
8950	0.27	174.20	0.94	-90.80	0.94	-90.80	0.27	174.20
9000	0.28	174.00	0.94	-91.50	0.94	-91.50	0.28	174.00
9050	0.29	173.80	0.93	-92.30	0.93	-92.30	0.29	173.80
9100	0.29	173.00	0.93	-93.10	0.93	-93.10	0.29	173.00
9150	0.30	172.20	0.93	-93.90	0.93	-93.90	0.30	172.20
9200	0.31	171.50	0.93	-95.10	0.93	-95.10	0.31	171.50
9250	0.31	170.90	0.93	-96.20	0.93	-96.20	0.31	170.90
9300	0.32	171.00	0.92	-96.90	0.92	-96.90	0.32	171.00
9350	0.33	171.10	0.92	-97.50	0.92	-97.50	0.33	171.10
9400	0.34	170.90	0.91	-98.40	0.91	-98.40	0.34	170.90
9450	0.34	170.70	0.91	-99.30	0.91	-99.30	0.34	170.70
9500	0.35	170.50	0.90	-100.30	0.90	-100.30	0.35	170.50
9550	0.35	170.30	0.90	-101.40	0.90	-101.40	0.35	170.30
9600	0.37	169.80	0.89	-102.30	0.89	-102.30	0.37	169.80
9650	0.38	169.30	0.89	-103.30	0.89	-103.30	0.38	169.30
9700	0.38	169.10	0.88	-104.30	0.88	-104.30	0.38	169.10
9750	0.39	169.00	0.88	-105.20	0.88	-105.20	0.39	169.00
9800	0.40	169.00	0.87	-106.10	0.87	-106.10	0.40	169.00
9850	0.41	169.10	0.86	-107.00	0.86	-107.00	0.41	169.10
9900	0.42	168.50	0.85	-107.90	0.85	-107.90	0.42	168.50
9950	0.43	167.90	0.85	-108.70	0.85	-108.70	0.43	167.90
10000	0.45	167.20	0.84	-109.90	0.84	-109.90	0.45	167.20
10050	0.46	166.50	0.83	-111.10	0.83	-111.10	0.46	166.50
10100	0.48	166.00	0.82	-111.80	0.82	-111.80	0.48	166.00
10150	0.49	165.50	0.81	-112.50	0.81	-112.50	0.49	165.50
10200	0.50	164.80	0.80	-113.80	0.80	-113.80	0.50	164.80
10250	0.52	164.00	0.80	-115.10	0.80	-115.10	0.52	164.00
10300	0.54	162.40	0.78	-116.20	0.78	-116.20	0.54	162.40
10350	0.56	160.80	0.77	-117.40	0.77	-117.40	0.56	160.80
10400	0.56	159.50	0.76	-118.40	0.76	-118.40	0.56	159.50
10450	0.56	158.30	0.74	-119.40	0.74	-119.40	0.56	158.30
10500	0.58	157.00	0.73	-120.60	0.73	-120.60	0.58	157.00
10550	0.60	155.70	0.73	-121.70	0.73	-121.70	0.60	155.70
10600	0.60	152.90	0.71	-122.30	0.71	-122.30	0.60	152.90
10650	0.60	150.20	0.69	-122.80	0.69	-122.80	0.60	150.20
10700	0.62	149.80	0.69	-124.00	0.69	-124.00	0.62	149.80
10750	0.64	149.30	0.68	-125.10	0.68	-125.10	0.64	149.30
10800	0.65	147.80	0.67	-125.80	0.67	-125.80	0.65	147.80
10850	0.66	146.40	0.65	-126.40	0.65	-126.40	0.66	146.40
10900	0.67	144.30	0.64	-127.70	0.64	-127.70	0.67	144.30
10950	0.67	142.20	0.62	-129.00	0.62	-129.00	0.67	142.20
11000	0.70	141.10	0.62	-130.10	0.62	-130.10	0.70	141.10
11050	0.72	140.10	0.61	-131.30	0.61	-131.30	0.72	140.10
11100	0.73	137.50	0.59	-132.50	0.59	-132.50	0.73	137.50
11150	0.73	134.80	0.57	-133.80	0.57	-133.80	0.73	134.80
11200	0.75	133.20	0.56	-134.90	0.56	-134.90	0.75	133.20
11250	0.76	131.50	0.54	-136.10	0.54	-136.10	0.76	131.50
11300	0.77	129.40	0.52	-137.00	0.52	-137.00	0.77	129.40
11350	0.78	127.40	0.51	-138.00	0.51	-138.00	0.78	127.40
11400	0.79	124.80	0.49	-139.50	0.49	-139.50	0.79	124.80
11450	0.80	122.30	0.47	-141.00	0.47	-141.00	0.80	122.30
11500	0.81	120.10	0.44	-141.70	0.44	-141.70	0.81	120.10
11550	0.82	118.00	0.42	-142.30	0.42	-142.30	0.82	118.00
11600	0.83	115.60	0.40	-143.40	0.40	-143.40	0.83	115.60
11650	0.84	113.20	0.38	-144.50	0.38	-144.50	0.84	113.20
11700	0.85	111.10	0.35	-144.90	0.35	-144.90	0.85	111.10
11750	0.86	108.90	0.33	-145.30	0.33	-145.30	0.86	108.90
11800	0.87	107.10	0.30	-144.80	0.30	-144.80	0.87	107.10
11850	0.87	105.40	0.27	-144.40	0.27	-144.40	0.87	105.40
11900	0.88	103.40	0.25	-143.50	0.25	-143.50	0.88	103.40
11950	0.89	101.40	0.22	-142.70	0.22	-142.70	0.89	101.40
12000	0.89	99.90	0.19	-138.30	0.19	-138.30	0.89	99.90
12050	0.89	98.30	0.17	-133.90	0.17	-133.90	0.89	98.30
12100	0.90	95.80	0.15	-126.10	0.15	-126.10	0.90	95.80
12150	0.91	93.20	0.13	-118.20	0.13	-118.20	0.91	93.20
12200	0.90	91.10	0.13	-104.00	0.13	-104.00	0.90	91.10
12250	0.90	89.00	0.12	-89.80	0.12	-89.80	0.90	89.00
12300	0.89	87.30	0.13	-77.20	0.13	-77.20	0.89	87.30
12350	0.88	85.50	0.14	-64.50	0.14	-64.50	0.88	85.50
12400	0.88	82.20	0.17	-58.60	0.17	-58.60	0.88	82.20
12450	0.88	78.90	0.20	-52.80	0.20	-52.80	0.88	78.90
12500	0.87	76.80	0.24	-50.70	0.24	-50.70	0.87	76.80
12550	0.85	74.60	0.27	-48.60	0.27	-48.60	0.85	74.60
12600	0.84	72.00	0.30	-48.80	0.30	-48.80	0.84	72.00
12650	0.82	69.50	0.34	-49.00	0.34	-49.00	0.82	69.50
12700	0.81	67.00	0.37	-49.70	0.37	-49.70	0.81	67.00
12750	0.80	64.60	0.40	-50.50	0.40	-50.50	0.80	64.60
12800	0.78	62.00	0.43	-52.30	0.43	-52.30	0.78	62.00
12850	0.76	59.40	0.46	-54.00	0.46	-54.00	0.76	59.40
12900	0.75	57.30	0.49	-55.60	0.49	-55.60	0.75	57.30
12950	0.73	55.20	0.52	-57.20	0.52	-57.20	0.73	55.20
13000	0.71	53.10	0.54	-59.00	0.54	-59.00	0.71	53.10
13050	0.69	51.00	0.56	-60.80	0.56	-60.80	0.69	51.00
13100	0.67	48.90	0.59	-62.50	0.59	-62.50	0.67	48.90
13150	0.65	46.80	0.61	-64.20	0.61	-64.20	0.65	46.80
13200	0.64	45.30	0.63	-65.70	0.63	-65.70	0.64	45.30
13250	0.63	43.90	0.65	-67.20	0.65	-67.20	0.63	43.90
13300	0.60	43.50	0.66	-69.40	0.66	-69.40	0.60	43.50
13350	0.57	43.20	0.68	-71.60	0.68	-71.60	0.57	43.20
13400	0.57	40.50	0.69	-73.10	0.69	-73.10	0.57	40.50
13450	0.57	37.80	0.71	-74.60	0.71	-74.60	0.57	37.80
13500	0.56	36.00	0.72	-76.10	0.72	-76.10	0.56	36.00
13550	0.54	34.10	0.73	-77.70	0.73	-77.70	0.54	34.10
13600	0.54	32.50	0.74	-79.40	0.74	-79.40	0.54	32.50
13650	0.53	30.80	0.75	-81.00	0.75	-81.00	0.53	30.80
13700	0.52	28.60	0.76	-82.10	0.76	-82.10	0.52	28.60
13750	0.51	26.50	0.76	-83.30	0.76	-83.30	0.51	26.50
13800	0.50	23.90	0.77	-84.50	0.77	-84.50	0.50	23.90
13850	0.48	21.40	0.77	-85.70	0.77	-85.70	0.48	21.40
13900	0.48	18.70	0.79	-86.70	0.79	-86.70	0.48	18.70
13950	0.48	16.00	0.80	-87.70	0.80	-87.70	0.48	16.00
14000	0.47	13.00	0.80	-88.70	0.80	-88.70	0.47	13.00
14050	0.47	10.00	0.80	-89.70	0.80	-89.70	0.47	10.00
14100	0.46	7.70	0.81	-90.70	0.81	-90.70	0.46	7.70
14150	0.46	5.30	0.82	-91.60	0.82	-91.60	0.46	5.30
14200	0.46	2.60	0.82	-92.60	0.82	-92.60	0.46	2.60
14250	0.45	-0.20	0.83	-93.60	0.83	-93.60	0.45	-0.20
14300	0.44	-2.00	0.83	-94.50	0.83	-94.50	0.44	-2.00
14350	0.44	-3.80	0.84	-95.40	0.84	-95.40	0.44	-3.80
14400	0.44	-5.80	0.84	-96.30	0.84	-96.30	0.44	-5.80
14450	0.44	-7.80	0.85	-97.20	0.85	-97.20	0.44	-7.80
14500	0.43	-9.10	0.85	-97.80	0.85	-97.80	0.43	-9.10
14550	0.41	-10.30	0.85	-98.40	0.85	-98.40	0.41	-10.30
14600	0.41	-11.20	0.86	-99.30	0.86	-99.30	0.41	-11.20
14650	0.41	-12.20	0.86	-100.30	0.86	-100.30	0.41	-12.20
14700	0.39	-13.70	0.87	-101.10	0.87	-101.10	0.39	-13.70
14750	0.38	-15.20	0.88	-102.00	0.88	-102.00	0.38	-15.20
14800	0.38	-15.70	0.88	-103.00	0.88	-103.00	0.38	-15.70
14850	0.37	-16.10	0.88	-103.90	0.88	-103.90	0.37	-16.10
14900	0.36	-16.20	0.89	-104.60	0.89	-104.60	0.36	-16.20
14950	0.34	-16.30	0.89	-105.30	0.89	-105.30	0.34	-16.30
15000	0.34	-17.70	0.89	-106.50	0.89	-106.50	0.34	-17.70
15050	0.33	-19.20	0.89	-107.60	0.89	-107.60	0.33	-19.20
15100	0.32	-19.30	0.90	-108.20	0.90	-108.20	0.32	-19.30
15150	0.31	-19.40	0.90	-108.90	0.90	-108.90	0.31	-19.40
15200	0.31	-19.10	0.90	-109.70	0.90	-109.70	0.31	-19.10
15250	0.30	-18.80	0.91	-110.60	0.91	-110.60	0.30	-18.80
15300	0.30	-20.30	0.90	-111.70	0.90	-111.70	0.30	-20.30
15350	0.29	-21.80	0.90	-112.90	0.90	-112.90	0.29	-21.80
15400	0.28	-20.50	0.90	-113.60	0.90	-113.60	0.28	-20.50
15450	0.28	-19.20	0.89	-114.30	0.89	-114.30	0.28	-19.20
15500	0.28	-19.20	0.89	-115.10	0.89	-115.10	0.28	-19.20
15550	0.29	-19.10	0.89	-115.90	0.89	-115.90	0.29	-19.10
15600	0.28	-19.00	0.89	-116.50	0.89	-116.50	0.28	-19.00
15650	0.28	-18.90	0.89	-117.10	0.89	-117.10	0.28	-18.90
15700	0.28	-17.60	0.88	-118.00	0.88	-118.00	0.28	-17.60
15750	0.29	-16.30	0.88	-118.90	0.88	-118.90	0.29	-16.30
15800	0.27	-15.90	0.88	-119.70	0.88	-119.70	0.27	-15.90
15850	0.25	-15.40	0.87	-120.40	0.87	-120.40	0.25	-15.40
15900	0.25	-10.90	0.86	-121.30	0.86	-121.30	0.25	-10.90
15950	0.25	-6.30	0.84	-122.20	0.84	-122.20	0.25	-6.30
16000	0.25	-1.50	0.83	-122.30	0.83	-122.30	0.25	-1.50
16050	0.25	3.30	0.81	-122.50	0.81	-122.50	0.25	3.30
16100	0.26	6.90	0.79	-121.80	0.79	-121.80	0.26	6.90
16150	0.28	10.50	0.77	-121.10	0.77	-121.10	0.28	10.50
16200	0.29	7.70	0.78	-119.70	0.78	-119.70	0.29	7.70
16250	0.29	5.00	0.78	-118.30	0.78	-118.30	0.29	5.00
16300	0.28	2.70	0.80	-117.80	0.80	-117.80	0.28	2.70
16350	0.27	0.40	0.81	-117.30	0.81	-117.30	0.27	0.40
16400	0.26	-2.80	0.83	-117.50	0.83	-117.50	0.26	-2.80
16450	0.26	-6.10	0.84	-117.60	0.84	-117.60	0.26	-6.10
16500	0.24	-10.70	0.85	-117.80	0.85	-117.80	0.24	-10.70
16550	0.22	-15.20	0.86	-117.90	0.86	-117.90	0.22	-15.20
16600	0.21	-19.10	0.87	-118.50	0.87	-118.50	0.21	-19.10
16650	0.20	-23.10	0.89	-119.00	0.89	-119.00	0.20	-23.10
16700	0.18	-29.40	0.91	-119.80	0.91	-119.80	0.18	-29.40
16750	0.17	-35.60	0.92	-120.70	0.92	-120.70	0.17	-35.60
16800	0.15	-41.00	0.93	-121.60	0.93	-121.60	0.15	-41.00
16850	0.14	-46.40	0.94	-122.60	0.94	-122.60	0.14	-46.40
16900	0.12	-47.70	0.94	-123.60	0.94	-123.60	0.12	-47.70
16950	0.11	-49.10	0.95	-124.60	0.95	-124.60	0.11	-49.10
17000	0.09	-52.90	0.95	-125.60	0.95	-125.60	0.09	-52.90
17050	0.08	-56.70	0.96	-126.60	0.96	-126.60	0.08	-56.70
17100	0.06	-47.70	0.96	-127.60	0.96	-127.60	0.06	-47.70
17150	0.05	-38.80	0.96	-128.60	0.96	-128.60	0.05	-38.80
17200	0.04	-15.30	0.96	-129.30	0.96	-129.30	0.04	-15.30
17250	0.04	8.20	0.96	-130.00	0.96	-130.00	0.04	8.20
17300	0.04	38.30	0.97	-130.90	0.97	-130.90	0.04	38.30
17350	0.05	68.30	0.97	-131.90	0.97	-131.90	0.05	68.30
17400	0.07	66.00	0.97	-132.40	0.97	-132.40	0.07	66.00
17450	0.08	63.70	0.96	-133.00	0.96	-133.00	0.08	63.70
17500	0.09	67.70	0.97	-133.80	0.97	-133.80	0.09	67.70
17550	0.11	71.80	0.97	-134.60	0.97	-134.60	0.11	71.80
17600	0.12	71.10	0.97	-135.30	0.97	-135.30	0.12	71.10
17650	0.14	70.50	0.96	-136.10	0.96	-136.10	0.14	70.50
17700	0.14	71.10	0.96	-136.60	0.96	-136.60	0.14	71.10
17750	0.15	71.60	0.97	-137.20	0.97	-137.20	0.15	71.60
17800	0.15	72.50	0.97	-137.90	0.97	-137.90	0.15	72.50
17850	0.16	73.30	0.97	-138.60	0.97	-138.60	0.16	73.30
17900	0.16	72.00	0.96	-139.10	0.96	-139.10	0.16	72.00
17950	0.15	70.70	0.96	-139.70	0.96	-139.70	0.15	70.70
18000	0.15	71.60	0.96	-140.40	0.96	-140.40	0.15	71.60
18050	0.14	72.60	0.96	-141.20	0.96	-141.20	0.14	72.60
18100	0.13	69.50	0.96	-141.70	0.96	-141.70	0.13	69.50
18150	0.13	66.30	0.96	-142.20	0.96	-142.20	0.13	66.30
18200	0.11	63.30	0.97	-143.00	0.97	-143.00	0.11	63.30
18250	0.10	60.30	0.97	-143.70	0.97	-143.70	0.10	60.30
18300	0.10	51.90	0.97	-144.20	0.97	-144.20	0.10	51.90
18350	0.10	43.60	0.97	-144.60	0.97	-144.60	0.10	43.60
18400	0.09	37.70	0.97	-145.30	0.97	-145.30	0.09	37.70
18450	0.09	31.90	0.97	-145.90	0.97	-145.90	0.09	31.90
18500	0.09	25.70	0.97	-146.30	0.97	-146.30	0.09	25.70
18550	0.10	19.40	0.97	-146.70	0.97	-146.70	0.10	19.40
18600	0.09	15.20	0.97	-147.40	0.97	-147.40	0.09	15.20
18650	0.08	11.00	0.97	-148.10	0.97	-148.10	0.08	11.00
18700	0.09	11.80	0.97	-148.50	0.97	-148.50	0.09	11.80
18750	0.09	12.50	0.97	-148.90	0.97	-148.90	0.09	12.50
18800	0.09	2.90	0.97	-149.60	0.97	-149.60	0.09	2.90
