# MHZ S MA R 50

      50  0.10   77.50    0.99   -4.90    0.99   -4.90    0.10   77.50
     100  0.20   73.30    0.96   -10.40   0.96   -10.40   0.20   73.30
     150  0.29   69.10    0.94   -15.90   0.94   -15.90   0.29   69.10
     200  0.38   64.50    0.91   -21.00   0.91   -21.00   0.38   64.50
     250  0.46   59.80    0.87   -26.10   0.87   -26.10   0.46   59.80
     300  0.52   55.30    0.83   -30.80   0.83   -30.80   0.52   55.30
     350  0.59   50.70    0.78   -35.50   0.78   -35.50   0.59   50.70
     400  0.64   46.40    0.74   -39.60   0.74   -39.60   0.64   46.40
     450  0.70   42.10    0.69   -43.70   0.69   -43.70   0.70   42.10
     500  0.77   40.40    0.63   -49.10   0.63   -49.10   0.77   40.40
     550  0.85   38.70    0.57   -54.60   0.57   -54.60   0.85   38.70
     600  0.86   35.90    0.52   -57.40   0.52   -57.40   0.86   35.90
     650  0.88   33.00    0.48   -60.30   0.48   -60.30   0.88   33.00
     700  0.90   30.70    0.44   -63.20   0.44   -63.20   0.90   30.70
     750  0.93   28.50    0.40   -66.00   0.40   -66.00   0.93   28.50
     800  0.93   25.70    0.37   -68.10   0.37   -68.10   0.93   25.70
     850  0.93   23.00    0.33   -70.20   0.33   -70.20   0.93   23.00
     900  0.96   20.90    0.29   -72.10   0.29   -72.10   0.96   20.90
     950  0.98   18.80    0.26   -74.00   0.26   -74.00   0.98   18.80
    1000  0.98   16.80    0.23   -75.70   0.23   -75.70   0.98   16.80
    1050  0.98   14.80    0.20   -77.50   0.20   -77.50   0.98   14.80
    1100  0.99   13.00    0.17   -79.10   0.17   -79.10   0.99   13.00
    1150  1.00   11.20    0.14   -80.60   0.14   -80.60   1.00   11.20
    1200  1.00    9.70    0.11   -81.10   0.11   -81.10   1.00    9.70
    1250  1.00    8.20    0.08   -81.50   0.08   -81.50   1.00    8.20
    1300  1.00    6.20    0.06   -79.90   0.06   -79.90   1.00    6.20
    1350  1.00    4.10    0.03   -78.30   0.03   -78.30   1.00    4.10
    1400  1.00    2.90    0.03   -8.60    0.03   -8.60    1.00    2.90
    1450  1.00    1.60    0.01   61.00    0.01   61.00    1.00    1.60
    1500  1.00   -0.30    0.04   69.40    0.04   69.40    1.00   -0.30
    1550  1.00   -2.10    0.06   77.70    0.06   77.70    1.00   -2.10
    1600  1.00   -3.70    0.08   77.80    0.08   77.80    1.00   -3.70
    1650  1.00   -5.40    0.10   77.90    0.10   77.90    1.00   -5.40
    1700  0.99   -6.70    0.12   77.30    0.12   77.30    0.99   -6.70
    1750  0.98   -8.00    0.14   76.70    0.14   76.70    0.98   -8.00
    1800  0.98   -9.70    0.16   75.50    0.16   75.50    0.98   -9.70
    1850  0.99   -11.30   0.18   74.40    0.18   74.40    0.99   -11.30
    1900  0.98   -12.80   0.20   73.60    0.20   73.60    0.98   -12.80
    1950  0.97   -14.30   0.22   72.80    0.22   72.80    0.97   -14.30
    2000  0.96   -15.70   0.24   71.80    0.24   71.80    0.96   -15.70
    2050  0.96   -17.10   0.25   70.70    0.25   70.70    0.96   -17.10
    2100  0.95   -18.30   0.27   69.70    0.27   69.70    0.95   -18.30
    2150  0.95   -19.40   0.29   68.70    0.29   68.70    0.95   -19.40
    2200  0.94   -20.90   0.31   67.60    0.31   67.60    0.94   -20.90
    2250  0.93   -22.50   0.32   66.50    0.32   66.50    0.93   -22.50
    2300  0.93   -23.50   0.34   65.70    0.34   65.70    0.93   -23.50
    2350  0.93   -24.40   0.35   64.90    0.35   64.90    0.93   -24.40
    2400  0.92   -25.90   0.37   63.60    0.37   63.60    0.92   -25.90
    2450  0.91   -27.30   0.38   62.30    0.38   62.30    0.91   -27.30
    2500  0.91   -28.40   0.40   61.30    0.40   61.30    0.91   -28.40
    2550  0.90   -29.60   0.41   60.30    0.41   60.30    0.90   -29.60
    2600  0.89   -30.50   0.43   59.50    0.43   59.50    0.89   -30.50
    2650  0.89   -31.40   0.44   58.60    0.44   58.60    0.89   -31.40
    2700  0.88   -32.40   0.45   57.60    0.45   57.60    0.88   -32.40
    2750  0.87   -33.30   0.47   56.60    0.47   56.60    0.87   -33.30
    2800  0.87   -34.50   0.48   55.80    0.48   55.80    0.87   -34.50
    2850  0.86   -35.70   0.49   55.00    0.49   55.00    0.86   -35.70
    2900  0.85   -36.40   0.50   53.90    0.50   53.90    0.85   -36.40
    2950  0.85   -37.20   0.51   52.80    0.51   52.80    0.85   -37.20
    3000  0.84   -38.10   0.52   52.00    0.52   52.00    0.84   -38.10
    3050  0.83   -39.00   0.53   51.20    0.53   51.20    0.83   -39.00
    3100  0.82   -40.00   0.54   50.50    0.54   50.50    0.82   -40.00
    3150  0.82   -41.00   0.55   49.70    0.55   49.70    0.82   -41.00
    3200  0.81   -41.50   0.56   49.00    0.56   49.00    0.81   -41.50
    3250  0.81   -42.00   0.57   48.30    0.57   48.30    0.81   -42.00
    3300  0.80   -42.90   0.58   47.50    0.58   47.50    0.80   -42.90
    3350  0.79   -43.80   0.59   46.70    0.59   46.70    0.79   -43.80
    3400  0.79   -44.50   0.60   46.10    0.60   46.10    0.79   -44.50
    3450  0.78   -45.30   0.61   45.60    0.61   45.60    0.78   -45.30
    3500  0.77   -46.30   0.62   44.80    0.62   44.80    0.77   -46.30
    3550  0.76   -47.30   0.63   44.10    0.63   44.10    0.76   -47.30
    3600  0.75   -47.80   0.64   43.50    0.64   43.50    0.75   -47.80
    3650  0.74   -48.30   0.64   43.00    0.64   43.00    0.74   -48.30
    3700  0.74   -49.40   0.65   42.40    0.65   42.40    0.74   -49.40
    3750  0.73   -50.50   0.66   41.90    0.66   41.90    0.73   -50.50
    3800  0.72   -51.10   0.67   41.30    0.67   41.30    0.72   -51.10
    3850  0.71   -51.70   0.68   40.80    0.68   40.80    0.71   -51.70
    3900  0.70   -52.70   0.69   39.80    0.69   39.80    0.70   -52.70
    3950  0.70   -53.80   0.69   38.80    0.69   38.80    0.70   -53.80
    4000  0.69   -54.50   0.70   38.30    0.70   38.30    0.69   -54.50
    4050  0.68   -55.30   0.71   37.80    0.71   37.80    0.68   -55.30
    4100  0.67   -56.00   0.71   37.20    0.71   37.20    0.67   -56.00
    4150  0.66   -56.70   0.72   36.60    0.72   36.60    0.66   -56.70
    4200  0.66   -57.70   0.73   36.00    0.73   36.00    0.66   -57.70
    4250  0.65   -58.80   0.74   35.30    0.74   35.30    0.65   -58.80
    4300  0.64   -59.60   0.75   34.80    0.75   34.80    0.64   -59.60
    4350  0.63   -60.40   0.75   34.30    0.75   34.30    0.63   -60.40
    4400  0.62   -61.40   0.76   33.50    0.76   33.50    0.62   -61.40
    4450  0.62   -62.40   0.77   32.60    0.77   32.60    0.62   -62.40
    4500  0.61   -62.80   0.77   32.10    0.77   32.10    0.61   -62.80
    4550  0.60   -63.20   0.77   31.50    0.77   31.50    0.60   -63.20
    4600  0.59   -64.50   0.79   30.50    0.79   30.50    0.59   -64.50
    4650  0.59   -65.80   0.80   29.60    0.80   29.60    0.59   -65.80
    4700  0.58   -66.60   0.80   28.90    0.80   28.90    0.58   -66.60
    4750  0.56   -67.40   0.80   28.20    0.80   28.20    0.56   -67.40
    4800  0.55   -68.30   0.81   27.30    0.81   27.30    0.55   -68.30
    4850  0.54   -69.20   0.81   26.50    0.81   26.50    0.54   -69.20
    4900  0.54   -69.80   0.82   25.80    0.82   25.80    0.54   -69.80
    4950  0.53   -70.40   0.83   25.10    0.83   25.10    0.53   -70.40
    5000  0.52   -71.60   0.83   24.00    0.83   24.00    0.52   -71.60
    5050  0.50   -72.80   0.83   22.80    0.83   22.80    0.50   -72.80
    5100  0.49   -73.10   0.84   22.10    0.84   22.10    0.49   -73.10
    5150  0.47   -73.50   0.84   21.40    0.84   21.40    0.47   -73.50
    5200  0.46   -74.00   0.85   20.60    0.85   20.60    0.46   -74.00
    5250  0.45   -74.50   0.86   19.90    0.86   19.90    0.45   -74.50
    5300  0.44   -75.50   0.87   18.40    0.87   18.40    0.44   -75.50
    5350  0.43   -76.60   0.87   16.80    0.87   16.80    0.43   -76.60
    5400  0.40   -77.00   0.88   15.50    0.88   15.50    0.40   -77.00
    5450  0.38   -77.50   0.88   14.30    0.88   14.30    0.38   -77.50
    5500  0.36   -78.00   0.88   12.60    0.88   12.60    0.36   -78.00
    5550  0.34   -78.50   0.89   11.00    0.89   11.00    0.34   -78.50
    5600  0.30   -78.10   0.89    8.90    0.89    8.90    0.30   -78.10
    5650  0.27   -77.70   0.89    6.70    0.89    6.70    0.27   -77.70
    5700  0.23   -74.70   0.89    3.90    0.89    3.90    0.23   -74.70
    5750  0.19   -71.70   0.89    1.10    0.89    1.10    0.19   -71.70
    5800  0.17   -51.00   0.87   -2.80    0.87   -2.80    0.17   -51.00
    5850  0.14   -30.30   0.85   -6.70    0.85   -6.70    0.14   -30.30
    5900  0.20   -10.30   0.80   -11.90   0.80   -11.90   0.20   -10.30
    5950  0.26    9.70    0.74   -17.00   0.74   -17.00   0.26    9.70
    6000  0.38    5.90    0.63   -21.30   0.63   -21.30   0.38    5.90
    6050  0.51    2.10    0.53   -25.60   0.53   -25.60   0.51    2.10
    6100  0.60   -6.80    0.42   -15.50   0.42   -15.50   0.60   -6.80
    6150  0.69   -15.70   0.30   -5.40    0.30   -5.40    0.69   -15.70
    6200  0.72   -23.10   0.34   11.40    0.34   11.40    0.72   -23.10
    6250  0.75   -30.50   0.37   28.30    0.37   28.30    0.75   -30.50
    6300  0.74   -35.70   0.43   31.40    0.43   31.40    0.74   -35.70
    6350  0.74   -41.00   0.50   34.50    0.50   34.50    0.74   -41.00
    6400  0.72   -44.00   0.54   33.90    0.54   33.90    0.72   -44.00
    6450  0.70   -46.90   0.59   33.20    0.59   33.20    0.70   -46.90
    6500  0.69   -48.90   0.62   32.10    0.62   32.10    0.69   -48.90
    6550  0.68   -50.90   0.65   31.00    0.65   31.00    0.68   -50.90
    6600  0.66   -52.00   0.67   29.90    0.67   29.90    0.66   -52.00
    6650  0.65   -53.10   0.70   28.80    0.70   28.80    0.65   -53.10
    6700  0.63   -53.80   0.71   28.10    0.71   28.10    0.63   -53.80
    6750  0.62   -54.50   0.73   27.30    0.73   27.30    0.62   -54.50
    6800  0.61   -55.00   0.74   26.50    0.74   26.50    0.61   -55.00
    6850  0.60   -55.60   0.76   25.60    0.76   25.60    0.60   -55.60
    6900  0.59   -56.30   0.77   24.80    0.77   24.80    0.59   -56.30
    6950  0.58   -57.00   0.77   23.90    0.77   23.90    0.58   -57.00
    7000  0.57   -57.50   0.78   23.20    0.78   23.20    0.57   -57.50
    7050  0.56   -57.90   0.79   22.50    0.79   22.50    0.56   -57.90
    7100  0.55   -58.10   0.80   21.90    0.80   21.90    0.55   -58.10
    7150  0.54   -58.30   0.80   21.30    0.80   21.30    0.54   -58.30
    7200  0.52   -59.20   0.81   20.80    0.81   20.80    0.52   -59.20
    7250  0.51   -60.20   0.82   20.20    0.82   20.20    0.51   -60.20
    7300  0.51   -60.70   0.83   19.60    0.83   19.60    0.51   -60.70
    7350  0.50   -61.30   0.84   18.90    0.84   18.90    0.50   -61.30
    7400  0.50   -62.30   0.84   18.40    0.84   18.40    0.50   -62.30
    7450  0.49   -63.30   0.84   17.80    0.84   17.80    0.49   -63.30
    7500  0.48   -64.20   0.85   17.20    0.85   17.20    0.48   -64.20
    7550  0.47   -65.10   0.86   16.60    0.86   16.60    0.47   -65.10
    7600  0.46   -65.80   0.86   16.00    0.86   16.00    0.46   -65.80
    7650  0.46   -66.50   0.86   15.50    0.86   15.50    0.46   -66.50
    7700  0.45   -67.50   0.87   15.00    0.87   15.00    0.45   -67.50
    7750  0.44   -68.50   0.87   14.60    0.87   14.60    0.44   -68.50
    7800  0.43   -68.80   0.88   14.10    0.88   14.10    0.43   -68.80
    7850  0.42   -69.00   0.88   13.50    0.88   13.50    0.42   -69.00
    7900  0.41   -70.50   0.88   13.00    0.88   13.00    0.41   -70.50
    7950  0.41   -72.00   0.89   12.40    0.89   12.40    0.41   -72.00
    8000  0.39   -72.30   0.89   11.80    0.89   11.80    0.39   -72.30
    8050  0.38   -72.60   0.90   11.20    0.90   11.20    0.38   -72.60
    8100  0.37   -73.50   0.90   10.90    0.90   10.90    0.37   -73.50
    8150  0.37   -74.30   0.90   10.60    0.90   10.60    0.37   -74.30
    8200  0.36   -74.70   0.90    9.90    0.90    9.90    0.36   -74.70
    8250  0.34   -75.10   0.91    9.20    0.91    9.20    0.34   -75.10
    8300  0.34   -75.40   0.91    8.70    0.91    8.70    0.34   -75.40
    8350  0.33   -75.70   0.92    8.20    0.92    8.20    0.33   -75.70
    8400  0.32   -75.80   0.92    7.50    0.92    7.50    0.32   -75.80
    8450  0.31   -75.90   0.91    6.80    0.91    6.80    0.31   -75.90
    8500  0.30   -74.60   0.92    6.60    0.92    6.60    0.30   -74.60
    8550  0.30   -73.20   0.92    6.40    0.92    6.40    0.30   -73.20
    8600  0.30   -73.10   0.92    5.90    0.92    5.90    0.30   -73.10
    8650  0.29   -73.00   0.93    5.40    0.93    5.40    0.29   -73.00
    8700  0.29   -73.20   0.93    4.80    0.93    4.80    0.29   -73.20
    8750  0.29   -73.40   0.93    4.30    0.93    4.30    0.29   -73.40
    8800  0.28   -73.20   0.93    4.00    0.93    4.00    0.28   -73.20
    8850  0.28   -73.10   0.93    3.80    0.93    3.80    0.28   -73.10
    8900  0.27   -72.90   0.94    3.10    0.94    3.10    0.27   -72.90
    8950  0.26   -72.60   0.94    2.40    0.94    2.40    0.26   -72.60
    9000  0.26   -72.90   0.94    2.00    0.94    2.00    0.26   -72.90
    9050  0.25   -73.20   0.94    1.50    0.94    1.50    0.25   -73.20
    9100  0.25   -73.30   0.94    1.10    0.94    1.10    0.25   -73.30
    9150  0.24   -73.40   0.94    0.60    0.94    0.60    0.24   -73.40
    9200  0.24   -74.30   0.94    0.20    0.94    0.20    0.24   -74.30
    9250  0.23   -75.20   0.95   -0.10    0.95   -0.10    0.23   -75.20
    9300  0.22   -74.90   0.95   -0.70    0.95   -0.70    0.22   -74.90
    9350  0.21   -74.60   0.95   -1.20    0.95   -1.20    0.21   -74.60
    9400  0.21   -74.30   0.95   -1.50    0.95   -1.50    0.21   -74.30
    9450  0.20   -74.00   0.95   -1.90    0.95   -1.90    0.20   -74.00
    9500  0.19   -73.80   0.95   -2.50    0.95   -2.50    0.19   -73.80
    9550  0.18   -73.50   0.95   -3.20    0.95   -3.20    0.18   -73.50
    9600  0.17   -72.80   0.96   -3.80    0.96   -3.80    0.17   -72.80
    9650  0.16   -72.00   0.96   -4.40    0.96   -4.40    0.16   -72.00
    9700  0.15   -70.80   0.96   -4.90    0.96   -4.90    0.15   -70.80
    9750  0.14   -69.60   0.96   -5.40    0.96   -5.40    0.14   -69.60
    9800  0.13   -68.20   0.96   -6.00    0.96   -6.00    0.13   -68.20
    9850  0.12   -66.90   0.96   -6.60    0.96   -6.60    0.12   -66.90
    9900  0.11   -61.00   0.96   -7.20    0.96   -7.20    0.11   -61.00
    9950  0.10   -55.10   0.96   -7.80    0.96   -7.80    0.10   -55.10
   10000  0.09   -53.40   0.96   -8.50    0.96   -8.50    0.09   -53.40
   10050  0.08   -51.60   0.96   -9.20    0.96   -9.20    0.08   -51.60
   10100  0.07   -35.50   0.96   -9.80    0.96   -9.80    0.07   -35.50
   10150  0.06   -19.30   0.95   -10.50   0.95   -10.50   0.06   -19.30
   10200  0.07   -12.70   0.95   -11.40   0.95   -11.40   0.07   -12.70
   10250  0.07   -6.20    0.95   -12.30   0.95   -12.30   0.07   -6.20
   10300  0.08    7.20    0.94   -13.30   0.94   -13.30   0.08    7.20
   10350  0.09   20.50    0.93   -14.30   0.93   -14.30   0.09   20.50
   10400  0.11   21.70    0.93   -15.40   0.93   -15.40   0.11   21.70
   10450  0.13   22.90    0.92   -16.60   0.92   -16.60   0.13   22.90
   10500  0.15   24.10    0.91   -18.00   0.91   -18.00   0.15   24.10
   10550  0.17   25.20    0.89   -19.30   0.89   -19.30   0.17   25.20
   10600  0.21   24.50    0.87   -20.70   0.87   -20.70   0.21   24.50
   10650  0.24   23.80    0.85   -22.10   0.85   -22.10   0.24   23.80
   10700  0.28   19.10    0.81   -23.60   0.81   -23.60   0.28   19.10
   10750  0.31   14.40    0.77   -25.00   0.77   -25.00   0.31   14.40
   10800  0.35    9.20    0.71   -24.70   0.71   -24.70   0.35    9.20
   10850  0.39    4.00    0.65   -24.40   0.65   -24.40   0.39    4.00
   10900  0.43   -5.70    0.60   -19.90   0.60   -19.90   0.43   -5.70
   10950  0.46   -15.30   0.55   -15.40   0.55   -15.40   0.46   -15.30
   11000  0.45   -24.80   0.55   -7.90    0.55   -7.90    0.45   -24.80
   11050  0.45   -34.30   0.56   -0.30    0.56   -0.30    0.45   -34.30
   11100  0.44   -42.30   0.61    3.00    0.61    3.00    0.44   -42.30
   11150  0.44   -50.30   0.67    6.40    0.67    6.40    0.44   -50.30
   11200  0.41   -56.40   0.71    6.30    0.71    6.30    0.41   -56.40
   11250  0.38   -62.40   0.76    6.10    0.76    6.10    0.38   -62.40
   11300  0.35   -66.30   0.79    5.00    0.79    5.00    0.35   -66.30
   11350  0.33   -70.30   0.82    3.90    0.82    3.90    0.33   -70.30
   11400  0.31   -72.50   0.85    3.00    0.85    3.00    0.31   -72.50
   11450  0.30   -74.60   0.87    2.20    0.87    2.20    0.30   -74.60
   11500  0.28   -77.10   0.88    1.00    0.88    1.00    0.28   -77.10
   11550  0.25   -79.50   0.89   -0.20    0.89   -0.20    0.25   -79.50
   11600  0.24   -81.40   0.90   -1.10    0.90   -1.10    0.24   -81.40
   11650  0.23   -83.40   0.92   -1.90    0.92   -1.90    0.23   -83.40
   11700  0.22   -84.60   0.92   -2.80    0.92   -2.80    0.22   -84.60
   11750  0.20   -85.80   0.93   -3.60    0.93   -3.60    0.20   -85.80
   11800  0.19   -88.10   0.93   -4.30    0.93   -4.30    0.19   -88.10
   11850  0.18   -90.50   0.94   -4.90    0.94   -4.90    0.18   -90.50
   11900  0.16   -93.00   0.94   -5.60    0.94   -5.60    0.16   -93.00
   11950  0.15   -95.50   0.94   -6.20    0.94   -6.20    0.15   -95.50
   12000  0.15   -98.70   0.94   -7.00    0.94   -7.00    0.15   -98.70
   12050  0.15  -101.80   0.95   -7.80    0.95   -7.80    0.15  -101.80
   12100  0.14  -104.30   0.95   -8.40    0.95   -8.40    0.14  -104.30
   12150  0.13  -106.80   0.95   -8.90    0.95   -8.90    0.13  -106.80
   12200  0.13  -108.30   0.95   -9.40    0.95   -9.40    0.13  -108.30
   12250  0.13  -109.90   0.95   -9.90    0.95   -9.90    0.13  -109.90
   12300  0.12  -112.30   0.95   -10.50   0.95   -10.50   0.12  -112.30
   12350  0.12  -114.70   0.95   -11.00   0.95   -11.00   0.12  -114.70
   12400  0.12  -114.70   0.95   -11.30   0.95   -11.30   0.12  -114.70
   12450  0.11  -114.80   0.95   -11.70   0.95   -11.70   0.11  -114.80
   12500  0.11  -115.60   0.95   -12.10   0.95   -12.10   0.11  -115.60
   12550  0.10  -116.30   0.95   -12.50   0.95   -12.50   0.10  -116.30
   12600  0.10  -116.80   0.95   -12.80   0.95   -12.80   0.10  -116.80
   12650  0.09  -117.30   0.95   -13.10   0.95   -13.10   0.09  -117.30
   12700  0.09  -114.70   0.95   -13.40   0.95   -13.40   0.09  -114.70
   12750  0.09  -112.10   0.95   -13.80   0.95   -13.80   0.09  -112.10
   12800  0.08  -112.30   0.95   -14.20   0.95   -14.20   0.08  -112.30
   12850  0.08  -112.40   0.95   -14.60   0.95   -14.60   0.08  -112.40
   12900  0.07  -109.30   0.95   -14.90   0.95   -14.90   0.07  -109.30
   12950  0.06  -106.20   0.95   -15.20   0.95   -15.20   0.06  -106.20
   13000  0.06  -106.30   0.95   -15.50   0.95   -15.50   0.06  -106.30
   13050  0.06  -106.50   0.96   -15.90   0.96   -15.90   0.06  -106.50
   13100  0.05  -103.60   0.95   -16.20   0.95   -16.20   0.05  -103.60
   13150  0.05  -100.70   0.95   -16.60   0.95   -16.60   0.05  -100.70
   13200  0.04  -100.20   0.95   -16.70   0.95   -16.70   0.04  -100.20
   13250  0.02   -99.70   0.95   -16.80   0.95   -16.80   0.02   -99.70
   13300  0.02   -93.80   0.95   -17.30   0.95   -17.30   0.02   -93.80
   13350  0.02   -87.90   0.95   -17.90   0.95   -17.90   0.02   -87.90
   13400  0.01   -23.30   0.95   -18.30   0.95   -18.30   0.01   -23.30
   13450  0.01   41.30    0.95   -18.70   0.95   -18.70   0.01   41.30
   13500  0.01   40.90    0.95   -19.10   0.95   -19.10   0.01   40.90
   13550  0.01   40.40    0.96   -19.50   0.96   -19.50   0.01   40.40
   13600  0.02   61.00    0.96   -20.00   0.96   -20.00   0.02   61.00
   13650  0.03   81.60    0.96   -20.60   0.96   -20.60   0.03   81.60
   13700  0.04   70.20    0.96   -21.10   0.96   -21.10   0.04   70.20
   13750  0.04   58.70    0.96   -21.50   0.96   -21.50   0.04   58.70
   13800  0.05   60.00    0.95   -21.90   0.95   -21.90   0.05   60.00
   13850  0.05   61.30    0.95   -22.20   0.95   -22.20   0.05   61.30
   13900  0.07   54.40    0.96   -22.60   0.96   -22.60   0.07   54.40
