#	mhz	s	ma	r	50

50	0.95	174.90	0.08	77.60	0.08	77.60	0.95	174.90
100	0.96	170.10	0.16	75.00	0.16	75.00	0.96	170.10
150	0.96	165.30	0.23	72.50	0.23	72.50	0.96	165.30
200	0.94	161.20	0.30	68.90	0.30	68.90	0.94	161.20
250	0.91	157.20	0.37	65.40	0.37	65.40	0.91	157.20
300	0.89	153.00	0.43	61.30	0.43	61.30	0.89	153.00
350	0.86	148.80	0.48	57.20	0.48	57.20	0.86	148.80
400	0.82	145.50	0.53	54.10	0.53	54.10	0.82	145.50
450	0.79	142.20	0.58	50.90	0.58	50.90	0.79	142.20
500	0.75	136.70	0.64	46.60	0.64	46.60	0.75	136.70
550	0.71	131.30	0.70	42.20	0.70	42.20	0.71	131.30
600	0.68	128.80	0.72	39.50	0.72	39.50	0.68	128.80
650	0.65	126.30	0.75	36.80	0.75	36.80	0.65	126.30
700	0.62	123.50	0.77	34.50	0.77	34.50	0.62	123.50
750	0.59	120.60	0.80	32.20	0.80	32.20	0.59	120.60
800	0.57	118.80	0.81	30.00	0.81	30.00	0.57	118.80
850	0.55	116.90	0.83	27.80	0.83	27.80	0.55	116.90
900	0.52	114.80	0.84	25.90	0.84	25.90	0.52	114.80
950	0.50	112.70	0.86	24.00	0.86	24.00	0.50	112.70
1000	0.47	111.00	0.87	22.30	0.87	22.30	0.47	111.00
1050	0.45	109.30	0.88	20.50	0.88	20.50	0.45	109.30
1100	0.44	107.20	0.89	19.00	0.89	19.00	0.44	107.20
1150	0.42	105.20	0.90	17.50	0.90	17.50	0.42	105.20
1200	0.40	103.70	0.91	16.10	0.91	16.10	0.40	103.70
1250	0.39	102.30	0.91	14.60	0.91	14.60	0.39	102.30
1300	0.37	100.60	0.92	13.40	0.92	13.40	0.37	100.60
1350	0.36	98.90	0.93	12.10	0.93	12.10	0.36	98.90
1400	0.35	97.80	0.93	10.90	0.93	10.90	0.35	97.80
1450	0.33	96.70	0.94	9.70	0.94	9.70	0.33	96.70
1500	0.32	95.20	0.94	8.50	0.94	8.50	0.32	95.20
1550	0.31	93.60	0.94	7.40	0.94	7.40	0.31	93.60
1600	0.30	92.10	0.95	6.30	0.95	6.30	0.30	92.10
1650	0.29	90.60	0.95	5.20	0.95	5.20	0.29	90.60
1700	0.28	89.50	0.95	4.10	0.95	4.10	0.28	89.50
1750	0.27	88.40	0.96	3.10	0.96	3.10	0.27	88.40
1800	0.26	87.10	0.96	2.20	0.96	2.20	0.26	87.10
1850	0.25	85.80	0.96	1.40	0.96	1.40	0.25	85.80
1900	0.24	84.60	0.97	0.50	0.97	0.50	0.24	84.60
1950	0.23	83.30	0.97	-0.40	0.97	-0.40	0.23	83.30
2000	0.22	82.00	0.97	-1.40	0.97	-1.40	0.22	82.00
2050	0.22	80.60	0.97	-2.40	0.97	-2.40	0.22	80.60
2100	0.21	79.40	0.97	-3.20	0.97	-3.20	0.21	79.40
2150	0.20	78.20	0.98	-4.00	0.98	-4.00	0.20	78.20
2200	0.19	77.00	0.98	-4.90	0.98	-4.90	0.19	77.00
2250	0.19	75.90	0.98	-5.80	0.98	-5.80	0.19	75.90
2300	0.18	74.80	0.98	-6.50	0.98	-6.50	0.18	74.80
2350	0.17	73.80	0.98	-7.20	0.98	-7.20	0.17	73.80
2400	0.16	73.10	0.98	-8.00	0.98	-8.00	0.16	73.10
2450	0.16	72.30	0.98	-8.90	0.98	-8.90	0.16	72.30
2500	0.15	71.40	0.98	-9.70	0.98	-9.70	0.15	71.40
2550	0.14	70.40	0.98	-10.60	0.98	-10.60	0.14	70.40
2600	0.14	69.90	0.99	-11.20	0.99	-11.20	0.14	69.90
2650	0.13	69.40	0.99	-11.90	0.99	-11.90	0.13	69.40
2700	0.12	68.80	0.99	-12.70	0.99	-12.70	0.12	68.80
2750	0.12	68.20	0.99	-13.40	0.99	-13.40	0.12	68.20
2800	0.11	67.70	0.99	-14.10	0.99	-14.10	0.11	67.70
2850	0.10	67.20	0.99	-14.70	0.99	-14.70	0.10	67.20
2900	0.10	67.50	0.99	-15.60	0.99	-15.60	0.10	67.50
2950	0.09	67.90	0.99	-16.60	0.99	-16.60	0.09	67.90
3000	0.09	67.30	0.99	-17.20	0.99	-17.20	0.09	67.30
3050	0.08	66.70	0.99	-17.80	0.99	-17.80	0.08	66.70
3100	0.07	67.80	0.99	-18.70	0.99	-18.70	0.07	67.80
3150	0.07	69.00	0.99	-19.50	0.99	-19.50	0.07	69.00
3200	0.06	67.70	0.99	-20.00	0.99	-20.00	0.06	67.70
3250	0.06	66.50	0.99	-20.50	0.99	-20.50	0.06	66.50
3300	0.05	69.80	0.99	-21.30	0.99	-21.30	0.05	69.80
3350	0.05	73.00	0.99	-22.10	0.99	-22.10	0.05	73.00
3400	0.05	72.70	0.99	-22.70	0.99	-22.70	0.05	72.70
3450	0.04	72.50	0.99	-23.30	0.99	-23.30	0.04	72.50
3500	0.04	74.90	0.99	-23.90	0.99	-23.90	0.04	74.90
3550	0.04	77.40	0.99	-24.60	0.99	-24.60	0.04	77.40
3600	0.03	80.30	0.99	-25.20	0.99	-25.20	0.03	80.30
3650	0.03	83.20	1.00	-25.80	1.00	-25.80	0.03	83.20
3700	0.03	81.00	1.00	-26.50	1.00	-26.50	0.03	81.00
3750	0.02	78.80	1.00	-27.30	1.00	-27.30	0.02	78.80
3800	0.02	79.70	0.99	-27.80	0.99	-27.80	0.02	79.70
3850	0.02	80.70	0.99	-28.30	0.99	-28.30	0.02	80.70
3900	0.02	80.70	0.99	-29.10	0.99	-29.10	0.02	80.70
3950	0.01	80.80	1.00	-29.90	1.00	-29.90	0.01	80.80
4000	0.01	75.90	1.00	-30.50	1.00	-30.50	0.01	75.90
4050	0.01	71.00	1.00	-31.00	1.00	-31.00	0.01	71.00
4100	0.00	40.70	1.00	-31.70	1.00	-31.70	0.00	40.70
4150	0.00	10.40	1.00	-32.30	1.00	-32.30	0.00	10.40
4200	0.01	-32.10	1.00	-33.00	1.00	-33.00	0.01	-32.10
4250	0.01	-74.60	1.00	-33.60	1.00	-33.60	0.01	-74.60
4300	0.01	-76.30	1.00	-34.10	1.00	-34.10	0.01	-76.30
4350	0.01	-78.10	0.99	-34.60	0.99	-34.60	0.01	-78.10
4400	0.02	-86.60	1.00	-35.30	1.00	-35.30	0.02	-86.60
4450	0.02	-95.10	1.00	-36.00	1.00	-36.00	0.02	-95.10
4500	0.03	-93.30	1.00	-36.80	1.00	-36.80	0.03	-93.30
4550	0.03	-91.40	0.99	-37.50	0.99	-37.50	0.03	-91.40
4600	0.04	-96.20	1.00	-38.20	1.00	-38.20	0.04	-96.20
4650	0.04	-101.00	1.00	-39.00	1.00	-39.00	0.04	-101.00
4700	0.05	-102.10	0.99	-39.60	0.99	-39.60	0.05	-102.10
4750	0.05	-103.10	0.99	-40.10	0.99	-40.10	0.05	-103.10
4800	0.06	-105.50	0.99	-40.70	0.99	-40.70	0.06	-105.50
4850	0.06	-107.90	0.99	-41.40	0.99	-41.40	0.06	-107.90
4900	0.07	-109.90	0.99	-42.00	0.99	-42.00	0.07	-109.90
4950	0.07	-111.80	0.99	-42.60	0.99	-42.60	0.07	-111.80
5000	0.08	-114.70	0.99	-43.30	0.99	-43.30	0.08	-114.70
5050	0.08	-117.60	0.99	-44.00	0.99	-44.00	0.08	-117.60
5100	0.09	-119.00	0.99	-44.60	0.99	-44.60	0.09	-119.00
5150	0.09	-120.50	0.99	-45.10	0.99	-45.10	0.09	-120.50
5200	0.09	-123.60	0.99	-45.60	0.99	-45.60	0.09	-123.60
5250	0.10	-126.70	0.99	-46.00	0.99	-46.00	0.10	-126.70
5300	0.10	-128.60	0.99	-46.80	0.99	-46.80	0.10	-128.60
5350	0.11	-130.60	0.99	-47.60	0.99	-47.60	0.11	-130.60
5400	0.12	-131.90	0.98	-48.20	0.98	-48.20	0.12	-131.90
5450	0.12	-133.30	0.98	-48.80	0.98	-48.80	0.12	-133.30
5500	0.13	-135.50	0.98	-49.40	0.98	-49.40	0.13	-135.50
5550	0.13	-137.70	0.98	-50.00	0.98	-50.00	0.13	-137.70
5600	0.13	-138.70	0.98	-50.60	0.98	-50.60	0.13	-138.70
5650	0.14	-139.70	0.98	-51.20	0.98	-51.20	0.14	-139.70
5700	0.14	-142.00	0.98	-51.80	0.98	-51.80	0.14	-142.00
5750	0.15	-144.30	0.98	-52.40	0.98	-52.40	0.15	-144.30
5800	0.15	-144.70	0.98	-53.00	0.98	-53.00	0.15	-144.70
5850	0.16	-145.10	0.98	-53.60	0.98	-53.60	0.16	-145.10
5900	0.16	-146.80	0.98	-54.10	0.98	-54.10	0.16	-146.80
5950	0.17	-148.50	0.98	-54.60	0.98	-54.60	0.17	-148.50
6000	0.18	-147.80	0.98	-55.30	0.98	-55.30	0.18	-147.80
6050	0.20	-147.10	0.97	-56.10	0.97	-56.10	0.20	-147.10
6100	0.20	-148.40	0.97	-56.50	0.97	-56.50	0.20	-148.40
6150	0.20	-149.70	0.97	-56.90	0.97	-56.90	0.20	-149.70
6200	0.21	-151.60	0.97	-57.50	0.97	-57.50	0.21	-151.60
6250	0.21	-153.40	0.97	-58.10	0.97	-58.10	0.21	-153.40
6300	0.22	-154.30	0.97	-58.60	0.97	-58.60	0.22	-154.30
6350	0.22	-155.20	0.96	-59.10	0.96	-59.10	0.22	-155.20
6400	0.23	-155.90	0.96	-59.70	0.96	-59.70	0.23	-155.90
6450	0.23	-156.60	0.96	-60.20	0.96	-60.20	0.23	-156.60
6500	0.23	-157.40	0.96	-60.80	0.96	-60.80	0.23	-157.40
6550	0.23	-158.20	0.96	-61.30	0.96	-61.30	0.23	-158.20
6600	0.24	-159.40	0.96	-61.90	0.96	-61.90	0.24	-159.40
6650	0.24	-160.50	0.96	-62.40	0.96	-62.40	0.24	-160.50
6700	0.24	-161.40	0.96	-62.80	0.96	-62.80	0.24	-161.40
6750	0.24	-162.30	0.96	-63.10	0.96	-63.10	0.24	-162.30
6800	0.25	-163.70	0.96	-63.70	0.96	-63.70	0.25	-163.70
6850	0.25	-165.10	0.96	-64.40	0.96	-64.40	0.25	-165.10
6900	0.25	-165.90	0.96	-64.90	0.96	-64.90	0.25	-165.90
6950	0.24	-166.70	0.96	-65.40	0.96	-65.40	0.24	-166.70
7000	0.25	-168.60	0.96	-66.00	0.96	-66.00	0.25	-168.60
7050	0.25	-170.50	0.96	-66.70	0.96	-66.70	0.25	-170.50
7100	0.25	-171.60	0.96	-67.10	0.96	-67.10	0.25	-171.60
7150	0.25	-172.70	0.96	-67.60	0.96	-67.60	0.25	-172.70
7200	0.25	-173.60	0.96	-68.20	0.96	-68.20	0.25	-173.60
7250	0.26	-174.50	0.96	-68.90	0.96	-68.90	0.26	-174.50
7300	0.26	-175.90	0.96	-69.50	0.96	-69.50	0.26	-175.90
7350	0.25	-177.20	0.96	-70.10	0.96	-70.10	0.25	-177.20
7400	0.26	-177.40	0.96	-70.60	0.96	-70.60	0.26	-177.40
7450	0.26	-177.60	0.96	-71.20	0.96	-71.20	0.26	-177.60
7500	0.26	1.10	0.96	-71.90	0.96	-71.90	0.26	1.10
7550	0.26	179.80	0.96	-72.60	0.96	-72.60	0.26	179.80
7600	0.26	0.00	0.96	-73.10	0.96	-73.10	0.26	0.00
7650	0.25	-179.90	0.96	-73.60	0.96	-73.60	0.25	-179.90
7700	0.25	-0.30	0.96	-74.30	0.96	-74.30	0.25	-0.30
7750	0.25	179.30	0.96	-74.90	0.96	-74.90	0.25	179.30
7800	0.25	178.20	0.96	-75.60	0.96	-75.60	0.25	178.20
7850	0.25	177.10	0.96	-76.30	0.96	-76.30	0.25	177.10
7900	0.25	177.50	0.96	-76.90	0.96	-76.90	0.25	177.50
7950	0.25	178.00	0.96	-77.50	0.96	-77.50	0.25	178.00
8000	0.25	176.80	0.96	-78.20	0.96	-78.20	0.25	176.80
8050	0.25	175.70	0.96	-78.90	0.96	-78.90	0.25	175.70
8100	0.24	175.80	0.96	-79.60	0.96	-79.60	0.24	175.80
8150	0.24	175.80	0.96	-80.30	0.96	-80.30	0.24	175.80
8200	0.25	175.40	0.96	-81.00	0.96	-81.00	0.25	175.40
8250	0.25	174.90	0.95	-81.70	0.95	-81.70	0.25	174.90
8300	0.25	175.10	0.95	-82.40	0.95	-82.40	0.25	175.10
8350	0.25	175.30	0.96	-83.20	0.96	-83.20	0.25	175.30
8400	0.25	175.00	0.95	-83.90	0.95	-83.90	0.25	175.00
8450	0.26	174.70	0.95	-84.70	0.95	-84.70	0.26	174.70
8500	0.26	175.10	0.95	-85.50	0.95	-85.50	0.26	175.10
8550	0.26	175.50	0.95	-86.30	0.95	-86.30	0.26	175.50
8600	0.26	174.80	0.95	-87.10	0.95	-87.10	0.26	174.80
8650	0.27	174.10	0.95	-87.90	0.95	-87.90	0.27	174.10
8700	0.27	174.20	0.94	-88.80	0.94	-88.80	0.27	174.20
8750	0.28	174.40	0.94	-89.60	0.94	-89.60	0.28	174.40
8800	0.28	173.40	0.94	-90.10	0.94	-90.10	0.28	173.40
8850	0.28	172.50	0.94	-90.50	0.94	-90.50	0.28	172.50
8900	0.29	172.00	0.94	-91.60	0.94	-91.60	0.29	172.00
8950	0.29	171.50	0.93	-92.60	0.93	-92.60	0.29	171.50
9000	0.30	171.30	0.93	-93.40	0.93	-93.40	0.30	171.30
9050	0.31	171.20	0.93	-94.10	0.93	-94.10	0.31	171.20
9100	0.32	170.60	0.93	-94.90	0.93	-94.90	0.32	170.60
9150	0.32	170.00	0.93	-95.70	0.93	-95.70	0.32	170.00
9200	0.33	169.30	0.92	-96.80	0.92	-96.80	0.33	169.30
9250	0.34	168.60	0.92	-98.00	0.92	-98.00	0.34	168.60
9300	0.34	168.70	0.92	-98.60	0.92	-98.60	0.34	168.70
9350	0.35	168.80	0.91	-99.20	0.91	-99.20	0.35	168.80
9400	0.35	168.60	0.91	-100.10	0.91	-100.10	0.35	168.60
9450	0.36	168.40	0.90	-101.00	0.90	-101.00	0.36	168.40
9500	0.37	168.00	0.90	-102.00	0.90	-102.00	0.37	168.00
9550	0.37	167.60	0.89	-103.00	0.89	-103.00	0.37	167.60
9600	0.38	167.20	0.89	-103.90	0.89	-103.90	0.38	167.20
9650	0.39	166.80	0.89	-104.80	0.89	-104.80	0.39	166.80
9700	0.40	166.60	0.88	-105.70	0.88	-105.70	0.40	166.60
9750	0.41	166.30	0.87	-106.60	0.87	-106.60	0.41	166.30
9800	0.41	166.40	0.86	-107.50	0.86	-107.50	0.41	166.40
9850	0.42	166.50	0.86	-108.30	0.86	-108.30	0.42	166.50
9900	0.43	166.20	0.85	-109.10	0.85	-109.10	0.43	166.20
9950	0.44	165.90	0.85	-109.80	0.85	-109.80	0.44	165.90
10000	0.46	165.10	0.84	-111.00	0.84	-111.00	0.46	165.10
10050	0.47	164.30	0.83	-112.20	0.83	-112.20	0.47	164.30
10100	0.48	164.20	0.82	-112.80	0.82	-112.80	0.48	164.20
10150	0.50	164.10	0.81	-113.40	0.81	-113.40	0.50	164.10
10200	0.51	163.30	0.81	-114.60	0.81	-114.60	0.51	163.30
10250	0.52	162.50	0.80	-115.80	0.80	-115.80	0.52	162.50
10300	0.54	161.30	0.79	-116.90	0.79	-116.90	0.54	161.30
10350	0.56	160.00	0.77	-118.00	0.77	-118.00	0.56	160.00
10400	0.56	158.90	0.76	-118.90	0.76	-118.90	0.56	158.90
10450	0.56	157.80	0.75	-119.90	0.75	-119.90	0.56	157.80
10500	0.58	156.60	0.74	-121.00	0.74	-121.00	0.58	156.60
10550	0.60	155.30	0.74	-122.10	0.74	-122.10	0.60	155.30
10600	0.60	152.90	0.72	-122.50	0.72	-122.50	0.60	152.90
10650	0.60	150.50	0.71	-123.00	0.71	-123.00	0.60	150.50
10700	0.61	150.10	0.70	-124.00	0.70	-124.00	0.61	150.10
10750	0.63	149.60	0.70	-125.00	0.70	-125.00	0.63	149.60
10800	0.64	148.50	0.69	-125.70	0.69	-125.70	0.64	148.50
10850	0.65	147.40	0.68	-126.30	0.68	-126.30	0.65	147.40
10900	0.66	145.20	0.67	-127.60	0.67	-127.60	0.66	145.20
10950	0.66	143.00	0.65	-128.90	0.65	-128.90	0.66	143.00
11000	0.68	142.10	0.65	-129.90	0.65	-129.90	0.68	142.10
11050	0.70	141.20	0.65	-131.00	0.65	-131.00	0.70	141.20
11100	0.71	138.80	0.63	-132.20	0.63	-132.20	0.71	138.80
11150	0.72	136.30	0.61	-133.40	0.61	-133.40	0.72	136.30
11200	0.73	134.70	0.60	-134.40	0.60	-134.40	0.73	134.70
11250	0.74	133.20	0.59	-135.40	0.59	-135.40	0.74	133.20
11300	0.75	131.40	0.58	-136.40	0.58	-136.40	0.75	131.40
11350	0.77	129.50	0.56	-137.30	0.56	-137.30	0.77	129.50
11400	0.77	127.40	0.55	-138.80	0.55	-138.80	0.77	127.40
11450	0.78	125.20	0.53	-140.40	0.53	-140.40	0.78	125.20
11500	0.79	123.30	0.51	-141.10	0.51	-141.10	0.79	123.30
11550	0.80	121.50	0.50	-141.90	0.50	-141.90	0.80	121.50
11600	0.81	119.40	0.48	-143.20	0.48	-143.20	0.81	119.40
11650	0.82	117.30	0.46	-144.60	0.46	-144.60	0.82	117.30
11700	0.83	115.50	0.44	-145.50	0.44	-145.50	0.83	115.50
11750	0.84	113.70	0.43	-146.40	0.43	-146.40	0.84	113.70
11800	0.85	112.10	0.40	-147.10	0.40	-147.10	0.85	112.10
11850	0.86	110.50	0.38	-147.80	0.38	-147.80	0.86	110.50
11900	0.87	108.90	0.36	-148.90	0.36	-148.90	0.87	108.90
11950	0.88	107.30	0.33	-149.90	0.33	-149.90	0.88	107.30
12000	0.88	105.90	0.31	-149.50	0.31	-149.50	0.88	105.90
12050	0.89	104.60	0.28	-149.10	0.28	-149.10	0.89	104.60
12100	0.90	102.30	0.26	-149.20	0.26	-149.20	0.90	102.30
12150	0.91	100.00	0.24	-149.20	0.24	-149.20	0.91	100.00
12200	0.91	98.30	0.21	-147.10	0.21	-147.10	0.91	98.30
12250	0.91	96.50	0.19	-145.00	0.19	-145.00	0.91	96.50
12300	0.90	94.80	0.16	-139.60	0.16	-139.60	0.90	94.80
12350	0.90	93.10	0.14	-134.20	0.14	-134.20	0.90	93.10
12400	0.91	90.30	0.12	-122.20	0.12	-122.20	0.91	90.30
12450	0.91	87.50	0.11	-110.30	0.11	-110.30	0.91	87.50
12500	0.90	85.30	0.11	-94.20	0.11	-94.20	0.90	85.30
12550	0.90	83.10	0.12	-78.20	0.12	-78.20	0.90	83.10
12600	0.89	80.80	0.14	-69.90	0.14	-69.90	0.89	80.80
12650	0.88	78.60	0.17	-61.70	0.17	-61.70	0.88	78.60
12700	0.87	76.40	0.20	-60.10	0.20	-60.10	0.87	76.40
12750	0.86	74.20	0.23	-58.50	0.23	-58.50	0.86	74.20
12800	0.85	72.10	0.24	-58.70	0.24	-58.70	0.85	72.10
12850	0.84	70.00	0.26	-58.80	0.26	-58.80	0.84	70.00
12900	0.84	68.00	0.28	-56.70	0.28	-56.70	0.84	68.00
12950	0.84	65.90	0.31	-54.70	0.31	-54.70	0.84	65.90
13000	0.82	63.50	0.34	-54.60	0.34	-54.60	0.82	63.50
13050	0.80	61.00	0.36	-54.50	0.36	-54.50	0.80	61.00
13100	0.79	58.70	0.40	-55.40	0.40	-55.40	0.79	58.70
13150	0.77	56.40	0.43	-56.20	0.43	-56.20	0.77	56.40
13200	0.76	54.20	0.45	-57.40	0.45	-57.40	0.76	54.20
13250	0.75	52.10	0.48	-58.70	0.48	-58.70	0.75	52.10
13300	0.72	51.40	0.50	-60.90	0.50	-60.90	0.72	51.40
13350	0.69	50.60	0.53	-63.10	0.53	-63.10	0.69	50.60
13400	0.69	47.30	0.55	-64.70	0.55	-64.70	0.69	47.30
13450	0.69	43.90	0.57	-66.30	0.57	-66.30	0.69	43.90
13500	0.68	41.80	0.59	-68.00	0.59	-68.00	0.68	41.80
13550	0.66	39.70	0.60	-69.80	0.60	-69.80	0.66	39.70
13600	0.65	37.70	0.62	-71.60	0.62	-71.60	0.65	37.70
13650	0.64	35.70	0.63	-73.40	0.63	-73.40	0.64	35.70
13700	0.63	33.40	0.65	-74.70	0.65	-74.70	0.63	33.40
13750	0.62	31.20	0.66	-76.00	0.66	-76.00	0.62	31.20
13800	0.61	28.60	0.67	-77.40	0.67	-77.40	0.61	28.60
13850	0.60	26.10	0.68	-78.80	0.68	-78.80	0.60	26.10
13900	0.59	23.40	0.69	-79.90	0.69	-79.90	0.59	23.40
13950	0.59	20.70	0.71	-81.00	0.71	-81.00	0.59	20.70
14000	0.58	18.10	0.71	-82.20	0.71	-82.20	0.58	18.10
14050	0.57	15.40	0.72	-83.40	0.72	-83.40	0.57	15.40
14100	0.57	13.00	0.73	-84.40	0.73	-84.40	0.57	13.00
14150	0.56	10.50	0.75	-85.50	0.75	-85.50	0.56	10.50
14200	0.56	7.90	0.75	-86.60	0.75	-86.60	0.56	7.90
14250	0.55	5.40	0.76	-87.70	0.76	-87.70	0.55	5.40
14300	0.54	3.30	0.77	-88.70	0.77	-88.70	0.54	3.30
14350	0.53	1.20	0.77	-89.80	0.77	-89.80	0.53	1.20
14400	0.53	-0.80	0.78	-90.70	0.78	-90.70	0.53	-0.80
14450	0.53	-2.80	0.79	-91.70	0.79	-91.70	0.53	-2.80
14500	0.52	-4.20	0.79	-92.40	0.79	-92.40	0.52	-4.20
14550	0.50	-5.60	0.80	-93.20	0.80	-93.20	0.50	-5.60
14600	0.50	-6.90	0.81	-94.10	0.81	-94.10	0.50	-6.90
14650	0.49	-8.20	0.81	-95.00	0.81	-95.00	0.49	-8.20
14700	0.48	-9.80	0.82	-96.00	0.82	-96.00	0.48	-9.80
14750	0.47	-11.40	0.83	-96.90	0.83	-96.90	0.47	-11.40
14800	0.47	-12.20	0.83	-97.90	0.83	-97.90	0.47	-12.20
14850	0.46	-13.00	0.83	-98.90	0.83	-98.90	0.46	-13.00
14900	0.45	-13.30	0.84	-99.60	0.84	-99.60	0.45	-13.30
14950	0.44	-13.50	0.85	-100.30	0.85	-100.30	0.44	-13.50
15000	0.43	-14.90	0.85	-101.50	0.85	-101.50	0.43	-14.90
15050	0.42	-16.40	0.85	-102.60	0.85	-102.60	0.42	-16.40
15100	0.41	-16.40	0.86	-103.30	0.86	-103.30	0.41	-16.40
15150	0.41	-16.30	0.86	-103.90	0.86	-103.90	0.41	-16.30
15200	0.40	-16.60	0.87	-104.70	0.87	-104.70	0.40	-16.60
15250	0.40	-16.90	0.87	-105.60	0.87	-105.60	0.40	-16.90
15300	0.39	-17.90	0.87	-106.70	0.87	-106.70	0.39	-17.90
15350	0.39	-18.80	0.87	-107.90	0.87	-107.90	0.39	-18.80
15400	0.38	-18.10	0.87	-108.50	0.87	-108.50	0.38	-18.10
15450	0.38	-17.40	0.86	-109.00	0.86	-109.00	0.38	-17.40
15500	0.38	-16.90	0.86	-109.70	0.86	-109.70	0.38	-16.90
15550	0.39	-16.50	0.87	-110.40	0.87	-110.40	0.39	-16.50
15600	0.39	-16.80	0.87	-110.80	0.87	-110.80	0.39	-16.80
15650	0.38	-17.20	0.87	-111.10	0.87	-111.10	0.38	-17.20
15700	0.39	-17.20	0.87	-111.60	0.87	-111.60	0.39	-17.20
15750	0.40	-17.20	0.87	-112.10	0.87	-112.10	0.40	-17.20
15800	0.39	-18.40	0.87	-112.30	0.87	-112.30	0.39	-18.40
15850	0.38	-19.50	0.87	-112.60	0.87	-112.60	0.38	-19.50
15900	0.38	-19.30	0.87	-113.10	0.87	-113.10	0.38	-19.30
15950	0.39	-19.10	0.88	-113.50	0.88	-113.50	0.39	-19.10
16000	0.37	-20.00	0.88	-113.90	0.88	-113.90	0.37	-20.00
16050	0.35	-20.90	0.89	-114.20	0.89	-114.20	0.35	-20.90
16100	0.34	-21.40	0.89	-115.00	0.89	-115.00	0.34	-21.40
16150	0.32	-21.90	0.89	-115.70	0.89	-115.70	0.32	-21.90
16200	0.31	-23.10	0.90	-116.30	0.90	-116.30	0.31	-23.10
16250	0.30	-24.30	0.90	-117.00	0.90	-117.00	0.30	-24.30
16300	0.27	-25.80	0.91	-117.80	0.91	-117.80	0.27	-25.80
16350	0.25	-27.40	0.92	-118.60	0.92	-118.60	0.25	-27.40
16400	0.24	-27.50	0.91	-119.20	0.91	-119.20	0.24	-27.50
16450	0.23	-27.70	0.91	-119.70	0.91	-119.70	0.23	-27.70
16500	0.22	-32.00	0.91	-120.00	0.91	-120.00	0.22	-32.00
16550	0.20	-36.30	0.91	-120.30	0.91	-120.30	0.20	-36.30
16600	0.19	-39.00	0.92	-121.00	0.92	-121.00	0.19	-39.00
16650	0.18	-41.60	0.94	-121.70	0.94	-121.70	0.18	-41.60
16700	0.17	-46.50	0.94	-122.40	0.94	-122.40	0.17	-46.50
16750	0.16	-51.50	0.95	-123.20	0.95	-123.20	0.16	-51.50
16800	0.14	-56.50	0.95	-124.10	0.95	-124.10	0.14	-56.50
16850	0.12	-61.40	0.96	-125.00	0.96	-125.00	0.12	-61.40
16900	0.11	-62.50	0.96	-125.90	0.96	-125.90	0.11	-62.50
16950	0.10	-63.50	0.96	-126.80	0.96	-126.80	0.10	-63.50
17000	0.08	-68.90	0.96	-127.60	0.96	-127.60	0.08	-68.90
17050	0.06	-74.20	0.97	-128.50	0.97	-128.50	0.06	-74.20
17100	0.05	-67.30	0.97	-129.50	0.97	-129.50	0.05	-67.30
17150	0.03	-60.40	0.97	-130.40	0.97	-130.40	0.03	-60.40
17200	0.02	-10.90	0.97	-131.00	0.97	-131.00	0.02	-10.90
17250	0.02	38.70	0.97	-131.70	0.97	-131.70	0.02	38.70
17300	0.04	62.00	0.97	-132.50	0.97	-132.50	0.04	62.00
17350	0.05	85.30	0.97	-133.40	0.97	-133.40	0.05	85.30
17400	0.07	80.60	0.97	-134.00	0.97	-134.00	0.07	80.60
17450	0.08	75.90	0.97	-134.50	0.97	-134.50	0.08	75.90
17500	0.09	76.40	0.97	-135.30	0.97	-135.30	0.09	76.40
17550	0.11	76.80	0.97	-136.00	0.97	-136.00	0.11	76.80
17600	0.12	75.60	0.96	-136.70	0.96	-136.70	0.12	75.60
17650	0.14	74.30	0.96	-137.40	0.96	-137.40	0.14	74.30
17700	0.14	74.10	0.96	-137.90	0.96	-137.90	0.14	74.10
17750	0.15	73.90	0.96	-138.50	0.96	-138.50	0.15	73.90
17800	0.15	73.90	0.97	-139.20	0.97	-139.20	0.15	73.90
17850	0.15	73.90	0.97	-139.90	0.97	-139.90	0.15	73.90
17900	0.15	72.50	0.96	-140.40	0.96	-140.40	0.15	72.50
17950	0.15	71.10	0.96	-141.00	0.96	-141.00	0.15	71.10
18000	0.14	71.10	0.96	-141.70	0.96	-141.70	0.14	71.10
18050	0.14	71.20	0.96	-142.40	0.96	-142.40	0.14	71.20
18100	0.13	68.60	0.96	-143.00	0.96	-143.00	0.13	68.60
18150	0.12	65.90	0.96	-143.50	0.96	-143.50	0.12	65.90
18200	0.12	62.00	0.96	-144.20	0.96	-144.20	0.12	62.00
18250	0.10	58.10	0.97	-145.00	0.97	-145.00	0.10	58.10
18300	0.10	52.00	0.97	-145.50	0.97	-145.50	0.10	52.00
18350	0.10	45.80	0.97	-146.00	0.97	-146.00	0.10	45.80
18400	0.09	39.80	0.97	-146.60	0.97	-146.60	0.09	39.80
18450	0.09	33.80	0.96	-147.20	0.96	-147.20	0.09	33.80
18500	0.09	29.10	0.97	-147.70	0.97	-147.70	0.09	29.10
18550	0.09	24.40	0.97	-148.20	0.97	-148.20	0.09	24.40
18600	0.09	20.50	0.97	-148.80	0.97	-148.80	0.09	20.50
18650	0.08	16.70	0.97	-149.50	0.97	-149.50	0.08	16.70
18700	0.08	13.70	0.97	-150.00	0.97	-150.00	0.08	13.70
