# MHZ S MA R 50

      50  0.00   14.60    1.00    1.20    1.00    1.20    0.00   14.60
     100  0.01   42.50    1.00    1.00    1.00    1.00    0.01   42.50
     150  0.01   70.40    1.00    0.80    1.00    0.80    0.01   70.40
     200  0.01   73.90    1.00    0.60    1.00    0.60    0.01   73.90
     250  0.01   77.50    1.00    0.30    1.00    0.30    0.01   77.50
     300  0.02   78.90    1.00   -0.10    1.00   -0.10    0.02   78.90
     350  0.02   80.40    1.00   -0.40    1.00   -0.40    0.02   80.40
     400  0.02   78.70    1.00   -0.60    1.00   -0.60    0.02   78.70
     450  0.02   76.90    1.00   -0.80    1.00   -0.80    0.02   76.90
     500  0.03   81.80    1.00   -1.20    1.00   -1.20    0.03   81.80
     550  0.03   86.80    1.00   -1.60    1.00   -1.60    0.03   86.80
     600  0.04   87.90    1.00   -1.90    1.00   -1.90    0.04   87.90
     650  0.04   89.00    1.00   -2.30    1.00   -2.30    0.04   89.00
     700  0.04   88.40    1.00   -2.50    1.00   -2.50    0.04   88.40
     750  0.04   87.80    0.99   -2.80    0.99   -2.80    0.04   87.80
     800  0.05   88.20    0.99   -3.00    0.99   -3.00    0.05   88.20
     850  0.05   88.50    0.99   -3.30    0.99   -3.30    0.05   88.50
     900  0.05   89.20    0.99   -3.60    0.99   -3.60    0.05   89.20
     950  0.05   89.90    0.99   -3.90    0.99   -3.90    0.05   89.90
    1000  0.06   88.90    0.99   -4.20    0.99   -4.20    0.06   88.90
    1050  0.06   87.90    0.99   -4.40    0.99   -4.40    0.06   87.90
    1100  0.06   88.10    0.99   -4.70    0.99   -4.70    0.06   88.10
    1150  0.07   88.30    0.99   -5.00    0.99   -5.00    0.07   88.30
    1200  0.07   88.00    0.99   -5.30    0.99   -5.30    0.07   88.00
    1250  0.07   87.70    0.99   -5.60    0.99   -5.60    0.07   87.70
    1300  0.08   87.60    0.99   -5.80    0.99   -5.80    0.08   87.60
    1350  0.08   87.60    0.99   -6.10    0.99   -6.10    0.08   87.60
    1400  0.08   87.10    0.99   -6.30    0.99   -6.30    0.08   87.10
    1450  0.09   86.70    0.99   -6.60    0.99   -6.60    0.09   86.70
    1500  0.09   86.40    0.99   -6.90    0.99   -6.90    0.09   86.40
    1550  0.09   86.20    0.99   -7.20    0.99   -7.20    0.09   86.20
    1600  0.09   85.50    0.99   -7.50    0.99   -7.50    0.09   85.50
    1650  0.10   84.80    0.99   -7.80    0.99   -7.80    0.10   84.80
    1700  0.10   85.00    0.99   -8.10    0.99   -8.10    0.10   85.00
    1750  0.10   85.30    0.99   -8.40    0.99   -8.40    0.10   85.30
    1800  0.10   84.30    0.99   -8.60    0.99   -8.60    0.10   84.30
    1850  0.11   83.30    0.99   -8.80    0.99   -8.80    0.11   83.30
    1900  0.11   82.70    0.99   -9.00    0.99   -9.00    0.11   82.70
    1950  0.11   82.20    0.99   -9.20    0.99   -9.20    0.11   82.20
    2000  0.12   81.70    0.99   -9.60    0.99   -9.60    0.12   81.70
    2050  0.12   81.20    0.99   -9.90    0.99   -9.90    0.12   81.20
    2100  0.12   80.50    0.99   -10.10   0.99   -10.10   0.12   80.50
    2150  0.13   79.90    0.99   -10.30   0.99   -10.30   0.13   79.90
    2200  0.13   79.60    0.99   -10.60   0.99   -10.60   0.13   79.60
    2250  0.13   79.30    0.98   -10.90   0.98   -10.90   0.13   79.30
    2300  0.13   78.80    0.98   -11.10   0.98   -11.10   0.13   78.80
    2350  0.14   78.30    0.98   -11.30   0.98   -11.30   0.14   78.30
    2400  0.14   77.90    0.98   -11.60   0.98   -11.60   0.14   77.90
    2450  0.14   77.60    0.98   -11.90   0.98   -11.90   0.14   77.60
    2500  0.14   77.10    0.98   -12.20   0.98   -12.20   0.14   77.10
    2550  0.15   76.60    0.98   -12.50   0.98   -12.50   0.15   76.60
    2600  0.15   76.20    0.98   -12.60   0.98   -12.60   0.15   76.20
    2650  0.16   75.80    0.98   -12.80   0.98   -12.80   0.16   75.80
    2700  0.16   75.70    0.98   -13.00   0.98   -13.00   0.16   75.70
    2750  0.16   75.50    0.98   -13.30   0.98   -13.30   0.16   75.50
    2800  0.16   75.00    0.98   -13.50   0.98   -13.50   0.16   75.00
    2850  0.17   74.40    0.98   -13.60   0.98   -13.60   0.17   74.40
    2900  0.17   74.30    0.98   -14.10   0.98   -14.10   0.17   74.30
    2950  0.17   74.20    0.98   -14.50   0.98   -14.50   0.17   74.20
    3000  0.18   74.00    0.98   -14.70   0.98   -14.70   0.18   74.00
    3050  0.18   73.80    0.98   -14.80   0.98   -14.80   0.18   73.80
    3100  0.18   72.90    0.97   -15.20   0.97   -15.20   0.18   72.90
    3150  0.19   72.10    0.97   -15.60   0.97   -15.60   0.19   72.10
    3200  0.19   72.10    0.97   -15.70   0.97   -15.70   0.19   72.10
    3250  0.19   72.10    0.97   -15.70   0.97   -15.70   0.19   72.10
    3300  0.20   72.10    0.97   -16.10   0.97   -16.10   0.20   72.10
    3350  0.20   72.00    0.97   -16.50   0.97   -16.50   0.20   72.00
    3400  0.20   71.50    0.97   -16.70   0.97   -16.70   0.20   71.50
    3450  0.21   71.00    0.97   -16.80   0.97   -16.80   0.21   71.00
    3500  0.21   71.10    0.97   -17.00   0.97   -17.00   0.21   71.10
    3550  0.21   71.20    0.97   -17.20   0.97   -17.20   0.21   71.20
    3600  0.22   71.00    0.97   -17.40   0.97   -17.40   0.22   71.00
    3650  0.22   70.90    0.97   -17.70   0.97   -17.70   0.22   70.90
    3700  0.22   70.60    0.97   -18.00   0.97   -18.00   0.22   70.60
    3750  0.23   70.30    0.96   -18.30   0.96   -18.30   0.23   70.30
    3800  0.23   69.90    0.96   -18.50   0.96   -18.50   0.23   69.90
    3850  0.23   69.60    0.96   -18.60   0.96   -18.60   0.23   69.60
    3900  0.24   69.40    0.96   -19.10   0.96   -19.10   0.24   69.40
    3950  0.24   69.20    0.96   -19.50   0.96   -19.50   0.24   69.20
    4000  0.24   68.80    0.96   -19.70   0.96   -19.70   0.24   68.80
    4050  0.25   68.40    0.96   -19.90   0.96   -19.90   0.25   68.40
    4100  0.25   68.00    0.96   -20.20   0.96   -20.20   0.25   68.00
    4150  0.25   67.50    0.96   -20.60   0.96   -20.60   0.25   67.50
    4200  0.26   67.00    0.96   -20.80   0.96   -20.80   0.26   67.00
    4250  0.26   66.50    0.96   -21.10   0.96   -21.10   0.26   66.50
    4300  0.27   66.10    0.95   -21.20   0.95   -21.20   0.27   66.10
    4350  0.27   65.80    0.95   -21.40   0.95   -21.40   0.27   65.80
    4400  0.27   65.30    0.95   -21.80   0.95   -21.80   0.27   65.30
    4450  0.28   64.90    0.95   -22.10   0.95   -22.10   0.28   64.90
    4500  0.28   64.20    0.95   -22.60   0.95   -22.60   0.28   64.20
    4550  0.28   63.60    0.95   -23.10   0.95   -23.10   0.28   63.60
    4600  0.29   63.10    0.95   -23.30   0.95   -23.30   0.29   63.10
    4650  0.29   62.60    0.95   -23.60   0.95   -23.60   0.29   62.60
    4700  0.30   62.30    0.95   -23.80   0.95   -23.80   0.30   62.30
    4750  0.30   62.10    0.94   -24.10   0.94   -24.10   0.30   62.10
    4800  0.30   61.50    0.94   -24.40   0.94   -24.40   0.30   61.50
    4850  0.31   60.90    0.94   -24.70   0.94   -24.70   0.31   60.90
    4900  0.31   60.70    0.94   -25.00   0.94   -25.00   0.31   60.70
    4950  0.31   60.50    0.94   -25.30   0.94   -25.30   0.31   60.50
    5000  0.32   60.00    0.94   -25.60   0.94   -25.60   0.32   60.00
    5050  0.32   59.50    0.94   -25.90   0.94   -25.90   0.32   59.50
    5100  0.32   59.10    0.94   -26.30   0.94   -26.30   0.32   59.10
    5150  0.32   58.70    0.94   -26.70   0.94   -26.70   0.32   58.70
    5200  0.33   58.80    0.93   -26.90   0.93   -26.90   0.33   58.80
    5250  0.33   59.00    0.93   -27.00   0.93   -27.00   0.33   59.00
    5300  0.34   58.60    0.93   -27.20   0.93   -27.20   0.34   58.60
    5350  0.34   58.20    0.93   -27.50   0.93   -27.50   0.34   58.20
    5400  0.34   57.80    0.93   -28.00   0.93   -28.00   0.34   57.80
    5450  0.35   57.50    0.93   -28.50   0.93   -28.50   0.35   57.50
    5500  0.35   57.50    0.93   -28.70   0.93   -28.70   0.35   57.50
    5550  0.36   57.40    0.93   -28.90   0.93   -28.90   0.36   57.40
    5600  0.36   57.20    0.93   -29.30   0.93   -29.30   0.36   57.20
    5650  0.36   57.00    0.93   -29.80   0.93   -29.80   0.36   57.00
    5700  0.37   56.80    0.93   -30.10   0.93   -30.10   0.37   56.80
    5750  0.37   56.70    0.92   -30.50   0.92   -30.50   0.37   56.70
    5800  0.37   56.40    0.92   -30.80   0.92   -30.80   0.37   56.40
    5850  0.38   56.20    0.92   -31.20   0.92   -31.20   0.38   56.20
    5900  0.38   56.70    0.91   -31.50   0.91   -31.50   0.38   56.70
    5950  0.38   57.20    0.91   -31.70   0.91   -31.70   0.38   57.20
    6000  0.38   56.60    0.92   -31.80   0.92   -31.80   0.38   56.60
    6050  0.38   56.00    0.92   -31.90   0.92   -31.90   0.38   56.00
    6100  0.38   56.40    0.92   -32.10   0.92   -32.10   0.38   56.40
    6150  0.39   56.90    0.91   -32.40   0.91   -32.40   0.39   56.90
    6200  0.39   57.30    0.91   -32.70   0.91   -32.70   0.39   57.30
    6250  0.40   57.70    0.91   -33.00   0.91   -33.00   0.40   57.70
    6300  0.40   58.20    0.91   -33.30   0.91   -33.30   0.40   58.20
    6350  0.40   58.70    0.91   -33.50   0.91   -33.50   0.40   58.70
    6400  0.40   59.10    0.90   -33.90   0.90   -33.90   0.40   59.10
    6450  0.41   59.60    0.90   -34.20   0.90   -34.20   0.41   59.60
    6500  0.41   59.60    0.90   -34.50   0.90   -34.50   0.41   59.60
    6550  0.41   59.70    0.90   -34.90   0.90   -34.90   0.41   59.70
    6600  0.42   60.00    0.90   -35.30   0.90   -35.30   0.42   60.00
    6650  0.42   60.40    0.90   -35.70   0.90   -35.70   0.42   60.40
    6700  0.42   60.60    0.89   -35.80   0.89   -35.80   0.42   60.60
    6750  0.43   60.90    0.89   -36.00   0.89   -36.00   0.43   60.90
    6800  0.43   60.90    0.89   -36.20   0.89   -36.20   0.43   60.90
    6850  0.43   60.90    0.89   -36.40   0.89   -36.40   0.43   60.90
    6900  0.44   60.60    0.89   -36.90   0.89   -36.90   0.44   60.60
    6950  0.44   60.40    0.89   -37.40   0.89   -37.40   0.44   60.40
    7000  0.45   60.40    0.89   -37.70   0.89   -37.70   0.45   60.40
    7050  0.45   60.50    0.88   -38.10   0.88   -38.10   0.45   60.50
    7100  0.45   60.30    0.88   -38.40   0.88   -38.40   0.45   60.30
    7150  0.46   60.20    0.88   -38.70   0.88   -38.70   0.46   60.20
    7200  0.46   60.00    0.88   -39.00   0.88   -39.00   0.46   60.00
    7250  0.46   59.80    0.88   -39.30   0.88   -39.30   0.46   59.80
    7300  0.47   59.50    0.87   -39.40   0.87   -39.40   0.47   59.50
    7350  0.47   59.20    0.87   -39.50   0.87   -39.50   0.47   59.20
    7400  0.48   58.80    0.87   -40.00   0.87   -40.00   0.48   58.80
    7450  0.48   58.40    0.87   -40.50   0.87   -40.50   0.48   58.40
    7500  0.48   57.70    0.87   -40.60   0.87   -40.60   0.48   57.70
    7550  0.49   57.10    0.86   -40.70   0.86   -40.70   0.49   57.10
    7600  0.49   56.40    0.86   -41.00   0.86   -41.00   0.49   56.40
    7650  0.50   55.70    0.86   -41.40   0.86   -41.40   0.50   55.70
    7700  0.50   54.60    0.86   -41.70   0.86   -41.70   0.50   54.60
    7750  0.50   53.60    0.86   -42.10   0.86   -42.10   0.50   53.60
    7800  0.50   53.00    0.85   -42.30   0.85   -42.30   0.50   53.00
    7850  0.50   52.40    0.85   -42.40   0.85   -42.40   0.50   52.40
    7900  0.51   51.10    0.85   -42.70   0.85   -42.70   0.51   51.10
    7950  0.51   49.70    0.85   -42.90   0.85   -42.90   0.51   49.70
    8000  0.52   48.60    0.85   -43.20   0.85   -43.20   0.52   48.60
    8050  0.52   47.50    0.85   -43.50   0.85   -43.50   0.52   47.50
    8100  0.52   46.30    0.84   -43.90   0.84   -43.90   0.52   46.30
    8150  0.52   45.00    0.84   -44.30   0.84   -44.30   0.52   45.00
    8200  0.52   44.00    0.84   -44.30   0.84   -44.30   0.52   44.00
    8250  0.52   43.10    0.84   -44.40   0.84   -44.40   0.52   43.10
    8300  0.53   41.90    0.83   -44.70   0.83   -44.70   0.53   41.90
    8350  0.53   40.70    0.83   -44.90   0.83   -44.90   0.53   40.70
    8400  0.53   39.80    0.83   -45.10   0.83   -45.10   0.53   39.80
    8450  0.54   38.90    0.83   -45.30   0.83   -45.30   0.54   38.90
    8500  0.54   37.90    0.82   -45.40   0.82   -45.40   0.54   37.90
    8550  0.54   36.90    0.82   -45.60   0.82   -45.60   0.54   36.90
    8600  0.54   36.00    0.82   -45.80   0.82   -45.80   0.54   36.00
    8650  0.55   35.10    0.82   -46.00   0.82   -46.00   0.55   35.10
    8700  0.56   34.50    0.81   -46.10   0.81   -46.10   0.56   34.50
    8750  0.56   33.80    0.81   -46.20   0.81   -46.20   0.56   33.80
    8800  0.56   32.80    0.81   -46.40   0.81   -46.40   0.56   32.80
    8850  0.56   31.90    0.81   -46.50   0.81   -46.50   0.56   31.90
    8900  0.56   32.00    0.81   -46.60   0.81   -46.60   0.56   32.00
    8950  0.57   32.00    0.80   -46.70   0.80   -46.70   0.57   32.00
    9000  0.57   31.60    0.80   -47.00   0.80   -47.00   0.57   31.60
    9050  0.58   31.20    0.80   -47.30   0.80   -47.30   0.58   31.20
    9100  0.58   30.90    0.80   -47.60   0.80   -47.60   0.58   30.90
    9150  0.59   30.60    0.80   -48.00   0.80   -48.00   0.59   30.60
    9200  0.58   30.00    0.79   -48.30   0.79   -48.30   0.58   30.00
    9250  0.58   29.40    0.79   -48.50   0.79   -48.50   0.58   29.40
    9300  0.58   30.00    0.79   -48.40   0.79   -48.40   0.58   30.00
    9350  0.59   30.50    0.79   -48.30   0.79   -48.30   0.59   30.50
    9400  0.59   29.90    0.79   -48.60   0.79   -48.60   0.59   29.90
    9450  0.59   29.30    0.78   -48.90   0.78   -48.90   0.59   29.30
    9500  0.59   29.70    0.78   -49.00   0.78   -49.00   0.59   29.70
    9550  0.60   30.00    0.78   -49.00   0.78   -49.00   0.60   30.00
    9600  0.60   29.80    0.78   -49.50   0.78   -49.50   0.60   29.80
    9650  0.61   29.50    0.78   -49.90   0.78   -49.90   0.61   29.50
    9700  0.61   29.80    0.78   -49.90   0.78   -49.90   0.61   29.80
    9750  0.61   30.00    0.78   -50.00   0.78   -50.00   0.61   30.00
    9800  0.61   30.10    0.78   -50.10   0.78   -50.10   0.61   30.10
    9850  0.61   30.20    0.78   -50.20   0.78   -50.20   0.61   30.20
    9900  0.62   30.10    0.78   -50.80   0.78   -50.80   0.62   30.10
    9950  0.62   30.00    0.77   -51.40   0.77   -51.40   0.62   30.00
   10000  0.62   29.90    0.77   -51.30   0.77   -51.30   0.62   29.90
   10050  0.62   29.80    0.77   -51.20   0.77   -51.20   0.62   29.80
   10100  0.63   30.20    0.77   -51.50   0.77   -51.50   0.63   30.20
   10150  0.63   30.50    0.77   -51.90   0.77   -51.90   0.63   30.50
   10200  0.63   30.50    0.77   -52.10   0.77   -52.10   0.63   30.50
   10250  0.64   30.50    0.76   -52.30   0.76   -52.30   0.64   30.50
   10300  0.64   30.10    0.75   -52.50   0.75   -52.50   0.64   30.10
   10350  0.64   29.70    0.75   -52.80   0.75   -52.80   0.64   29.70
   10400  0.64   30.10    0.75   -52.70   0.75   -52.70   0.64   30.10
   10450  0.63   30.50    0.75   -52.70   0.75   -52.70   0.63   30.50
   10500  0.64   30.10    0.75   -53.10   0.75   -53.10   0.64   30.10
   10550  0.65   29.70    0.74   -53.50   0.74   -53.50   0.65   29.70
   10600  0.64   29.80    0.75   -53.50   0.75   -53.50   0.64   29.80
   10650  0.64   29.80    0.75   -53.50   0.75   -53.50   0.64   29.80
   10700  0.65   29.80    0.75   -53.90   0.75   -53.90   0.65   29.80
   10750  0.65   29.80    0.74   -54.40   0.74   -54.40   0.65   29.80
   10800  0.65   29.80    0.74   -54.30   0.74   -54.30   0.65   29.80
   10850  0.65   29.70    0.74   -54.30   0.74   -54.30   0.65   29.70
   10900  0.65   29.30    0.74   -54.50   0.74   -54.50   0.65   29.30
   10950  0.66   28.90    0.74   -54.70   0.74   -54.70   0.66   28.90
   11000  0.65   28.60    0.74   -55.70   0.74   -55.70   0.65   28.60
   11050  0.65   28.30    0.74   -56.60   0.74   -56.60   0.65   28.30
   11100  0.65   28.00    0.74   -56.40   0.74   -56.40   0.65   28.00
   11150  0.66   27.80    0.73   -56.20   0.73   -56.20   0.66   27.80
   11200  0.66   27.50    0.73   -57.00   0.73   -57.00   0.66   27.50
   11250  0.66   27.10    0.73   -57.80   0.73   -57.80   0.66   27.10
   11300  0.66   26.40    0.73   -58.10   0.73   -58.10   0.66   26.40
   11350  0.67   25.70    0.73   -58.50   0.73   -58.50   0.67   25.70
   11400  0.67   26.00    0.72   -58.80   0.72   -58.80   0.67   26.00
   11450  0.67   26.40    0.71   -59.10   0.71   -59.10   0.67   26.40
   11500  0.68   25.90    0.71   -59.40   0.71   -59.40   0.68   25.90
   11550  0.68   25.40    0.72   -59.70   0.72   -59.70   0.68   25.40
   11600  0.69   25.70    0.71   -60.00   0.71   -60.00   0.69   25.70
   11650  0.69   26.00    0.71   -60.20   0.71   -60.20   0.69   26.00
   11700  0.69   25.80    0.71   -60.60   0.71   -60.60   0.69   25.80
   11750  0.69   25.60    0.71   -61.00   0.71   -61.00   0.69   25.60
   11800  0.70   26.00    0.70   -61.00   0.70   -61.00   0.70   26.00
   11850  0.70   26.40    0.70   -61.00   0.70   -61.00   0.70   26.40
   11900  0.70   26.60    0.69   -61.50   0.69   -61.50   0.70   26.60
   11950  0.69   26.90    0.69   -62.10   0.69   -62.10   0.69   26.90
   12000  0.70   26.80    0.69   -62.10   0.69   -62.10   0.70   26.80
   12050  0.71   26.70    0.70   -62.20   0.70   -62.20   0.71   26.70
   12100  0.70   26.30    0.69   -62.90   0.69   -62.90   0.70   26.30
   12150  0.70   25.80    0.69   -63.70   0.69   -63.70   0.70   25.80
   12200  0.70   25.90    0.69   -64.00   0.69   -64.00   0.70   25.90
   12250  0.70   25.90    0.69   -64.30   0.69   -64.30   0.70   25.90
   12300  0.70   26.40    0.69   -64.60   0.69   -64.60   0.70   26.40
   12350  0.70   26.90    0.68   -64.80   0.68   -64.80   0.70   26.90
   12400  0.70   25.90    0.68   -65.70   0.68   -65.70   0.70   25.90
   12450  0.70   24.90    0.67   -66.70   0.67   -66.70   0.70   24.90
   12500  0.71   25.60    0.67   -66.70   0.67   -66.70   0.71   25.60
   12550  0.71   26.30    0.66   -66.70   0.66   -66.70   0.71   26.30
   12600  0.71   26.10    0.66   -67.20   0.66   -67.20   0.71   26.10
   12650  0.71   25.80    0.65   -67.70   0.65   -67.70   0.71   25.80
   12700  0.72   25.70    0.65   -67.90   0.65   -67.90   0.72   25.70
   12750  0.73   25.60    0.65   -68.20   0.65   -68.20   0.73   25.60
   12800  0.73   25.60    0.64   -68.50   0.64   -68.50   0.73   25.60
   12850  0.74   25.50    0.63   -68.70   0.63   -68.70   0.74   25.50
   12900  0.74   25.30    0.63   -69.10   0.63   -69.10   0.74   25.30
   12950  0.75   25.10    0.63   -69.40   0.63   -69.40   0.75   25.10
   13000  0.75   25.00    0.62   -69.40   0.62   -69.40   0.75   25.00
   13050  0.75   25.00    0.62   -69.30   0.62   -69.30   0.75   25.00
   13100  0.75   24.50    0.62   -69.60   0.62   -69.60   0.75   24.50
   13150  0.75   24.00    0.61   -69.90   0.61   -69.90   0.75   24.00
   13200  0.75   23.90    0.61   -69.90   0.61   -69.90   0.75   23.90
   13250  0.76   23.90    0.61   -69.90   0.61   -69.90   0.76   23.90
   13300  0.74   24.90    0.60   -70.60   0.60   -70.60   0.74   24.90
   13350  0.72   26.00    0.60   -71.30   0.60   -71.30   0.72   26.00
   13400  0.74   24.00    0.60   -71.50   0.60   -71.50   0.74   24.00
   13450  0.76   21.90    0.60   -71.70   0.60   -71.70   0.76   21.90
   13500  0.75   21.70    0.59   -72.10   0.59   -72.10   0.75   21.70
   13550  0.75   21.50    0.59   -72.40   0.59   -72.40   0.75   21.50
   13600  0.75   20.20    0.59   -73.00   0.59   -73.00   0.75   20.20
   13650  0.76   18.90    0.58   -73.60   0.58   -73.60   0.76   18.90
   13700  0.76   18.40    0.58   -73.70   0.58   -73.70   0.76   18.40
   13750  0.76   17.90    0.58   -73.70   0.58   -73.70   0.76   17.90
   13800  0.76   16.40    0.57   -74.00   0.57   -74.00   0.76   16.40
   13850  0.76   14.90    0.57   -74.30   0.57   -74.30   0.76   14.90
   13900  0.76   13.90    0.57   -74.30   0.57   -74.30   0.76   13.90
   13950  0.77   12.80    0.57   -74.30   0.57   -74.30   0.77   12.80
   14000  0.77   12.00    0.56   -74.40   0.56   -74.40   0.77   12.00
   14050  0.77   11.10    0.56   -74.60   0.56   -74.60   0.77   11.10
