# MHZ S MA R 50

      50  0.12   75.90    0.98   -5.50    0.98   -5.50    0.12   75.90
     100  0.23   71.10    0.95   -12.00   0.95   -12.00   0.23   71.10
     150  0.34   66.40    0.92   -18.60   0.92   -18.60   0.34   66.40
     200  0.43   61.10    0.88   -24.30   0.88   -24.30   0.43   61.10
     250  0.52   55.90    0.84   -30.10   0.84   -30.10   0.52   55.90
     300  0.59   51.00    0.78   -35.10   0.78   -35.10   0.59   51.00
     350  0.65   46.00    0.73   -40.20   0.73   -40.20   0.65   46.00
     400  0.71   41.60    0.68   -44.40   0.68   -44.40   0.71   41.60
     450  0.76   37.20    0.63   -48.60   0.63   -48.60   0.76   37.20
     500  0.83   35.50    0.56   -54.00   0.56   -54.00   0.83   35.50
     550  0.89   33.80    0.49   -59.40   0.49   -59.40   0.89   33.80
     600  0.90   31.00    0.45   -62.10   0.45   -62.10   0.90   31.00
     650  0.92   28.20    0.41   -64.80   0.41   -64.80   0.92   28.20
     700  0.94   26.20    0.37   -67.50   0.37   -67.50   0.94   26.20
     750  0.96   24.20    0.33   -70.20   0.33   -70.20   0.96   24.20
     800  0.96   21.60    0.29   -72.10   0.29   -72.10   0.96   21.60
     850  0.95   19.00    0.26   -74.00   0.26   -74.00   0.95   19.00
     900  0.97   17.10    0.22   -75.60   0.22   -75.60   0.97   17.10
     950  1.00   15.10    0.19   -77.30   0.19   -77.30   1.00   15.10
    1000  1.00   13.30    0.16   -78.60   0.16   -78.60   1.00   13.30
    1050  1.00   11.40    0.13   -80.00   0.13   -80.00   1.00   11.40
    1100  1.00    9.80    0.11   -81.00   0.11   -81.00   1.00    9.80
    1150  1.00    8.10    0.08   -82.00   0.08   -82.00   1.00    8.10
    1200  1.00    6.80    0.05   -79.50   0.05   -79.50   1.00    6.80
    1250  1.00    5.50    0.03   -77.00   0.03   -77.00   1.00    5.50
    1300  1.00    3.50    0.02   -5.50    0.02   -5.50    1.00    3.50
    1350  1.00    1.60    0.02   65.90    0.02   65.90    1.00    1.60
    1400  1.00    0.50    0.04   72.50    0.04   72.50    1.00    0.50
    1450  1.00   -0.70    0.06   79.20    0.06   79.20    1.00   -0.70
    1500  1.00   -2.40    0.08   78.90    0.08   78.90    1.00   -2.40
    1550  1.00   -4.20    0.10   78.60    0.10   78.60    1.00   -4.20
    1600  0.99   -5.70    0.12   77.80    0.12   77.80    0.99   -5.70
    1650  0.99   -7.20    0.14   77.10    0.14   77.10    0.99   -7.20
    1700  0.99   -8.40    0.16   76.30    0.16   76.30    0.99   -8.40
    1750  0.98   -9.60    0.18   75.40    0.18   75.40    0.98   -9.60
    1800  0.98   -11.20   0.20   74.20    0.20   74.20    0.98   -11.20
    1850  0.98   -12.80   0.22   73.00    0.22   73.00    0.98   -12.80
    1900  0.97   -14.20   0.23   72.20    0.23   72.20    0.97   -14.20
    1950  0.96   -15.50   0.25   71.40    0.25   71.40    0.96   -15.50
    2000  0.95   -16.90   0.27   70.40    0.27   70.40    0.95   -16.90
    2050  0.95   -18.30   0.28   69.40    0.28   69.40    0.95   -18.30
    2100  0.94   -19.40   0.30   68.40    0.30   68.40    0.94   -19.40
    2150  0.94   -20.40   0.32   67.50    0.32   67.50    0.94   -20.40
    2200  0.93   -21.90   0.33   66.40    0.33   66.40    0.93   -21.90
    2250  0.93   -23.40   0.34   65.30    0.34   65.30    0.93   -23.40
    2300  0.92   -24.40   0.36   64.60    0.36   64.60    0.92   -24.40
    2350  0.92   -25.30   0.38   63.80    0.38   63.80    0.92   -25.30
    2400  0.91   -26.80   0.39   62.60    0.39   62.60    0.91   -26.80
    2450  0.90   -28.20   0.41   61.30    0.41   61.30    0.90   -28.20
    2500  0.90   -29.30   0.42   60.40    0.42   60.40    0.90   -29.30
    2550  0.89   -30.40   0.43   59.50    0.43   59.50    0.89   -30.40
    2600  0.88   -31.20   0.44   58.70    0.44   58.70    0.88   -31.20
    2650  0.88   -32.10   0.46   57.90    0.46   57.90    0.88   -32.10
    2700  0.87   -33.20   0.47   56.90    0.47   56.90    0.87   -33.20
    2750  0.86   -34.20   0.48   55.90    0.48   55.90    0.86   -34.20
    2800  0.86   -35.20   0.50   55.20    0.50   55.20    0.86   -35.20
    2850  0.85   -36.20   0.51   54.40    0.51   54.40    0.85   -36.20
    2900  0.84   -37.00   0.52   53.40    0.52   53.40    0.84   -37.00
    2950  0.84   -37.90   0.53   52.30    0.53   52.30    0.84   -37.90
    3000  0.83   -38.70   0.54   51.50    0.54   51.50    0.83   -38.70
    3050  0.82   -39.50   0.55   50.70    0.55   50.70    0.82   -39.50
    3100  0.81   -40.50   0.56   50.00    0.56   50.00    0.81   -40.50
    3150  0.81   -41.50   0.57   49.30    0.57   49.30    0.81   -41.50
    3200  0.80   -42.10   0.58   48.50    0.58   48.50    0.80   -42.10
    3250  0.79   -42.70   0.59   47.80    0.59   47.80    0.79   -42.70
    3300  0.78   -43.40   0.60   46.90    0.60   46.90    0.78   -43.40
    3350  0.77   -44.10   0.61   46.10    0.61   46.10    0.77   -44.10
    3400  0.76   -44.80   0.62   45.70    0.62   45.70    0.76   -44.80
    3450  0.75   -45.60   0.63   45.20    0.63   45.20    0.75   -45.60
    3500  0.75   -46.40   0.64   44.30    0.64   44.30    0.75   -46.40
    3550  0.74   -47.30   0.65   43.30    0.65   43.30    0.74   -47.30
    3600  0.73   -47.90   0.66   42.70    0.66   42.70    0.73   -47.90
    3650  0.72   -48.40   0.67   42.00    0.67   42.00    0.72   -48.40
    3700  0.71   -49.50   0.68   41.10    0.68   41.10    0.71   -49.50
    3750  0.71   -50.70   0.69   40.30    0.69   40.30    0.71   -50.70
    3800  0.70   -51.30   0.69   39.70    0.69   39.70    0.70   -51.30
    3850  0.69   -51.80   0.70   39.10    0.70   39.10    0.69   -51.80
    3900  0.68   -52.90   0.71   38.00    0.71   38.00    0.68   -52.90
    3950  0.67   -54.00   0.72   36.90    0.72   36.90    0.67   -54.00
    4000  0.66   -54.80   0.73   36.30    0.73   36.30    0.66   -54.80
    4050  0.65   -55.60   0.73   35.70    0.73   35.70    0.65   -55.60
    4100  0.64   -56.30   0.74   35.00    0.74   35.00    0.64   -56.30
    4150  0.63   -57.00   0.75   34.20    0.75   34.20    0.63   -57.00
    4200  0.62   -58.20   0.75   33.40    0.75   33.40    0.62   -58.20
    4250  0.62   -59.30   0.76   32.70    0.76   32.70    0.62   -59.30
    4300  0.61   -60.20   0.77   32.00    0.77   32.00    0.61   -60.20
    4350  0.59   -61.10   0.78   31.30    0.78   31.30    0.59   -61.10
    4400  0.58   -62.20   0.79   30.20    0.79   30.20    0.58   -62.20
    4450  0.57   -63.30   0.80   29.20    0.80   29.20    0.57   -63.30
    4500  0.56   -63.90   0.80   28.30    0.80   28.30    0.56   -63.90
    4550  0.54   -64.50   0.81   27.40    0.81   27.40    0.54   -64.50
    4600  0.53   -66.10   0.82   26.10    0.82   26.10    0.53   -66.10
    4650  0.52   -67.60   0.83   24.80    0.83   24.80    0.52   -67.60
    4700  0.50   -68.70   0.84   23.60    0.84   23.60    0.50   -68.70
    4750  0.48   -69.70   0.84   22.30    0.84   22.30    0.48   -69.70
    4800  0.45   -71.00   0.85   20.80    0.85   20.80    0.45   -71.00
    4850  0.43   -72.30   0.86   19.20    0.86   19.20    0.43   -72.30
    4900  0.40   -73.00   0.87   17.30    0.87   17.30    0.40   -73.00
    4950  0.38   -73.70   0.88   15.50    0.88   15.50    0.38   -73.70
    5000  0.34   -74.30   0.88   12.70    0.88   12.70    0.34   -74.30
    5050  0.30   -74.80   0.88   10.00    0.88   10.00    0.30   -74.80
    5100  0.24   -69.70   0.88    6.50    0.88    6.50    0.24   -69.70
    5150  0.19   -64.60   0.88    3.00    0.88    3.00    0.19   -64.60
    5200  0.17   -37.80   0.85   -2.00    0.85   -2.00    0.17   -37.80
    5250  0.16   -10.90   0.83   -7.00    0.83   -7.00    0.16   -10.90
    5300  0.27    0.60    0.75   -14.00   0.75   -14.00   0.27    0.60
    5350  0.38   12.20    0.67   -21.00   0.67   -21.00   0.38   12.20
    5400  0.51    4.60    0.52   -23.50   0.52   -23.50   0.51    4.60
    5450  0.65   -3.00    0.38   -26.00   0.38   -26.00   0.65   -3.00
    5500  0.72   -12.30   0.31   -4.30    0.31   -4.30    0.72   -12.30
    5550  0.79   -21.70   0.25   17.50    0.25   17.50    0.79   -21.70
    5600  0.79   -28.50   0.32   28.60    0.32   28.60    0.79   -28.50
    5650  0.79   -35.20   0.39   39.60    0.39   39.60    0.79   -35.20
    5700  0.78   -39.60   0.44   40.20    0.44   40.20    0.78   -39.60
    5750  0.77   -43.90   0.50   40.70    0.50   40.70    0.77   -43.90
    5800  0.75   -46.30   0.54   39.60    0.54   39.60    0.75   -46.30
    5850  0.73   -48.70   0.58   38.50    0.58   38.50    0.73   -48.70
    5900  0.72   -50.30   0.61   37.50    0.61   37.50    0.72   -50.30
    5950  0.70   -51.90   0.64   36.50    0.64   36.50    0.70   -51.90
    6000  0.69   -54.40   0.66   34.70    0.66   34.70    0.69   -54.40
    6050  0.67   -56.80   0.69   32.90    0.69   32.90    0.67   -56.80
    6100  0.66   -57.60   0.70   32.20    0.70   32.20    0.66   -57.60
    6150  0.65   -58.50   0.72   31.50    0.72   31.50    0.65   -58.50
    6200  0.64   -58.70   0.73   30.40    0.73   30.40    0.64   -58.70
    6250  0.62   -59.00   0.74   29.30    0.74   29.30    0.62   -59.00
    6300  0.62   -59.60   0.75   28.60    0.75   28.60    0.62   -59.60
    6350  0.61   -60.20   0.76   27.90    0.76   27.90    0.61   -60.20
    6400  0.60   -60.20   0.77   27.10    0.77   27.10    0.60   -60.20
    6450  0.58   -60.10   0.77   26.20    0.77   26.20    0.58   -60.10
    6500  0.58   -60.30   0.78   25.50    0.78   25.50    0.58   -60.30
    6550  0.57   -60.50   0.79   24.80    0.79   24.80    0.57   -60.50
    6600  0.56   -60.40   0.79   24.10    0.79   24.10    0.56   -60.40
    6650  0.55   -60.20   0.80   23.40    0.80   23.40    0.55   -60.20
    6700  0.55   -60.00   0.80   23.00    0.80   23.00    0.55   -60.00
    6750  0.54   -59.80   0.81   22.60    0.81   22.60    0.54   -59.80
    6800  0.54   -59.80   0.82   22.10    0.82   22.10    0.54   -59.80
    6850  0.53   -59.70   0.83   21.50    0.83   21.50    0.53   -59.70
    6900  0.52   -59.80   0.83   20.90    0.83   20.90    0.52   -59.80
    6950  0.51   -59.80   0.83   20.30    0.83   20.30    0.51   -59.80
    7000  0.51   -59.60   0.83   19.80    0.83   19.80    0.51   -59.60
    7050  0.50   -59.40   0.84   19.20    0.84   19.20    0.50   -59.40
    7100  0.49   -59.50   0.84   18.70    0.84   18.70    0.49   -59.50
    7150  0.48   -59.60   0.85   18.30    0.85   18.30    0.48   -59.60
    7200  0.47   -59.50   0.85   17.80    0.85   17.80    0.47   -59.50
    7250  0.47   -59.40   0.86   17.40    0.86   17.40    0.47   -59.40
    7300  0.47   -59.90   0.86   16.80    0.86   16.80    0.47   -59.90
    7350  0.46   -60.40   0.87   16.20    0.87   16.20    0.46   -60.40
    7400  0.45   -60.90   0.86   15.80    0.86   15.80    0.45   -60.90
    7450  0.44   -61.30   0.86   15.40    0.86   15.40    0.44   -61.30
    7500  0.44   -62.20   0.87   15.00    0.87   15.00    0.44   -62.20
    7550  0.43   -63.10   0.88   14.60    0.88   14.60    0.43   -63.10
    7600  0.42   -63.60   0.88   14.00    0.88   14.00    0.42   -63.60
    7650  0.41   -64.00   0.88   13.40    0.88   13.40    0.41   -64.00
    7700  0.40   -64.60   0.89   12.90    0.89   12.90    0.40   -64.60
    7750  0.39   -65.20   0.89   12.40    0.89   12.40    0.39   -65.20
    7800  0.38   -65.70   0.90   11.90    0.90   11.90    0.38   -65.70
    7850  0.38   -66.20   0.90   11.30    0.90   11.30    0.38   -66.20
    7900  0.37   -67.30   0.90   10.70    0.90   10.70    0.37   -67.30
    7950  0.36   -68.30   0.91   10.00    0.91   10.00    0.36   -68.30
    8000  0.35   -68.80   0.91    9.40    0.91    9.40    0.35   -68.80
    8050  0.34   -69.30   0.91    8.80    0.91    8.80    0.34   -69.30
    8100  0.33   -69.90   0.91    8.40    0.91    8.40    0.33   -69.90
    8150  0.32   -70.60   0.92    8.00    0.92    8.00    0.32   -70.60
    8200  0.31   -70.90   0.92    7.30    0.92    7.30    0.31   -70.90
    8250  0.30   -71.30   0.92    6.60    0.92    6.60    0.30   -71.30
    8300  0.30   -71.70   0.93    6.00    0.93    6.00    0.30   -71.70
    8350  0.29   -72.10   0.93    5.50    0.93    5.50    0.29   -72.10
    8400  0.28   -72.10   0.93    4.80    0.93    4.80    0.28   -72.10
    8450  0.27   -72.10   0.93    4.00    0.93    4.00    0.27   -72.10
    8500  0.26   -71.70   0.94    3.30    0.94    3.30    0.26   -71.70
    8550  0.25   -71.40   0.94    2.70    0.94    2.70    0.25   -71.40
    8600  0.24   -70.30   0.94    1.90    0.94    1.90    0.24   -70.30
    8650  0.23   -69.30   0.94    1.00    0.94    1.00    0.23   -69.30
    8700  0.22   -68.00   0.94    0.20    0.94    0.20    0.22   -68.00
    8750  0.21   -66.70   0.94   -0.60    0.94   -0.60    0.21   -66.70
    8800  0.20   -64.50   0.94   -1.20    0.94   -1.20    0.20   -64.50
    8850  0.19   -62.40   0.94   -1.90    0.94   -1.90    0.19   -62.40
    8900  0.18   -58.90   0.94   -2.90    0.94   -2.90    0.18   -58.90
    8950  0.17   -55.40   0.94   -4.00    0.94   -4.00    0.17   -55.40
    9000  0.16   -50.20   0.94   -5.10    0.94   -5.10    0.16   -50.20
    9050  0.16   -45.00   0.94   -6.20    0.94   -6.20    0.16   -45.00
    9100  0.15   -37.50   0.93   -7.50    0.93   -7.50    0.15   -37.50
    9150  0.14   -30.00   0.93   -8.80    0.93   -8.80    0.14   -30.00
    9200  0.15   -21.90   0.92   -10.40   0.92   -10.40   0.15   -21.90
    9250  0.16   -13.90   0.91   -11.90   0.91   -11.90   0.16   -13.90
    9300  0.18   -6.00    0.89   -13.70   0.89   -13.70   0.18   -6.00
    9350  0.20    2.00    0.88   -15.50   0.88   -15.50   0.20    2.00
    9400  0.24    4.10    0.84   -17.70   0.84   -17.70   0.24    4.10
    9450  0.28    6.10    0.80   -19.80   0.80   -19.80   0.28    6.10
    9500  0.34    4.40    0.74   -21.40   0.74   -21.40   0.34    4.40
    9550  0.40    2.70    0.68   -23.10   0.68   -23.10   0.40    2.70
    9600  0.46   -3.60    0.61   -20.60   0.61   -20.60   0.46   -3.60
    9650  0.52   -9.90    0.53   -18.10   0.53   -18.10   0.52   -9.90
    9700  0.54   -18.10   0.51   -8.10    0.51   -8.10    0.54   -18.10
    9750  0.57   -26.40   0.49    2.00    0.49    2.00    0.57   -26.40
    9800  0.56   -33.30   0.54    7.60    0.54    7.60    0.56   -33.30
    9850  0.55   -40.20   0.60   13.20    0.60   13.20    0.55   -40.20
    9900  0.52   -44.80   0.65   13.70    0.65   13.70    0.52   -44.80
    9950  0.49   -49.40   0.70   14.10    0.70   14.10    0.49   -49.40
   10000  0.47   -52.70   0.75   13.20    0.75   13.20    0.47   -52.70
   10050  0.44   -56.10   0.79   12.30    0.79   12.30    0.44   -56.10
   10100  0.41   -57.60   0.81   11.10    0.81   11.10    0.41   -57.60
   10150  0.39   -59.10   0.83    9.80    0.83    9.80    0.39   -59.10
   10200  0.37   -60.40   0.85    8.80    0.85    8.80    0.37   -60.40
   10250  0.35   -61.80   0.87    7.70    0.87    7.70    0.35   -61.80
   10300  0.33   -62.80   0.88    6.80    0.88    6.80    0.33   -62.80
   10350  0.32   -63.90   0.89    5.90    0.89    5.90    0.32   -63.90
   10400  0.30   -65.00   0.90    4.90    0.90    4.90    0.30   -65.00
   10450  0.28   -66.10   0.92    3.80    0.92    3.80    0.28   -66.10
   10500  0.28   -66.40   0.92    3.20    0.92    3.20    0.28   -66.40
   10550  0.27   -66.70   0.92    2.50    0.92    2.50    0.27   -66.70
   10600  0.25   -67.50   0.93    1.60    0.93    1.60    0.25   -67.50
   10650  0.23   -68.30   0.93    0.80    0.93    0.80    0.23   -68.30
   10700  0.23   -68.80   0.94    0.20    0.94    0.20    0.23   -68.80
   10750  0.22   -69.30   0.94   -0.30    0.94   -0.30    0.22   -69.30
   10800  0.21   -70.20   0.95   -0.70    0.95   -0.70    0.21   -70.20
   10850  0.20   -71.00   0.95   -1.20    0.95   -1.20    0.20   -71.00
   10900  0.19   -72.40   0.95   -2.00    0.95   -2.00    0.19   -72.40
   10950  0.18   -73.70   0.95   -2.80    0.95   -2.80    0.18   -73.70
   11000  0.17   -74.50   0.95   -3.20    0.95   -3.20    0.17   -74.50
   11050  0.17   -75.40   0.95   -3.70    0.95   -3.70    0.17   -75.40
   11100  0.16   -76.40   0.95   -4.20    0.95   -4.20    0.16   -76.40
   11150  0.16   -77.40   0.96   -4.70    0.96   -4.70    0.16   -77.40
   11200  0.16   -76.90   0.96   -5.20    0.96   -5.20    0.16   -76.90
   11250  0.15   -76.40   0.95   -5.70    0.95   -5.70    0.15   -76.40
   11300  0.15   -76.40   0.95   -6.40    0.95   -6.40    0.15   -76.40
   11350  0.15   -76.40   0.95   -7.00    0.95   -7.00    0.15   -76.40
   11400  0.15   -74.00   0.95   -7.40    0.95   -7.40    0.15   -74.00
   11450  0.14   -71.50   0.95   -7.70    0.95   -7.70    0.14   -71.50
   11500  0.14   -71.20   0.94   -8.20    0.94   -8.20    0.14   -71.20
   11550  0.14   -70.80   0.94   -8.70    0.94   -8.70    0.14   -70.80
   11600  0.14   -73.00   0.94   -8.60    0.94   -8.60    0.14   -73.00
   11650  0.14   -75.30   0.94   -8.40    0.94   -8.40    0.14   -75.30
   11700  0.13   -77.90   0.94   -8.50    0.94   -8.50    0.13   -77.90
   11750  0.12   -80.50   0.95   -8.50    0.95   -8.50    0.12   -80.50
   11800  0.11   -82.00   0.95   -8.90    0.95   -8.90    0.11   -82.00
   11850  0.09   -83.60   0.96   -9.20    0.96   -9.20    0.09   -83.60
   11900  0.08   -84.60   0.96   -9.70    0.96   -9.70    0.08   -84.60
   11950  0.07   -85.60   0.96   -10.30   0.96   -10.30   0.07   -85.60
   12000  0.07   -87.90   0.96   -10.90   0.96   -10.90   0.07   -87.90
   12050  0.06   -90.30   0.96   -11.50   0.96   -11.50   0.06   -90.30
   12100  0.06   -93.30   0.96   -12.00   0.96   -12.00   0.06   -93.30
   12150  0.05   -96.40   0.96   -12.50   0.96   -12.50   0.05   -96.40
   12200  0.05   -98.60   0.96   -12.90   0.96   -12.90   0.05   -98.60
   12250  0.05  -100.80   0.96   -13.30   0.96   -13.30   0.05  -100.80
   12300  0.04  -102.60   0.96   -13.80   0.96   -13.80   0.04  -102.60
   12350  0.04  -104.40   0.96   -14.30   0.96   -14.30   0.04  -104.40
   12400  0.04  -105.90   0.96   -14.70   0.96   -14.70   0.04  -105.90
   12450  0.04  -107.30   0.96   -15.10   0.96   -15.10   0.04  -107.30
   12500  0.03  -101.40   0.96   -15.50   0.96   -15.50   0.03  -101.40
   12550  0.02   -95.60   0.96   -15.90   0.96   -15.90   0.02   -95.60
   12600  0.02   -94.10   0.95   -16.30   0.95   -16.30   0.02   -94.10
   12650  0.02   -92.60   0.95   -16.70   0.95   -16.70   0.02   -92.60
   12700  0.02   -58.40   0.95   -17.10   0.95   -17.10   0.02   -58.40
   12750  0.02   -24.30   0.95   -17.40   0.95   -17.40   0.02   -24.30
   12800  0.02   -6.50    0.95   -17.90   0.95   -17.90   0.02   -6.50
   12850  0.03   11.40    0.95   -18.40   0.95   -18.40   0.03   11.40
   12900  0.04   16.20    0.95   -18.90   0.95   -18.90   0.04   16.20
   12950  0.05   21.00    0.95   -19.30   0.95   -19.30   0.05   21.00
   13000  0.06   23.70    0.95   -19.80   0.95   -19.80   0.06   23.70
   13050  0.06   26.30    0.94   -20.30   0.94   -20.30   0.06   26.30
   13100  0.08   26.10    0.94   -20.80   0.94   -20.80   0.08   26.10
   13150  0.09   25.80    0.94   -21.30   0.94   -21.30   0.09   25.80
   13200  0.10   29.50    0.94   -21.70   0.94   -21.70   0.10   29.50
   13250  0.11   33.20    0.93   -22.20   0.93   -22.20   0.11   33.20
   13300  0.12   34.20    0.93   -23.20   0.93   -23.20   0.12   34.20
   13350  0.13   35.20    0.92   -24.20   0.92   -24.20   0.13   35.20
   13400  0.15   34.40    0.92   -25.00   0.92   -25.00   0.15   34.40
   13450  0.17   33.70    0.91   -25.80   0.91   -25.80   0.17   33.70
   13500  0.18   33.70    0.90   -26.70   0.90   -26.70   0.18   33.70
   13550  0.19   33.60    0.89   -27.60   0.89   -27.60   0.19   33.60
   13600  0.21   31.50    0.88   -28.80   0.88   -28.80   0.21   31.50
   13650  0.23   29.40    0.86   -29.90   0.86   -29.90   0.23   29.40
   13700  0.26   26.50    0.84   -30.90   0.84   -30.90   0.26   26.50
   13750  0.28   23.60    0.81   -31.80   0.81   -31.80   0.28   23.60
   13800  0.31   18.30    0.77   -32.20   0.77   -32.20   0.31   18.30
   13850  0.33   13.00    0.74   -32.70   0.74   -32.70   0.33   13.00
   13900  0.36    6.00    0.70   -31.20   0.70   -31.20   0.36    6.00
