# MHZ S MA R 50

      50  0.14   74.70    0.98   -6.50    0.98   -6.50    0.14   74.70
     100  0.26   69.10    0.94   -13.90   0.94   -13.90   0.26   69.10
     150  0.39   63.60    0.90   -21.20   0.90   -21.20   0.39   63.60
     200  0.48   57.80    0.85   -27.50   0.85   -27.50   0.48   57.80
     250  0.58   52.00    0.80   -33.80   0.80   -33.80   0.58   52.00
     300  0.64   46.80    0.74   -39.10   0.74   -39.10   0.64   46.80
     350  0.71   41.60    0.67   -44.30   0.67   -44.30   0.71   41.60
     400  0.76   37.10    0.62   -48.70   0.62   -48.70   0.76   37.10
     450  0.81   32.60    0.56   -53.00   0.56   -53.00   0.81   32.60
     500  0.87   30.90    0.49   -58.30   0.49   -58.30   0.87   30.90
     550  0.93   29.30    0.42   -63.60   0.42   -63.60   0.93   29.30
     600  0.94   26.60    0.38   -66.20   0.38   -66.20   0.94   26.60
     650  0.94   23.90    0.34   -68.80   0.34   -68.80   0.94   23.90
     700  0.96   21.90    0.30   -71.30   0.30   -71.30   0.96   21.90
     750  0.98   20.00    0.26   -73.90   0.26   -73.90   0.98   20.00
     800  0.98   17.40    0.22   -75.60   0.22   -75.60   0.98   17.40
     850  0.97   14.90    0.19   -77.30   0.19   -77.30   0.97   14.90
     900  0.99   13.00    0.16   -78.60   0.16   -78.60   0.99   13.00
     950  1.00   11.10    0.13   -79.90   0.13   -79.90   1.00   11.10
    1000  1.00    9.30    0.10   -80.30   0.10   -80.30   1.00    9.30
    1050  1.00    7.60    0.07   -80.70   0.07   -80.70   1.00    7.60
    1100  1.00    5.90    0.04   -72.80   0.04   -72.80   1.00    5.90
    1150  1.00    4.30    0.02   -64.90   0.02   -64.90   1.00    4.30
    1200  1.00    3.00    0.03    5.50    0.03    5.50    1.00    3.00
    1250  1.00    1.70    0.04   75.80    0.04   75.80    1.00    1.70
    1300  1.00   -0.20    0.06   77.30    0.06   77.30    1.00   -0.20
    1350  1.00   -2.10    0.08   78.70    0.08   78.70    1.00   -2.10
    1400  1.00   -3.20    0.10   78.60    0.10   78.60    1.00   -3.20
    1450  1.00   -4.40    0.12   78.40    0.12   78.40    1.00   -4.40
    1500  0.99   -6.10    0.14   77.30    0.14   77.30    0.99   -6.10
    1550  0.99   -7.80    0.16   76.20    0.16   76.20    0.99   -7.80
    1600  0.98   -9.30    0.18   75.20    0.18   75.20    0.98   -9.30
    1650  0.98   -10.80   0.20   74.20    0.20   74.20    0.98   -10.80
    1700  0.97   -12.00   0.22   73.20    0.22   73.20    0.97   -12.00
    1750  0.96   -13.20   0.24   72.30    0.24   72.30    0.96   -13.20
    1800  0.96   -14.80   0.26   71.00    0.26   71.00    0.96   -14.80
    1850  0.96   -16.50   0.28   69.80    0.28   69.80    0.96   -16.50
    1900  0.95   -17.80   0.29   68.90    0.29   68.90    0.95   -17.80
    1950  0.94   -19.10   0.31   68.10    0.31   68.10    0.94   -19.10
    2000  0.94   -20.50   0.32   67.00    0.32   67.00    0.94   -20.50
    2050  0.93   -21.90   0.34   66.00    0.34   66.00    0.93   -21.90
    2100  0.92   -23.00   0.36   65.00    0.36   65.00    0.92   -23.00
    2150  0.92   -24.10   0.37   64.00    0.37   64.00    0.92   -24.10
    2200  0.91   -25.60   0.39   62.90    0.39   62.90    0.91   -25.60
    2250  0.90   -27.10   0.40   61.80    0.40   61.80    0.90   -27.10
    2300  0.90   -28.10   0.42   61.00    0.42   61.00    0.90   -28.10
    2350  0.89   -29.00   0.43   60.30    0.43   60.30    0.89   -29.00
    2400  0.88   -30.50   0.45   59.00    0.45   59.00    0.88   -30.50
    2450  0.87   -32.00   0.46   57.80    0.46   57.80    0.87   -32.00
    2500  0.87   -33.00   0.47   56.80    0.47   56.80    0.87   -33.00
    2550  0.86   -34.10   0.49   55.90    0.49   55.90    0.86   -34.10
    2600  0.85   -35.10   0.50   55.00    0.50   55.00    0.85   -35.10
    2650  0.85   -36.00   0.51   54.20    0.51   54.20    0.85   -36.00
    2700  0.84   -37.10   0.52   53.20    0.52   53.20    0.84   -37.10
    2750  0.83   -38.20   0.54   52.20    0.54   52.20    0.83   -38.20
    2800  0.82   -39.30   0.55   51.30    0.55   51.30    0.82   -39.30
    2850  0.81   -40.40   0.56   50.40    0.56   50.40    0.81   -40.40
    2900  0.80   -41.60   0.57   48.80    0.57   48.80    0.80   -41.60
    2950  0.78   -42.70   0.58   47.30    0.58   47.30    0.78   -42.70
    3000  0.77   -41.50   0.58   47.20    0.58   47.20    0.77   -41.50
    3050  0.77   -40.30   0.57   47.10    0.57   47.10    0.77   -40.30
    3100  0.77   -42.10   0.59   46.60    0.59   46.60    0.77   -42.10
    3150  0.77   -43.90   0.61   46.20    0.61   46.20    0.77   -43.90
    3200  0.76   -44.60   0.62   45.40    0.62   45.40    0.76   -44.60
    3250  0.75   -45.40   0.64   44.60    0.64   44.60    0.75   -45.40
    3300  0.74   -46.20   0.64   43.70    0.64   43.70    0.74   -46.20
    3350  0.74   -47.00   0.65   42.80    0.65   42.80    0.74   -47.00
    3400  0.73   -48.00   0.67   42.10    0.67   42.10    0.73   -48.00
    3450  0.72   -48.90   0.68   41.40    0.68   41.40    0.72   -48.90
    3500  0.70   -49.90   0.69   40.50    0.69   40.50    0.70   -49.90
    3550  0.69   -50.90   0.70   39.60    0.70   39.60    0.69   -50.90
    3600  0.68   -51.50   0.70   38.80    0.70   38.80    0.68   -51.50
    3650  0.67   -52.00   0.71   38.10    0.71   38.10    0.67   -52.00
    3700  0.67   -53.30   0.72   37.20    0.72   37.20    0.67   -53.30
    3750  0.66   -54.50   0.73   36.20    0.73   36.20    0.66   -54.50
    3800  0.65   -55.10   0.74   35.50    0.74   35.50    0.65   -55.10
    3850  0.63   -55.80   0.75   34.80    0.75   34.80    0.63   -55.80
    3900  0.62   -57.00   0.76   33.50    0.76   33.50    0.62   -57.00
    3950  0.61   -58.20   0.76   32.30    0.76   32.30    0.61   -58.20
    4000  0.60   -59.10   0.77   31.40    0.77   31.40    0.60   -59.10
    4050  0.58   -60.10   0.78   30.60    0.78   30.60    0.58   -60.10
    4100  0.56   -61.00   0.79   29.50    0.79   29.50    0.56   -61.00
    4150  0.55   -61.80   0.80   28.40    0.80   28.40    0.55   -61.80
    4200  0.53   -63.20   0.81   27.00    0.81   27.00    0.53   -63.20
    4250  0.52   -64.60   0.82   25.70    0.82   25.70    0.52   -64.60
    4300  0.49   -65.70   0.83   24.20    0.83   24.20    0.49   -65.70
    4350  0.47   -66.70   0.83   22.70    0.83   22.70    0.47   -66.70
    4400  0.43   -67.80   0.85   20.30    0.85   20.30    0.43   -67.80
    4450  0.40   -68.90   0.86   18.00    0.86   18.00    0.40   -68.90
    4500  0.35   -67.70   0.86   14.70    0.86   14.70    0.35   -67.70
    4550  0.31   -66.40   0.86   11.50    0.86   11.50    0.31   -66.40
    4600  0.25   -54.00   0.85    6.10    0.85    6.10    0.25   -54.00
    4650  0.20   -41.50   0.83    0.70    0.83    0.70    0.20   -41.50
    4700  0.28   -18.80   0.74   -6.80    0.74   -6.80    0.28   -18.80
    4750  0.35    4.00    0.66   -14.20   0.66   -14.20   0.35    4.00
    4800  0.51   -3.40    0.50   -12.10   0.50   -12.10   0.51   -3.40
    4850  0.66   -10.70   0.33   -9.90    0.33   -9.90    0.66   -10.70
    4900  0.72   -20.10   0.34   12.40    0.34   12.40    0.72   -20.10
    4950  0.78   -29.60   0.35   34.80    0.35   34.80    0.78   -29.60
    5000  0.77   -36.40   0.42   37.90    0.42   37.90    0.77   -36.40
    5050  0.76   -43.10   0.49   40.90    0.49   40.90    0.76   -43.10
    5100  0.74   -46.50   0.54   40.30    0.54   40.30    0.74   -46.50
    5150  0.72   -50.00   0.58   39.60    0.58   39.60    0.72   -50.00
    5200  0.71   -52.00   0.61   38.80    0.61   38.80    0.71   -52.00
    5250  0.70   -54.00   0.64   38.00    0.64   38.00    0.70   -54.00
    5300  0.69   -56.30   0.67   36.40    0.67   36.40    0.69   -56.30
    5350  0.68   -58.60   0.69   34.80    0.69   34.80    0.68   -58.60
    5400  0.67   -59.70   0.70   33.80    0.70   33.80    0.67   -59.70
    5450  0.65   -60.80   0.72   32.90    0.72   32.90    0.65   -60.80
    5500  0.64   -61.80   0.73   31.90    0.73   31.90    0.64   -61.80
    5550  0.63   -62.90   0.74   31.00    0.74   31.00    0.63   -62.90
    5600  0.62   -63.60   0.75   30.20    0.75   30.20    0.62   -63.60
    5650  0.61   -64.40   0.76   29.30    0.76   29.30    0.61   -64.40
    5700  0.60   -65.20   0.77   28.70    0.77   28.70    0.60   -65.20
    5750  0.59   -65.90   0.77   28.10    0.77   28.10    0.59   -65.90
    5800  0.58   -65.90   0.78   27.40    0.78   27.40    0.58   -65.90
    5850  0.57   -66.00   0.78   26.70    0.78   26.70    0.57   -66.00
    5900  0.56   -66.20   0.79   26.20    0.79   26.20    0.56   -66.20
    5950  0.56   -66.40   0.80   25.80    0.80   25.80    0.56   -66.40
    6000  0.55   -67.60   0.81   24.50    0.81   24.50    0.55   -67.60
    6050  0.53   -68.90   0.82   23.30    0.82   23.30    0.53   -68.90
    6100  0.53   -69.10   0.82   23.00    0.82   23.00    0.53   -69.10
    6150  0.52   -69.30   0.83   22.70    0.83   22.70    0.52   -69.30
    6200  0.51   -69.00   0.83   22.00    0.83   22.00    0.51   -69.00
    6250  0.51   -68.70   0.84   21.30    0.84   21.30    0.51   -68.70
    6300  0.50   -68.90   0.84   20.80    0.84   20.80    0.50   -68.90
    6350  0.50   -69.10   0.84   20.30    0.84   20.30    0.50   -69.10
    6400  0.49   -68.80   0.85   19.70    0.85   19.70    0.49   -68.80
    6450  0.48   -68.40   0.85   19.10    0.85   19.10    0.48   -68.40
    6500  0.47   -68.40   0.85   18.60    0.85   18.60    0.47   -68.40
    6550  0.47   -68.40   0.85   18.10    0.85   18.10    0.47   -68.40
    6600  0.46   -68.00   0.86   17.60    0.86   17.60    0.46   -68.00
    6650  0.45   -67.70   0.86   17.10    0.86   17.10    0.45   -67.70
    6700  0.44   -67.00   0.86   16.80    0.86   16.80    0.44   -67.00
    6750  0.44   -66.30   0.87   16.60    0.87   16.60    0.44   -66.30
    6800  0.44   -66.00   0.87   16.00    0.87   16.00    0.44   -66.00
    6850  0.43   -65.80   0.88   15.50    0.88   15.50    0.43   -65.80
    6900  0.42   -65.70   0.88   14.90    0.88   14.90    0.42   -65.70
    6950  0.42   -65.60   0.88   14.40    0.88   14.40    0.42   -65.60
    7000  0.41   -65.30   0.88   13.80    0.88   13.80    0.41   -65.30
    7050  0.40   -65.00   0.89   13.30    0.89   13.30    0.40   -65.00
    7100  0.39   -65.00   0.89   12.80    0.89   12.80    0.39   -65.00
    7150  0.38   -65.10   0.89   12.30    0.89   12.30    0.38   -65.10
    7200  0.37   -64.90   0.90   11.80    0.90   11.80    0.37   -64.90
    7250  0.37   -64.80   0.90   11.30    0.90   11.30    0.37   -64.80
    7300  0.36   -65.20   0.91   10.60    0.91   10.60    0.36   -65.20
    7350  0.35   -65.60   0.91   10.00    0.91   10.00    0.35   -65.60
    7400  0.34   -65.70   0.91    9.30    0.91    9.30    0.34   -65.70
    7450  0.33   -65.80   0.91    8.60    0.91    8.60    0.33   -65.80
    7500  0.32   -66.30   0.92    7.90    0.92    7.90    0.32   -66.30
    7550  0.31   -66.90   0.92    7.10    0.92    7.10    0.31   -66.90
    7600  0.30   -66.80   0.92    6.30    0.92    6.30    0.30   -66.80
    7650  0.28   -66.80   0.92    5.40    0.92    5.40    0.28   -66.80
    7700  0.27   -66.70   0.92    4.60    0.92    4.60    0.27   -66.70
    7750  0.26   -66.60   0.93    3.70    0.93    3.70    0.26   -66.60
    7800  0.24   -65.80   0.93    2.60    0.93    2.60    0.24   -65.80
    7850  0.22   -65.00   0.93    1.60    0.93    1.60    0.22   -65.00
    7900  0.21   -63.30   0.93    0.20    0.93    0.20    0.21   -63.30
    7950  0.19   -61.60   0.92   -1.10    0.92   -1.10    0.19   -61.60
    8000  0.17   -55.30   0.92   -2.70    0.92   -2.70    0.17   -55.30
    8050  0.16   -49.10   0.91   -4.40    0.91   -4.40    0.16   -49.10
    8100  0.15   -37.20   0.90   -6.40    0.90   -6.40    0.15   -37.20
    8150  0.14   -25.20   0.88   -8.40    0.88   -8.40    0.14   -25.20
    8200  0.17   -13.20   0.85   -10.90   0.85   -10.90   0.17   -13.20
    8250  0.20   -1.10    0.82   -13.40   0.82   -13.40   0.20   -1.10
    8300  0.27    0.10    0.76   -15.70   0.76   -15.70   0.27    0.10
    8350  0.34    1.40    0.70   -17.90   0.70   -17.90   0.34    1.40
    8400  0.41   -5.10    0.61   -15.30   0.61   -15.30   0.41   -5.10
    8450  0.49   -11.60   0.52   -12.70   0.52   -12.70   0.49   -11.60
    8500  0.53   -20.70   0.51   -2.10    0.51   -2.10    0.53   -20.70
    8550  0.57   -29.80   0.50    8.40    0.50    8.40    0.57   -29.80
    8600  0.57   -36.90   0.56   13.00    0.56   13.00    0.57   -36.90
    8650  0.57   -44.10   0.61   17.50    0.61   17.50    0.57   -44.10
    8700  0.55   -48.70   0.66   17.50    0.66   17.50    0.55   -48.70
    8750  0.53   -53.30   0.71   17.40    0.71   17.40    0.53   -53.30
    8800  0.50   -56.10   0.74   16.70    0.74   16.70    0.50   -56.10
    8850  0.48   -58.90   0.77   16.00    0.77   16.00    0.48   -58.90
    8900  0.46   -60.40   0.80   14.80    0.80   14.80    0.46   -60.40
    8950  0.44   -61.90   0.82   13.60    0.82   13.60    0.44   -61.90
    9000  0.43   -63.10   0.83   12.70    0.83   12.70    0.43   -63.10
    9050  0.41   -64.30   0.85   11.70    0.85   11.70    0.41   -64.30
    9100  0.40   -65.30   0.86   10.90    0.86   10.90    0.40   -65.30
    9150  0.38   -66.30   0.87   10.10    0.87   10.10    0.38   -66.30
    9200  0.37   -67.50   0.88    9.50    0.88    9.50    0.37   -67.50
    9250  0.36   -68.70   0.89    8.90    0.89    8.90    0.36   -68.70
    9300  0.34   -68.80   0.89    8.10    0.89    8.10    0.34   -68.80
    9350  0.33   -68.90   0.90    7.30    0.90    7.30    0.33   -68.90
    9400  0.32   -69.20   0.91    6.80    0.91    6.80    0.32   -69.20
    9450  0.31   -69.60   0.91    6.40    0.91    6.40    0.31   -69.60
    9500  0.30   -69.60   0.92    5.60    0.92    5.60    0.30   -69.60
    9550  0.29   -69.50   0.92    4.80    0.92    4.80    0.29   -69.50
    9600  0.28   -69.10   0.93    4.10    0.93    4.10    0.28   -69.10
    9650  0.28   -68.80   0.93    3.40    0.93    3.40    0.28   -68.80
    9700  0.27   -69.20   0.94    3.00    0.94    3.00    0.27   -69.20
    9750  0.26   -69.60   0.94    2.50    0.94    2.50    0.26   -69.60
    9800  0.25   -68.80   0.94    1.90    0.94    1.90    0.25   -68.80
    9850  0.24   -68.10   0.94    1.20    0.94    1.20    0.24   -68.10
    9900  0.23   -67.50   0.94    0.80    0.94    0.80    0.23   -67.50
    9950  0.22   -66.90   0.94    0.40    0.94    0.40    0.22   -66.90
   10000  0.22   -67.00   0.94    0.00    0.94    0.00    0.22   -67.00
   10050  0.21   -67.00   0.95   -0.40    0.95   -0.40    0.21   -67.00
   10100  0.20   -65.50   0.95   -0.80    0.95   -0.80    0.20   -65.50
   10150  0.19   -64.10   0.95   -1.10    0.95   -1.10    0.19   -64.10
   10200  0.18   -63.10   0.95   -1.50    0.95   -1.50    0.18   -63.10
   10250  0.18   -62.20   0.96   -2.00    0.96   -2.00    0.18   -62.20
   10300  0.17   -61.90   0.95   -2.40    0.95   -2.40    0.17   -61.90
   10350  0.17   -61.60   0.95   -2.80    0.95   -2.80    0.17   -61.60
   10400  0.16   -61.50   0.96   -3.40    0.96   -3.40    0.16   -61.50
   10450  0.15   -61.40   0.96   -3.90    0.96   -3.90    0.15   -61.40
   10500  0.15   -60.80   0.96   -4.30    0.96   -4.30    0.15   -60.80
   10550  0.15   -60.10   0.96   -4.70    0.96   -4.70    0.15   -60.10
   10600  0.14   -59.40   0.96   -5.20    0.96   -5.20    0.14   -59.40
   10650  0.12   -58.60   0.96   -5.70    0.96   -5.70    0.12   -58.60
   10700  0.12   -58.40   0.97   -6.20    0.97   -6.20    0.12   -58.40
   10750  0.11   -58.20   0.97   -6.60    0.97   -6.60    0.11   -58.20
   10800  0.11   -58.40   0.97   -6.90    0.97   -6.90    0.11   -58.40
   10850  0.10   -58.60   0.97   -7.10    0.97   -7.10    0.10   -58.60
   10900  0.09   -58.00   0.97   -7.80    0.97   -7.80    0.09   -58.00
   10950  0.09   -57.40   0.97   -8.50    0.97   -8.50    0.09   -57.40
   11000  0.08   -57.00   0.97   -8.90    0.97   -8.90    0.08   -57.00
   11050  0.07   -56.50   0.97   -9.40    0.97   -9.40    0.07   -56.50
   11100  0.07   -55.50   0.96   -9.90    0.96   -9.90    0.07   -55.50
   11150  0.07   -54.50   0.96   -10.40   0.96   -10.40   0.07   -54.50
   11200  0.06   -50.00   0.96   -11.00   0.96   -11.00   0.06   -50.00
   11250  0.06   -45.40   0.96   -11.60   0.96   -11.60   0.06   -45.40
   11300  0.06   -39.90   0.96   -12.30   0.96   -12.30   0.06   -39.90
   11350  0.06   -34.40   0.96   -13.00   0.96   -13.00   0.06   -34.40
   11400  0.06   -23.90   0.95   -13.60   0.95   -13.60   0.06   -23.90
   11450  0.06   -13.40   0.95   -14.20   0.95   -14.20   0.06   -13.40
   11500  0.07   -4.40    0.95   -15.10   0.95   -15.10   0.07   -4.40
   11550  0.08    4.70    0.94   -16.00   0.94   -16.00   0.08    4.70
   11600  0.09   10.00    0.94   -16.90   0.94   -16.90   0.09   10.00
   11650  0.10   15.40    0.93   -17.80   0.93   -17.80   0.10   15.40
   11700  0.13   17.90    0.92   -18.90   0.92   -18.90   0.13   17.90
   11750  0.14   20.50    0.90   -20.10   0.90   -20.10   0.14   20.50
   11800  0.17   20.50    0.88   -21.10   0.88   -21.10   0.17   20.50
   11850  0.19   20.50    0.86   -22.10   0.86   -22.10   0.19   20.50
   11900  0.22   17.20    0.82   -22.90   0.82   -22.90   0.22   17.20
   11950  0.25   13.90    0.78   -23.80   0.78   -23.80   0.25   13.90
   12000  0.28    5.90    0.74   -22.70   0.74   -22.70   0.28    5.90
   12050  0.32   -2.10    0.69   -21.60   0.69   -21.60   0.32   -2.10
   12100  0.33   -12.50   0.66   -17.00   0.66   -17.00   0.33   -12.50
   12150  0.34   -22.90   0.63   -12.40   0.63   -12.40   0.34   -22.90
   12200  0.34   -33.40   0.66   -8.10    0.66   -8.10    0.34   -33.40
   12250  0.33   -43.90   0.69   -3.80    0.69   -3.80    0.33   -43.90
   12300  0.31   -51.30   0.73   -2.80    0.73   -2.80    0.31   -51.30
   12350  0.29   -58.70   0.77   -1.80    0.77   -1.80    0.29   -58.70
   12400  0.27   -64.80   0.80   -2.20    0.80   -2.20    0.27   -64.80
   12450  0.26   -70.80   0.83   -2.70    0.83   -2.70    0.26   -70.80
   12500  0.24   -73.40   0.85   -3.50    0.85   -3.50    0.24   -73.40
   12550  0.22   -75.90   0.87   -4.20    0.87   -4.20    0.22   -75.90
   12600  0.21   -78.50   0.88   -4.90    0.88   -4.90    0.21   -78.50
   12650  0.20   -81.10   0.89   -5.60    0.89   -5.60    0.20   -81.10
   12700  0.19   -80.70   0.90   -6.30    0.90   -6.30    0.19   -80.70
   12750  0.18   -80.30   0.91   -7.00    0.91   -7.00    0.18   -80.30
   12800  0.17   -80.30   0.92   -7.60    0.92   -7.60    0.17   -80.30
   12850  0.16   -80.30   0.92   -8.20    0.92   -8.20    0.16   -80.30
   12900  0.15   -78.50   0.93   -8.80    0.93   -8.80    0.15   -78.50
   12950  0.14   -76.80   0.93   -9.40    0.93   -9.40    0.14   -76.80
   13000  0.14   -75.80   0.93   -9.90    0.93   -9.90    0.14   -75.80
   13050  0.13   -74.80   0.94   -10.30   0.94   -10.30   0.13   -74.80
   13100  0.13   -71.50   0.94   -10.90   0.94   -10.90   0.13   -71.50
   13150  0.12   -68.20   0.94   -11.40   0.94   -11.40   0.12   -68.20
   13200  0.11   -65.70   0.94   -11.70   0.94   -11.70   0.11   -65.70
   13250  0.10   -63.10   0.95   -12.00   0.95   -12.00   0.10   -63.10
   13300  0.09   -59.10   0.94   -12.70   0.94   -12.70   0.09   -59.10
   13350  0.09   -55.10   0.94   -13.40   0.94   -13.40   0.09   -55.10
   13400  0.08   -50.60   0.94   -14.00   0.94   -14.00   0.08   -50.60
   13450  0.08   -46.20   0.94   -14.50   0.94   -14.50   0.08   -46.20
   13500  0.07   -41.70   0.94   -15.00   0.94   -15.00   0.07   -41.70
   13550  0.07   -37.20   0.94   -15.40   0.94   -15.40   0.07   -37.20
   13600  0.07   -31.20   0.94   -15.90   0.94   -15.90   0.07   -31.20
   13650  0.07   -25.20   0.94   -16.30   0.94   -16.30   0.07   -25.20
   13700  0.07   -20.00   0.94   -16.60   0.94   -16.60   0.07   -20.00
   13750  0.08   -14.80   0.93   -16.80   0.93   -16.80   0.08   -14.80
   13800  0.09   -15.70   0.93   -16.80   0.93   -16.80   0.09   -15.70
   13850  0.09   -16.60   0.93   -16.70   0.93   -16.70   0.09   -16.60
   13900  0.10   -17.60   0.94   -17.00   0.94   -17.00   0.10   -17.60
