# MHZ S MA R 50

      50  0.00   19.60    1.00    1.10    1.00    1.10    0.00   19.60
     100  0.01   46.00    1.00    0.90    1.00    0.90    0.01   46.00
     150  0.01   72.40    1.00    0.60    1.00    0.60    0.01   72.40
     200  0.02   75.00    1.00    0.20    1.00    0.20    0.02   75.00
     250  0.02   77.50    1.00   -0.20    1.00   -0.20    0.02   77.50
     300  0.02   78.90    1.00   -0.60    1.00   -0.60    0.02   78.90
     350  0.03   80.30    1.00   -1.00    1.00   -1.00    0.03   80.30
     400  0.03   79.00    1.00   -1.20    1.00   -1.20    0.03   79.00
     450  0.04   77.70    0.99   -1.50    0.99   -1.50    0.04   77.70
     500  0.04   82.10    0.99   -2.00    0.99   -2.00    0.04   82.10
     550  0.05   86.60    0.99   -2.60    0.99   -2.60    0.05   86.60
     600  0.05   87.10    0.99   -3.00    0.99   -3.00    0.05   87.10
     650  0.06   87.60    0.99   -3.30    0.99   -3.30    0.06   87.60
     700  0.06   87.30    0.99   -3.70    0.99   -3.70    0.06   87.30
     750  0.06   87.10    0.99   -4.00    0.99   -4.00    0.06   87.10
     800  0.07   87.00    0.99   -4.40    0.99   -4.40    0.07   87.00
     850  0.07   86.90    0.99   -4.70    0.99   -4.70    0.07   86.90
     900  0.08   87.00    0.99   -5.10    0.99   -5.10    0.08   87.00
     950  0.08   87.10    0.99   -5.40    0.99   -5.40    0.08   87.10
    1000  0.09   86.40    0.99   -5.80    0.99   -5.80    0.09   86.40
    1050  0.09   85.70    0.99   -6.10    0.99   -6.10    0.09   85.70
    1100  0.10   85.70    0.99   -6.50    0.99   -6.50    0.10   85.70
    1150  0.10   85.70    0.99   -6.90    0.99   -6.90    0.10   85.70
    1200  0.11   85.40    0.99   -7.20    0.99   -7.20    0.11   85.40
    1250  0.11   85.10    0.99   -7.60    0.99   -7.60    0.11   85.10
    1300  0.11   84.80    0.99   -7.90    0.99   -7.90    0.11   84.80
    1350  0.12   84.50    0.99   -8.20    0.99   -8.20    0.12   84.50
    1400  0.12   84.00    0.99   -8.60    0.99   -8.60    0.12   84.00
    1450  0.13   83.40    0.98   -8.90    0.98   -8.90    0.13   83.40
    1500  0.13   83.00    0.98   -9.30    0.98   -9.30    0.13   83.00
    1550  0.14   82.60    0.98   -9.70    0.98   -9.70    0.14   82.60
    1600  0.14   81.90    0.98   -10.00   0.98   -10.00   0.14   81.90
    1650  0.15   81.20    0.98   -10.40   0.98   -10.40   0.15   81.20
    1700  0.15   81.20    0.98   -10.80   0.98   -10.80   0.15   81.20
    1750  0.15   81.10    0.98   -11.10   0.98   -11.10   0.15   81.10
    1800  0.16   80.20    0.98   -11.40   0.98   -11.40   0.16   80.20
    1850  0.16   79.30    0.98   -11.70   0.98   -11.70   0.16   79.30
    1900  0.17   78.70    0.98   -12.00   0.98   -12.00   0.17   78.70
    1950  0.17   78.00    0.98   -12.30   0.98   -12.30   0.17   78.00
    2000  0.17   77.40    0.98   -12.70   0.98   -12.70   0.17   77.40
    2050  0.18   76.80    0.98   -13.20   0.98   -13.20   0.18   76.80
    2100  0.18   76.10    0.98   -13.40   0.98   -13.40   0.18   76.10
    2150  0.19   75.40    0.98   -13.70   0.98   -13.70   0.19   75.40
    2200  0.19   75.00    0.97   -14.10   0.97   -14.10   0.19   75.00
    2250  0.19   74.50    0.97   -14.50   0.97   -14.50   0.19   74.50
    2300  0.20   74.00    0.97   -14.70   0.97   -14.70   0.20   74.00
    2350  0.20   73.50    0.97   -14.90   0.97   -14.90   0.20   73.50
    2400  0.21   73.10    0.97   -15.30   0.97   -15.30   0.21   73.10
    2450  0.21   72.70    0.97   -15.70   0.97   -15.70   0.21   72.70
    2500  0.22   72.10    0.96   -16.10   0.96   -16.10   0.22   72.10
    2550  0.22   71.50    0.96   -16.40   0.96   -16.40   0.22   71.50
    2600  0.22   71.20    0.96   -16.70   0.96   -16.70   0.22   71.20
    2650  0.23   70.80    0.96   -16.90   0.96   -16.90   0.23   70.80
    2700  0.23   70.50    0.96   -17.20   0.96   -17.20   0.23   70.50
    2750  0.24   70.10    0.96   -17.60   0.96   -17.60   0.24   70.10
    2800  0.24   69.60    0.96   -17.80   0.96   -17.80   0.24   69.60
    2850  0.25   69.00    0.96   -18.10   0.96   -18.10   0.25   69.00
    2900  0.25   68.80    0.96   -18.60   0.96   -18.60   0.25   68.80
    2950  0.26   68.60    0.96   -19.10   0.96   -19.10   0.26   68.60
    3000  0.26   68.20    0.95   -19.40   0.95   -19.40   0.26   68.20
    3050  0.27   67.80    0.95   -19.60   0.95   -19.60   0.27   67.80
    3100  0.27   67.00    0.95   -20.10   0.95   -20.10   0.27   67.00
    3150  0.28   66.20    0.94   -20.60   0.94   -20.60   0.28   66.20
    3200  0.28   66.10    0.94   -20.70   0.94   -20.70   0.28   66.10
    3250  0.29   65.90    0.95   -20.80   0.95   -20.80   0.29   65.90
    3300  0.29   65.80    0.94   -21.30   0.94   -21.30   0.29   65.80
    3350  0.30   65.60    0.94   -21.80   0.94   -21.80   0.30   65.60
    3400  0.30   65.10    0.94   -22.10   0.94   -22.10   0.30   65.10
    3450  0.31   64.50    0.94   -22.30   0.94   -22.30   0.31   64.50
    3500  0.31   64.40    0.94   -22.60   0.94   -22.60   0.31   64.40
    3550  0.31   64.30    0.94   -22.80   0.94   -22.80   0.31   64.30
    3600  0.32   64.10    0.94   -23.20   0.94   -23.20   0.32   64.10
    3650  0.32   63.80    0.94   -23.60   0.94   -23.60   0.32   63.80
    3700  0.33   63.20    0.93   -24.00   0.93   -24.00   0.33   63.20
    3750  0.33   62.60    0.93   -24.40   0.93   -24.40   0.33   62.60
    3800  0.34   62.30    0.93   -24.70   0.93   -24.70   0.34   62.30
    3850  0.34   62.00    0.93   -24.90   0.93   -24.90   0.34   62.00
    3900  0.35   61.60    0.93   -25.50   0.93   -25.50   0.35   61.60
    3950  0.35   61.20    0.93   -26.00   0.93   -26.00   0.35   61.20
    4000  0.36   60.60    0.92   -26.30   0.92   -26.30   0.36   60.60
    4050  0.36   60.10    0.92   -26.60   0.92   -26.60   0.36   60.10
    4100  0.37   59.60    0.92   -27.10   0.92   -27.10   0.37   59.60
    4150  0.38   59.10    0.92   -27.60   0.92   -27.60   0.38   59.10
    4200  0.38   58.40    0.92   -27.90   0.92   -27.90   0.38   58.40
    4250  0.39   57.80    0.91   -28.30   0.91   -28.30   0.39   57.80
    4300  0.39   57.30    0.91   -28.60   0.91   -28.60   0.39   57.30
    4350  0.40   56.70    0.91   -28.90   0.91   -28.90   0.40   56.70
    4400  0.40   56.10    0.90   -29.30   0.90   -29.30   0.40   56.10
    4450  0.41   55.50    0.90   -29.80   0.90   -29.80   0.41   55.50
    4500  0.41   54.80    0.90   -30.40   0.90   -30.40   0.41   54.80
    4550  0.42   54.10    0.89   -31.10   0.89   -31.10   0.42   54.10
    4600  0.43   53.40    0.89   -31.40   0.89   -31.40   0.43   53.40
    4650  0.43   52.70    0.89   -31.80   0.89   -31.80   0.43   52.70
    4700  0.44   52.30    0.89   -32.10   0.89   -32.10   0.44   52.30
    4750  0.44   51.80    0.88   -32.50   0.88   -32.50   0.44   51.80
    4800  0.45   51.10    0.88   -33.00   0.88   -33.00   0.45   51.10
    4850  0.45   50.30    0.88   -33.50   0.88   -33.50   0.45   50.30
    4900  0.46   50.00    0.88   -33.80   0.88   -33.80   0.46   50.00
    4950  0.47   49.60    0.87   -34.20   0.87   -34.20   0.47   49.60
    5000  0.47   48.90    0.87   -34.70   0.87   -34.70   0.47   48.90
    5050  0.48   48.20    0.87   -35.20   0.87   -35.20   0.48   48.20
    5100  0.48   47.60    0.87   -35.70   0.87   -35.70   0.48   47.60
    5150  0.48   47.00    0.86   -36.30   0.86   -36.30   0.48   47.00
    5200  0.49   47.00    0.86   -36.60   0.86   -36.60   0.49   47.00
    5250  0.49   47.00    0.85   -36.80   0.85   -36.80   0.49   47.00
    5300  0.50   46.50    0.85   -37.20   0.85   -37.20   0.50   46.50
    5350  0.51   46.00    0.85   -37.50   0.85   -37.50   0.51   46.00
    5400  0.51   45.50    0.85   -38.20   0.85   -38.20   0.51   45.50
    5450  0.52   45.00    0.84   -38.90   0.84   -38.90   0.52   45.00
    5500  0.52   44.70    0.84   -39.20   0.84   -39.20   0.52   44.70
    5550  0.53   44.50    0.84   -39.50   0.84   -39.50   0.53   44.50
    5600  0.54   44.10    0.84   -40.20   0.84   -40.20   0.54   44.10
    5650  0.54   43.70    0.83   -40.80   0.83   -40.80   0.54   43.70
    5700  0.55   43.40    0.83   -41.40   0.83   -41.40   0.55   43.40
    5750  0.55   43.00    0.83   -42.00   0.83   -42.00   0.55   43.00
    5800  0.56   42.70    0.82   -42.50   0.82   -42.50   0.56   42.70
    5850  0.56   42.40    0.81   -42.90   0.81   -42.90   0.56   42.40
    5900  0.57   42.70    0.81   -43.30   0.81   -43.30   0.57   42.70
    5950  0.57   42.90    0.80   -43.60   0.80   -43.60   0.57   42.90
    6000  0.57   42.30    0.81   -43.90   0.81   -43.90   0.57   42.30
    6050  0.57   41.70    0.81   -44.10   0.81   -44.10   0.57   41.70
    6100  0.58   41.90    0.81   -44.40   0.81   -44.40   0.58   41.90
    6150  0.58   42.10    0.80   -44.80   0.80   -44.80   0.58   42.10
    6200  0.59   42.40    0.80   -45.30   0.80   -45.30   0.59   42.40
    6250  0.60   42.70    0.80   -45.70   0.80   -45.70   0.60   42.70
    6300  0.60   42.90    0.79   -46.20   0.79   -46.20   0.60   42.90
    6350  0.61   43.10    0.78   -46.60   0.78   -46.60   0.61   43.10
    6400  0.61   43.40    0.78   -47.10   0.78   -47.10   0.61   43.40
    6450  0.61   43.70    0.77   -47.60   0.77   -47.60   0.61   43.70
    6500  0.62   43.60    0.77   -48.20   0.77   -48.20   0.62   43.60
    6550  0.62   43.50    0.76   -48.70   0.76   -48.70   0.62   43.50
    6600  0.63   43.60    0.76   -49.30   0.76   -49.30   0.63   43.60
    6650  0.64   43.80    0.76   -49.90   0.76   -49.90   0.64   43.80
    6700  0.64   43.90    0.75   -50.20   0.75   -50.20   0.64   43.90
    6750  0.64   44.00    0.75   -50.60   0.75   -50.60   0.64   44.00
    6800  0.65   43.90    0.74   -50.90   0.74   -50.90   0.65   43.90
    6850  0.66   43.90    0.74   -51.20   0.74   -51.20   0.66   43.90
    6900  0.67   43.40    0.74   -52.00   0.74   -52.00   0.67   43.40
    6950  0.67   42.90    0.73   -52.70   0.73   -52.70   0.67   42.90
    7000  0.68   43.00    0.72   -53.20   0.72   -53.20   0.68   43.00
    7050  0.68   43.00    0.72   -53.70   0.72   -53.70   0.68   43.00
    7100  0.69   42.60    0.71   -54.30   0.71   -54.30   0.69   42.60
    7150  0.69   42.20    0.71   -54.80   0.71   -54.80   0.69   42.20
    7200  0.69   42.00    0.70   -55.20   0.70   -55.20   0.69   42.00
    7250  0.70   41.80    0.69   -55.60   0.69   -55.60   0.70   41.80
    7300  0.71   41.40    0.69   -55.90   0.69   -55.90   0.71   41.40
    7350  0.72   41.00    0.69   -56.20   0.69   -56.20   0.72   41.00
    7400  0.72   40.30    0.68   -56.90   0.68   -56.90   0.72   40.30
    7450  0.72   39.60    0.68   -57.60   0.68   -57.60   0.72   39.60
    7500  0.73   39.00    0.67   -57.80   0.67   -57.80   0.73   39.00
    7550  0.74   38.40    0.67   -58.10   0.67   -58.10   0.74   38.40
    7600  0.74   37.30    0.66   -58.70   0.66   -58.70   0.74   37.30
    7650  0.75   36.30    0.66   -59.30   0.66   -59.30   0.75   36.30
    7700  0.75   35.20    0.65   -59.80   0.65   -59.80   0.75   35.20
    7750  0.75   34.00    0.64   -60.40   0.64   -60.40   0.75   34.00
    7800  0.75   33.30    0.63   -60.70   0.63   -60.70   0.75   33.30
    7850  0.75   32.60    0.63   -61.00   0.63   -61.00   0.75   32.60
    7900  0.76   31.10    0.63   -61.50   0.63   -61.50   0.76   31.10
    7950  0.77   29.60    0.62   -61.90   0.62   -61.90   0.77   29.60
    8000  0.78   28.40    0.62   -62.50   0.62   -62.50   0.78   28.40
    8050  0.78   27.20    0.61   -63.00   0.61   -63.00   0.78   27.20
    8100  0.78   25.80    0.60   -63.50   0.60   -63.50   0.78   25.80
    8150  0.78   24.40    0.59   -64.10   0.59   -64.10   0.78   24.40
    8200  0.78   23.50    0.59   -64.30   0.59   -64.30   0.78   23.50
    8250  0.79   22.50    0.58   -64.50   0.58   -64.50   0.79   22.50
    8300  0.79   21.30    0.57   -64.80   0.57   -64.80   0.79   21.30
    8350  0.79   20.00    0.57   -65.20   0.57   -65.20   0.79   20.00
    8400  0.80   19.00    0.56   -65.60   0.56   -65.60   0.80   19.00
    8450  0.80   17.90    0.56   -66.00   0.56   -66.00   0.80   17.90
    8500  0.80   16.90    0.55   -66.20   0.55   -66.20   0.80   16.90
    8550  0.80   15.80    0.54   -66.30   0.54   -66.30   0.80   15.80
    8600  0.81   14.80    0.54   -66.60   0.54   -66.60   0.81   14.80
    8650  0.82   13.90    0.53   -66.90   0.53   -66.90   0.82   13.90
    8700  0.82   13.10    0.52   -66.90   0.52   -66.90   0.82   13.10
    8750  0.83   12.30    0.51   -67.00   0.51   -67.00   0.83   12.30
    8800  0.83   11.30    0.51   -67.10   0.51   -67.10   0.83   11.30
    8850  0.83   10.20    0.50   -67.20   0.50   -67.20   0.83   10.20
    8900  0.83   10.30    0.50   -67.20   0.50   -67.20   0.83   10.30
    8950  0.83   10.50    0.50   -67.20   0.50   -67.20   0.83   10.50
    9000  0.84    9.90    0.49   -67.70   0.49   -67.70   0.84    9.90
    9050  0.84    9.40    0.49   -68.20   0.49   -68.20   0.84    9.40
    9100  0.85    8.80    0.48   -68.90   0.48   -68.90   0.85    8.80
    9150  0.85    8.30    0.48   -69.60   0.48   -69.60   0.85    8.30
    9200  0.85    7.70    0.47   -69.90   0.47   -69.90   0.85    7.70
    9250  0.84    7.00    0.46   -70.20   0.46   -70.20   0.84    7.00
    9300  0.85    7.40    0.46   -70.30   0.46   -70.30   0.85    7.40
    9350  0.85    7.70    0.46   -70.50   0.46   -70.50   0.85    7.70
    9400  0.86    6.90    0.45   -71.00   0.45   -71.00   0.86    6.90
    9450  0.86    6.10    0.44   -71.60   0.44   -71.60   0.86    6.10
    9500  0.86    6.30    0.44   -71.90   0.44   -71.90   0.86    6.30
    9550  0.87    6.40    0.43   -72.20   0.43   -72.20   0.87    6.40
    9600  0.87    6.00    0.43   -72.90   0.43   -72.90   0.87    6.00
    9650  0.88    5.50    0.42   -73.60   0.42   -73.60   0.88    5.50
    9700  0.88    5.40    0.41   -73.80   0.41   -73.80   0.88    5.40
    9750  0.88    5.30    0.41   -74.00   0.41   -74.00   0.88    5.30
    9800  0.89    5.20    0.40   -74.50   0.40   -74.50   0.89    5.20
    9850  0.90    5.00    0.40   -75.10   0.40   -75.10   0.90    5.00
    9900  0.90    4.50    0.39   -76.00   0.39   -76.00   0.90    4.50
    9950  0.90    4.00    0.38   -76.90   0.38   -76.90   0.90    4.00
   10000  0.90    3.90    0.37   -76.90   0.37   -76.90   0.90    3.90
   10050  0.90    3.70    0.37   -76.80   0.37   -76.80   0.90    3.70
   10100  0.91    3.50    0.36   -77.70   0.36   -77.70   0.91    3.50
   10150  0.91    3.30    0.35   -78.50   0.35   -78.50   0.91    3.30
   10200  0.91    3.00    0.35   -78.80   0.35   -78.80   0.91    3.00
   10250  0.92    2.70    0.34   -79.10   0.34   -79.10   0.92    2.70
   10300  0.92    2.20    0.33   -79.40   0.33   -79.40   0.92    2.20
   10350  0.92    1.60    0.32   -79.80   0.32   -79.80   0.92    1.60
   10400  0.92    1.30    0.31   -80.10   0.31   -80.10   0.92    1.30
   10450  0.92    1.00    0.31   -80.50   0.31   -80.50   0.92    1.00
   10500  0.93    0.40    0.30   -80.90   0.30   -80.90   0.93    0.40
   10550  0.93   -0.20    0.29   -81.40   0.29   -81.40   0.93   -0.20
   10600  0.93   -0.90    0.28   -81.90   0.28   -81.90   0.93   -0.90
   10650  0.93   -1.70    0.28   -82.40   0.28   -82.40   0.93   -1.70
   10700  0.94   -1.90    0.27   -82.80   0.27   -82.80   0.94   -1.90
   10750  0.94   -2.20    0.26   -83.20   0.26   -83.20   0.94   -2.20
   10800  0.94   -2.90    0.25   -83.60   0.25   -83.60   0.94   -2.90
   10850  0.94   -3.50    0.24   -84.00   0.24   -84.00   0.94   -3.50
   10900  0.95   -4.50    0.24   -84.60   0.24   -84.60   0.95   -4.50
   10950  0.96   -5.40    0.23   -85.10   0.23   -85.10   0.96   -5.40
   11000  0.94   -6.40    0.22   -86.30   0.22   -86.30   0.94   -6.40
   11050  0.92   -7.30    0.21   -87.40   0.21   -87.40   0.92   -7.30
   11100  0.94   -7.80    0.20   -87.30   0.20   -87.30   0.94   -7.80
   11150  0.96   -8.40    0.19   -87.10   0.19   -87.10   0.96   -8.40
   11200  0.95   -9.30    0.18   -88.00   0.18   -88.00   0.95   -9.30
   11250  0.94   -10.20   0.17   -88.90   0.17   -88.90   0.94   -10.20
   11300  0.95   -11.30   0.16   -89.30   0.16   -89.30   0.95   -11.30
   11350  0.95   -12.40   0.16   -89.70   0.16   -89.70   0.95   -12.40
   11400  0.95   -12.10   0.14   -89.40   0.14   -89.40   0.95   -12.10
   11450  0.95   -11.90   0.14   -89.10   0.14   -89.10   0.95   -11.90
   11500  0.95   -13.00   0.13   -89.50   0.13   -89.50   0.95   -13.00
   11550  0.96   -14.10   0.12   -89.90   0.12   -89.90   0.96   -14.10
   11600  0.96   -14.00   0.11   -89.60   0.11   -89.60   0.96   -14.00
   11650  0.96   -14.00   0.10   -89.30   0.10   -89.30   0.96   -14.00
   11700  0.96   -14.60   0.09   -89.20   0.09   -89.20   0.96   -14.60
   11750  0.96   -15.30   0.09   -89.20   0.09   -89.20   0.96   -15.30
   11800  0.97   -15.60   0.08   -88.50   0.08   -88.50   0.97   -15.60
   11850  0.98   -15.90   0.07   -87.80   0.07   -87.80   0.98   -15.90
   11900  0.96   -16.00   0.06   -86.50   0.06   -86.50   0.96   -16.00
   11950  0.94   -16.00   0.05   -85.10   0.05   -85.10   0.94   -16.00
   12000  0.96   -17.20   0.04   -82.50   0.04   -82.50   0.96   -17.20
   12050  0.98   -18.40   0.03   -79.90   0.03   -79.90   0.98   -18.40
   12100  0.96   -19.20   0.03   -69.80   0.03   -69.80   0.96   -19.20
   12150  0.95   -20.10   0.02   -59.80   0.02   -59.80   0.95   -20.10
   12200  0.95   -20.80   0.01   -22.40   0.01   -22.40   0.95   -20.80
   12250  0.95   -21.40   0.01   15.10    0.01   15.10    0.95   -21.40
   12300  0.95   -21.40   0.02   34.70    0.02   34.70    0.95   -21.40
   12350  0.95   -21.30   0.03   54.30    0.03   54.30    0.95   -21.30
   12400  0.94   -22.70   0.04   58.30    0.04   58.30    0.94   -22.70
   12450  0.94   -24.10   0.05   62.30    0.05   62.30    0.94   -24.10
   12500  0.94   -23.50   0.06   63.80    0.06   63.80    0.94   -23.50
   12550  0.95   -23.00   0.07   65.30    0.07   65.30    0.95   -23.00
   12600  0.94   -23.40   0.08   65.40    0.08   65.40    0.94   -23.40
   12650  0.94   -23.90   0.09   65.40    0.09   65.40    0.94   -23.90
   12700  0.95   -24.10   0.10   64.80    0.10   64.80    0.95   -24.10
   12750  0.95   -24.30   0.11   64.20    0.11   64.20    0.95   -24.30
   12800  0.95   -24.00   0.12   64.00    0.12   64.00    0.95   -24.00
   12850  0.95   -23.80   0.13   63.90    0.13   63.90    0.95   -23.80
   12900  0.95   -24.30   0.14   62.80    0.14   62.80    0.95   -24.30
   12950  0.95   -24.90   0.15   61.80    0.15   61.80    0.95   -24.90
   13000  0.95   -24.60   0.16   61.70    0.16   61.70    0.95   -24.60
   13050  0.95   -24.40   0.17   61.60    0.17   61.60    0.95   -24.40
   13100  0.94   -25.20   0.17   60.60    0.17   60.60    0.94   -25.20
   13150  0.94   -26.00   0.18   59.60    0.18   59.60    0.94   -26.00
   13200  0.94   -26.30   0.19   59.20    0.19   59.20    0.94   -26.30
   13250  0.94   -26.60   0.20   58.80    0.20   58.80    0.94   -26.60
   13300  0.91   -25.60   0.21   57.90    0.21   57.90    0.91   -25.60
   13350  0.88   -24.60   0.22   57.00    0.22   57.00    0.88   -24.60
   13400  0.90   -26.90   0.23   56.20    0.23   56.20    0.90   -26.90
   13450  0.91   -29.20   0.24   55.30    0.24   55.30    0.91   -29.20
   13500  0.90   -29.90   0.25   54.70    0.25   54.70    0.90   -29.90
   13550  0.89   -30.50   0.25   54.00    0.25   54.00    0.89   -30.50
   13600  0.89   -31.80   0.26   53.10    0.26   53.10    0.89   -31.80
   13650  0.89   -33.10   0.27   52.10    0.27   52.10    0.89   -33.10
   13700  0.88   -33.70   0.28   51.60    0.28   51.60    0.88   -33.70
   13750  0.88   -34.40   0.29   51.10    0.29   51.10    0.88   -34.40
   13800  0.87   -35.80   0.29   50.30    0.29   50.30    0.87   -35.80
   13850  0.87   -37.10   0.30   49.40    0.30   49.40    0.87   -37.10
   13900  0.87   -38.10   0.31   48.70    0.31   48.70    0.87   -38.10
   13950  0.87   -39.00   0.32   48.10    0.32   48.10    0.87   -39.00
   14000  0.87   -39.70   0.32   47.90    0.32   47.90    0.87   -39.70
