# MHZ S MA R 50									

50	0.60	132.90	0.74	38.60	0.74	38.60	0.60	132.90	
100	0.43	120.80	0.85	26.90	0.85	26.90	0.43	120.80	
150	0.26	108.70	0.95	15.30	0.95	15.30	0.26	108.70	
200	0.20	105.90	0.97	11.70	0.97	11.70	0.20	105.90	
250	0.15	103.10	0.98	8.10	0.98	8.10	0.15	103.10	
300	0.12	103.10	0.99	6.00	0.99	6.00	0.12	103.10	
350	0.09	103.10	0.99	4.00	0.99	4.00	0.09	103.10	
400	0.07	102.50	1.00	2.70	1.00	2.70	0.07	102.50	
450	0.05	101.90	1.00	1.40	1.00	1.40	0.05	101.90	
500	0.04	106.30	1.00	0.10	1.00	0.10	0.04	106.30	
550	0.03	110.60	1.00	-1.20	1.00	-1.20	0.03	110.60	
600	0.02	129.80	1.00	-2.10	1.00	-2.10	0.02	129.80	
650	0.01	149.00	1.00	-3.10	1.00	-3.10	0.01	149.00	
700	0.02	1.70	1.00	-3.90	1.00	-3.90	0.02	1.70	
750	0.02	-145.70	1.00	-4.70	1.00	-4.70	0.02	-145.70
800	0.02	-135.80	1.00	-5.50	1.00	-5.50	0.02	-135.80
850	0.03	-125.90	1.00	-6.30	1.00	-6.30	0.03	-125.90
900	0.03	-122.20	1.00	-7.10	1.00	-7.10	0.03	-122.20
950	0.04	-118.50	1.00	-7.90	1.00	-7.90	0.04	-118.50
1000	0.05	-117.40	1.00	-8.60	1.00	-8.60	0.05	-117.40
1050	0.05	-116.20	1.00	-9.30	1.00	-9.30	0.05	-116.20
1100	0.06	-115.40	1.00	-10.00	1.00	-10.00	0.06	-115.40
1150	0.06	-114.70	1.00	-10.80	1.00	-10.80	0.06	-114.70
1200	0.07	-114.80	1.00	-11.50	1.00	-11.50	0.07	-114.80
1250	0.07	-114.90	1.00	-12.20	1.00	-12.20	0.07	-114.90
1300	0.08	-116.00	1.00	-12.90	1.00	-12.90	0.08	-116.00
1350	0.08	-117.20	1.00	-13.60	1.00	-13.60	0.08	-117.20
1400	0.09	-117.00	1.00	-14.30	1.00	-14.30	0.09	-117.00
1450	0.09	-116.70	1.00	-15.00	1.00	-15.00	0.09	-116.70
1500	0.10	-117.20	0.99	-15.70	0.99	-15.70	0.10	-117.20
1550	0.10	-117.70	0.99	-16.40	0.99	-16.40	0.10	-117.70
1600	0.11	-117.70	0.99	-17.20	0.99	-17.20	0.11	-117.70
1650	0.11	-117.70	0.99	-17.90	0.99	-17.90	0.11	-117.70
1700	0.12	-118.90	0.99	-18.70	0.99	-18.70	0.12	-118.90
1750	0.13	-120.20	0.99	-19.40	0.99	-19.40	0.13	-120.20
1800	0.13	-120.50	0.99	-20.20	0.99	-20.20	0.13	-120.50
1850	0.14	-120.80	0.99	-20.90	0.99	-20.90	0.14	-120.80
1900	0.14	-120.50	0.99	-21.50	0.99	-21.50	0.14	-120.50
1950	0.14	-120.20	0.99	-22.00	0.99	-22.00	0.14	-120.20
2000	0.15	-120.30	0.99	-22.80	0.99	-22.80	0.15	-120.30
2050	0.16	-120.30	0.99	-23.70	0.99	-23.70	0.16	-120.30
2100	0.16	-120.70	0.99	-24.50	0.99	-24.50	0.16	-120.70
2150	0.17	-121.00	0.99	-25.30	0.99	-25.30	0.17	-121.00
2200	0.18	-121.80	0.98	-26.00	0.98	-26.00	0.18	-121.80
2250	0.18	-122.70	0.98	-26.80	0.98	-26.80	0.18	-122.70
2300	0.19	-122.90	0.98	-27.60	0.98	-27.60	0.19	-122.90
2350	0.20	-123.20	0.98	-28.30	0.98	-28.30	0.20	-123.20
2400	0.21	-124.40	0.98	-29.30	0.98	-29.30	0.21	-124.40
2450	0.21	-125.50	0.97	-30.20	0.97	-30.20	0.21	-125.50
2500	0.22	-125.90	0.97	-31.10	0.97	-31.10	0.22	-125.90
2550	0.23	-126.30	0.96	-32.00	0.96	-32.00	0.23	-126.30
2600	0.24	-127.40	0.96	-32.90	0.96	-32.90	0.24	-127.40
2650	0.26	-128.40	0.96	-33.80	0.96	-33.80	0.26	-128.40
2700	0.27	-129.40	0.95	-34.90	0.95	-34.90	0.27	-129.40
2750	0.28	-130.50	0.94	-35.90	0.94	-35.90	0.28	-130.50
2800	0.30	-132.40	0.93	-37.30	0.93	-37.30	0.30	-132.40
2850	0.32	-134.40	0.93	-38.60	0.93	-38.60	0.32	-134.40
2900	0.34	-138.90	0.89	-40.40	0.89	-40.40	0.34	-138.90
2950	0.37	-143.40	0.86	-42.30	0.86	-42.30	0.37	-143.40
3000	0.38	-156.50	0.78	-39.70	0.78	-39.70	0.38	-156.50
3050	0.39	-169.50	0.70	-37.00	0.70	-37.00	0.39	-169.50
3100	0.28	4.50	0.78	-31.80	0.78	-31.80	0.28	4.50
3150	0.18	178.50	0.86	-26.60	0.86	-26.60	0.18	178.50
3200	0.17	16.10	0.90	-29.10	0.90	-29.10	0.17	16.10
3250	0.16	-146.30	0.94	-31.70	0.94	-31.70	0.16	-146.30
3300	0.18	-141.90	0.95	-33.60	0.95	-33.60	0.18	-141.90
3350	0.20	-137.60	0.96	-35.50	0.96	-35.50	0.20	-137.60
3400	0.21	-136.40	0.96	-36.70	0.96	-36.70	0.21	-136.40
3450	0.22	-135.30	0.96	-38.00	0.96	-38.00	0.22	-135.30
3500	0.23	-135.00	0.96	-39.10	0.96	-39.10	0.23	-135.00
3550	0.24	-134.70	0.95	-40.20	0.95	-40.20	0.24	-134.70
3600	0.25	-134.40	0.96	-41.00	0.96	-41.00	0.25	-134.40
3650	0.26	-134.10	0.96	-41.90	0.96	-41.90	0.26	-134.10
3700	0.26	-134.10	0.95	-42.90	0.95	-42.90	0.26	-134.10
3750	0.27	-134.10	0.95	-44.00	0.95	-44.00	0.27	-134.10
3800	0.28	-134.00	0.95	-44.70	0.95	-44.70	0.28	-134.00
3850	0.28	-133.90	0.95	-45.40	0.95	-45.40	0.28	-133.90
3900	0.29	-134.30	0.95	-46.40	0.95	-46.40	0.29	-134.30
3950	0.29	-134.60	0.94	-47.50	0.94	-47.50	0.29	-134.60
4000	0.30	-134.40	0.94	-48.20	0.94	-48.20	0.30	-134.40
4050	0.31	-134.20	0.94	-48.90	0.94	-48.90	0.31	-134.20
4100	0.31	-134.50	0.94	-49.70	0.94	-49.70	0.31	-134.50
4150	0.31	-134.70	0.94	-50.50	0.94	-50.50	0.31	-134.70
4200	0.32	-135.30	0.93	-51.50	0.93	-51.50	0.32	-135.30
4250	0.33	-135.90	0.93	-52.40	0.93	-52.40	0.33	-135.90
4300	0.34	-136.30	0.93	-53.00	0.93	-53.00	0.34	-136.30
4350	0.34	-136.60	0.92	-53.70	0.92	-53.70	0.34	-136.60
4400	0.35	-137.30	0.92	-54.60	0.92	-54.60	0.35	-137.30
4450	0.36	-137.90	0.92	-55.50	0.92	-55.50	0.36	-137.90
4500	0.37	-138.30	0.92	-56.40	0.92	-56.40	0.37	-138.30
4550	0.37	-138.70	0.91	-57.30	0.91	-57.30	0.37	-138.70
4600	0.38	-140.30	0.91	-58.40	0.91	-58.40	0.38	-140.30
4650	0.39	-141.80	0.91	-59.50	0.91	-59.50	0.39	-141.80
4700	0.40	-142.70	0.90	-60.30	0.90	-60.30	0.40	-142.70
4750	0.41	-143.70	0.89	-61.10	0.89	-61.10	0.41	-143.70
4800	0.41	-144.90	0.89	-61.90	0.89	-61.90	0.41	-144.90
4850	0.42	-146.20	0.88	-62.80	0.88	-62.80	0.42	-146.20
4900	0.44	-147.70	0.88	-63.90	0.88	-63.90	0.44	-147.70
4950	0.45	-149.30	0.87	-65.00	0.87	-65.00	0.45	-149.30
5000	0.46	-150.90	0.86	-65.90	0.86	-65.90	0.46	-150.90
5050	0.47	-152.50	0.85	-66.90	0.85	-66.90	0.47	-152.50
5100	0.47	-154.20	0.84	-67.80	0.84	-67.80	0.47	-154.20
5150	0.48	-155.90	0.83	-68.70	0.83	-68.70	0.48	-155.90
5200	0.50	-158.00	0.82	-69.80	0.82	-69.80	0.50	-158.00
5250	0.52	-160.10	0.81	-70.90	0.81	-70.90	0.52	-160.10
5300	0.53	-163.30	0.78	-72.20	0.78	-72.20	0.53	-163.30
5350	0.55	-166.40	0.75	-73.50	0.75	-73.50	0.55	-166.40
5400	0.56	-170.10	0.72	-74.00	0.72	-74.00	0.56	-170.10
5450	0.57	-173.90	0.69	-74.50	0.69	-74.50	0.57	-173.90
5500	0.56	-0.20	0.64	-71.80	0.64	-71.80	0.56	-0.20
5550	0.56	173.50	0.59	-69.20	0.59	-69.20	0.56	173.50
5600	0.50	168.00	0.61	-62.20	0.61	-62.20	0.50	168.00
5650	0.43	162.40	0.63	-55.20	0.63	-55.20	0.43	162.40
5700	0.38	167.20	0.70	-55.30	0.70	-55.30	0.38	167.20
5750	0.32	171.90	0.78	-55.40	0.78	-55.40	0.32	171.90
5800	0.32	-0.80	0.81	-58.10	0.81	-58.10	0.32	-0.80
5850	0.33	-173.50	0.84	-60.80	0.84	-60.80	0.33	-173.50
5900	0.35	-171.00	0.85	-63.10	0.85	-63.10	0.35	-171.00
5950	0.38	-168.60	0.86	-65.30	0.86	-65.30	0.38	-168.60
6000	0.40	-167.60	0.86	-67.20	0.86	-67.20	0.40	-167.60
6050	0.43	-166.60	0.85	-69.10	0.85	-69.10	0.43	-166.60
6100	0.45	-167.10	0.85	-70.40	0.85	-70.40	0.45	-167.10
6150	0.47	-167.60	0.85	-71.70	0.85	-71.70	0.47	-167.60
6200	0.48	-168.60	0.84	-72.90	0.84	-72.90	0.48	-168.60
6250	0.49	-169.70	0.84	-74.20	0.84	-74.20	0.49	-169.70
6300	0.50	-170.30	0.83	-75.20	0.83	-75.20	0.50	-170.30
6350	0.52	-171.00	0.83	-76.30	0.83	-76.30	0.52	-171.00
6400	0.52	-171.60	0.82	-77.30	0.82	-77.30	0.52	-171.60
6450	0.53	-172.30	0.81	-78.30	0.81	-78.30	0.53	-172.30
6500	0.54	-173.10	0.81	-79.30	0.81	-79.30	0.54	-173.10
6550	0.55	-173.80	0.80	-80.30	0.80	-80.30	0.55	-173.80
6600	0.55	-174.90	0.80	-81.30	0.80	-81.30	0.55	-174.90
6650	0.56	-175.90	0.79	-82.20	0.79	-82.20	0.56	-175.90
6700	0.57	-176.70	0.79	-83.00	0.79	-83.00	0.57	-176.70
6750	0.58	-177.60	0.78	-83.70	0.78	-83.70	0.58	-177.60
6800	0.58	0.90	0.77	-84.80	0.77	-84.80	0.58	0.90
6850	0.59	179.50	0.77	-86.00	0.77	-86.00	0.59	179.50
6900	0.59	178.60	0.76	-86.70	0.76	-86.70	0.59	178.60
6950	0.60	177.80	0.75	-87.40	0.75	-87.40	0.60	177.80
7000	0.61	176.40	0.75	-88.50	0.75	-88.50	0.61	176.40
7050	0.62	175.00	0.75	-89.70	0.75	-89.70	0.62	175.00
7100	0.62	173.90	0.74	-90.70	0.74	-90.70	0.62	173.90
7150	0.63	172.80	0.73	-91.70	0.73	-91.70	0.63	172.80
7200	0.64	171.40	0.72	-93.10	0.72	-93.10	0.64	171.40
7250	0.66	170.00	0.71	-94.50	0.71	-94.50	0.66	170.00
7300	0.67	168.30	0.70	-95.80	0.70	-95.80	0.67	168.30
7350	0.67	166.60	0.68	-97.00	0.68	-97.00	0.67	166.60
7400	0.68	165.10	0.67	-98.20	0.67	-98.20	0.68	165.10
7450	0.69	163.60	0.65	-99.50	0.65	-99.50	0.69	163.60
7500	0.70	161.30	0.63	-100.90	0.63	-100.90	0.70	161.30
7550	0.71	159.00	0.61	-102.30	0.61	-102.30	0.71	159.00
7600	0.72	156.80	0.58	-103.10	0.58	-103.10	0.72	156.80
7650	0.73	154.60	0.55	-104.00	0.55	-104.00	0.73	154.60
7700	0.73	151.40	0.52	-104.30	0.52	-104.30	0.73	151.40
7750	0.74	148.30	0.49	-104.70	0.49	-104.70	0.74	148.30
7800	0.74	144.00	0.45	-102.60	0.45	-102.60	0.74	144.00
7850	0.74	139.60	0.41	-100.60	0.41	-100.60	0.74	139.60
7900	0.72	135.20	0.38	-93.20	0.38	-93.20	0.72	135.20
7950	0.70	130.70	0.36	-85.90	0.36	-85.90	0.70	130.70
8000	0.66	126.00	0.39	-77.70	0.39	-77.70	0.66	126.00
8050	0.61	121.30	0.42	-69.50	0.42	-69.50	0.61	121.30
8100	0.55	119.40	0.49	-68.60	0.49	-68.60	0.55	119.40
8150	0.48	117.40	0.56	-67.70	0.56	-67.70	0.48	117.40
8200	0.43	121.50	0.61	-70.90	0.61	-70.90	0.43	121.50
8250	0.39	125.50	0.67	-74.00	0.67	-74.00	0.39	125.50
8300	0.38	131.60	0.69	-78.30	0.69	-78.30	0.38	131.60
8350	0.38	137.80	0.72	-82.60	0.72	-82.60	0.38	137.80
8400	0.40	141.60	0.73	-86.40	0.73	-86.40	0.40	141.60
8450	0.43	145.50	0.73	-90.20	0.73	-90.20	0.43	145.50
8500	0.45	146.50	0.73	-93.70	0.73	-93.70	0.45	146.50
8550	0.48	147.50	0.72	-97.10	0.72	-97.10	0.48	147.50
8600	0.51	146.80	0.71	-100.00	0.71	-100.00	0.51	146.80
8650	0.54	146.00	0.69	-102.90	0.69	-102.90	0.54	146.00
8700	0.57	145.00	0.67	-105.50	0.67	-105.50	0.57	145.00
8750	0.59	144.00	0.65	-108.10	0.65	-108.10	0.59	144.00
8800	0.62	142.10	0.63	-110.20	0.63	-110.20	0.62	142.10
8850	0.64	140.10	0.61	-112.20	0.61	-112.20	0.64	140.10
8900	0.66	138.40	0.58	-114.40	0.58	-114.40	0.66	138.40
8950	0.68	136.80	0.56	-116.60	0.56	-116.60	0.68	136.80
9000	0.70	135.00	0.53	-118.30	0.53	-118.30	0.70	135.00
9050	0.72	133.20	0.50	-119.90	0.50	-119.90	0.72	133.20
9100	0.74	131.10	0.48	-121.10	0.48	-121.10	0.74	131.10
9150	0.76	129.00	0.45	-122.40	0.45	-122.40	0.76	129.00
9200	0.77	126.00	0.42	-123.30	0.42	-123.30	0.77	126.00
9250	0.77	122.90	0.38	-124.10	0.38	-124.10	0.77	122.90
9300	0.77	121.60	0.35	-122.30	0.35	-122.30	0.77	121.60
9350	0.77	120.30	0.32	-120.40	0.32	-120.40	0.77	120.30
9400	0.76	118.10	0.31	-117.10	0.31	-117.10	0.76	118.10
9450	0.76	115.90	0.29	-113.80	0.29	-113.80	0.76	115.90
9500	0.74	115.50	0.28	-111.20	0.28	-111.20	0.74	115.50
9550	0.73	115.20	0.28	-108.50	0.28	-108.50	0.73	115.20
9600	0.74	115.00	0.27	-108.30	0.27	-108.30	0.74	115.00
9650	0.75	114.80	0.26	-108.20	0.26	-108.20	0.75	114.80
9700	0.76	113.50	0.24	-106.00	0.24	-106.00	0.76	113.50
9750	0.77	112.30	0.22	-103.80	0.22	-103.80	0.77	112.30
9800	0.77	111.40	0.20	-97.40	0.20	-97.40	0.77	111.40
9850	0.77	110.50	0.19	-91.00	0.19	-91.00	0.77	110.50
9900	0.79	108.50	0.19	-82.70	0.19	-82.70	0.79	108.50
9950	0.80	106.40	0.19	-74.30	0.19	-74.30	0.80	106.40
10000	0.79	104.20	0.20	-66.80	0.20	-66.80	0.79	104.20
10050	0.77	101.90	0.21	-59.40	0.21	-59.40	0.77	101.90
10100	0.77	100.50	0.24	-54.80	0.24	-54.80	0.77	100.50
10150	0.78	99.20	0.27	-50.20	0.27	-50.20	0.78	99.20
10200	0.76	96.40	0.30	-48.60	0.30	-48.60	0.76	96.40
10250	0.74	93.70	0.33	-47.00	0.33	-47.00	0.74	93.70
10300	0.72	91.30	0.36	-47.30	0.36	-47.30	0.72	91.30
10350	0.70	88.80	0.40	-47.60	0.40	-47.60	0.70	88.80
10400	0.67	86.50	0.43	-48.70	0.43	-48.70	0.67	86.50
10450	0.63	84.10	0.47	-49.90	0.47	-49.90	0.63	84.10
10500	0.60	81.80	0.50	-52.50	0.50	-52.50	0.60	81.80
10550	0.57	79.60	0.54	-55.10	0.54	-55.10	0.57	79.60
10600	0.53	78.00	0.57	-57.40	0.57	-57.40	0.53	78.00
10650	0.49	76.50	0.60	-59.70	0.60	-59.70	0.49	76.50
10700	0.45	76.40	0.63	-63.20	0.63	-63.20	0.45	76.40
10750	0.41	76.20	0.65	-66.60	0.65	-66.60	0.41	76.20
10800	0.37	78.90	0.68	-69.70	0.68	-69.70	0.37	78.90
10850	0.33	81.50	0.70	-72.80	0.70	-72.80	0.33	81.50
10900	0.30	86.70	0.71	-76.70	0.71	-76.70	0.30	86.70
10950	0.27	91.90	0.72	-80.60	0.72	-80.60	0.27	91.90
11000	0.27	102.60	0.73	-84.70	0.73	-84.70	0.27	102.60
11050	0.27	113.30	0.73	-88.80	0.73	-88.80	0.27	113.30
11100	0.30	118.70	0.72	-92.60	0.72	-92.60	0.30	118.70
11150	0.33	124.10	0.71	-96.40	0.71	-96.40	0.33	124.10
11200	0.37	126.30	0.69	-100.00	0.69	-100.00	0.37	126.30
11250	0.41	128.50	0.68	-103.70	0.68	-103.70	0.41	128.50
11300	0.46	127.90	0.65	-106.90	0.65	-106.90	0.46	127.90
11350	0.50	127.40	0.62	-110.00	0.62	-110.00	0.50	127.40
11400	0.54	125.20	0.59	-113.20	0.59	-113.20	0.54	125.20
11450	0.58	123.10	0.56	-116.30	0.56	-116.30	0.58	123.10
11500	0.61	120.50	0.52	-118.20	0.52	-118.20	0.61	120.50
11550	0.65	117.90	0.49	-120.20	0.49	-120.20	0.65	117.90
11600	0.68	115.00	0.45	-121.70	0.45	-121.70	0.68	115.00
11650	0.71	112.00	0.41	-123.20	0.41	-123.20	0.71	112.00
11700	0.73	109.10	0.37	-122.80	0.37	-122.80	0.73	109.10
11750	0.76	106.30	0.33	-122.40	0.33	-122.40	0.76	106.30
11800	0.77	103.60	0.30	-119.20	0.30	-119.20	0.77	103.60
11850	0.79	100.90	0.26	-115.90	0.26	-115.90	0.79	100.90
11900	0.80	98.40	0.24	-109.20	0.24	-109.20	0.80	98.40
11950	0.81	95.80	0.22	-102.60	0.22	-102.60	0.81	95.80
12000	0.81	93.50	0.22	-92.30	0.22	-92.30	0.81	93.50
12050	0.81	91.10	0.21	-82.00	0.21	-82.00	0.81	91.10
12100	0.81	88.00	0.23	-75.00	0.23	-75.00	0.81	88.00
12150	0.81	84.90	0.25	-68.00	0.25	-68.00	0.81	84.90
12200	0.79	82.60	0.28	-64.50	0.28	-64.50	0.79	82.60
12250	0.78	80.20	0.32	-60.90	0.32	-60.90	0.78	80.20
12300	0.75	78.40	0.35	-60.50	0.35	-60.50	0.75	78.40
12350	0.73	76.60	0.38	-60.10	0.38	-60.10	0.73	76.60
12400	0.71	74.00	0.42	-61.90	0.42	-61.90	0.71	74.00
12450	0.69	71.40	0.46	-63.70	0.46	-63.70	0.69	71.40
12500	0.67	70.90	0.48	-66.10	0.48	-66.10	0.67	70.90
12550	0.64	70.30	0.50	-68.60	0.50	-68.60	0.64	70.30
12600	0.62	70.60	0.51	-71.50	0.51	-71.50	0.62	70.60
12650	0.61	70.80	0.52	-74.50	0.52	-74.50	0.61	70.80
12700	0.61	71.10	0.51	-76.20	0.51	-76.20	0.61	71.10
12750	0.61	71.40	0.51	-77.90	0.51	-77.90	0.61	71.40
12800	0.62	70.40	0.49	-77.90	0.49	-77.90	0.62	70.40
12850	0.63	69.50	0.48	-77.90	0.48	-77.90	0.63	69.50
12900	0.64	67.60	0.49	-76.00	0.49	-76.00	0.64	67.60
12950	0.65	65.80	0.50	-74.20	0.50	-74.20	0.65	65.80
13000	0.64	63.40	0.51	-73.30	0.51	-73.30	0.64	63.40
13050	0.63	61.00	0.53	-72.50	0.53	-72.50	0.63	61.00
13100	0.62	58.70	0.55	-72.70	0.55	-72.70	0.62	58.70
13150	0.60	56.40	0.58	-72.80	0.58	-72.80	0.60	56.40
13200	0.59	54.40	0.60	-73.80	0.60	-73.80	0.59	54.40
13250	0.58	52.30	0.63	-74.70	0.63	-74.70	0.58	52.30
13300	0.55	52.30	0.64	-76.80	0.64	-76.80	0.55	52.30
13350	0.51	52.20	0.66	-78.90	0.66	-78.90	0.51	52.20
13400	0.51	49.50	0.68	-80.70	0.68	-80.70	0.51	49.50
13450	0.51	46.90	0.69	-82.50	0.69	-82.50	0.51	46.90
13500	0.49	45.90	0.70	-84.60	0.70	-84.60	0.49	45.90
13550	0.47	44.90	0.71	-86.70	0.71	-86.70	0.47	44.90
13600	0.46	44.50	0.72	-89.00	0.72	-89.00	0.46	44.50
13650	0.44	44.20	0.72	-91.30	0.72	-91.30	0.44	44.20
13700	0.43	44.00	0.72	-93.40	0.72	-93.40	0.43	44.00
13750	0.42	43.80	0.72	-95.50	0.72	-95.50	0.42	43.80
13800	0.41	44.70	0.70	-97.70	0.70	-97.70	0.41	44.70
13850	0.40	45.50	0.69	-99.90	0.69	-99.90	0.40	45.50
13900	0.41	46.10	0.67	-101.40	0.67	-101.40	0.41	46.10
13950	0.42	46.70	0.65	-102.90	0.65	-102.90	0.42	46.70
14000	0.44	46.00	0.62	-103.20	0.62	-103.20	0.44	46.00
14050	0.47	45.40	0.59	-103.40	0.59	-103.40	0.47	45.40
14100	0.49	43.00	0.57	-101.30	0.57	-101.30	0.49	43.00
14150	0.52	40.70	0.55	-99.20	0.55	-99.20	0.52	40.70
14200	0.54	36.60	0.55	-96.60	0.55	-96.60	0.54	36.60
14250	0.56	32.40	0.55	-94.00	0.55	-94.00	0.56	32.40
14300	0.56	28.50	0.57	-92.30	0.57	-92.30	0.56	28.50
14350	0.57	24.60	0.59	-90.60	0.59	-90.60	0.57	24.60
14400	0.57	21.10	0.61	-90.20	0.61	-90.20	0.57	21.10
14450	0.58	17.50	0.63	-89.70	0.63	-89.70	0.58	17.50
14500	0.57	14.80	0.65	-89.80	0.65	-89.80	0.57	14.80
14550	0.56	12.10	0.67	-90.00	0.67	-90.00	0.56	12.10
14600	0.55	9.90	0.69	-90.70	0.69	-90.70	0.55	9.90
14650	0.55	7.70	0.70	-91.30	0.70	-91.30	0.55	7.70
14700	0.53	5.50	0.72	-92.30	0.72	-92.30	0.53	5.50
14750	0.51	3.30	0.73	-93.20	0.73	-93.20	0.51	3.30
14800	0.51	1.90	0.74	-94.30	0.74	-94.30	0.51	1.90
14850	0.51	0.50	0.75	-95.40	0.75	-95.40	0.51	0.50
14900	0.49	0.20	0.76	-96.10	0.76	-96.10	0.49	0.20
14950	0.48	-0.10	0.78	-96.80	0.78	-96.80	0.48	-0.10
15000	0.47	-1.90	0.78	-98.10	0.78	-98.10	0.47	-1.90
15050	0.46	-3.70	0.79	-99.40	0.79	-99.40	0.46	-3.70
15100	0.45	-3.90	0.80	-100.10	0.80	-100.10	0.45	-3.90
15150	0.44	-4.10	0.81	-100.80	0.81	-100.80	0.44	-4.10
15200	0.43	-4.70	0.81	-101.80	0.81	-101.80	0.43	-4.70
15250	0.43	-5.30	0.82	-102.80	0.82	-102.80	0.43	-5.30
15300	0.42	-6.10	0.82	-104.20	0.82	-104.20	0.42	-6.10
15350	0.41	-7.00	0.82	-105.60	0.82	-105.60	0.41	-7.00
15400	0.40	-6.30	0.82	-106.30	0.82	-106.30	0.40	-6.30
15450	0.40	-5.70	0.81	-107.00	0.81	-107.00	0.40	-5.70
15500	0.40	-4.90	0.81	-107.90	0.81	-107.90	0.40	-4.90
15550	0.41	-4.20	0.82	-108.70	0.82	-108.70	0.41	-4.20
15600	0.41	-4.30	0.82	-109.00	0.82	-109.00	0.41	-4.30
15650	0.40	-4.40	0.81	-109.30	0.81	-109.30	0.40	-4.40
15700	0.41	-4.70	0.82	-109.90	0.82	-109.90	0.41	-4.70
15750	0.42	-4.90	0.82	-110.50	0.82	-110.50	0.42	-4.90
15800	0.41	-5.70	0.82	-110.80	0.82	-110.80	0.41	-5.70
15850	0.39	-6.50	0.82	-111.00	0.82	-111.00	0.39	-6.50
15900	0.40	-6.50	0.83	-111.70	0.83	-111.70	0.40	-6.50
15950	0.40	-6.50	0.83	-112.40	0.83	-112.40	0.40	-6.50
16000	0.38	-6.60	0.84	-112.90	0.84	-112.90	0.38	-6.60
16050	0.36	-6.80	0.84	-113.40	0.84	-113.40	0.36	-6.80
16100	0.34	-6.20	0.85	-114.50	0.85	-114.50	0.34	-6.20
16150	0.32	-5.70	0.85	-115.60	0.85	-115.60	0.32	-5.70
16200	0.30	-5.20	0.85	-116.60	0.85	-116.60	0.30	-5.20
16250	0.29	-4.80	0.85	-117.60	0.85	-117.60	0.29	-4.80
16300	0.26	-2.00	0.84	-118.80	0.84	-118.80	0.26	-2.00
16350	0.23	0.70	0.84	-120.00	0.84	-120.00	0.23	0.70
16400	0.23	5.60	0.83	-120.90	0.83	-120.90	0.23	5.60
16450	0.22	10.50	0.81	-121.80	0.81	-121.80	0.22	10.50
16500	0.22	13.00	0.79	-121.60	0.79	-121.60	0.22	13.00
16550	0.22	15.50	0.77	-121.50	0.77	-121.50	0.22	15.50
16600	0.24	15.40	0.77	-120.50	0.77	-120.50	0.24	15.40
16650	0.26	15.30	0.76	-119.50	0.76	-119.50	0.26	15.30
16700	0.26	10.90	0.78	-118.60	0.78	-118.60	0.26	10.90
16750	0.26	6.50	0.79	-117.60	0.79	-117.60	0.26	6.50
16800	0.25	2.50	0.81	-117.60	0.81	-117.60	0.25	2.50
16850	0.23	-1.50	0.82	-117.60	0.82	-117.60	0.23	-1.50
16900	0.22	-4.40	0.84	-118.40	0.84	-118.40	0.22	-4.40
16950	0.21	-7.20	0.86	-119.20	0.86	-119.20	0.21	-7.20
17000	0.19	-7.50	0.87	-120.30	0.87	-120.30	0.19	-7.50
17050	0.17	-7.70	0.88	-121.40	0.88	-121.40	0.17	-7.70
17100	0.16	-3.50	0.89	-122.60	0.89	-122.60	0.16	-3.50
17150	0.15	0.70	0.89	-123.90	0.89	-123.90	0.15	0.70
17200	0.14	7.50	0.89	-124.70	0.89	-124.70	0.14	7.50
17250	0.14	14.30	0.89	-125.50	0.89	-125.50	0.14	14.30
17300	0.14	22.30	0.89	-126.30	0.89	-126.30	0.14	22.30
17350	0.15	30.20	0.90	-127.10	0.90	-127.10	0.15	30.20
17400	0.15	30.80	0.90	-127.40	0.90	-127.40	0.15	30.80
17450	0.16	31.50	0.90	-127.70	0.90	-127.70	0.16	31.50
17500	0.17	34.30	0.90	-128.40	0.90	-128.40	0.17	34.30
17550	0.17	37.00	0.91	-129.10	0.91	-129.10	0.17	37.00
17600	0.18	39.50	0.92	-130.00	0.92	-130.00	0.18	39.50
17650	0.18	41.90	0.92	-130.80	0.92	-130.80	0.18	41.90
17700	0.18	43.80	0.93	-131.60	0.93	-131.60	0.18	43.80
17750	0.18	45.70	0.93	-132.30	0.93	-132.30	0.18	45.70
17800	0.18	47.10	0.93	-133.30	0.93	-133.30	0.18	47.10
17850	0.18	48.40	0.94	-134.40	0.94	-134.40	0.18	48.40
17900	0.18	48.90	0.94	-135.10	0.94	-135.10	0.18	48.90
17950	0.18	49.30	0.94	-135.90	0.94	-135.90	0.18	49.30
18000	0.17	49.40	0.94	-136.90	0.94	-136.90	0.17	49.40
18050	0.17	49.60	0.94	-137.90	0.94	-137.90	0.17	49.60
18100	0.16	48.00	0.94	-138.60	0.94	-138.60	0.16	48.00
18150	0.16	46.50	0.94	-139.40	0.94	-139.40	0.16	46.50
18200	0.16	43.60	0.94	-140.30	0.94	-140.30	0.16	43.60
18250	0.15	40.70	0.94	-141.30	0.94	-141.30	0.15	40.70
18300	0.15	37.30	0.94	-142.00	0.94	-142.00	0.15	37.30
18350	0.15	34.00	0.94	-142.70	0.94	-142.70	0.15	34.00
18400	0.15	31.20	0.94	-143.50	0.94	-143.50	0.15	31.20
18450	0.15	28.30	0.93	-144.40	0.93	-144.40	0.15	28.30
18500	0.15	26.90	0.93	-145.10	0.93	-145.10	0.15	26.90
18550	0.15	25.60	0.93	-145.80	0.93	-145.80	0.15	25.60
18600	0.15	24.90	0.93	-146.70	0.93	-146.70	0.15	24.90
