# MHZ S MA R 50

      50  0.03   74.20    1.00   -0.30    1.00   -0.30    0.03   74.20
     100  0.05   77.10    0.99   -1.70    0.99   -1.70    0.05   77.10
     150  0.08   80.00    0.99   -3.00    0.99   -3.00    0.08   80.00
     200  0.10   79.60    0.99   -4.50    0.99   -4.50    0.10   79.60
     250  0.13   79.20    0.99   -6.10    0.99   -6.10    0.13   79.20
     300  0.15   77.90    0.98   -7.70    0.98   -7.70    0.15   77.90
     350  0.17   76.60    0.98   -9.30    0.98   -9.30    0.17   76.60
     400  0.19   74.90    0.97   -10.60   0.97   -10.60   0.19   74.90
     450  0.22   73.20    0.97   -12.00   0.97   -12.00   0.22   73.20
     500  0.26   74.70    0.96   -14.40   0.96   -14.40   0.26   74.70
     550  0.30   76.20    0.95   -16.80   0.95   -16.80   0.30   76.20
     600  0.32   74.70    0.94   -18.30   0.94   -18.30   0.32   74.70
     650  0.34   73.20    0.93   -19.80   0.93   -19.80   0.34   73.20
     700  0.37   72.40    0.93   -21.40   0.93   -21.40   0.37   72.40
     750  0.39   71.60    0.92   -22.90   0.92   -22.90   0.39   71.60
     800  0.41   69.70    0.91   -24.40   0.91   -24.40   0.41   69.70
     850  0.43   67.80    0.89   -25.90   0.89   -25.90   0.43   67.80
     900  0.45   66.30    0.88   -27.30   0.88   -27.30   0.45   66.30
     950  0.48   64.80    0.87   -28.80   0.87   -28.80   0.48   64.80
    1000  0.50   63.20    0.86   -30.30   0.86   -30.30   0.50   63.20
    1050  0.52   61.60    0.85   -31.90   0.85   -31.90   0.52   61.60
    1100  0.54   60.30    0.83   -33.40   0.83   -33.40   0.54   60.30
    1150  0.56   59.00    0.82   -35.00   0.82   -35.00   0.56   59.00
    1200  0.58   57.60    0.81   -36.20   0.81   -36.20   0.58   57.60
    1250  0.60   56.20    0.79   -37.50   0.79   -37.50   0.60   56.20
    1300  0.62   54.50    0.78   -39.10   0.78   -39.10   0.62   54.50
    1350  0.64   52.80    0.77   -40.60   0.77   -40.60   0.64   52.80
    1400  0.65   51.40    0.75   -41.80   0.75   -41.80   0.65   51.40
    1450  0.67   50.10    0.74   -43.00   0.74   -43.00   0.67   50.10
    1500  0.69   48.40    0.72   -44.60   0.72   -44.60   0.69   48.40
    1550  0.70   46.70    0.70   -46.10   0.70   -46.10   0.70   46.70
    1600  0.72   45.00    0.69   -47.40   0.69   -47.40   0.72   45.00
    1650  0.73   43.40    0.67   -48.80   0.67   -48.80   0.73   43.40
    1700  0.74   42.00    0.66   -50.10   0.66   -50.10   0.74   42.00
    1750  0.75   40.60    0.64   -51.40   0.64   -51.40   0.75   40.60
    1800  0.77   39.00    0.63   -52.60   0.63   -52.60   0.77   39.00
    1850  0.79   37.40    0.61   -53.90   0.61   -53.90   0.79   37.40
    1900  0.80   35.80    0.60   -55.10   0.60   -55.10   0.80   35.80
    1950  0.80   34.20    0.58   -56.30   0.58   -56.30   0.80   34.20
    2000  0.81   32.60    0.56   -57.60   0.56   -57.60   0.81   32.60
    2050  0.82   30.90    0.54   -58.90   0.54   -58.90   0.82   30.90
    2100  0.84   29.80    0.53   -59.90   0.53   -59.90   0.84   29.80
    2150  0.85   28.60    0.51   -61.00   0.51   -61.00   0.85   28.60
    2200  0.86   26.80    0.49   -62.40   0.49   -62.40   0.86   26.80
    2250  0.87   25.00    0.47   -63.70   0.47   -63.70   0.87   25.00
    2300  0.87   23.90    0.46   -64.60   0.46   -64.60   0.87   23.90
    2350  0.88   22.80    0.44   -65.50   0.44   -65.50   0.88   22.80
    2400  0.89   21.20    0.42   -66.90   0.42   -66.90   0.89   21.20
    2450  0.90   19.60    0.41   -68.20   0.41   -68.20   0.90   19.60
    2500  0.91   18.20    0.39   -69.40   0.39   -69.40   0.91   18.20
    2550  0.92   16.80    0.37   -70.60   0.37   -70.60   0.92   16.80
    2600  0.93   15.60    0.35   -71.60   0.35   -71.60   0.93   15.60
    2650  0.93   14.50    0.33   -72.50   0.33   -72.50   0.93   14.50
    2700  0.94   13.20    0.32   -73.70   0.32   -73.70   0.94   13.20
    2750  0.94   11.90    0.30   -74.80   0.30   -74.80   0.94   11.90
    2800  0.95   10.60    0.28   -75.70   0.28   -75.70   0.95   10.60
    2850  0.95    9.30    0.26   -76.60   0.26   -76.60   0.95    9.30
    2900  0.96    8.10    0.24   -77.90   0.24   -77.90   0.96    8.10
    2950  0.97    6.80    0.22   -79.10   0.22   -79.10   0.97    6.80
    3000  0.97    5.70    0.21   -79.90   0.21   -79.90   0.97    5.70
    3050  0.97    4.60    0.19   -80.70   0.19   -80.70   0.97    4.60
    3100  0.97    3.20    0.17   -81.40   0.17   -81.40   0.97    3.20
    3150  0.97    1.80    0.15   -82.10   0.15   -82.10   0.97    1.80
    3200  0.98    1.00    0.14   -82.40   0.14   -82.40   0.98    1.00
    3250  0.98    0.30    0.12   -82.60   0.12   -82.60   0.98    0.30
    3300  0.99   -0.80    0.10   -82.80   0.10   -82.80   0.99   -0.80
    3350  0.99   -1.90    0.08   -82.90   0.08   -82.90   0.99   -1.90
    3400  0.99   -2.90    0.07   -81.20   0.07   -81.20   0.99   -2.90
    3450  0.99   -4.00    0.05   -79.40   0.05   -79.40   0.99   -4.00
    3500  0.99   -5.00    0.04   -70.20   0.04   -70.20   0.99   -5.00
    3550  0.99   -6.10    0.02   -60.90   0.02   -60.90   0.99   -6.10
    3600  0.99   -7.00    0.02   -5.90    0.02   -5.90    0.99   -7.00
    3650  0.99   -7.90    0.02   49.20    0.02   49.20    0.99   -7.90
    3700  0.99   -9.20    0.03   59.10    0.03   59.10    0.99   -9.20
    3750  0.99   -10.40   0.05   69.00    0.05   69.00    0.99   -10.40
    3800  0.99   -11.30   0.06   70.70    0.06   70.70    0.99   -11.30
    3850  0.99   -12.20   0.08   72.40    0.08   72.40    0.99   -12.20
    3900  0.98   -13.50   0.09   72.20    0.09   72.20    0.98   -13.50
    3950  0.98   -14.80   0.11   72.00    0.11   72.00    0.98   -14.80
    4000  0.98   -15.80   0.12   71.90    0.12   71.90    0.98   -15.80
    4050  0.98   -16.80   0.14   71.70    0.14   71.70    0.98   -16.80
    4100  0.97   -17.90   0.15   71.10    0.15   71.10    0.97   -17.90
    4150  0.96   -18.90   0.17   70.50    0.17   70.50    0.96   -18.90
    4200  0.97   -20.00   0.18   70.10    0.18   70.10    0.97   -20.00
    4250  0.98   -21.10   0.19   69.70    0.19   69.70    0.98   -21.10
    4300  0.97   -22.10   0.21   69.10    0.21   69.10    0.97   -22.10
    4350  0.96   -23.20   0.22   68.50    0.22   68.50    0.96   -23.20
    4400  0.96   -24.30   0.23   67.70    0.23   67.70    0.96   -24.30
    4450  0.96   -25.40   0.25   66.90    0.25   66.90    0.96   -25.40
    4500  0.95   -26.10   0.26   66.30    0.26   66.30    0.95   -26.10
    4550  0.94   -26.80   0.27   65.70    0.27   65.70    0.94   -26.80
    4600  0.95   -28.00   0.28   64.90    0.28   64.90    0.95   -28.00
    4650  0.95   -29.30   0.30   64.10    0.30   64.10    0.95   -29.30
    4700  0.94   -30.30   0.31   63.40    0.31   63.40    0.94   -30.30
    4750  0.93   -31.30   0.32   62.70    0.32   62.70    0.93   -31.30
    4800  0.93   -32.40   0.33   61.90    0.33   61.90    0.93   -32.40
    4850  0.92   -33.60   0.34   61.10    0.34   61.10    0.92   -33.60
    4900  0.92   -34.10   0.35   60.70    0.35   60.70    0.92   -34.10
    4950  0.93   -34.70   0.36   60.20    0.36   60.20    0.93   -34.70
    5000  0.92   -36.20   0.37   59.10    0.37   59.10    0.92   -36.20
    5050  0.91   -37.70   0.38   57.90    0.38   57.90    0.91   -37.70
    5100  0.90   -38.30   0.39   57.30    0.39   57.30    0.90   -38.30
    5150  0.89   -38.90   0.40   56.80    0.40   56.80    0.89   -38.90
    5200  0.88   -39.10   0.41   56.60    0.41   56.60    0.88   -39.10
    5250  0.88   -39.30   0.42   56.40    0.42   56.40    0.88   -39.30
    5300  0.89   -40.60   0.43   55.20    0.43   55.20    0.89   -40.60
    5350  0.90   -41.90   0.45   54.00    0.45   54.00    0.90   -41.90
    5400  0.88   -42.40   0.45   53.30    0.45   53.30    0.88   -42.40
    5450  0.87   -42.90   0.46   52.60    0.46   52.60    0.87   -42.90
    5500  0.87   -43.50   0.47   52.00    0.47   52.00    0.87   -43.50
    5550  0.87   -44.10   0.48   51.30    0.48   51.30    0.87   -44.10
    5600  0.86   -44.60   0.49   50.50    0.49   50.50    0.86   -44.60
    5650  0.85   -45.20   0.50   49.80    0.50   49.80    0.85   -45.20
    5700  0.84   -45.60   0.50   49.20    0.50   49.20    0.84   -45.60
    5750  0.84   -46.00   0.51   48.70    0.51   48.70    0.84   -46.00
    5800  0.83   -46.10   0.52   48.10    0.52   48.10    0.83   -46.10
    5850  0.83   -46.30   0.52   47.40    0.52   47.40    0.83   -46.30
    5900  0.82   -46.30   0.53   47.10    0.53   47.10    0.82   -46.30
    5950  0.82   -46.40   0.54   46.70    0.54   46.70    0.82   -46.40
    6000  0.81   -47.80   0.55   45.40    0.55   45.40    0.81   -47.80
    6050  0.80   -49.30   0.57   44.00    0.57   44.00    0.80   -49.30
    6100  0.80   -49.30   0.57   43.80    0.57   43.80    0.80   -49.30
    6150  0.79   -49.40   0.58   43.50    0.58   43.50    0.79   -49.40
    6200  0.79   -49.20   0.59   42.80    0.59   42.80    0.79   -49.20
    6250  0.79   -49.00   0.59   42.00    0.59   42.00    0.79   -49.00
    6300  0.78   -49.20   0.60   41.50    0.60   41.50    0.78   -49.20
    6350  0.78   -49.30   0.61   41.00    0.61   41.00    0.78   -49.30
    6400  0.77   -49.10   0.61   40.30    0.61   40.30    0.77   -49.10
    6450  0.76   -48.80   0.62   39.70    0.62   39.70    0.76   -48.80
    6500  0.76   -48.80   0.62   39.10    0.62   39.10    0.76   -48.80
    6550  0.75   -48.90   0.63   38.50    0.63   38.50    0.75   -48.90
    6600  0.75   -48.70   0.63   37.90    0.63   37.90    0.75   -48.70
    6650  0.74   -48.40   0.64   37.30    0.64   37.30    0.74   -48.40
    6700  0.74   -48.20   0.65   37.00    0.65   37.00    0.74   -48.20
    6750  0.73   -48.00   0.65   36.60    0.65   36.60    0.73   -48.00
    6800  0.73   -48.00   0.66   36.10    0.66   36.10    0.73   -48.00
    6850  0.73   -47.90   0.67   35.60    0.67   35.60    0.73   -47.90
    6900  0.72   -48.10   0.67   35.00    0.67   35.00    0.72   -48.10
    6950  0.71   -48.30   0.67   34.40    0.67   34.40    0.71   -48.30
    7000  0.71   -48.10   0.68   34.00    0.68   34.00    0.71   -48.10
    7050  0.70   -47.90   0.69   33.50    0.69   33.50    0.70   -47.90
    7100  0.69   -48.10   0.69   33.00    0.69   33.00    0.69   -48.10
    7150  0.68   -48.30   0.69   32.50    0.69   32.50    0.68   -48.30
    7200  0.68   -48.30   0.70   32.20    0.70   32.20    0.68   -48.30
    7250  0.67   -48.30   0.71   31.90    0.71   31.90    0.67   -48.30
    7300  0.67   -48.90   0.72   31.30    0.72   31.30    0.67   -48.90
    7350  0.67   -49.50   0.72   30.70    0.72   30.70    0.67   -49.50
    7400  0.66   -49.90   0.73   30.20    0.73   30.20    0.66   -49.90
    7450  0.65   -50.40   0.73   29.70    0.73   29.70    0.65   -50.40
    7500  0.65   -51.20   0.74   29.10    0.74   29.10    0.65   -51.20
    7550  0.65   -52.00   0.75   28.60    0.75   28.60    0.65   -52.00
    7600  0.64   -52.70   0.75   28.00    0.75   28.00    0.64   -52.70
    7650  0.63   -53.50   0.75   27.30    0.75   27.30    0.63   -53.50
    7700  0.62   -54.30   0.76   26.90    0.76   26.90    0.62   -54.30
    7750  0.61   -55.10   0.76   26.50    0.76   26.50    0.61   -55.10
    7800  0.60   -55.90   0.77   26.00    0.77   26.00    0.60   -55.90
    7850  0.60   -56.70   0.77   25.50    0.77   25.50    0.60   -56.70
    7900  0.59   -58.10   0.78   24.80    0.78   24.80    0.59   -58.10
    7950  0.59   -59.40   0.79   24.20    0.79   24.20    0.59   -59.40
    8000  0.58   -60.40   0.79   23.50    0.79   23.50    0.58   -60.40
    8050  0.56   -61.40   0.79   22.90    0.79   22.90    0.56   -61.40
    8100  0.56   -62.20   0.80   22.60    0.80   22.60    0.56   -62.20
    8150  0.55   -63.10   0.80   22.40    0.80   22.40    0.55   -63.10
    8200  0.54   -64.10   0.81   21.70    0.81   21.70    0.54   -64.10
    8250  0.53   -65.20   0.81   20.90    0.81   20.90    0.53   -65.20
    8300  0.52   -66.00   0.82   20.60    0.82   20.60    0.52   -66.00
    8350  0.52   -66.80   0.82   20.20    0.82   20.20    0.52   -66.80
    8400  0.51   -67.70   0.83   19.40    0.83   19.40    0.51   -67.70
    8450  0.50   -68.50   0.83   18.60    0.83   18.60    0.50   -68.50
    8500  0.50   -69.20   0.84   18.20    0.84   18.20    0.50   -69.20
    8550  0.49   -69.80   0.85   17.70    0.85   17.70    0.49   -69.80
    8600  0.48   -70.30   0.85   16.90    0.85   16.90    0.48   -70.30
    8650  0.47   -70.70   0.85   16.20    0.85   16.20    0.47   -70.70
    8700  0.47   -71.10   0.86   15.50    0.86   15.50    0.47   -71.10
    8750  0.46   -71.60   0.86   14.90    0.86   14.90    0.46   -71.60
    8800  0.45   -71.80   0.86   14.70    0.86   14.70    0.45   -71.80
    8850  0.44   -72.00   0.86   14.40    0.86   14.40    0.44   -72.00
    8900  0.44   -72.20   0.86   13.70    0.86   13.70    0.44   -72.20
    8950  0.43   -72.40   0.87   13.10    0.87   13.10    0.43   -72.40
    9000  0.42   -72.70   0.87   12.60    0.87   12.60    0.42   -72.70
    9050  0.41   -73.10   0.87   12.10    0.87   12.10    0.41   -73.10
    9100  0.41   -73.90   0.87   11.60    0.87   11.60    0.41   -73.90
    9150  0.40   -74.70   0.88   11.10    0.88   11.10    0.40   -74.70
    9200  0.39   -75.90   0.88   10.70    0.88   10.70    0.39   -75.90
    9250  0.38   -77.10   0.88   10.30    0.88   10.30    0.38   -77.10
    9300  0.36   -76.40   0.88   10.00    0.88   10.00    0.36   -76.40
    9350  0.34   -75.60   0.88    9.80    0.88    9.80    0.34   -75.60
    9400  0.34   -74.10   0.88    9.90    0.88    9.90    0.34   -74.10
    9450  0.34   -72.50   0.89   10.00    0.89   10.00    0.34   -72.50
    9500  0.34   -72.70   0.90    9.20    0.90    9.20    0.34   -72.70
    9550  0.33   -72.90   0.91    8.40    0.91    8.40    0.33   -72.90
    9600  0.33   -73.10   0.91    7.70    0.91    7.70    0.33   -73.10
    9650  0.32   -73.20   0.92    7.10    0.92    7.10    0.32   -73.20
    9700  0.31   -73.90   0.92    6.60    0.92    6.60    0.31   -73.90
    9750  0.30   -74.70   0.93    6.10    0.93    6.10    0.30   -74.70
    9800  0.30   -74.30   0.93    5.50    0.93    5.50    0.30   -74.30
    9850  0.29   -73.90   0.93    4.90    0.93    4.90    0.29   -73.90
    9900  0.28   -73.60   0.93    4.50    0.93    4.50    0.28   -73.60
    9950  0.28   -73.40   0.93    4.10    0.93    4.10    0.28   -73.40
   10000  0.27   -73.80   0.94    3.60    0.94    3.60    0.27   -73.80
   10050  0.26   -74.10   0.94    3.10    0.94    3.10    0.26   -74.10
   10100  0.25   -73.60   0.94    2.70    0.94    2.70    0.25   -73.60
   10150  0.24   -73.20   0.94    2.20    0.94    2.20    0.24   -73.20
   10200  0.23   -73.30   0.94    1.70    0.94    1.70    0.23   -73.30
   10250  0.23   -73.40   0.95    1.20    0.95    1.20    0.23   -73.40
   10300  0.22   -73.80   0.95    0.80    0.95    0.80    0.22   -73.80
   10350  0.21   -74.30   0.94    0.30    0.94    0.30    0.21   -74.30
   10400  0.20   -75.10   0.95   -0.30    0.95   -0.30    0.20   -75.10
   10450  0.19   -75.90   0.96   -0.90    0.96   -0.90    0.19   -75.90
   10500  0.19   -76.00   0.96   -1.30    0.96   -1.30    0.19   -76.00
   10550  0.19   -76.10   0.96   -1.70    0.96   -1.70    0.19   -76.10
   10600  0.17   -77.00   0.96   -2.30    0.96   -2.30    0.17   -77.00
   10650  0.16   -77.80   0.96   -2.90    0.96   -2.90    0.16   -77.80
   10700  0.16   -78.90   0.96   -3.30    0.96   -3.30    0.16   -78.90
   10750  0.15   -79.90   0.97   -3.80    0.97   -3.80    0.15   -79.90
   10800  0.14   -81.20   0.97   -4.10    0.97   -4.10    0.14   -81.20
   10850  0.14   -82.50   0.96   -4.30    0.96   -4.30    0.14   -82.50
   10900  0.13   -84.50   0.97   -5.10    0.97   -5.10    0.13   -84.50
   10950  0.12   -86.60   0.97   -5.80    0.97   -5.80    0.12   -86.60
   11000  0.12   -88.20   0.97   -6.10    0.97   -6.10    0.12   -88.20
   11050  0.11   -89.80   0.97   -6.50    0.97   -6.50    0.11   -89.80
   11100  0.11   -91.60   0.97   -7.00    0.97   -7.00    0.11   -91.60
   11150  0.10   -93.30   0.97   -7.50    0.97   -7.50    0.10   -93.30
   11200  0.10   -93.30   0.97   -8.00    0.97   -8.00    0.10   -93.30
   11250  0.09   -93.20   0.97   -8.50    0.97   -8.50    0.09   -93.20
   11300  0.09   -93.90   0.97   -9.00    0.97   -9.00    0.09   -93.90
   11350  0.09   -94.50   0.97   -9.60    0.97   -9.60    0.09   -94.50
   11400  0.08   -92.70   0.97   -10.00   0.97   -10.00   0.08   -92.70
   11450  0.07   -90.80   0.97   -10.30   0.97   -10.30   0.07   -90.80
   11500  0.06   -90.40   0.97   -10.90   0.97   -10.90   0.06   -90.40
   11550  0.05   -90.10   0.97   -11.50   0.97   -11.50   0.05   -90.10
   11600  0.05   -89.20   0.97   -12.10   0.97   -12.10   0.05   -89.20
   11650  0.04   -88.40   0.98   -12.60   0.98   -12.60   0.04   -88.40
   11700  0.03   -83.40   0.98   -13.10   0.98   -13.10   0.03   -83.40
   11750  0.02   -78.30   0.98   -13.70   0.98   -13.70   0.02   -78.30
   11800  0.01   -72.30   0.97   -14.10   0.97   -14.10   0.01   -72.30
   11850  0.00   -66.20   0.97   -14.50   0.97   -14.50   0.00   -66.20
   11900  0.01   16.40    0.97   -15.10   0.97   -15.10   0.01   16.40
   11950  0.01   99.00    0.97   -15.70   0.97   -15.70   0.01   99.00
   12000  0.02   100.10   0.97   -16.30   0.97   -16.30   0.02   100.10
   12050  0.03   101.20   0.97   -16.80   0.97   -16.80   0.03   101.20
   12100  0.04   102.00   0.97   -17.40   0.97   -17.40   0.04   102.00
   12150  0.04   102.80   0.96   -18.00   0.96   -18.00   0.04   102.80
   12200  0.05   102.00   0.96   -18.50   0.96   -18.50   0.05   102.00
   12250  0.05   101.10   0.96   -19.00   0.96   -19.00   0.05   101.10
   12300  0.06   99.80    0.96   -19.60   0.96   -19.60   0.06   99.80
   12350  0.06   98.60    0.96   -20.20   0.96   -20.20   0.06   98.60
   12400  0.07   96.90    0.95   -20.70   0.95   -20.70   0.07   96.90
   12450  0.07   95.30    0.95   -21.20   0.95   -21.20   0.07   95.30
   12500  0.08   91.30    0.95   -21.80   0.95   -21.80   0.08   91.30
   12550  0.09   87.30    0.95   -22.30   0.95   -22.30   0.09   87.30
   12600  0.09   85.90    0.95   -22.80   0.95   -22.80   0.09   85.90
   12650  0.09   84.50    0.94   -23.30   0.94   -23.30   0.09   84.50
   12700  0.10   79.50    0.94   -23.80   0.94   -23.80   0.10   79.50
   12750  0.11   74.40    0.94   -24.30   0.94   -24.30   0.11   74.40
   12800  0.12   72.00    0.94   -24.90   0.94   -24.90   0.12   72.00
   12850  0.13   69.60    0.94   -25.60   0.94   -25.60   0.13   69.60
   12900  0.14   67.00    0.94   -26.10   0.94   -26.10   0.14   67.00
   12950  0.15   64.30    0.94   -26.50   0.94   -26.50   0.15   64.30
   13000  0.16   62.60    0.94   -27.10   0.94   -27.10   0.16   62.60
   13050  0.17   61.00    0.93   -27.80   0.93   -27.80   0.17   61.00
   13100  0.18   58.50    0.93   -28.30   0.93   -28.30   0.18   58.50
   13150  0.19   56.00    0.93   -28.80   0.93   -28.80   0.19   56.00
   13200  0.20   56.00    0.93   -29.30   0.93   -29.30   0.20   56.00
   13250  0.22   56.00    0.92   -29.70   0.92   -29.70   0.22   56.00
   13300  0.22   56.20    0.92   -30.70   0.92   -30.70   0.22   56.20
   13350  0.22   56.40    0.92   -31.70   0.92   -31.70   0.22   56.40
   13400  0.24   54.10    0.91   -32.40   0.91   -32.40   0.24   54.10
   13450  0.26   51.70    0.91   -33.10   0.91   -33.10   0.26   51.70
   13500  0.27   51.50    0.91   -33.80   0.91   -33.80   0.27   51.50
   13550  0.28   51.20    0.90   -34.50   0.90   -34.50   0.28   51.20
   13600  0.29   49.70    0.90   -35.50   0.90   -35.50   0.29   49.70
   13650  0.30   48.20    0.90   -36.40   0.90   -36.40   0.30   48.20
   13700  0.31   47.00    0.89   -37.20   0.89   -37.20   0.31   47.00
   13750  0.32   45.80    0.89   -38.00   0.89   -38.00   0.32   45.80
   13800  0.33   43.70    0.88   -38.70   0.88   -38.70   0.33   43.70
   13850  0.34   41.60    0.87   -39.50   0.87   -39.50   0.34   41.60
   13900  0.35   39.40    0.87   -40.20   0.87   -40.20   0.35   39.40
   13950  0.37   37.20    0.87   -41.00   0.87   -41.00   0.37   37.20
