#	mhz	s	ma	r	50
50	0.43	59.90	0.88	-23.20	0.88	-23.20	0.43	59.90
100	0.62	46.10	0.71	-38.00	0.71	-38.00	0.62	46.10
150	0.82	32.30	0.54	-52.90	0.54	-52.90	0.82	32.30
200	0.88	25.30	0.43	-60.00	0.43	-60.00	0.88	25.30
250	0.94	18.30	0.33	-67.20	0.33	-67.20	0.94	18.30
300	0.95	14.20	0.26	-71.10	0.26	-71.10	0.95	14.20
350	0.97	10.20	0.19	-74.90	0.19	-74.90	0.97	10.20
400	0.98	6.90	0.14	-77.10	0.14	-77.10	0.98	6.90
450	1.00	3.60	0.09	-79.40	0.09	-79.40	1.00	3.60
500	1.00	4.40	0.06	-75.50	0.06	-75.50	1.00	4.40
550	1.00	5.10	0.02	-71.70	0.02	-71.70	1.00	5.10
600	1.00	3.40	0.03	4.10	0.03	4.10	1.00	3.40
650	1.00	1.70	0.04	79.80	0.04	79.80	1.00	1.70
700	1.00	0.60	0.07	80.10	0.07	80.10	1.00	0.60
750	1.00	-0.60	0.09	80.40	0.09	80.40	1.00	-0.60
800	1.00	-2.40	0.12	79.70	0.12	79.70	1.00	-2.40
850	0.98	-4.20	0.14	79.00	0.14	79.00	0.98	-4.20
900	0.99	-5.50	0.16	78.00	0.16	78.00	0.99	-5.50
950	1.00	-6.70	0.18	77.00	0.18	77.00	1.00	-6.70
1000	0.99	-8.00	0.20	76.00	0.20	76.00	0.99	-8.00
1050	0.98	-9.30	0.22	74.90	0.22	74.90	0.98	-9.30
1100	0.98	-10.60	0.24	73.50	0.24	73.50	0.98	-10.60
1150	0.97	-11.80	0.26	72.10	0.26	72.10	0.97	-11.80
1200	0.97	-12.90	0.28	71.20	0.28	71.20	0.97	-12.90
1250	0.97	-14.00	0.30	70.30	0.30	70.30	0.97	-14.00
1300	0.96	-15.70	0.31	68.90	0.31	68.90	0.96	-15.70
1350	0.95	-17.30	0.33	67.40	0.33	67.40	0.95	-17.30
1400	0.94	-18.10	0.34	66.20	0.34	66.20	0.94	-18.10
1450	0.93	-18.80	0.36	65.00	0.36	65.00	0.93	-18.80
1500	0.92	-20.50	0.38	64.10	0.38	64.10	0.92	-20.50
1550	0.92	-22.20	0.40	63.20	0.40	63.20	0.92	-22.20
1600	0.91	-23.70	0.41	62.00	0.41	62.00	0.91	-23.70
1650	0.90	-25.20	0.43	60.80	0.43	60.80	0.90	-25.20
1700	0.89	-26.50	0.45	59.60	0.45	59.60	0.89	-26.50
1750	0.88	-27.80	0.47	58.40	0.47	58.40	0.88	-27.80
1800	0.87	-29.50	0.49	56.80	0.49	56.80	0.87	-29.50
1850	0.86	-31.30	0.50	55.20	0.50	55.20	0.86	-31.30
1900	0.84	-32.90	0.52	53.80	0.52	53.80	0.84	-32.90
1950	0.82	-34.60	0.54	52.40	0.54	52.40	0.82	-34.60
2000	0.80	-36.50	0.56	50.30	0.56	50.30	0.80	-36.50
2050	0.78	-38.30	0.59	48.10	0.59	48.10	0.78	-38.30
2100	0.74	-40.20	0.61	44.80	0.61	44.80	0.74	-40.20
2150	0.71	-42.20	0.64	41.60	0.64	41.60	0.71	-42.20
2200	0.62	-42.60	0.66	34.50	0.66	34.50	0.62	-42.60
2250	0.54	-43.00	0.67	27.40	0.67	27.40	0.54	-43.00
2300	0.57	-26.40	0.54	16.40	0.54	16.40	0.57	-26.40
2350	0.60	-9.80	0.41	5.50	0.41	5.50	0.60	-9.80
2400	0.71	-16.70	0.38	26.70	0.38	26.70	0.71	-16.70
2450	0.83	-23.60	0.34	48.00	0.34	48.00	0.83	-23.60
2500	0.83	-28.10	0.40	50.00	0.40	50.00	0.83	-28.10
2550	0.84	-32.60	0.46	52.10	0.46	52.10	0.84	-32.60
2600	0.82	-35.00	0.50	51.30	0.50	51.30	0.82	-35.00
2650	0.81	-37.30	0.53	50.40	0.53	50.40	0.81	-37.30
2700	0.80	-38.90	0.55	49.20	0.55	49.20	0.80	-38.90
2750	0.79	-40.60	0.57	48.00	0.57	48.00	0.79	-40.60
2800	0.78	-42.10	0.59	47.10	0.59	47.10	0.78	-42.10
2850	0.77	-43.70	0.61	46.10	0.61	46.10	0.77	-43.70
2900	0.76	-44.70	0.62	44.90	0.62	44.90	0.76	-44.70
2950	0.75	-45.70	0.63	43.70	0.63	43.70	0.75	-45.70
3000	0.74	-46.70	0.64	42.80	0.64	42.80	0.74	-46.70
3050	0.73	-47.70	0.65	42.00	0.65	42.00	0.73	-47.70
3100	0.72	-48.80	0.66	41.20	0.66	41.20	0.72	-48.80
3150	0.71	-50.00	0.67	40.30	0.67	40.30	0.71	-50.00
3200	0.70	-50.40	0.68	39.60	0.68	39.60	0.70	-50.40
3250	0.69	-50.90	0.69	38.90	0.69	38.90	0.69	-50.90
3300	0.69	-51.80	0.70	38.10	0.70	38.10	0.69	-51.80
3350	0.68	-52.70	0.71	37.30	0.71	37.30	0.68	-52.70
3400	0.67	-53.50	0.72	36.60	0.72	36.60	0.67	-53.50
3450	0.66	-54.30	0.73	35.90	0.73	35.90	0.66	-54.30
3500	0.65	-55.40	0.74	35.00	0.74	35.00	0.65	-55.40
3550	0.64	-56.40	0.75	34.20	0.75	34.20	0.64	-56.40
3600	0.62	-57.00	0.75	33.40	0.75	33.40	0.62	-57.00
3650	0.61	-57.60	0.76	32.70	0.76	32.70	0.61	-57.60
3700	0.60	-58.70	0.77	31.60	0.77	31.60	0.60	-58.70
3750	0.59	-59.80	0.78	30.50	0.78	30.50	0.59	-59.80
3800	0.57	-60.50	0.78	29.40	0.78	29.40	0.57	-60.50
3850	0.55	-61.20	0.79	28.30	0.79	28.30	0.55	-61.20
3900	0.52	-61.70	0.79	26.30	0.79	26.30	0.52	-61.70
3950	0.50	-62.20	0.80	24.20	0.80	24.20	0.50	-62.20
4000	0.46	-59.90	0.78	21.60	0.78	21.60	0.46	-59.90
4050	0.43	-57.50	0.77	18.90	0.77	18.90	0.43	-57.50
4100	0.44	-48.60	0.70	17.40	0.70	17.40	0.44	-48.60
4150	0.46	-39.70	0.63	15.80	0.63	15.80	0.46	-39.70
4200	0.54	-42.40	0.62	22.70	0.62	22.70	0.54	-42.40
4250	0.62	-45.10	0.60	29.60	0.60	29.60	0.62	-45.10
4300	0.62	-49.50	0.64	31.40	0.64	31.40	0.62	-49.50
4350	0.63	-54.00	0.68	33.30	0.68	33.30	0.63	-54.00
4400	0.62	-56.70	0.71	32.60	0.71	32.60	0.62	-56.70
4450	0.61	-59.40	0.74	31.90	0.74	31.90	0.61	-59.40
4500	0.60	-60.60	0.75	31.30	0.75	31.30	0.60	-60.60
4550	0.59	-61.90	0.76	30.70	0.76	30.70	0.59	-61.90
4600	0.58	-63.60	0.78	29.70	0.78	29.70	0.58	-63.60
4650	0.58	-65.30	0.79	28.70	0.79	28.70	0.58	-65.30
4700	0.57	-66.20	0.80	28.10	0.80	28.10	0.57	-66.20
4750	0.56	-67.10	0.80	27.40	0.80	27.40	0.56	-67.10
4800	0.55	-68.10	0.81	26.70	0.81	26.70	0.55	-68.10
4850	0.54	-69.00	0.81	26.00	0.81	26.00	0.54	-69.00
4900	0.53	-69.60	0.82	25.50	0.82	25.50	0.53	-69.60
4950	0.53	-70.20	0.83	24.90	0.83	24.90	0.53	-70.20
5000	0.52	-71.30	0.83	24.10	0.83	24.10	0.52	-71.30
5050	0.51	-72.30	0.83	23.20	0.83	23.20	0.51	-72.30
5100	0.50	-72.50	0.83	22.80	0.83	22.80	0.50	-72.50
5150	0.49	-72.70	0.84	22.40	0.84	22.40	0.49	-72.70
5200	0.49	-72.90	0.84	22.10	0.84	22.10	0.49	-72.90
5250	0.48	-73.20	0.85	21.80	0.85	21.80	0.48	-73.20
5300	0.48	-74.00	0.85	20.80	0.85	20.80	0.48	-74.00
5350	0.47	-74.80	0.86	19.70	0.86	19.70	0.47	-74.80
5400	0.46	-74.90	0.86	19.10	0.86	19.10	0.46	-74.90
5450	0.45	-75.10	0.86	18.40	0.86	18.40	0.45	-75.10
5500	0.44	-75.40	0.86	17.60	0.86	17.60	0.44	-75.40
5550	0.43	-75.70	0.87	16.90	0.87	16.90	0.43	-75.70
5600	0.42	-75.70	0.87	15.90	0.87	15.90	0.42	-75.70
5650	0.41	-75.70	0.87	14.90	0.87	14.90	0.41	-75.70
5700	0.39	-75.00	0.86	13.80	0.86	13.80	0.39	-75.00
5750	0.38	-74.30	0.86	12.70	0.86	12.70	0.38	-74.30
5800	0.37	-69.80	0.83	11.40	0.83	11.40	0.37	-69.80
5850	0.35	-65.30	0.81	10.00	0.81	10.00	0.35	-65.30
5900	0.38	-60.80	0.78	11.00	0.78	11.00	0.38	-60.80
5950	0.40	-56.30	0.74	11.90	0.74	11.90	0.40	-56.30
6000	0.44	-59.10	0.75	14.20	0.75	14.20	0.44	-59.10
6050	0.47	-62.00	0.76	16.60	0.76	16.60	0.47	-62.00
6100	0.47	-64.90	0.78	17.40	0.78	17.40	0.47	-64.90
6150	0.48	-67.80	0.80	18.30	0.80	18.30	0.48	-67.80
6200	0.47	-69.00	0.82	17.80	0.82	17.80	0.47	-69.00
6250	0.47	-70.10	0.83	17.20	0.83	17.20	0.47	-70.10
6300	0.46	-71.00	0.84	16.80	0.84	16.80	0.46	-71.00
6350	0.46	-72.00	0.85	16.30	0.85	16.30	0.46	-72.00
6400	0.45	-72.00	0.86	15.80	0.86	15.80	0.45	-72.00
6450	0.44	-71.90	0.86	15.20	0.86	15.20	0.44	-71.90
6500	0.44	-71.90	0.87	14.70	0.87	14.70	0.44	-71.90
6550	0.43	-71.90	0.87	14.20	0.87	14.20	0.43	-71.90
6600	0.43	-71.70	0.87	13.70	0.87	13.70	0.43	-71.70
6650	0.42	-71.40	0.88	13.20	0.88	13.20	0.42	-71.40
6700	0.41	-71.00	0.88	13.00	0.88	13.00	0.41	-71.00
6750	0.41	-70.70	0.88	12.80	0.88	12.80	0.41	-70.70
6800	0.40	-70.40	0.89	12.30	0.89	12.30	0.40	-70.40
6850	0.40	-70.10	0.89	11.80	0.89	11.80	0.40	-70.10
6900	0.39	-70.20	0.89	11.40	0.89	11.40	0.39	-70.20
6950	0.38	-70.30	0.89	10.90	0.89	10.90	0.38	-70.30
7000	0.37	-70.30	0.90	10.40	0.90	10.40	0.37	-70.30
7050	0.37	-70.30	0.90	9.90	0.90	9.90	0.37	-70.30
7100	0.36	-69.80	0.90	9.50	0.90	9.50	0.36	-69.80
7150	0.35	-69.30	0.90	9.10	0.90	9.10	0.35	-69.30
7200	0.34	-69.90	0.91	8.60	0.91	8.60	0.34	-69.90
7250	0.33	-70.60	0.91	8.10	0.91	8.10	0.33	-70.60
7300	0.32	-70.30	0.91	7.50	0.91	7.50	0.32	-70.30
7350	0.31	-70.10	0.91	6.80	0.91	6.80	0.31	-70.10
7400	0.30	-70.00	0.91	6.10	0.91	6.10	0.30	-70.00
7450	0.29	-69.90	0.91	5.40	0.91	5.40	0.29	-69.90
7500	0.28	-68.60	0.90	4.50	0.90	4.50	0.28	-68.60
7550	0.27	-67.30	0.90	3.70	0.90	3.70	0.27	-67.30
7600	0.27	-63.20	0.88	3.00	0.88	3.00	0.27	-63.20
7650	0.27	-59.10	0.87	2.30	0.87	2.30	0.27	-59.10
7700	0.28	-56.00	0.84	2.90	0.84	2.90	0.28	-56.00
7750	0.29	-52.80	0.82	3.50	0.82	3.50	0.29	-52.80
7800	0.32	-54.30	0.82	5.30	0.82	5.30	0.32	-54.30
7850	0.34	-55.80	0.82	7.10	0.82	7.10	0.34	-55.80
7900	0.35	-60.20	0.84	7.70	0.84	7.70	0.35	-60.20
7950	0.35	-64.60	0.86	8.20	0.86	8.20	0.35	-64.60
8000	0.34	-66.40	0.87	7.90	0.87	7.90	0.34	-66.40
8050	0.33	-68.30	0.89	7.50	0.89	7.50	0.33	-68.30
8100	0.32	-69.90	0.90	7.20	0.90	7.20	0.32	-69.90
8150	0.32	-71.60	0.91	6.90	0.91	6.90	0.32	-71.60
8200	0.31	-72.20	0.91	6.30	0.91	6.30	0.31	-72.20
8250	0.30	-72.70	0.92	5.60	0.92	5.60	0.30	-72.70
8300	0.29	-73.10	0.92	5.20	0.92	5.20	0.29	-73.10
8350	0.28	-73.40	0.93	4.70	0.93	4.70	0.28	-73.40
8400	0.28	-73.60	0.93	4.10	0.93	4.10	0.28	-73.60
8450	0.27	-73.90	0.94	3.40	0.94	3.40	0.27	-73.90
8500	0.26	-73.50	0.94	3.00	0.94	3.00	0.26	-73.50
8550	0.26	-73.20	0.94	2.50	0.94	2.50	0.26	-73.20
8600	0.25	-72.80	0.94	2.00	0.94	2.00	0.25	-72.80
8650	0.25	-72.40	0.94	1.40	0.94	1.40	0.25	-72.40
8700	0.24	-72.00	0.94	0.90	0.94	0.90	0.24	-72.00
8750	0.24	-71.70	0.94	0.40	0.94	0.40	0.24	-71.70
8800	0.23	-71.00	0.94	0.20	0.94	0.20	0.23	-71.00
8850	0.23	-70.30	0.94	0.00	0.94	0.00	0.23	-70.30
8900	0.22	-69.50	0.95	-0.60	0.95	-0.60	0.22	-69.50
8950	0.22	-68.80	0.95	-1.20	0.95	-1.20	0.22	-68.80
9000	0.22	-68.30	0.94	-1.70	0.94	-1.70	0.22	-68.30
9050	0.21	-67.90	0.94	-2.10	0.94	-2.10	0.21	-67.90
9100	0.21	-67.00	0.94	-2.60	0.94	-2.60	0.21	-67.00
9150	0.20	-66.10	0.94	-3.10	0.94	-3.10	0.20	-66.10
9200	0.20	-65.80	0.94	-3.60	0.94	-3.60	0.20	-65.80
9250	0.19	-65.50	0.94	-4.10	0.94	-4.10	0.19	-65.50
9300	0.19	-62.70	0.94	-4.60	0.94	-4.60	0.19	-62.70
9350	0.18	-60.00	0.94	-5.20	0.94	-5.20	0.18	-60.00
9400	0.18	-56.80	0.92	-5.60	0.92	-5.60	0.18	-56.80
9450	0.19	-53.60	0.91	-5.90	0.91	-5.90	0.19	-53.60
9500	0.20	-51.30	0.90	-6.00	0.90	-6.00	0.20	-51.30
9550	0.20	-49.00	0.88	-6.10	0.88	-6.10	0.20	-49.00
9600	0.22	-50.30	0.88	-5.20	0.88	-5.20	0.22	-50.30
9650	0.23	-51.50	0.87	-4.30	0.87	-4.30	0.23	-51.50
9700	0.23	-55.40	0.88	-3.40	0.88	-3.40	0.23	-55.40
9750	0.23	-59.30	0.89	-2.60	0.89	-2.60	0.23	-59.30
9800	0.22	-62.10	0.90	-2.60	0.90	-2.60	0.22	-62.10
9850	0.21	-64.80	0.92	-2.70	0.92	-2.70	0.21	-64.80
9900	0.19	-64.80	0.93	-3.00	0.93	-3.00	0.19	-64.80
9950	0.18	-64.90	0.93	-3.30	0.93	-3.30	0.18	-64.90
10000	0.17	-67.50	0.94	-3.70	0.94	-3.70	0.17	-67.50
10050	0.17	-70.20	0.95	-4.20	0.95	-4.20	0.17	-70.20
10100	0.15	-68.00	0.95	-4.50	0.95	-4.50	0.15	-68.00
10150	0.13	-65.80	0.95	-4.90	0.95	-4.90	0.13	-65.80
10200	0.13	-66.00	0.96	-5.40	0.96	-5.40	0.13	-66.00
10250	0.13	-66.20	0.96	-5.90	0.96	-5.90	0.13	-66.20
10300	0.12	-66.30	0.96	-6.30	0.96	-6.30	0.12	-66.30
10350	0.10	-66.40	0.95	-6.70	0.95	-6.70	0.10	-66.40
10400	0.10	-63.20	0.96	-7.10	0.96	-7.10	0.10	-63.20
10450	0.10	-60.00	0.96	-7.60	0.96	-7.60	0.10	-60.00
10500	0.10	-62.60	0.96	-7.90	0.96	-7.90	0.10	-62.60
10550	0.09	-65.20	0.96	-8.20	0.96	-8.20	0.09	-65.20
10600	0.08	-57.00	0.96	-8.70	0.96	-8.70	0.08	-57.00
10650	0.08	-48.90	0.96	-9.10	0.96	-9.10	0.08	-48.90
10700	0.08	-50.40	0.97	-9.50	0.97	-9.50	0.08	-50.40
10750	0.08	-51.90	0.97	-10.00	0.97	-10.00	0.08	-51.90
10800	0.07	-45.80	0.96	-10.20	0.96	-10.20	0.07	-45.80
10850	0.06	-39.60	0.96	-10.50	0.96	-10.50	0.06	-39.60
10900	0.07	-36.10	0.96	-11.10	0.96	-11.10	0.07	-36.10
10950	0.07	-32.60	0.96	-11.80	0.96	-11.80	0.07	-32.60
11000	0.07	-30.60	0.96	-12.30	0.96	-12.30	0.07	-30.60
11050	0.06	-28.70	0.95	-12.80	0.95	-12.80	0.06	-28.70
11100	0.07	-25.40	0.95	-13.20	0.95	-13.20	0.07	-25.40
11150	0.09	-22.10	0.94	-13.60	0.94	-13.60	0.09	-22.10
11200	0.09	-22.80	0.93	-14.00	0.93	-14.00	0.09	-22.80
11250	0.10	-23.60	0.92	-14.40	0.92	-14.40	0.10	-23.60
11300	0.12	-24.50	0.91	-14.40	0.91	-14.40	0.12	-24.50
11350	0.13	-25.40	0.89	-14.40	0.89	-14.40	0.13	-25.40
11400	0.14	-31.10	0.88	-13.40	0.88	-13.40	0.14	-31.10
11450	0.15	-36.70	0.87	-12.40	0.87	-12.40	0.15	-36.70
11500	0.15	-42.30	0.88	-11.70	0.88	-11.70	0.15	-42.30
11550	0.15	-47.90	0.89	-10.90	0.89	-10.90	0.15	-47.90
11600	0.14	-53.50	0.90	-10.80	0.90	-10.80	0.14	-53.50
11650	0.13	-59.00	0.92	-10.60	0.92	-10.60	0.13	-59.00
11700	0.12	-61.10	0.93	-11.00	0.93	-11.00	0.12	-61.10
11750	0.11	-63.10	0.94	-11.30	0.94	-11.30	0.11	-63.10
11800	0.10	-65.00	0.94	-11.70	0.94	-11.70	0.10	-65.00
11850	0.09	-66.80	0.94	-12.10	0.94	-12.10	0.09	-66.80
11900	0.08	-69.50	0.94	-12.50	0.94	-12.50	0.08	-69.50
11950	0.07	-72.30	0.95	-13.00	0.95	-13.00	0.07	-72.30
12000	0.07	-77.20	0.95	-13.50	0.95	-13.50	0.07	-77.20
12050	0.07	-82.10	0.95	-14.00	0.95	-14.00	0.07	-82.10
12100	0.06	-86.40	0.95	-14.30	0.95	-14.30	0.06	-86.40
12150	0.05	-90.60	0.95	-14.70	0.95	-14.70	0.05	-90.60
12200	0.05	-93.60	0.95	-15.00	0.95	-15.00	0.05	-93.60
12250	0.05	-96.60	0.95	-15.30	0.95	-15.30	0.05	-96.60
12300	0.05	-99.90	0.95	-15.80	0.95	-15.80	0.05	-99.90
12350	0.04	-103.20	0.95	-16.20	0.95	-16.20	0.04	-103.20
12400	0.04	-99.50	0.94	-16.60	0.94	-16.60	0.04	-99.50
12450	0.04	-95.90	0.94	-17.00	0.94	-17.00	0.04	-95.90
12500	0.04	-90.00	0.94	-17.40	0.94	-17.40	0.04	-90.00
12550	0.03	-84.10	0.94	-17.80	0.94	-17.80	0.03	-84.10
12600	0.03	-72.50	0.94	-18.10	0.94	-18.10	0.03	-72.50
12650	0.03	-60.90	0.93	-18.50	0.93	-18.50	0.03	-60.90
12700	0.04	-47.60	0.93	-18.90	0.93	-18.90	0.04	-47.60
12750	0.04	-34.40	0.92	-19.20	0.92	-19.20	0.04	-34.40
12800	0.05	-27.60	0.91	-19.50	0.91	-19.50	0.05	-27.60
12850	0.06	-20.80	0.90	-19.80	0.90	-19.80	0.06	-20.80
12900	0.08	-21.20	0.89	-19.70	0.89	-19.70	0.08	-21.20
12950	0.09	-21.70	0.88	-19.60	0.88	-19.60	0.09	-21.70
13000	0.10	-27.30	0.88	-18.90	0.88	-18.90	0.10	-27.30
13050	0.11	-33.00	0.87	-18.20	0.87	-18.20	0.11	-33.00
13100	0.12	-38.70	0.88	-17.50	0.88	-17.50	0.12	-38.70
13150	0.12	-44.40	0.88	-16.80	0.88	-16.80	0.12	-44.40
13200	0.11	-46.80	0.89	-16.40	0.89	-16.40	0.11	-46.80
13250	0.10	-49.20	0.90	-15.90	0.90	-15.90	0.10	-49.20
13300	0.09	-51.80	0.91	-16.40	0.91	-16.40	0.09	-51.80
13350	0.09	-54.40	0.92	-16.90	0.92	-16.90	0.09	-54.40
13400	0.08	-53.00	0.92	-17.40	0.92	-17.40	0.08	-53.00
13450	0.06	-51.50	0.93	-17.90	0.93	-17.90	0.06	-51.50
13500	0.06	-48.50	0.93	-18.40	0.93	-18.40	0.06	-48.50
13550	0.06	-45.50	0.94	-18.80	0.94	-18.80	0.06	-45.50
13600	0.05	-41.50	0.94	-19.40	0.94	-19.40	0.05	-41.50
13650	0.04	-37.50	0.94	-20.00	0.94	-20.00	0.04	-37.50
13700	0.04	-28.10	0.94	-20.40	0.94	-20.40	0.04	-28.10
13750	0.05	-18.60	0.94	-20.80	0.94	-20.80	0.05	-18.60
13800	0.05	-15.70	0.93	-21.00	0.93	-21.00	0.05	-15.70
13850	0.05	-12.80	0.93	-21.20	0.93	-21.20	0.05	-12.80
13900	0.06	-7.30	0.94	-21.40	0.94	-21.40	0.06	-7.30
13950	0.07	-1.80	0.94	-21.60	0.94	-21.60	0.07	-1.80
14000	0.07	0.20	0.94	-22.10	0.94	-22.10	0.07	0.20
14050	0.08	2.10	0.94	-22.50	0.94	-22.50	0.08	2.10
14100	0.09	4.50	0.94	-22.80	0.94	-22.80	0.09	4.50
14150	0.11	6.80	0.94	-23.10	0.94	-23.10	0.11	6.80
14200	0.12	5.90	0.94	-23.70	0.94	-23.70	0.12	5.90
14250	0.14	4.90	0.94	-24.30	0.94	-24.30	0.14	4.90
14300	0.15	5.60	0.94	-24.70	0.94	-24.70	0.15	5.60
14350	0.16	6.30	0.94	-25.10	0.94	-25.10	0.16	6.30
14400	0.18	5.00	0.93	-25.70	0.93	-25.70	0.18	5.00
14450	0.20	3.60	0.93	-26.30	0.93	-26.30	0.20	3.60
14500	0.20	3.10	0.92	-26.60	0.92	-26.60	0.20	3.10
14550	0.22	2.60	0.91	-26.80	0.91	-26.80	0.22	2.60
14600	0.23	1.60	0.91	-27.30	0.91	-27.30	0.23	1.60
14650	0.25	0.60	0.90	-27.70	0.90	-27.70	0.25	0.60
14700	0.26	-1.50	0.89	-28.20	0.89	-28.20	0.26	-1.50
14750	0.26	-3.70	0.88	-28.60	0.88	-28.60	0.26	-3.70
14800	0.28	-5.20	0.87	-28.90	0.87	-28.90	0.28	-5.20
14850	0.30	-6.80	0.86	-29.10	0.86	-29.10	0.30	-6.80
14900	0.30	-9.50	0.85	-28.60	0.85	-28.60	0.30	-9.50
14950	0.30	-12.20	0.83	-28.10	0.83	-28.10	0.30	-12.20
15000	0.30	-15.80	0.82	-27.50	0.82	-27.50	0.30	-15.80
15050	0.30	-19.40	0.81	-26.80	0.81	-26.80	0.30	-19.40
15100	0.29	-22.00	0.82	-25.60	0.82	-25.60	0.29	-22.00
15150	0.28	-24.50	0.83	-24.40	0.83	-24.40	0.28	-24.50
15200	0.27	-24.60	0.85	-24.10	0.85	-24.10	0.27	-24.60
15250	0.26	-24.80	0.86	-23.80	0.86	-23.80	0.26	-24.80
15300	0.25	-25.70	0.87	-24.40	0.87	-24.40	0.25	-25.70
15350	0.24	-26.60	0.88	-25.00	0.88	-25.00	0.24	-26.60
15400	0.23	-23.90	0.88	-25.40	0.88	-25.40	0.23	-23.90
15450	0.23	-21.10	0.89	-25.90	0.89	-25.90	0.23	-21.10
15500	0.23	-20.60	0.89	-26.40	0.89	-26.40	0.23	-20.60
15550	0.23	-20.00	0.89	-27.00	0.89	-27.00	0.23	-20.00
15600	0.23	-18.00	0.89	-27.30	0.89	-27.30	0.23	-18.00
15650	0.22	-16.00	0.89	-27.70	0.89	-27.70	0.22	-16.00
15700	0.23	-12.90	0.89	-28.00	0.89	-28.00	0.23	-12.90
15750	0.23	-9.90	0.89	-28.40	0.89	-28.40	0.23	-9.90
15800	0.22	-6.10	0.89	-28.50	0.89	-28.50	0.22	-6.10
15850	0.21	-2.30	0.89	-28.60	0.89	-28.60	0.21	-2.30
15900	0.22	2.40	0.89	-29.10	0.89	-29.10	0.22	2.40
15950	0.23	7.10	0.89	-29.70	0.89	-29.70	0.23	7.10
16000	0.24	10.60	0.89	-30.10	0.89	-30.10	0.24	10.60
16050	0.25	14.10	0.89	-30.50	0.89	-30.50	0.25	14.10
16100	0.26	18.30	0.88	-31.20	0.88	-31.20	0.26	18.30
16150	0.27	22.50	0.87	-31.90	0.87	-31.90	0.27	22.50
16200	0.28	22.30	0.87	-32.30	0.87	-32.30	0.28	22.30
16250	0.29	22.10	0.86	-32.70	0.86	-32.70	0.29	22.10
16300	0.29	23.70	0.85	-33.10	0.85	-33.10	0.29	23.70
16350	0.29	25.40	0.85	-33.40	0.85	-33.40	0.29	25.40
16400	0.31	24.60	0.83	-33.80	0.83	-33.80	0.31	24.60
16450	0.32	23.90	0.82	-34.20	0.82	-34.20	0.32	23.90
16500	0.31	21.40	0.81	-34.00	0.81	-34.00	0.31	21.40
16550	0.30	19.00	0.79	-33.80	0.79	-33.80	0.30	19.00
16600	0.31	16.90	0.78	-33.50	0.78	-33.50	0.31	16.90
16650	0.32	14.90	0.77	-33.20	0.77	-33.20	0.32	14.90
16700	0.30	11.20	0.76	-32.20	0.76	-32.20	0.30	11.20
16750	0.29	7.50	0.75	-31.20	0.75	-31.20	0.29	7.50
16800	0.27	4.80	0.75	-29.40	0.75	-29.40	0.27	4.80
16850	0.25	2.20	0.74	-27.70	0.74	-27.70	0.25	2.20
16900	0.24	1.80	0.76	-26.40	0.76	-26.40	0.24	1.80
16950	0.22	1.50	0.77	-25.00	0.77	-25.00	0.22	1.50
17000	0.20	4.70	0.79	-24.70	0.79	-24.70	0.20	4.70
17050	0.18	8.00	0.81	-24.40	0.81	-24.40	0.18	8.00
17100	0.19	13.80	0.83	-24.90	0.83	-24.90	0.19	13.80
17150	0.19	19.60	0.85	-25.40	0.85	-25.40	0.19	19.60
17200	0.20	22.30	0.86	-26.00	0.86	-26.00	0.20	22.30
17250	0.21	24.90	0.87	-26.50	0.87	-26.50	0.21	24.90
17300	0.21	28.80	0.88	-27.30	0.88	-27.30	0.21	28.80
17350	0.22	32.80	0.88	-28.10	0.88	-28.10	0.22	32.80
17400	0.23	33.00	0.88	-28.70	0.88	-28.70	0.23	33.00
17450	0.24	33.30	0.88	-29.20	0.88	-29.20	0.24	33.30
17500	0.24	34.40	0.89	-29.90	0.89	-29.90	0.24	34.40
17550	0.24	35.60	0.89	-30.70	0.89	-30.70	0.24	35.60
17600	0.25	37.00	0.89	-31.40	0.89	-31.40	0.25	37.00
17650	0.26	38.50	0.89	-32.10	0.89	-32.10	0.26	38.50
17700	0.26	38.30	0.89	-32.50	0.89	-32.50	0.26	38.30
17750	0.25	38.20	0.89	-33.00	0.89	-33.00	0.25	38.20
17800	0.26	39.40	0.88	-33.70	0.88	-33.70	0.26	39.40
17850	0.26	40.70	0.88	-34.40	0.88	-34.40	0.26	40.70
17900	0.25	39.50	0.87	-34.80	0.87	-34.80	0.25	39.50
17950	0.24	38.40	0.86	-35.20	0.86	-35.20	0.24	38.40
18000	0.24	38.00	0.85	-35.50	0.85	-35.50	0.24	38.00
18050	0.23	37.70	0.85	-35.90	0.85	-35.90	0.23	37.70
18100	0.22	35.90	0.84	-35.60	0.84	-35.60	0.22	35.90
18150	0.21	34.10	0.83	-35.40	0.83	-35.40	0.21	34.10
18200	0.19	35.40	0.83	-35.20	0.83	-35.20	0.19	35.40
18250	0.18	36.60	0.83	-35.00	0.83	-35.00	0.18	36.60
18300	0.17	37.50	0.84	-34.70	0.84	-34.70	0.17	37.50
18350	0.17	38.50	0.84	-34.40	0.84	-34.40	0.17	38.50
18400	0.17	41.00	0.85	-34.80	0.85	-34.80	0.17	41.00
18450	0.18	43.60	0.85	-35.10	0.85	-35.10	0.18	43.60
18500	0.20	43.90	0.85	-35.10	0.85	-35.10	0.20	43.90
18550	0.21	44.10	0.86	-35.10	0.86	-35.10	0.21	44.10
18600	0.21	44.70	0.86	-35.40	0.86	-35.40	0.21	44.70
18650	0.22	45.30	0.86	-35.70	0.86	-35.70	0.22	45.30
18700	0.22	45.30	0.86	-35.80	0.86	-35.80	0.22	45.30
18750	0.23	45.30	0.87	-35.80	0.87	-35.80	0.23	45.30
18800	0.23	44.40	0.87	-35.90	0.87	-35.90	0.23	44.40
18850	0.22	43.50	0.88	-36.10	0.88	-36.10	0.22	43.50
18900	0.23	48.70	0.88	-36.50	0.88	-36.50	0.23	48.70
18950	0.24	53.90	0.88	-37.00	0.88	-37.00	0.24	53.90
19000	0.23	50.30	0.89	-37.40	0.89	-37.40	0.23	50.30
19050	0.23	46.70	0.89	-37.90	0.89	-37.90	0.23	46.70
19100	0.23	48.50	0.89	-38.40	0.89	-38.40	0.23	48.50
19150	0.23	50.40	0.89	-38.90	0.89	-38.90	0.23	50.40
19200	0.24	46.40	0.89	-39.50	0.89	-39.50	0.24	46.40
19250	0.24	42.40	0.89	-40.10	0.89	-40.10	0.24	42.40
19300	0.24	37.80	0.89	-40.50	0.89	-40.50	0.24	37.80
19350	0.24	33.20	0.89	-40.90	0.89	-40.90	0.24	33.20
19400	0.25	33.60	0.89	-41.70	0.89	-41.70	0.25	33.60
