#	mhz	s	ma	r	50

50	0.96	175.60	0.07	79.50	0.07	79.50	0.96	175.60
100	0.97	171.50	0.14	77.20	0.14	77.20	0.97	171.50
150	0.98	167.50	0.20	74.90	0.20	74.90	0.98	167.50
200	0.95	164.00	0.26	71.70	0.26	71.70	0.95	164.00
250	0.93	160.50	0.32	68.50	0.32	68.50	0.93	160.50
300	0.91	156.80	0.37	64.70	0.37	64.70	0.91	156.80
350	0.89	153.10	0.43	60.90	0.43	60.90	0.89	153.10
400	0.86	150.10	0.47	58.00	0.47	58.00	0.86	150.10
450	0.83	147.20	0.52	55.00	0.52	55.00	0.83	147.20
500	0.80	142.10	0.58	50.80	0.58	50.80	0.80	142.10
550	0.76	137.00	0.64	46.70	0.64	46.70	0.76	137.00
600	0.73	134.60	0.67	43.90	0.67	43.90	0.73	134.60
650	0.71	132.20	0.70	41.20	0.70	41.20	0.71	132.20
700	0.68	129.40	0.73	38.80	0.73	38.80	0.68	129.40
750	0.65	126.70	0.75	36.50	0.75	36.50	0.65	126.70
800	0.63	124.90	0.77	34.20	0.77	34.20	0.63	124.90
850	0.61	123.10	0.79	31.90	0.79	31.90	0.61	123.10
900	0.58	121.00	0.81	29.90	0.81	29.90	0.58	121.00
950	0.55	119.00	0.82	27.90	0.82	27.90	0.55	119.00
1000	0.53	117.40	0.83	26.00	0.83	26.00	0.53	117.40
1050	0.51	115.80	0.85	24.10	0.85	24.10	0.51	115.80
1100	0.49	113.70	0.86	22.50	0.86	22.50	0.49	113.70
1150	0.47	111.70	0.87	20.90	0.87	20.90	0.47	111.70
1200	0.45	110.30	0.88	19.30	0.88	19.30	0.45	110.30
1250	0.44	108.90	0.89	17.80	0.89	17.80	0.44	108.90
1300	0.42	107.20	0.90	16.40	0.90	16.40	0.42	107.20
1350	0.41	105.40	0.91	15.10	0.91	15.10	0.41	105.40
1400	0.39	104.50	0.91	13.70	0.91	13.70	0.39	104.50
1450	0.38	103.50	0.92	12.40	0.92	12.40	0.38	103.50
1500	0.36	102.10	0.92	11.10	0.92	11.10	0.36	102.10
1550	0.35	100.60	0.93	9.90	0.93	9.90	0.35	100.60
1600	0.34	99.20	0.93	8.70	0.93	8.70	0.34	99.20
1650	0.33	97.80	0.94	7.50	0.94	7.50	0.33	97.80
1700	0.31	96.80	0.94	6.40	0.94	6.40	0.31	96.80
1750	0.30	95.80	0.95	5.20	0.95	5.20	0.30	95.80
1800	0.29	94.60	0.95	4.30	0.95	4.30	0.29	94.60
1850	0.28	93.40	0.95	3.30	0.95	3.30	0.28	93.40
1900	0.27	92.30	0.96	2.40	0.96	2.40	0.27	92.30
1950	0.26	91.30	0.96	1.40	0.96	1.40	0.26	91.30
2000	0.25	90.20	0.96	0.30	0.96	0.30	0.25	90.20
2050	0.24	89.20	0.96	-0.80	0.96	-0.80	0.24	89.20
2100	0.23	88.30	0.97	-1.60	0.97	-1.60	0.23	88.30
2150	0.22	87.50	0.97	-2.50	0.97	-2.50	0.22	87.50
2200	0.22	86.40	0.97	-3.40	0.97	-3.40	0.22	86.40
2250	0.21	85.40	0.97	-4.40	0.97	-4.40	0.21	85.40
2300	0.20	84.80	0.97	-5.20	0.97	-5.20	0.20	84.80
2350	0.19	84.10	0.98	-6.00	0.98	-6.00	0.19	84.10
2400	0.18	83.60	0.98	-6.90	0.98	-6.90	0.18	83.60
2450	0.17	83.00	0.98	-7.80	0.98	-7.80	0.17	83.00
2500	0.17	82.70	0.98	-8.80	0.98	-8.80	0.17	82.70
2550	0.16	82.30	0.98	-9.70	0.98	-9.70	0.16	82.30
2600	0.15	82.50	0.98	-10.40	0.98	-10.40	0.15	82.50
2650	0.14	82.60	0.98	-11.20	0.98	-11.20	0.14	82.60
2700	0.13	82.70	0.98	-12.00	0.98	-12.00	0.13	82.70
2750	0.13	82.80	0.99	-12.80	0.99	-12.80	0.13	82.80
2800	0.12	83.20	0.99	-13.50	0.99	-13.50	0.12	83.20
2850	0.11	83.50	0.99	-14.20	0.99	-14.20	0.11	83.50
2900	0.10	84.60	0.99	-15.20	0.99	-15.20	0.10	84.60
2950	0.10	85.60	0.99	-16.20	0.99	-16.20	0.10	85.60
3000	0.09	86.20	0.99	-16.90	0.99	-16.90	0.09	86.20
3050	0.08	86.80	0.99	-17.60	0.99	-17.60	0.08	86.80
3100	0.08	90.10	0.99	-18.50	0.99	-18.50	0.08	90.10
3150	0.07	93.50	0.99	-19.40	0.99	-19.40	0.07	93.50
3200	0.07	93.90	0.99	-20.00	0.99	-20.00	0.07	93.90
3250	0.06	94.40	0.99	-20.60	0.99	-20.60	0.06	94.40
3300	0.06	100.60	0.99	-21.40	0.99	-21.40	0.06	100.60
3350	0.05	106.70	0.99	-22.30	0.99	-22.30	0.05	106.70
3400	0.05	108.70	0.99	-22.90	0.99	-22.90	0.05	108.70
3450	0.05	110.80	0.99	-23.60	0.99	-23.60	0.05	110.80
3500	0.05	116.20	0.99	-24.30	0.99	-24.30	0.05	116.20
3550	0.04	121.70	0.99	-25.00	0.99	-25.00	0.04	121.70
3600	0.04	128.00	0.99	-25.60	0.99	-25.60	0.04	128.00
3650	0.04	134.30	1.00	-26.30	1.00	-26.30	0.04	134.30
3700	0.04	138.60	0.99	-27.10	0.99	-27.10	0.04	138.60
3750	0.04	143.00	0.99	-27.90	0.99	-27.90	0.04	143.00
3800	0.04	150.00	0.99	-28.50	0.99	-28.50	0.04	150.00
3850	0.04	157.10	0.99	-29.10	0.99	-29.10	0.04	157.10
3900	0.03	162.10	0.99	-29.90	0.99	-29.90	0.03	162.10
3950	0.03	167.20	0.99	-30.80	0.99	-30.80	0.03	167.20
4000	0.03	-4.10	0.99	-31.40	0.99	-31.40	0.03	-4.10
4050	0.03	-175.50	0.99	-32.00	0.99	-32.00	0.03	-175.50
4100	0.04	-169.60	0.99	-32.70	0.99	-32.70	0.04	-169.60
4150	0.04	-163.80	0.99	-33.40	0.99	-33.40	0.04	-163.80
4200	0.04	-158.30	0.99	-34.10	0.99	-34.10	0.04	-158.30
4250	0.04	-152.90	0.99	-34.90	0.99	-34.90	0.04	-152.90
4300	0.04	-148.40	0.99	-35.40	0.99	-35.40	0.04	-148.40
4350	0.05	-143.80	0.99	-36.00	0.99	-36.00	0.05	-143.80
4400	0.05	-141.60	0.99	-36.70	0.99	-36.70	0.05	-141.60
4450	0.06	-139.50	0.99	-37.50	0.99	-37.50	0.06	-139.50
4500	0.06	-136.10	0.99	-38.30	0.99	-38.30	0.06	-136.10
4550	0.06	-132.80	0.99	-39.10	0.99	-39.10	0.06	-132.80
4600	0.07	-133.30	0.99	-40.00	0.99	-40.00	0.07	-133.30
4650	0.08	-133.90	0.99	-40.80	0.99	-40.80	0.08	-133.90
4700	0.08	-133.10	0.99	-41.40	0.99	-41.40	0.08	-133.10
4750	0.09	-132.30	0.99	-42.10	0.99	-42.10	0.09	-132.30
4800	0.09	-132.90	0.99	-42.80	0.99	-42.80	0.09	-132.90
4850	0.10	-133.50	0.99	-43.50	0.99	-43.50	0.10	-133.50
4900	0.11	-134.30	0.99	-44.20	0.99	-44.20	0.11	-134.30
4950	0.12	-135.00	0.99	-44.90	0.99	-44.90	0.12	-135.00
5000	0.12	-136.10	0.98	-45.70	0.98	-45.70	0.12	-136.10
5050	0.13	-137.20	0.98	-46.40	0.98	-46.40	0.13	-137.20
5100	0.13	-138.00	0.98	-47.00	0.98	-47.00	0.13	-138.00
5150	0.14	-138.90	0.98	-47.60	0.98	-47.60	0.14	-138.90
5200	0.15	-140.50	0.98	-48.20	0.98	-48.20	0.15	-140.50
5250	0.16	-142.00	0.98	-48.80	0.98	-48.80	0.16	-142.00
5300	0.16	-143.40	0.98	-49.60	0.98	-49.60	0.16	-143.40
5350	0.17	-144.80	0.98	-50.50	0.98	-50.50	0.17	-144.80
5400	0.17	-145.60	0.97	-51.20	0.97	-51.20	0.17	-145.60
5450	0.18	-146.30	0.97	-51.90	0.97	-51.90	0.18	-146.30
5500	0.19	-147.80	0.97	-52.50	0.97	-52.50	0.19	-147.80
5550	0.19	-149.30	0.97	-53.20	0.97	-53.20	0.19	-149.30
5600	0.20	-150.00	0.97	-53.90	0.97	-53.90	0.20	-150.00
5650	0.21	-150.80	0.97	-54.60	0.97	-54.60	0.21	-150.80
5700	0.21	-152.30	0.97	-55.20	0.97	-55.20	0.21	-152.30
5750	0.22	-153.80	0.96	-55.90	0.96	-55.90	0.22	-153.80
5800	0.22	-154.20	0.96	-56.50	0.96	-56.50	0.22	-154.20
5850	0.23	-154.60	0.96	-57.20	0.96	-57.20	0.23	-154.60
5900	0.24	-155.70	0.96	-57.80	0.96	-57.80	0.24	-155.70
5950	0.25	-156.80	0.96	-58.40	0.96	-58.40	0.25	-156.80
6000	0.26	-156.50	0.95	-59.30	0.95	-59.30	0.26	-156.50
6050	0.27	-156.20	0.95	-60.10	0.95	-60.10	0.27	-156.20
6100	0.28	-157.10	0.95	-60.60	0.95	-60.60	0.28	-157.10
6150	0.29	-158.10	0.95	-61.10	0.95	-61.10	0.29	-158.10
6200	0.29	-159.60	0.95	-61.80	0.95	-61.80	0.29	-159.60
6250	0.30	-161.10	0.94	-62.50	0.94	-62.50	0.30	-161.10
6300	0.31	-161.70	0.94	-63.10	0.94	-63.10	0.31	-161.70
6350	0.31	-162.30	0.94	-63.70	0.94	-63.70	0.31	-162.30
6400	0.32	-162.90	0.94	-64.30	0.94	-64.30	0.32	-162.90
6450	0.32	-163.50	0.93	-65.00	0.93	-65.00	0.32	-163.50
6500	0.33	-164.30	0.93	-65.60	0.93	-65.60	0.33	-164.30
6550	0.33	-165.00	0.93	-66.30	0.93	-66.30	0.33	-165.00
6600	0.33	-166.00	0.93	-66.90	0.93	-66.90	0.33	-166.00
6650	0.34	-166.90	0.93	-67.60	0.93	-67.60	0.34	-166.90
6700	0.34	-167.50	0.92	-68.00	0.92	-68.00	0.34	-167.50
6750	0.34	-168.00	0.92	-68.40	0.92	-68.40	0.34	-168.00
6800	0.35	-169.40	0.92	-69.20	0.92	-69.20	0.35	-169.40
6850	0.35	-170.80	0.92	-70.00	0.92	-70.00	0.35	-170.80
6900	0.35	-171.30	0.92	-70.50	0.92	-70.50	0.35	-171.30
6950	0.35	-171.80	0.92	-71.10	0.92	-71.10	0.35	-171.80
7000	0.36	-173.40	0.92	-71.90	0.92	-71.90	0.36	-173.40
7050	0.37	-175.00	0.92	-72.70	0.92	-72.70	0.37	-175.00
7100	0.36	-175.80	0.92	-73.30	0.92	-73.30	0.36	-175.80
7150	0.36	-176.60	0.92	-73.90	0.92	-73.90	0.36	-176.60
7200	0.37	-177.60	0.92	-74.70	0.92	-74.70	0.37	-177.60
7250	0.38	-178.50	0.92	-75.60	0.92	-75.60	0.38	-178.50
7300	0.38	0.20	0.92	-76.30	0.92	-76.30	0.38	0.20
7350	0.38	178.80	0.91	-77.10	0.91	-77.10	0.38	178.80
7400	0.38	178.60	0.91	-77.80	0.91	-77.80	0.38	178.60
7450	0.39	178.40	0.91	-78.50	0.91	-78.50	0.39	178.40
7500	0.39	177.00	0.91	-79.40	0.91	-79.40	0.39	177.00
7550	0.40	175.50	0.91	-80.40	0.91	-80.40	0.40	175.50
7600	0.40	175.40	0.90	-81.00	0.90	-81.00	0.40	175.40
7650	0.39	175.30	0.90	-81.70	0.90	-81.70	0.39	175.30
7700	0.40	174.50	0.90	-82.60	0.90	-82.60	0.40	174.50
7750	0.40	173.70	0.90	-83.50	0.90	-83.50	0.40	173.70
7800	0.40	172.50	0.90	-84.50	0.90	-84.50	0.40	172.50
7850	0.40	171.30	0.89	-85.40	0.89	-85.40	0.40	171.30
7900	0.41	171.00	0.89	-86.30	0.89	-86.30	0.41	171.00
7950	0.41	170.70	0.89	-87.20	0.89	-87.20	0.41	170.70
8000	0.42	169.30	0.89	-88.20	0.89	-88.20	0.42	169.30
8050	0.42	167.80	0.88	-89.20	0.88	-89.20	0.42	167.80
8100	0.43	167.30	0.88	-90.20	0.88	-90.20	0.43	167.30
8150	0.43	166.70	0.88	-91.20	0.88	-91.20	0.43	166.70
8200	0.44	165.60	0.87	-92.30	0.87	-92.30	0.44	165.60
8250	0.45	164.50	0.87	-93.30	0.87	-93.30	0.45	164.50
8300	0.46	163.80	0.86	-94.50	0.86	-94.50	0.46	163.80
8350	0.46	163.20	0.86	-95.70	0.86	-95.70	0.46	163.20
8400	0.47	162.20	0.85	-96.90	0.85	-96.90	0.47	162.20
8450	0.48	161.10	0.85	-98.00	0.85	-98.00	0.48	161.10
8500	0.49	160.40	0.84	-99.30	0.84	-99.30	0.49	160.40
8550	0.49	159.70	0.83	-100.70	0.83	-100.70	0.49	159.70
8600	0.50	158.30	0.82	-101.90	0.82	-101.90	0.50	158.30
8650	0.51	157.00	0.81	-103.10	0.81	-103.10	0.51	157.00
8700	0.52	156.20	0.80	-104.40	0.80	-104.40	0.52	156.20
8750	0.53	155.40	0.79	-105.70	0.79	-105.70	0.53	155.40
8800	0.55	153.80	0.79	-106.70	0.79	-106.70	0.55	153.80
8850	0.56	152.20	0.78	-107.70	0.78	-107.70	0.56	152.20
8900	0.57	151.10	0.76	-109.20	0.76	-109.20	0.57	151.10
8950	0.58	150.00	0.75	-110.80	0.75	-110.80	0.58	150.00
9000	0.59	149.00	0.74	-112.10	0.74	-112.10	0.59	149.00
9050	0.61	148.10	0.72	-113.30	0.72	-113.30	0.61	148.10
9100	0.63	146.80	0.71	-114.70	0.71	-114.70	0.63	146.80
9150	0.64	145.50	0.70	-116.00	0.70	-116.00	0.64	145.50
9200	0.66	143.60	0.69	-118.00	0.69	-118.00	0.66	143.60
9250	0.67	141.60	0.67	-119.90	0.67	-119.90	0.67	141.60
9300	0.68	141.20	0.65	-120.90	0.65	-120.90	0.68	141.20
9350	0.68	140.70	0.63	-122.00	0.63	-122.00	0.68	140.70
9400	0.70	139.10	0.61	-123.50	0.61	-123.50	0.70	139.10
9450	0.71	137.50	0.59	-125.00	0.59	-125.00	0.71	137.50
9500	0.72	136.40	0.57	-126.20	0.57	-126.20	0.72	136.40
9550	0.72	135.40	0.54	-127.50	0.54	-127.50	0.72	135.40
9600	0.74	134.20	0.52	-128.60	0.52	-128.60	0.74	134.20
9650	0.75	133.00	0.50	-129.70	0.50	-129.70	0.75	133.00
9700	0.76	131.60	0.48	-130.70	0.48	-130.70	0.76	131.60
9750	0.76	130.20	0.45	-131.60	0.45	-131.60	0.76	130.20
9800	0.77	129.80	0.43	-132.20	0.43	-132.20	0.77	129.80
9850	0.77	129.40	0.41	-132.80	0.41	-132.80	0.77	129.40
9900	0.79	127.90	0.39	-133.40	0.39	-133.40	0.79	127.90
9950	0.81	126.40	0.37	-134.10	0.37	-134.10	0.81	126.40
10000	0.81	124.90	0.34	-134.60	0.34	-134.60	0.81	124.90
10050	0.81	123.40	0.31	-135.10	0.31	-135.10	0.81	123.40
10100	0.83	122.60	0.29	-134.60	0.29	-134.60	0.83	122.60
10150	0.85	121.80	0.27	-134.10	0.27	-134.10	0.85	121.80
10200	0.85	119.90	0.25	-133.40	0.25	-133.40	0.85	119.90
10250	0.86	118.00	0.22	-132.80	0.22	-132.80	0.86	118.00
10300	0.87	116.00	0.19	-130.10	0.19	-130.10	0.87	116.00
10350	0.88	114.00	0.17	-127.50	0.17	-127.50	0.88	114.00
10400	0.87	112.20	0.15	-120.60	0.15	-120.60	0.87	112.20
10450	0.85	110.50	0.13	-113.70	0.13	-113.70	0.85	110.50
10500	0.86	108.40	0.13	-104.30	0.13	-104.30	0.86	108.40
10550	0.86	106.40	0.12	-95.00	0.12	-95.00	0.86	106.40
10600	0.86	104.50	0.12	-85.20	0.12	-85.20	0.86	104.50
10650	0.85	102.70	0.13	-75.50	0.13	-75.50	0.85	102.70
10700	0.85	101.50	0.13	-69.60	0.13	-69.60	0.85	101.50
10750	0.85	100.30	0.14	-63.60	0.14	-63.60	0.85	100.30
10800	0.86	99.00	0.14	-55.50	0.14	-55.50	0.86	99.00
10850	0.87	97.70	0.15	-47.30	0.15	-47.30	0.87	97.70
10900	0.87	95.00	0.17	-40.40	0.17	-40.40	0.87	95.00
10950	0.87	92.30	0.19	-33.40	0.19	-33.40	0.87	92.30
11000	0.87	90.00	0.22	-31.30	0.22	-31.30	0.87	90.00
11050	0.88	87.70	0.25	-29.30	0.25	-29.30	0.88	87.70
11100	0.87	84.90	0.28	-28.70	0.28	-28.70	0.87	84.90
11150	0.86	82.00	0.31	-28.20	0.31	-28.20	0.86	82.00
11200	0.85	79.50	0.34	-29.50	0.34	-29.50	0.85	79.50
11250	0.84	76.90	0.37	-30.90	0.37	-30.90	0.84	76.90
11300	0.83	74.50	0.40	-32.10	0.40	-32.10	0.83	74.50
11350	0.82	72.10	0.43	-33.30	0.43	-33.30	0.82	72.10
11400	0.80	69.60	0.46	-35.20	0.46	-35.20	0.80	69.60
11450	0.78	67.10	0.48	-37.10	0.48	-37.10	0.78	67.10
11500	0.77	65.10	0.51	-38.50	0.51	-38.50	0.77	65.10
11550	0.76	63.20	0.53	-39.90	0.53	-39.90	0.76	63.20
11600	0.75	61.40	0.55	-41.60	0.55	-41.60	0.75	61.40
11650	0.73	59.60	0.57	-43.40	0.57	-43.40	0.73	59.60
11700	0.72	57.70	0.60	-45.00	0.60	-45.00	0.72	57.70
11750	0.70	55.90	0.62	-46.60	0.62	-46.60	0.70	55.90
11800	0.69	55.00	0.64	-47.90	0.64	-47.90	0.69	55.00
11850	0.68	54.20	0.65	-49.10	0.65	-49.10	0.68	54.20
11900	0.66	53.10	0.67	-51.00	0.67	-51.00	0.66	53.10
11950	0.63	52.10	0.69	-52.80	0.69	-52.80	0.63	52.10
12000	0.62	50.90	0.71	-53.90	0.71	-53.90	0.62	50.90
12050	0.61	49.70	0.73	-55.00	0.73	-55.00	0.61	49.70
12100	0.59	48.50	0.74	-56.80	0.74	-56.80	0.59	48.50
12150	0.57	47.20	0.75	-58.70	0.75	-58.70	0.57	47.20
12200	0.56	45.90	0.77	-60.10	0.77	-60.10	0.56	45.90
12250	0.54	44.60	0.78	-61.40	0.78	-61.40	0.54	44.60
12300	0.52	44.30	0.79	-62.80	0.79	-62.80	0.52	44.30
12350	0.50	44.10	0.80	-64.10	0.80	-64.10	0.50	44.10
12400	0.49	42.00	0.82	-65.90	0.82	-65.90	0.49	42.00
12450	0.48	39.90	0.83	-67.70	0.83	-67.70	0.48	39.90
12500	0.46	39.60	0.84	-68.90	0.84	-68.90	0.46	39.60
12550	0.45	39.30	0.84	-70.20	0.84	-70.20	0.45	39.30
12600	0.44	38.80	0.85	-71.60	0.85	-71.60	0.44	38.80
12650	0.42	38.20	0.86	-73.00	0.86	-73.00	0.42	38.20
12700	0.41	37.00	0.86	-74.30	0.86	-74.30	0.41	37.00
12750	0.41	35.80	0.87	-75.60	0.87	-75.60	0.41	35.80
12800	0.40	35.30	0.87	-76.90	0.87	-76.90	0.40	35.30
12850	0.39	34.90	0.87	-78.30	0.87	-78.30	0.39	34.90
12900	0.38	34.40	0.88	-79.50	0.88	-79.50	0.38	34.40
12950	0.38	33.80	0.89	-80.60	0.89	-80.60	0.38	33.80
13000	0.37	33.50	0.89	-81.70	0.89	-81.70	0.37	33.50
13050	0.36	33.10	0.89	-82.80	0.89	-82.80	0.36	33.10
13100	0.35	32.40	0.89	-83.90	0.89	-83.90	0.35	32.40
13150	0.34	31.70	0.89	-85.00	0.89	-85.00	0.34	31.70
13200	0.34	31.70	0.90	-85.80	0.90	-85.80	0.34	31.70
13250	0.34	31.70	0.90	-86.70	0.90	-86.70	0.34	31.70
13300	0.32	32.80	0.90	-88.10	0.90	-88.10	0.32	32.80
13350	0.30	33.80	0.90	-89.60	0.90	-89.60	0.30	33.80
13400	0.31	32.50	0.90	-90.70	0.90	-90.70	0.31	32.50
13450	0.31	31.20	0.90	-91.70	0.90	-91.70	0.31	31.20
13500	0.31	30.10	0.90	-92.80	0.90	-92.80	0.31	30.10
13550	0.30	29.00	0.90	-93.90	0.90	-93.90	0.30	29.00
13600	0.30	28.40	0.90	-95.10	0.90	-95.10	0.30	28.40
13650	0.29	27.80	0.90	-96.40	0.90	-96.40	0.29	27.80
13700	0.29	26.40	0.90	-97.40	0.90	-97.40	0.29	26.40
13750	0.29	25.00	0.90	-98.50	0.90	-98.50	0.29	25.00
13800	0.28	24.10	0.89	-99.70	0.89	-99.70	0.28	24.10
13850	0.27	23.20	0.88	-100.90	0.88	-100.90	0.27	23.20
13900	0.27	22.90	0.87	-101.90	0.87	-101.90	0.27	22.90
13950	0.28	22.60	0.86	-103.00	0.86	-103.00	0.28	22.60
14000	0.29	22.20	0.84	-103.30	0.84	-103.30	0.29	22.20
14050	0.30	21.80	0.82	-103.70	0.82	-103.70	0.30	21.80
14100	0.32	19.10	0.81	-102.60	0.81	-102.60	0.32	19.10
14150	0.34	16.40	0.80	-101.40	0.80	-101.40	0.34	16.40
14200	0.36	11.10	0.81	-100.70	0.81	-100.70	0.36	11.10
14250	0.37	5.80	0.82	-100.00	0.82	-100.00	0.37	5.80
14300	0.37	2.40	0.84	-100.20	0.84	-100.20	0.37	2.40
14350	0.36	-1.00	0.85	-100.40	0.85	-100.40	0.36	-1.00
14400	0.36	-4.20	0.86	-101.10	0.86	-101.10	0.36	-4.20
14450	0.37	-7.30	0.87	-101.80	0.87	-101.80	0.37	-7.30
14500	0.35	-8.80	0.88	-102.30	0.88	-102.30	0.35	-8.80
14550	0.35	-10.20	0.88	-102.80	0.88	-102.80	0.35	-10.20
14600	0.34	-11.40	0.89	-103.60	0.89	-103.60	0.34	-11.40
14650	0.34	-12.60	0.90	-104.30	0.90	-104.30	0.34	-12.60
14700	0.33	-14.20	0.90	-105.10	0.90	-105.10	0.33	-14.20
14750	0.32	-15.70	0.91	-105.90	0.91	-105.90	0.32	-15.70
14800	0.31	-15.90	0.91	-106.70	0.91	-106.70	0.31	-15.90
14850	0.31	-16.20	0.91	-107.50	0.91	-107.50	0.31	-16.20
14900	0.30	-16.20	0.92	-108.10	0.92	-108.10	0.30	-16.20
14950	0.29	-16.20	0.92	-108.70	0.92	-108.70	0.29	-16.20
15000	0.28	-17.30	0.92	-109.60	0.92	-109.60	0.28	-17.30
15050	0.28	-18.50	0.92	-110.50	0.92	-110.50	0.28	-18.50
15100	0.27	-18.70	0.93	-111.00	0.93	-111.00	0.27	-18.70
15150	0.27	-19.00	0.93	-111.40	0.93	-111.40	0.27	-19.00
15200	0.27	-18.50	0.93	-112.10	0.93	-112.10	0.27	-18.50
15250	0.27	-17.90	0.93	-112.70	0.93	-112.70	0.27	-17.90
15300	0.26	-19.70	0.93	-113.60	0.93	-113.60	0.26	-19.70
15350	0.26	-21.40	0.93	-114.50	0.93	-114.50	0.26	-21.40
15400	0.26	-20.10	0.93	-114.90	0.93	-114.90	0.26	-20.10
15450	0.26	-18.80	0.92	-115.40	0.92	-115.40	0.26	-18.80
15500	0.27	-19.10	0.92	-115.90	0.92	-115.90	0.27	-19.10
15550	0.27	-19.40	0.92	-116.40	0.92	-116.40	0.27	-19.40
15600	0.27	-19.60	0.92	-116.70	0.92	-116.70	0.27	-19.60
15650	0.27	-19.80	0.92	-117.00	0.92	-117.00	0.27	-19.80
15700	0.28	-19.60	0.92	-117.50	0.92	-117.50	0.28	-19.60
15750	0.29	-19.40	0.92	-118.10	0.92	-118.10	0.29	-19.40
15800	0.28	-20.80	0.92	-118.30	0.92	-118.30	0.28	-20.80
15850	0.27	-22.20	0.93	-118.50	0.93	-118.50	0.27	-22.20
15900	0.27	-21.20	0.93	-118.90	0.93	-118.90	0.27	-21.20
15950	0.28	-20.10	0.93	-119.40	0.93	-119.40	0.28	-20.10
16000	0.26	-21.00	0.93	-119.80	0.93	-119.80	0.26	-21.00
16050	0.24	-21.90	0.94	-120.10	0.94	-120.10	0.24	-21.90
16100	0.23	-21.50	0.94	-120.80	0.94	-120.80	0.23	-21.50
16150	0.21	-21.00	0.94	-121.40	0.94	-121.40	0.21	-21.00
16200	0.20	-22.70	0.94	-122.00	0.94	-122.00	0.20	-22.70
16250	0.19	-24.40	0.94	-122.60	0.94	-122.60	0.19	-24.40
16300	0.16	-25.90	0.95	-123.30	0.95	-123.30	0.16	-25.90
16350	0.14	-27.40	0.95	-123.90	0.95	-123.90	0.14	-27.40
16400	0.13	-29.10	0.95	-124.40	0.95	-124.40	0.13	-29.10
16450	0.12	-30.70	0.95	-125.00	0.95	-125.00	0.12	-30.70
16500	0.10	-39.00	0.95	-125.40	0.95	-125.40	0.10	-39.00
16550	0.09	-47.20	0.95	-125.90	0.95	-125.90	0.09	-47.20
16600	0.08	-52.40	0.96	-126.60	0.96	-126.60	0.08	-52.40
16650	0.06	-57.60	0.96	-127.30	0.96	-127.30	0.06	-57.60
16700	0.06	-74.10	0.97	-127.90	0.97	-127.90	0.06	-74.10
16750	0.05	-90.60	0.97	-128.60	0.97	-128.60	0.05	-90.60
16800	0.05	-110.40	0.97	-129.30	0.97	-129.30	0.05	-110.40
16850	0.04	-130.30	0.97	-130.10	0.97	-130.10	0.04	-130.30
16900	0.04	-147.60	0.97	-130.80	0.97	-130.80	0.04	-147.60
16950	0.03	-164.90	0.97	-131.60	0.97	-131.60	0.03	-164.90
17000	0.04	-4.90	0.97	-132.30	0.97	-132.30	0.04	-4.90
17050	0.05	155.20	0.98	-133.00	0.98	-133.00	0.05	155.20
17100	0.06	139.00	0.97	-133.90	0.97	-133.90	0.06	139.00
17150	0.07	122.90	0.97	-134.80	0.97	-134.80	0.07	122.90
17200	0.08	114.20	0.97	-135.20	0.97	-135.20	0.08	114.20
17250	0.09	105.40	0.97	-135.60	0.97	-135.60	0.09	105.40
17300	0.11	103.40	0.97	-136.40	0.97	-136.40	0.11	103.40
17350	0.13	101.40	0.97	-137.10	0.97	-137.10	0.13	101.40
17400	0.14	96.00	0.96	-137.50	0.96	-137.50	0.14	96.00
17450	0.15	90.70	0.96	-137.90	0.96	-137.90	0.15	90.70
17500	0.16	89.80	0.96	-138.50	0.96	-138.50	0.16	89.80
17550	0.17	88.90	0.96	-139.00	0.96	-139.00	0.17	88.90
17600	0.19	86.20	0.96	-139.60	0.96	-139.60	0.19	86.20
17650	0.20	83.60	0.96	-140.20	0.96	-140.20	0.20	83.60
17700	0.21	83.00	0.96	-140.50	0.96	-140.50	0.21	83.00
17750	0.21	82.40	0.96	-140.90	0.96	-140.90	0.21	82.40
17800	0.21	82.30	0.96	-141.50	0.96	-141.50	0.21	82.30
17850	0.22	82.30	0.96	-142.10	0.96	-142.10	0.22	82.30
17900	0.21	81.20	0.96	-142.60	0.96	-142.60	0.21	81.20
17950	0.20	80.20	0.96	-143.00	0.96	-143.00	0.20	80.20
18000	0.20	80.30	0.96	-143.70	0.96	-143.70	0.20	80.30
18050	0.19	80.50	0.96	-144.30	0.96	-144.30	0.19	80.50
18100	0.18	78.70	0.96	-144.70	0.96	-144.70	0.18	78.70
18150	0.17	77.00	0.96	-145.20	0.96	-145.20	0.17	77.00
18200	0.16	75.10	0.96	-145.90	0.96	-145.90	0.16	75.10
18250	0.15	73.30	0.96	-146.60	0.96	-146.60	0.15	73.30
18300	0.14	69.00	0.96	-147.00	0.96	-147.00	0.14	69.00
18350	0.13	64.60	0.96	-147.40	0.96	-147.40	0.13	64.60
18400	0.12	60.50	0.96	-148.00	0.96	-148.00	0.12	60.50
18450	0.12	56.30	0.96	-148.60	0.96	-148.60	0.12	56.30
18500	0.12	51.50	0.97	-149.00	0.97	-149.00	0.12	51.50
18550	0.12	46.60	0.97	-149.40	0.97	-149.40	0.12	46.60
18600	0.11	44.70	0.97	-150.00	0.97	-150.00	0.11	44.70
18650	0.10	42.80	0.97	-150.60	0.97	-150.60	0.10	42.80
