#	mhz	s	ma	r	50

50	0.41	119.80	0.87	25.90	0.87	25.90	0.41	119.80
100	0.28	110.30	0.92	17.30	0.92	17.30	0.28	110.30
150	0.14	100.80	0.98	8.80	0.98	8.80	0.14	100.80
200	0.11	98.80	0.99	6.20	0.99	6.20	0.11	98.80
250	0.07	96.80	0.99	3.60	0.99	3.60	0.07	96.80
300	0.05	99.10	1.00	2.00	1.00	2.00	0.05	99.10
350	0.03	101.40	1.00	0.40	1.00	0.40	0.03	101.40
400	0.02	0.90	1.00	-0.70	1.00	-0.70	0.02	0.90
450	0.01	-99.70	1.00	-1.80	1.00	-1.80	0.01	-99.70
500	0.01	-101.20	1.00	-2.80	1.00	-2.80	0.01	-101.20
550	0.02	-102.70	1.00	-3.80	1.00	-3.80	0.02	-102.70
600	0.03	-103.50	1.00	-4.70	1.00	-4.70	0.03	-103.50
650	0.04	-104.30	1.00	-5.60	1.00	-5.60	0.04	-104.30
700	0.05	-104.30	1.00	-6.40	1.00	-6.40	0.05	-104.30
750	0.05	-104.30	1.00	-7.30	1.00	-7.30	0.05	-104.30
800	0.06	-104.80	1.00	-8.10	1.00	-8.10	0.06	-104.80
850	0.07	-105.40	1.00	-9.00	1.00	-9.00	0.07	-105.40
900	0.08	-105.90	1.00	-9.80	1.00	-9.80	0.08	-105.90
950	0.08	-106.40	1.00	-10.60	1.00	-10.60	0.08	-106.40
1000	0.09	-107.00	1.00	-11.30	1.00	-11.30	0.09	-107.00
1050	0.10	-107.70	1.00	-12.10	1.00	-12.10	0.10	-107.70
1100	0.10	-108.20	0.99	-12.90	0.99	-12.90	0.10	-108.20
1150	0.11	-108.70	0.99	-13.70	0.99	-13.70	0.11	-108.70
1200	0.12	-109.30	0.99	-14.50	0.99	-14.50	0.12	-109.30
1250	0.12	-109.90	0.99	-15.30	0.99	-15.30	0.12	-109.90
1300	0.13	-111.60	0.99	-16.00	0.99	-16.00	0.13	-111.60
1350	0.14	-113.20	0.99	-16.70	0.99	-16.70	0.14	-113.20
1400	0.14	-113.90	0.99	-17.60	0.99	-17.60	0.14	-113.90
1450	0.15	-114.60	0.99	-18.40	0.99	-18.40	0.15	-114.60
1500	0.16	-115.80	0.99	-19.20	0.99	-19.20	0.16	-115.80
1550	0.17	-117.00	0.98	-20.10	0.98	-20.10	0.17	-117.00
1600	0.17	-117.40	0.98	-20.90	0.98	-20.90	0.17	-117.40
1650	0.18	-117.90	0.98	-21.80	0.98	-21.80	0.18	-117.90
1700	0.19	-119.40	0.98	-22.70	0.98	-22.70	0.19	-119.40
1750	0.20	-120.90	0.98	-23.70	0.98	-23.70	0.20	-120.90
1800	0.21	-121.50	0.98	-24.70	0.98	-24.70	0.21	-121.50
1850	0.22	-122.20	0.97	-25.70	0.97	-25.70	0.22	-122.20
1900	0.23	-124.20	0.96	-26.80	0.96	-26.80	0.23	-124.20
1950	0.25	-126.30	0.96	-27.90	0.96	-27.90	0.25	-126.30
2000	0.27	-129.90	0.94	-29.70	0.94	-29.70	0.27	-129.90
2050	0.29	-133.60	0.92	-31.50	0.92	-31.50	0.29	-133.60
2100	0.28	-152.70	0.85	-28.30	0.85	-28.30	0.28	-152.70
2150	0.26	-171.70	0.78	-25.20	0.78	-25.20	0.26	-171.70
2200	0.21	-152.10	0.87	-25.00	0.87	-25.00	0.21	-152.10
2250	0.15	-132.40	0.95	-24.90	0.95	-24.90	0.15	-132.40
2300	0.18	-128.90	0.96	-26.80	0.96	-26.80	0.18	-128.90
2350	0.20	-125.40	0.97	-28.80	0.97	-28.80	0.20	-125.40
2400	0.22	-126.20	0.96	-30.10	0.96	-30.10	0.22	-126.20
2450	0.23	-127.10	0.96	-31.50	0.96	-31.50	0.23	-127.10
2500	0.25	-127.40	0.96	-32.50	0.96	-32.50	0.25	-127.40
2550	0.26	-127.70	0.96	-33.50	0.96	-33.50	0.26	-127.70
2600	0.27	-128.70	0.96	-34.50	0.96	-34.50	0.27	-128.70
2650	0.28	-129.60	0.95	-35.40	0.95	-35.40	0.28	-129.60
2700	0.29	-130.10	0.95	-36.30	0.95	-36.30	0.29	-130.10
2750	0.30	-130.50	0.95	-37.10	0.95	-37.10	0.30	-130.50
2800	0.31	-131.10	0.95	-38.00	0.95	-38.00	0.31	-131.10
2850	0.32	-131.70	0.95	-38.80	0.95	-38.80	0.32	-131.70
2900	0.32	-132.50	0.94	-39.90	0.94	-39.90	0.32	-132.50
2950	0.33	-133.30	0.94	-40.90	0.94	-40.90	0.33	-133.30
3000	0.34	-133.70	0.93	-41.60	0.93	-41.60	0.34	-133.70
3050	0.35	-134.00	0.93	-42.30	0.93	-42.30	0.35	-134.00
3100	0.35	-135.40	0.93	-43.30	0.93	-43.30	0.35	-135.40
3150	0.36	-136.80	0.92	-44.30	0.92	-44.30	0.36	-136.80
3200	0.37	-136.90	0.92	-45.10	0.92	-45.10	0.37	-136.90
3250	0.38	-137.00	0.92	-45.90	0.92	-45.90	0.38	-137.00
3300	0.38	-137.90	0.91	-46.90	0.91	-46.90	0.38	-137.90
3350	0.40	-138.80	0.91	-47.90	0.91	-47.90	0.40	-138.80
3400	0.41	-139.90	0.90	-48.90	0.90	-48.90	0.41	-139.90
3450	0.41	-141.00	0.90	-49.90	0.90	-49.90	0.41	-141.00
3500	0.42	-142.10	0.88	-51.00	0.88	-51.00	0.42	-142.10
3550	0.43	-143.30	0.87	-52.20	0.87	-52.20	0.43	-143.30
3600	0.44	-145.60	0.86	-53.20	0.86	-53.20	0.44	-145.60
3650	0.46	-147.90	0.84	-54.20	0.84	-54.20	0.46	-147.90
3700	0.45	-154.00	0.79	-53.10	0.79	-53.10	0.45	-154.00
3750	0.43	-160.10	0.75	-52.10	0.75	-52.10	0.43	-160.10
3800	0.37	-156.30	0.80	-49.10	0.80	-49.10	0.37	-156.30
3850	0.31	-152.40	0.84	-46.00	0.84	-46.00	0.31	-152.40
3900	0.33	-147.20	0.87	-48.50	0.87	-48.50	0.33	-147.20
3950	0.35	-142.00	0.89	-50.90	0.89	-50.90	0.35	-142.00
4000	0.37	-141.00	0.89	-52.50	0.89	-52.50	0.37	-141.00
4050	0.39	-140.10	0.89	-54.10	0.89	-54.10	0.39	-140.10
4100	0.40	-140.30	0.89	-55.30	0.89	-55.30	0.40	-140.30
4150	0.41	-140.40	0.89	-56.60	0.89	-56.60	0.41	-140.40
4200	0.42	-141.30	0.88	-57.80	0.88	-57.80	0.42	-141.30
4250	0.44	-142.10	0.88	-59.10	0.88	-59.10	0.44	-142.10
4300	0.44	-142.60	0.88	-59.90	0.88	-59.90	0.44	-142.60
4350	0.45	-143.20	0.87	-60.70	0.87	-60.70	0.45	-143.20
4400	0.46	-144.20	0.87	-61.90	0.87	-61.90	0.46	-144.20
4450	0.47	-145.20	0.86	-63.00	0.86	-63.00	0.47	-145.20
4500	0.48	-146.00	0.86	-63.90	0.86	-63.90	0.48	-146.00
4550	0.49	-146.70	0.85	-64.90	0.85	-64.90	0.49	-146.70
4600	0.50	-148.50	0.85	-65.90	0.85	-65.90	0.50	-148.50
4650	0.51	-150.30	0.84	-67.00	0.84	-67.00	0.51	-150.30
4700	0.52	-151.20	0.83	-67.80	0.83	-67.80	0.52	-151.20
4750	0.52	-152.10	0.83	-68.70	0.83	-68.70	0.52	-152.10
4800	0.53	-153.40	0.82	-69.60	0.82	-69.60	0.53	-153.40
4850	0.54	-154.60	0.81	-70.50	0.81	-70.50	0.54	-154.60
4900	0.55	-156.30	0.81	-71.70	0.81	-71.70	0.55	-156.30
4950	0.56	-158.00	0.80	-72.80	0.80	-72.80	0.56	-158.00
5000	0.57	-159.50	0.79	-73.70	0.79	-73.70	0.57	-159.50
5050	0.58	-161.10	0.77	-74.50	0.77	-74.50	0.58	-161.10
5100	0.58	-163.00	0.76	-75.40	0.76	-75.40	0.58	-163.00
5150	0.59	-164.90	0.75	-76.20	0.75	-76.20	0.59	-164.90
5200	0.60	-167.50	0.73	-77.00	0.73	-77.00	0.60	-167.50
5250	0.62	-170.10	0.71	-77.70	0.71	-77.70	0.62	-170.10
5300	0.61	-174.20	0.68	-77.00	0.68	-77.00	0.61	-174.20
5350	0.60	-178.30	0.64	-76.20	0.64	-76.20	0.60	-178.30
5400	0.55	0.50	0.66	-72.30	0.66	-72.30	0.55	0.50
5450	0.50	179.30	0.67	-68.30	0.67	-68.30	0.50	179.30
5500	0.49	3.60	0.71	-69.30	0.71	-69.30	0.49	3.60
5550	0.49	-172.20	0.75	-70.30	0.75	-70.30	0.49	-172.20
5600	0.51	-171.00	0.77	-72.60	0.77	-72.60	0.51	-171.00
5650	0.53	-169.70	0.78	-74.90	0.78	-74.90	0.53	-169.70
5700	0.55	-170.40	0.78	-76.60	0.78	-76.60	0.55	-170.40
5750	0.57	-171.10	0.78	-78.30	0.78	-78.30	0.57	-171.10
5800	0.58	-172.00	0.77	-79.60	0.77	-79.60	0.58	-172.00
5850	0.60	-172.80	0.76	-80.80	0.76	-80.80	0.60	-172.80
5900	0.61	-173.80	0.76	-81.90	0.76	-81.90	0.61	-173.80
5950	0.62	-174.70	0.75	-83.00	0.75	-83.00	0.62	-174.70
6000	0.64	-175.50	0.74	-84.10	0.74	-84.10	0.64	-175.50
6050	0.65	-176.40	0.73	-85.20	0.73	-85.20	0.65	-176.40
6100	0.66	-177.20	0.72	-86.00	0.72	-86.00	0.66	-177.20
6150	0.68	-178.10	0.71	-86.90	0.71	-86.90	0.68	-178.10
6200	0.68	0.70	0.70	-87.80	0.70	-87.80	0.68	0.70
6250	0.69	179.40	0.70	-88.70	0.70	-88.70	0.69	179.40
6300	0.70	178.60	0.69	-89.40	0.69	-89.40	0.70	178.60
6350	0.70	177.90	0.68	-90.10	0.68	-90.10	0.70	177.90
6400	0.71	177.10	0.68	-90.90	0.68	-90.90	0.71	177.10
6450	0.71	176.30	0.67	-91.80	0.67	-91.80	0.71	176.30
6500	0.72	175.40	0.66	-92.70	0.66	-92.70	0.72	175.40
6550	0.72	174.50	0.65	-93.60	0.65	-93.60	0.72	174.50
6600	0.73	173.40	0.64	-94.50	0.64	-94.50	0.73	173.40
6650	0.74	172.20	0.64	-95.30	0.64	-95.30	0.74	172.20
6700	0.74	171.20	0.63	-96.00	0.63	-96.00	0.74	171.20
6750	0.74	170.20	0.62	-96.70	0.62	-96.70	0.74	170.20
6800	0.75	168.30	0.60	-97.60	0.60	-97.60	0.75	168.30
6850	0.75	166.30	0.59	-98.60	0.59	-98.60	0.75	166.30
6900	0.75	164.80	0.57	-98.70	0.57	-98.70	0.75	164.80
6950	0.75	163.20	0.56	-98.90	0.56	-98.90	0.75	163.20
7000	0.74	160.50	0.54	-97.80	0.54	-97.80	0.74	160.50
7050	0.74	157.80	0.52	-96.70	0.52	-96.70	0.74	157.80
7100	0.70	156.70	0.52	-93.10	0.52	-93.10	0.70	156.70
7150	0.66	155.50	0.53	-89.60	0.53	-89.60	0.66	155.50
7200	0.65	157.60	0.57	-90.30	0.57	-90.30	0.65	157.60
7250	0.64	159.80	0.61	-91.00	0.61	-91.00	0.64	159.80
7300	0.66	160.40	0.62	-93.80	0.62	-93.80	0.66	160.40
7350	0.67	161.10	0.63	-96.70	0.63	-96.70	0.67	161.10
7400	0.69	160.90	0.63	-99.00	0.63	-99.00	0.69	160.90
7450	0.71	160.60	0.63	-101.40	0.63	-101.40	0.71	160.60
7500	0.73	159.10	0.62	-103.50	0.62	-103.50	0.73	159.10
7550	0.74	157.60	0.61	-105.60	0.61	-105.60	0.74	157.60
7600	0.75	156.70	0.60	-107.10	0.60	-107.10	0.75	156.70
7650	0.75	155.70	0.59	-108.50	0.59	-108.50	0.75	155.70
7700	0.76	154.20	0.58	-110.20	0.58	-110.20	0.76	154.20
7750	0.77	152.70	0.57	-111.90	0.57	-111.90	0.77	152.70
7800	0.78	150.70	0.56	-113.50	0.56	-113.50	0.78	150.70
7850	0.78	148.80	0.54	-115.10	0.54	-115.10	0.78	148.80
7900	0.79	147.40	0.53	-116.20	0.53	-116.20	0.79	147.40
7950	0.80	146.00	0.52	-117.40	0.52	-117.40	0.80	146.00
8000	0.81	144.00	0.50	-118.60	0.50	-118.60	0.81	144.00
8050	0.82	142.00	0.49	-119.70	0.49	-119.70	0.82	142.00
8100	0.82	140.10	0.48	-121.30	0.48	-121.30	0.82	140.10
8150	0.83	138.20	0.47	-122.90	0.47	-122.90	0.83	138.20
8200	0.83	136.50	0.45	-124.10	0.45	-124.10	0.83	136.50
8250	0.84	134.70	0.43	-125.20	0.43	-125.20	0.84	134.70
8300	0.85	132.80	0.41	-126.70	0.41	-126.70	0.85	132.80
8350	0.85	130.90	0.40	-128.10	0.40	-128.10	0.85	130.90
8400	0.85	129.20	0.38	-128.90	0.38	-128.90	0.85	129.20
8450	0.86	127.50	0.36	-129.60	0.36	-129.60	0.86	127.50
8500	0.85	125.50	0.34	-130.10	0.34	-130.10	0.85	125.50
8550	0.85	123.50	0.31	-130.70	0.31	-130.70	0.85	123.50
8600	0.85	121.50	0.29	-129.70	0.29	-129.70	0.85	121.50
8650	0.85	119.50	0.27	-128.60	0.27	-128.60	0.85	119.50
8700	0.84	117.80	0.25	-125.10	0.25	-125.10	0.84	117.80
8750	0.84	116.00	0.23	-121.60	0.23	-121.60	0.84	116.00
8800	0.82	113.70	0.22	-114.50	0.22	-114.50	0.82	113.70
8850	0.81	111.40	0.22	-107.40	0.22	-107.40	0.81	111.40
8900	0.77	111.30	0.25	-103.10	0.25	-103.10	0.77	111.30
8950	0.74	111.20	0.27	-98.80	0.27	-98.80	0.74	111.20
9000	0.73	113.30	0.30	-102.10	0.30	-102.10	0.73	113.30
9050	0.72	115.40	0.33	-105.50	0.33	-105.50	0.72	115.40
9100	0.75	116.70	0.33	-111.30	0.33	-111.30	0.75	116.70
9150	0.78	118.00	0.34	-117.00	0.34	-117.00	0.78	118.00
9200	0.80	116.80	0.32	-121.80	0.32	-121.80	0.80	116.80
9250	0.82	115.60	0.30	-126.60	0.30	-126.60	0.82	115.60
9300	0.83	115.60	0.28	-128.50	0.28	-128.50	0.83	115.60
9350	0.84	115.60	0.25	-130.40	0.25	-130.40	0.84	115.60
9400	0.85	114.00	0.23	-131.60	0.23	-131.60	0.85	114.00
9450	0.87	112.40	0.21	-132.70	0.21	-132.70	0.87	112.40
9500	0.86	111.80	0.19	-131.80	0.19	-131.80	0.86	111.80
9550	0.86	111.20	0.17	-130.80	0.17	-130.80	0.86	111.20
9600	0.87	110.40	0.16	-128.60	0.16	-128.60	0.87	110.40
9650	0.88	109.60	0.14	-126.40	0.14	-126.40	0.88	109.60
9700	0.88	108.80	0.13	-123.00	0.13	-123.00	0.88	108.80
9750	0.87	107.90	0.12	-119.50	0.12	-119.50	0.87	107.90
9800	0.87	108.20	0.11	-114.40	0.11	-114.40	0.87	108.20
9850	0.87	108.50	0.10	-109.30	0.10	-109.30	0.87	108.50
9900	0.88	107.40	0.10	-102.90	0.10	-102.90	0.88	107.40
9950	0.90	106.30	0.09	-96.50	0.09	-96.50	0.90	106.30
10000	0.89	105.50	0.09	-88.40	0.09	-88.40	0.89	105.50
10050	0.88	104.80	0.09	-80.40	0.09	-80.40	0.88	104.80
10100	0.89	104.60	0.09	-71.90	0.09	-71.90	0.89	104.60
10150	0.90	104.40	0.10	-63.50	0.10	-63.50	0.90	104.40
10200	0.89	103.10	0.10	-57.80	0.10	-57.80	0.89	103.10
10250	0.89	101.70	0.11	-52.00	0.11	-52.00	0.89	101.70
10300	0.89	100.50	0.13	-48.60	0.13	-48.60	0.89	100.50
10350	0.89	99.30	0.14	-45.20	0.14	-45.20	0.89	99.30
10400	0.87	98.20	0.15	-44.00	0.15	-44.00	0.87	98.20
10450	0.84	97.20	0.17	-42.80	0.17	-42.80	0.84	97.20
10500	0.84	96.00	0.19	-44.70	0.19	-44.70	0.84	96.00
10550	0.83	94.80	0.20	-46.60	0.20	-46.60	0.83	94.80
10600	0.81	94.30	0.22	-49.70	0.22	-49.70	0.81	94.30
10650	0.79	93.90	0.23	-52.80	0.23	-52.80	0.79	93.90
10700	0.78	94.90	0.23	-58.20	0.23	-58.20	0.78	94.90
10750	0.78	96.00	0.22	-63.50	0.22	-63.50	0.78	96.00
10800	0.80	96.90	0.20	-64.50	0.20	-64.50	0.80	96.90
10850	0.82	97.90	0.18	-65.50	0.18	-65.50	0.82	97.90
10900	0.83	96.40	0.17	-59.60	0.17	-59.60	0.83	96.40
10950	0.85	95.00	0.15	-53.70	0.15	-53.70	0.85	95.00
11000	0.87	93.50	0.16	-46.90	0.16	-46.90	0.87	93.50
11050	0.88	91.90	0.17	-40.10	0.17	-40.10	0.88	91.90
11100	0.89	89.70	0.18	-35.80	0.18	-35.80	0.89	89.70
11150	0.89	87.50	0.20	-31.50	0.20	-31.50	0.89	87.50
11200	0.89	85.50	0.22	-30.60	0.22	-30.60	0.89	85.50
11250	0.89	83.50	0.24	-29.70	0.24	-29.70	0.89	83.50
11300	0.89	81.70	0.26	-29.60	0.26	-29.60	0.89	81.70
11350	0.89	79.90	0.28	-29.60	0.28	-29.60	0.89	79.90
11400	0.88	77.80	0.29	-30.80	0.29	-30.80	0.88	77.80
11450	0.87	75.70	0.31	-32.00	0.31	-32.00	0.87	75.70
11500	0.87	74.20	0.33	-32.70	0.33	-32.70	0.87	74.20
11550	0.87	72.70	0.35	-33.50	0.35	-33.50	0.87	72.70
11600	0.86	71.30	0.36	-35.00	0.36	-35.00	0.86	71.30
11650	0.85	69.80	0.38	-36.50	0.38	-36.50	0.85	69.80
11700	0.85	68.30	0.39	-37.90	0.39	-37.90	0.85	68.30
11750	0.84	66.80	0.41	-39.30	0.41	-39.30	0.84	66.80
11800	0.84	66.10	0.42	-40.30	0.42	-40.30	0.84	66.10
11850	0.83	65.50	0.43	-41.40	0.43	-41.40	0.83	65.50
11900	0.82	64.50	0.44	-43.00	0.44	-43.00	0.82	64.50
11950	0.81	63.40	0.45	-44.70	0.45	-44.70	0.81	63.40
12000	0.80	62.50	0.47	-45.30	0.47	-45.30	0.80	62.50
12050	0.80	61.60	0.48	-45.90	0.48	-45.90	0.80	61.60
12100	0.78	60.10	0.50	-47.90	0.50	-47.90	0.78	60.10
12150	0.77	58.70	0.51	-49.90	0.51	-49.90	0.77	58.70
12200	0.75	57.60	0.52	-51.80	0.52	-51.80	0.75	57.60
12250	0.73	56.50	0.54	-53.70	0.54	-53.70	0.73	56.50
12300	0.71	56.50	0.54	-55.90	0.54	-55.90	0.71	56.50
12350	0.69	56.60	0.55	-58.20	0.55	-58.20	0.69	56.60
12400	0.68	55.30	0.55	-61.40	0.55	-61.40	0.68	55.30
12450	0.67	54.00	0.55	-64.60	0.55	-64.60	0.67	54.00
12500	0.66	54.70	0.54	-66.80	0.54	-66.80	0.66	54.70
12550	0.65	55.50	0.52	-69.10	0.52	-69.10	0.65	55.50
12600	0.66	55.50	0.50	-70.10	0.50	-70.10	0.66	55.50
12650	0.66	55.50	0.48	-71.20	0.48	-71.20	0.66	55.50
12700	0.68	54.00	0.46	-69.60	0.46	-69.60	0.68	54.00
12750	0.69	52.40	0.44	-68.10	0.44	-68.10	0.69	52.40
12800	0.69	50.10	0.44	-65.60	0.44	-65.60	0.69	50.10
12850	0.69	47.70	0.43	-63.20	0.43	-63.20	0.69	47.70
12900	0.68	45.70	0.45	-60.80	0.45	-60.80	0.68	45.70
12950	0.67	43.60	0.47	-58.40	0.47	-58.40	0.67	43.60
13000	0.65	42.60	0.50	-57.80	0.50	-57.80	0.65	42.60
13050	0.63	41.50	0.52	-57.10	0.52	-57.10	0.63	41.50
13100	0.62	40.60	0.55	-58.40	0.55	-58.40	0.62	40.60
13150	0.61	39.70	0.58	-59.70	0.58	-59.70	0.61	39.70
13200	0.61	39.20	0.60	-61.40	0.60	-61.40	0.61	39.20
13250	0.61	38.60	0.61	-63.10	0.61	-63.10	0.61	38.60
13300	0.59	38.80	0.62	-65.60	0.62	-65.60	0.59	38.80
13350	0.57	38.90	0.63	-68.00	0.63	-68.00	0.57	38.90
13400	0.58	36.40	0.64	-69.90	0.64	-69.90	0.58	36.40
13450	0.60	33.90	0.64	-71.70	0.64	-71.70	0.60	33.90
13500	0.59	32.00	0.64	-73.50	0.64	-73.50	0.59	32.00
13550	0.58	30.10	0.64	-75.30	0.64	-75.30	0.58	30.10
13600	0.58	28.20	0.64	-77.20	0.64	-77.20	0.58	28.20
13650	0.58	26.30	0.63	-79.10	0.63	-79.10	0.58	26.30
13700	0.58	23.60	0.62	-80.20	0.62	-80.20	0.58	23.60
13750	0.58	21.00	0.61	-81.40	0.61	-81.40	0.58	21.00
13800	0.57	17.40	0.60	-82.10	0.60	-82.10	0.57	17.40
13850	0.56	13.80	0.58	-82.90	0.58	-82.90	0.56	13.80
13900	0.56	9.80	0.57	-82.10	0.57	-82.10	0.56	9.80
13950	0.55	5.70	0.55	-81.30	0.55	-81.30	0.55	5.70
14000	0.52	1.70	0.55	-79.10	0.55	-79.10	0.52	1.70
14050	0.50	-2.40	0.54	-76.90	0.54	-76.90	0.50	-2.40
14100	0.46	-3.80	0.56	-75.00	0.56	-75.00	0.46	-3.80
14150	0.43	-5.30	0.58	-73.10	0.58	-73.10	0.43	-5.30
14200	0.41	-3.90	0.61	-72.80	0.61	-72.80	0.41	-3.90
14250	0.40	-2.50	0.64	-72.60	0.64	-72.60	0.40	-2.50
14300	0.40	-0.20	0.66	-73.60	0.66	-73.60	0.40	-0.20
14350	0.40	2.00	0.69	-74.60	0.69	-74.60	0.40	2.00
14400	0.42	1.50	0.71	-76.20	0.71	-76.20	0.42	1.50
14450	0.44	1.00	0.73	-77.80	0.73	-77.80	0.44	1.00
14500	0.44	0.30	0.73	-79.00	0.73	-79.00	0.44	0.30
14550	0.45	-0.40	0.74	-80.30	0.74	-80.30	0.45	-0.40
14600	0.46	-1.70	0.75	-81.70	0.75	-81.70	0.46	-1.70
14650	0.46	-3.00	0.76	-83.10	0.76	-83.10	0.46	-3.00
14700	0.46	-4.80	0.76	-84.30	0.76	-84.30	0.46	-4.80
14750	0.46	-6.50	0.77	-85.50	0.77	-85.50	0.46	-6.50
14800	0.46	-7.80	0.77	-86.70	0.77	-86.70	0.46	-7.80
14850	0.46	-9.10	0.77	-87.90	0.77	-87.90	0.46	-9.10
14900	0.44	-9.70	0.78	-88.50	0.78	-88.50	0.44	-9.70
14950	0.43	-10.40	0.78	-89.20	0.78	-89.20	0.43	-10.40
15000	0.42	-12.10	0.78	-90.10	0.78	-90.10	0.42	-12.10
15050	0.41	-13.90	0.78	-91.00	0.78	-91.00	0.41	-13.90
15100	0.39	-13.60	0.79	-91.30	0.79	-91.30	0.39	-13.60
15150	0.38	-13.40	0.80	-91.70	0.80	-91.70	0.38	-13.40
15200	0.37	-12.20	0.81	-92.70	0.81	-92.70	0.37	-12.20
15250	0.37	-11.00	0.82	-93.70	0.82	-93.70	0.37	-11.00
15300	0.36	-11.20	0.82	-95.20	0.82	-95.20	0.36	-11.20
15350	0.36	-11.40	0.82	-96.60	0.82	-96.60	0.36	-11.40
15400	0.35	-9.10	0.81	-97.60	0.81	-97.60	0.35	-9.10
15450	0.35	-6.70	0.81	-98.50	0.81	-98.50	0.35	-6.70
15500	0.36	-5.60	0.81	-99.40	0.81	-99.40	0.36	-5.60
15550	0.38	-4.40	0.80	-100.20	0.80	-100.20	0.38	-4.40
15600	0.38	-3.50	0.80	-100.50	0.80	-100.50	0.38	-3.50
15650	0.39	-2.70	0.79	-100.70	0.79	-100.70	0.39	-2.70
15700	0.41	-2.70	0.79	-101.00	0.79	-101.00	0.41	-2.70
15750	0.43	-2.60	0.79	-101.30	0.79	-101.30	0.43	-2.60
15800	0.43	-3.30	0.79	-101.40	0.79	-101.40	0.43	-3.30
15850	0.43	-3.90	0.80	-101.40	0.80	-101.40	0.43	-3.90
15900	0.44	-4.10	0.80	-101.90	0.80	-101.90	0.44	-4.10
15950	0.45	-4.30	0.80	-102.40	0.80	-102.40	0.45	-4.30
16000	0.44	-4.50	0.81	-102.60	0.81	-102.60	0.44	-4.50
16050	0.43	-4.80	0.82	-102.90	0.82	-102.90	0.43	-4.80
16100	0.42	-4.40	0.82	-103.80	0.82	-103.80	0.42	-4.40
16150	0.41	-4.10	0.82	-104.60	0.82	-104.60	0.41	-4.10
16200	0.39	-4.80	0.83	-105.30	0.83	-105.30	0.39	-4.80
16250	0.38	-5.50	0.83	-105.90	0.83	-105.90	0.38	-5.50
16300	0.36	-5.10	0.83	-106.70	0.83	-106.70	0.36	-5.10
16350	0.34	-4.70	0.84	-107.40	0.84	-107.40	0.34	-4.70
16400	0.34	-4.70	0.83	-108.00	0.83	-108.00	0.34	-4.70
16450	0.33	-4.60	0.83	-108.60	0.83	-108.60	0.33	-4.60
16500	0.32	-6.60	0.82	-108.60	0.82	-108.60	0.32	-6.60
16550	0.31	-8.50	0.82	-108.60	0.82	-108.60	0.31	-8.50
16600	0.31	-10.50	0.83	-108.60	0.83	-108.60	0.31	-10.50
16650	0.31	-12.40	0.85	-108.60	0.85	-108.60	0.31	-12.40
16700	0.30	-16.70	0.86	-109.10	0.86	-109.10	0.30	-16.70
16750	0.28	-20.90	0.88	-109.60	0.88	-109.60	0.28	-20.90
16800	0.27	-24.40	0.89	-110.50	0.89	-110.50	0.27	-24.40
16850	0.25	-27.90	0.90	-111.40	0.90	-111.40	0.25	-27.90
16900	0.24	-29.40	0.90	-112.40	0.90	-112.40	0.24	-29.40
16950	0.23	-30.90	0.91	-113.50	0.91	-113.50	0.23	-30.90
17000	0.21	-32.60	0.92	-114.50	0.92	-114.50	0.21	-32.60
17050	0.19	-34.30	0.93	-115.50	0.93	-115.50	0.19	-34.30
17100	0.17	-31.70	0.93	-116.70	0.93	-116.70	0.17	-31.70
17150	0.16	-29.20	0.93	-117.90	0.93	-117.90	0.16	-29.20
17200	0.14	-25.10	0.94	-118.70	0.94	-118.70	0.14	-25.10
17250	0.13	-21.10	0.94	-119.50	0.94	-119.50	0.13	-21.10
17300	0.11	-11.30	0.94	-120.60	0.94	-120.60	0.11	-11.30
17350	0.09	-1.50	0.95	-121.70	0.95	-121.70	0.09	-1.50
17400	0.10	5.70	0.94	-122.50	0.94	-122.50	0.10	5.70
17450	0.10	12.90	0.94	-123.30	0.94	-123.30	0.10	12.90
17500	0.10	22.90	0.95	-124.30	0.95	-124.30	0.10	22.90
17550	0.10	32.80	0.95	-125.30	0.95	-125.30	0.10	32.80
17600	0.12	39.10	0.95	-126.30	0.95	-126.30	0.12	39.10
17650	0.13	45.40	0.94	-127.40	0.94	-127.40	0.13	45.40
17700	0.13	48.90	0.94	-128.20	0.94	-128.20	0.13	48.90
17750	0.14	52.50	0.95	-129.00	0.95	-129.00	0.14	52.50
17800	0.14	55.70	0.94	-130.00	0.94	-130.00	0.14	55.70
17850	0.15	58.80	0.94	-131.10	0.94	-131.10	0.15	58.80
17900	0.15	59.20	0.94	-131.90	0.94	-131.90	0.15	59.20
17950	0.15	59.50	0.93	-132.70	0.93	-132.70	0.15	59.50
18000	0.15	60.50	0.93	-133.70	0.93	-133.70	0.15	60.50
18050	0.15	61.50	0.93	-134.70	0.93	-134.70	0.15	61.50
18100	0.15	59.90	0.92	-135.50	0.92	-135.50	0.15	59.90
18150	0.14	58.20	0.92	-136.20	0.92	-136.20	0.14	58.20
18200	0.14	56.10	0.92	-137.20	0.92	-137.20	0.14	56.10
18250	0.14	54.00	0.91	-138.10	0.91	-138.10	0.14	54.00
18300	0.14	49.60	0.90	-138.60	0.90	-138.60	0.14	49.60
18350	0.15	45.30	0.90	-139.10	0.90	-139.10	0.15	45.30
18400	0.16	40.70	0.89	-139.60	0.89	-139.60	0.16	40.70
18450	0.16	36.10	0.88	-140.00	0.88	-140.00	0.16	36.10
18500	0.18	32.10	0.88	-139.80	0.88	-139.80	0.18	32.10
18550	0.19	28.10	0.88	-139.70	0.88	-139.70	0.19	28.10
18600	0.19	23.10	0.88	-140.00	0.88	-140.00	0.19	23.10
