#	mhz	s	ma	r	50

50	0.97	178.20	0.02	82.80	0.02	82.80	0.97	178.20
100	0.99	176.90	0.04	82.70	0.04	82.70	0.99	176.90
150	1.00	175.60	0.06	82.50	0.06	82.50	1.00	175.60
200	1.00	174.50	0.07	81.80	0.07	81.80	1.00	174.50
250	0.99	173.30	0.09	81.10	0.09	81.10	0.99	173.30
300	0.99	171.70	0.11	79.70	0.11	79.70	0.99	171.70
350	1.00	170.20	0.13	78.20	0.13	78.20	1.00	170.20
400	0.99	169.10	0.14	77.30	0.14	77.30	0.99	169.10
450	0.98	168.10	0.16	76.40	0.16	76.40	0.98	168.10
500	0.97	165.50	0.19	75.00	0.19	75.00	0.97	165.50
550	0.97	162.90	0.22	73.60	0.22	73.60	0.97	162.90
600	0.97	161.50	0.23	72.00	0.23	72.00	0.97	161.50
650	0.97	160.10	0.25	70.50	0.25	70.50	0.97	160.10
700	0.96	158.40	0.27	69.40	0.27	69.40	0.96	158.40
750	0.95	156.80	0.28	68.30	0.28	68.30	0.95	156.80
800	0.95	155.50	0.30	66.80	0.30	66.80	0.95	155.50
850	0.95	154.20	0.32	65.20	0.32	65.20	0.95	154.20
900	0.94	152.60	0.33	63.80	0.33	63.80	0.94	152.60
950	0.93	151.00	0.35	62.40	0.35	62.40	0.93	151.00
1000	0.92	149.60	0.37	61.00	0.37	61.00	0.92	149.60
1050	0.91	148.20	0.38	59.50	0.38	59.50	0.91	148.20
1100	0.91	146.60	0.40	58.40	0.40	58.40	0.91	146.60
1150	0.90	144.90	0.41	57.30	0.41	57.30	0.90	144.90
1200	0.89	143.40	0.42	55.80	0.42	55.80	0.89	143.40
1250	0.88	141.90	0.44	54.30	0.44	54.30	0.88	141.90
1300	0.88	140.40	0.45	53.30	0.45	53.30	0.88	140.40
1350	0.88	138.80	0.47	52.30	0.47	52.30	0.88	138.80
1400	0.87	137.50	0.48	50.90	0.48	50.90	0.87	137.50
1450	0.86	136.20	0.49	49.40	0.49	49.40	0.86	136.20
1500	0.85	134.60	0.50	48.30	0.50	48.30	0.85	134.60
1550	0.85	133.10	0.51	47.20	0.51	47.20	0.85	133.10
1600	0.84	131.70	0.53	46.00	0.53	46.00	0.84	131.70
1650	0.83	130.20	0.54	44.80	0.54	44.80	0.83	130.20
1700	0.82	128.80	0.55	43.60	0.55	43.60	0.82	128.80
1750	0.82	127.30	0.56	42.30	0.56	42.30	0.82	127.30
1800	0.81	126.30	0.57	41.50	0.57	41.50	0.81	126.30
1850	0.81	125.30	0.58	40.60	0.58	40.60	0.81	125.30
1900	0.80	123.90	0.59	39.50	0.59	39.50	0.80	123.90
1950	0.79	122.50	0.60	38.40	0.60	38.40	0.79	122.50
2000	0.79	121.30	0.60	37.20	0.60	37.20	0.79	121.30
2050	0.78	120.10	0.61	36.00	0.61	36.00	0.78	120.10
2100	0.77	119.10	0.62	35.10	0.62	35.10	0.77	119.10
2150	0.76	118.10	0.63	34.20	0.63	34.20	0.76	118.10
2200	0.76	116.90	0.64	33.10	0.64	33.10	0.76	116.90
2250	0.75	115.70	0.65	32.10	0.65	32.10	0.75	115.70
2300	0.74	114.90	0.65	31.20	0.65	31.20	0.74	114.90
2350	0.73	114.00	0.66	30.30	0.66	30.30	0.73	114.00
2400	0.72	113.20	0.67	29.40	0.67	29.40	0.72	113.20
2450	0.72	112.30	0.67	28.40	0.67	28.40	0.72	112.30
2500	0.71	111.50	0.68	27.40	0.68	27.40	0.71	111.50
2550	0.71	110.80	0.69	26.40	0.69	26.40	0.71	110.80
2600	0.70	110.10	0.70	25.50	0.70	25.50	0.70	110.10
2650	0.69	109.30	0.70	24.70	0.70	24.70	0.69	109.30
2700	0.69	108.80	0.71	23.80	0.71	23.80	0.69	108.80
2750	0.68	108.30	0.72	23.00	0.72	23.00	0.68	108.30
2800	0.67	107.60	0.73	22.10	0.73	22.10	0.67	107.60
2850	0.66	106.90	0.73	21.20	0.73	21.20	0.66	106.90
2900	0.66	106.50	0.74	20.10	0.74	20.10	0.66	106.50
2950	0.65	106.00	0.75	19.00	0.75	19.00	0.65	106.00
3000	0.65	105.60	0.75	18.10	0.75	18.10	0.65	105.60
3050	0.64	105.10	0.76	17.30	0.76	17.30	0.64	105.10
3100	0.63	104.30	0.76	16.10	0.76	16.10	0.63	104.30
3150	0.62	103.40	0.76	14.90	0.76	14.90	0.62	103.40
3200	0.62	103.20	0.77	14.40	0.77	14.40	0.62	103.20
3250	0.61	103.10	0.78	13.80	0.78	13.80	0.61	103.10
3300	0.60	102.80	0.78	12.70	0.78	12.70	0.60	102.80
3350	0.60	102.60	0.79	11.60	0.79	11.60	0.60	102.60
3400	0.59	101.90	0.79	10.80	0.79	10.80	0.59	101.90
3450	0.59	101.30	0.80	10.00	0.80	10.00	0.59	101.30
3500	0.58	101.30	0.80	9.30	0.80	9.30	0.58	101.30
3550	0.57	101.30	0.80	8.60	0.80	8.60	0.57	101.30
3600	0.57	101.10	0.81	7.70	0.81	7.70	0.57	101.10
3650	0.56	101.00	0.82	6.80	0.82	6.80	0.56	101.00
3700	0.56	100.40	0.82	5.90	0.82	5.90	0.56	100.40
3750	0.55	99.70	0.82	5.00	0.82	5.00	0.55	99.70
3800	0.55	99.50	0.82	4.30	0.82	4.30	0.55	99.50
3850	0.54	99.20	0.83	3.50	0.83	3.50	0.54	99.20
3900	0.54	98.70	0.83	2.70	0.83	2.70	0.54	98.70
3950	0.53	98.10	0.84	1.80	0.84	1.80	0.53	98.10
4000	0.53	97.70	0.84	1.00	0.84	1.00	0.53	97.70
4050	0.52	97.30	0.84	0.30	0.84	0.30	0.52	97.30
4100	0.52	96.50	0.85	-0.60	0.85	-0.60	0.52	96.50
4150	0.51	95.70	0.85	-1.40	0.85	-1.40	0.51	95.70
4200	0.51	94.90	0.85	-2.20	0.85	-2.20	0.51	94.90
4250	0.50	94.10	0.86	-2.90	0.86	-2.90	0.50	94.10
4300	0.50	93.10	0.86	-3.50	0.86	-3.50	0.50	93.10
4350	0.49	92.20	0.86	-4.10	0.86	-4.10	0.49	92.20
4400	0.49	91.50	0.87	-4.90	0.87	-4.90	0.49	91.50
4450	0.48	90.80	0.87	-5.70	0.87	-5.70	0.48	90.80
4500	0.48	89.40	0.87	-6.70	0.87	-6.70	0.48	89.40
4550	0.47	88.00	0.87	-7.80	0.87	-7.80	0.47	88.00
4600	0.47	86.90	0.88	-8.40	0.88	-8.40	0.47	86.90
4650	0.46	85.90	0.88	-9.10	0.88	-9.10	0.46	85.90
4700	0.45	84.70	0.88	-9.80	0.88	-9.80	0.45	84.70
4750	0.45	83.50	0.88	-10.50	0.88	-10.50	0.45	83.50
4800	0.44	82.30	0.89	-11.30	0.89	-11.30	0.44	82.30
4850	0.43	81.20	0.89	-12.10	0.89	-12.10	0.43	81.20
4900	0.43	80.00	0.89	-12.80	0.89	-12.80	0.43	80.00
4950	0.42	78.70	0.89	-13.50	0.89	-13.50	0.42	78.70
5000	0.42	77.70	0.90	-14.20	0.90	-14.20	0.42	77.70
5050	0.41	76.70	0.90	-15.00	0.90	-15.00	0.41	76.70
5100	0.40	75.30	0.91	-15.80	0.91	-15.80	0.40	75.30
5150	0.40	73.90	0.91	-16.70	0.91	-16.70	0.40	73.90
5200	0.39	73.60	0.91	-17.30	0.91	-17.30	0.39	73.60
5250	0.38	73.40	0.91	-18.00	0.91	-18.00	0.38	73.40
5300	0.38	72.30	0.92	-18.60	0.92	-18.60	0.38	72.30
5350	0.37	71.10	0.92	-19.20	0.92	-19.20	0.37	71.10
5400	0.36	70.20	0.92	-20.20	0.92	-20.20	0.36	70.20
5450	0.35	69.20	0.93	-21.10	0.93	-21.10	0.35	69.20
5500	0.35	68.70	0.93	-21.70	0.93	-21.70	0.35	68.70
5550	0.35	68.20	0.93	-22.30	0.93	-22.30	0.35	68.20
5600	0.34	67.30	0.94	-23.20	0.94	-23.20	0.34	67.30
5650	0.33	66.40	0.94	-24.00	0.94	-24.00	0.33	66.40
5700	0.32	66.30	0.94	-24.70	0.94	-24.70	0.32	66.30
5750	0.31	66.20	0.94	-25.40	0.94	-25.40	0.31	66.20
5800	0.31	65.10	0.94	-26.20	0.94	-26.20	0.31	65.10
5850	0.30	64.00	0.94	-27.10	0.94	-27.10	0.30	64.00
5900	0.29	64.30	0.94	-27.70	0.94	-27.70	0.29	64.30
5950	0.29	64.60	0.94	-28.40	0.94	-28.40	0.29	64.60
6000	0.28	63.00	0.95	-29.00	0.95	-29.00	0.28	63.00
6050	0.26	61.50	0.96	-29.60	0.96	-29.60	0.26	61.50
6100	0.26	61.80	0.96	-30.20	0.96	-30.20	0.26	61.80
6150	0.25	62.00	0.96	-30.80	0.96	-30.80	0.25	62.00
6200	0.25	62.40	0.96	-31.50	0.96	-31.50	0.25	62.40
6250	0.24	62.80	0.96	-32.20	0.96	-32.20	0.24	62.80
6300	0.23	63.20	0.96	-32.90	0.96	-32.90	0.23	63.20
6350	0.22	63.70	0.96	-33.60	0.96	-33.60	0.22	63.70
6400	0.22	64.00	0.96	-34.30	0.96	-34.30	0.22	64.00
6450	0.21	64.30	0.96	-35.10	0.96	-35.10	0.21	64.30
6500	0.21	64.30	0.96	-35.80	0.96	-35.80	0.21	64.30
6550	0.20	64.40	0.96	-36.50	0.96	-36.50	0.20	64.40
6600	0.20	64.80	0.96	-37.20	0.96	-37.20	0.20	64.80
6650	0.19	65.10	0.97	-37.90	0.97	-37.90	0.19	65.10
6700	0.19	65.70	0.97	-38.40	0.97	-38.40	0.19	65.70
6750	0.19	66.30	0.96	-38.90	0.96	-38.90	0.19	66.30
6800	0.19	66.70	0.97	-39.50	0.97	-39.50	0.19	66.70
6850	0.18	67.00	0.97	-40.20	0.97	-40.20	0.18	67.00
6900	0.18	67.00	0.97	-40.90	0.97	-40.90	0.18	67.00
6950	0.18	67.10	0.97	-41.70	0.97	-41.70	0.18	67.10
7000	0.18	68.40	0.97	-42.40	0.97	-42.40	0.18	68.40
7050	0.18	69.70	0.97	-43.10	0.97	-43.10	0.18	69.70
7100	0.18	69.50	0.97	-43.70	0.97	-43.70	0.18	69.50
7150	0.18	69.30	0.97	-44.30	0.97	-44.30	0.18	69.30
7200	0.18	70.60	0.97	-45.00	0.97	-45.00	0.18	70.60
7250	0.17	71.90	0.97	-45.60	0.97	-45.60	0.17	71.90
7300	0.18	71.20	0.97	-46.20	0.97	-46.20	0.18	71.20
7350	0.18	70.60	0.97	-46.70	0.97	-46.70	0.18	70.60
7400	0.17	70.10	0.97	-47.40	0.97	-47.40	0.17	70.10
7450	0.17	69.70	0.97	-48.10	0.97	-48.10	0.17	69.70
7500	0.17	69.30	0.97	-48.70	0.97	-48.70	0.17	69.30
7550	0.18	69.00	0.97	-49.30	0.97	-49.30	0.18	69.00
7600	0.17	66.60	0.97	-49.90	0.97	-49.90	0.17	66.60
7650	0.17	64.20	0.97	-50.50	0.97	-50.50	0.17	64.20
7700	0.17	62.60	0.97	-51.10	0.97	-51.10	0.17	62.60
7750	0.17	61.10	0.97	-51.70	0.97	-51.70	0.17	61.10
7800	0.17	59.40	0.97	-52.30	0.97	-52.30	0.17	59.40
7850	0.17	57.70	0.97	-52.80	0.97	-52.80	0.17	57.70
7900	0.17	54.90	0.97	-53.40	0.97	-53.40	0.17	54.90
7950	0.17	52.20	0.97	-53.90	0.97	-53.90	0.17	52.20
8000	0.17	50.50	0.97	-54.60	0.97	-54.60	0.17	50.50
8050	0.17	48.80	0.97	-55.20	0.97	-55.20	0.17	48.80
8100	0.17	46.10	0.97	-55.80	0.97	-55.80	0.17	46.10
8150	0.17	43.40	0.97	-56.30	0.97	-56.30	0.17	43.40
8200	0.17	41.90	0.97	-56.80	0.97	-56.80	0.17	41.90
8250	0.17	40.40	0.97	-57.20	0.97	-57.20	0.17	40.40
8300	0.17	37.80	0.97	-57.80	0.97	-57.80	0.17	37.80
8350	0.17	35.20	0.97	-58.30	0.97	-58.30	0.17	35.20
8400	0.17	33.70	0.97	-58.90	0.97	-58.90	0.17	33.70
8450	0.17	32.10	0.97	-59.40	0.97	-59.40	0.17	32.10
8500	0.17	29.50	0.97	-59.90	0.97	-59.90	0.17	29.50
8550	0.17	26.80	0.97	-60.40	0.97	-60.40	0.17	26.80
8600	0.17	25.60	0.97	-61.00	0.97	-61.00	0.17	25.60
8650	0.17	24.50	0.97	-61.60	0.97	-61.60	0.17	24.50
8700	0.17	22.90	0.97	-62.10	0.97	-62.10	0.17	22.90
8750	0.17	21.40	0.97	-62.70	0.97	-62.70	0.17	21.40
8800	0.17	20.60	0.97	-63.10	0.97	-63.10	0.17	20.60
8850	0.17	19.80	0.97	-63.50	0.97	-63.50	0.17	19.80
8900	0.17	19.80	0.97	-64.10	0.97	-64.10	0.17	19.80
8950	0.17	19.80	0.97	-64.70	0.97	-64.70	0.17	19.80
9000	0.17	18.90	0.97	-65.30	0.97	-65.30	0.17	18.90
9050	0.17	18.00	0.97	-65.90	0.97	-65.90	0.17	18.00
9100	0.17	18.00	0.97	-66.40	0.97	-66.40	0.17	18.00
9150	0.17	17.90	0.97	-67.00	0.97	-67.00	0.17	17.90
9200	0.17	16.20	0.97	-67.60	0.97	-67.60	0.17	16.20
9250	0.16	14.60	0.97	-68.20	0.97	-68.20	0.16	14.60
9300	0.16	15.40	0.97	-68.50	0.97	-68.50	0.16	15.40
9350	0.16	16.10	0.97	-68.80	0.97	-68.80	0.16	16.10
9400	0.16	14.30	0.97	-69.30	0.97	-69.30	0.16	14.30
9450	0.16	12.40	0.97	-69.80	0.97	-69.80	0.16	12.40
9500	0.16	12.60	0.97	-70.30	0.97	-70.30	0.16	12.60
9550	0.16	12.80	0.97	-70.80	0.97	-70.80	0.16	12.80
9600	0.16	12.60	0.98	-71.40	0.98	-71.40	0.16	12.60
9650	0.16	12.30	0.98	-72.00	0.98	-72.00	0.16	12.30
9700	0.16	11.00	0.98	-72.40	0.98	-72.40	0.16	11.00
9750	0.15	9.60	0.98	-72.80	0.98	-72.80	0.15	9.60
9800	0.15	9.40	0.98	-73.20	0.98	-73.20	0.15	9.40
9850	0.15	9.20	0.98	-73.70	0.98	-73.70	0.15	9.20
9900	0.15	8.20	0.98	-74.30	0.98	-74.30	0.15	8.20
9950	0.15	7.20	0.98	-74.90	0.98	-74.90	0.15	7.20
10000	0.14	4.90	0.98	-75.30	0.98	-75.30	0.14	4.90
10050	0.13	2.50	0.98	-75.70	0.98	-75.70	0.13	2.50
10100	0.13	2.40	0.98	-76.20	0.98	-76.20	0.13	2.40
10150	0.13	2.20	0.98	-76.60	0.98	-76.60	0.13	2.20
10200	0.12	-2.30	0.98	-77.20	0.98	-77.20	0.12	-2.30
10250	0.12	-6.70	0.99	-77.80	0.99	-77.80	0.12	-6.70
10300	0.11	-9.20	0.98	-78.30	0.98	-78.30	0.11	-9.20
10350	0.10	-11.70	0.98	-78.90	0.98	-78.90	0.10	-11.70
10400	0.10	-16.40	0.98	-79.40	0.98	-79.40	0.10	-16.40
10450	0.10	-21.20	0.99	-80.00	0.99	-80.00	0.10	-21.20
10500	0.09	-26.70	0.99	-80.60	0.99	-80.60	0.09	-26.70
10550	0.09	-32.20	0.99	-81.20	0.99	-81.20	0.09	-32.20
10600	0.08	-31.40	0.99	-81.70	0.99	-81.70	0.08	-31.40
10650	0.07	-30.50	0.99	-82.30	0.99	-82.30	0.07	-30.50
10700	0.07	-40.80	0.99	-82.90	0.99	-82.90	0.07	-40.80
10750	0.07	-51.00	0.99	-83.60	0.99	-83.60	0.07	-51.00
10800	0.06	-57.20	0.99	-83.90	0.99	-83.90	0.06	-57.20
10850	0.05	-63.40	0.99	-84.30	0.99	-84.30	0.05	-63.40
10900	0.05	-68.80	0.99	-85.00	0.99	-85.00	0.05	-68.80
10950	0.05	-74.20	0.99	-85.80	0.99	-85.80	0.05	-74.20
11000	0.04	-89.50	0.99	-86.30	0.99	-86.30	0.04	-89.50
11050	0.04	-104.80	0.99	-86.80	0.99	-86.80	0.04	-104.80
11100	0.04	-112.80	0.99	-87.40	0.99	-87.40	0.04	-112.80
11150	0.04	-120.90	0.99	-88.00	0.99	-88.00	0.04	-120.90
11200	0.04	-131.00	0.99	-88.50	0.99	-88.50	0.04	-131.00
11250	0.04	-141.00	0.99	-89.10	0.99	-89.10	0.04	-141.00
11300	0.04	-150.50	0.99	-89.70	0.99	-89.70	0.04	-150.50
11350	0.05	-160.00	0.99	-90.20	0.99	-90.20	0.05	-160.00
11400	0.05	-164.60	0.99	-90.80	0.99	-90.80	0.05	-164.60
11450	0.05	-169.10	0.99	-91.30	0.99	-91.30	0.05	-169.10
11500	0.05	1.90	0.99	-91.80	0.99	-91.80	0.05	1.90
11550	0.05	172.90	0.99	-92.40	0.99	-92.40	0.05	172.90
11600	0.06	167.60	0.99	-93.00	0.99	-93.00	0.06	167.60
11650	0.06	162.30	0.99	-93.50	0.99	-93.50	0.06	162.30
11700	0.06	160.70	0.99	-94.10	0.99	-94.10	0.06	160.70
11750	0.07	159.10	0.99	-94.60	0.99	-94.60	0.07	159.10
11800	0.07	152.40	0.99	-95.00	0.99	-95.00	0.07	152.40
11850	0.08	145.60	0.99	-95.30	0.99	-95.30	0.08	145.60
11900	0.08	148.10	0.99	-95.90	0.99	-95.90	0.08	148.10
11950	0.09	150.50	0.99	-96.50	0.99	-96.50	0.09	150.50
12000	0.09	150.00	0.99	-97.00	0.99	-97.00	0.09	150.00
12050	0.10	149.50	0.99	-97.50	0.99	-97.50	0.10	149.50
12100	0.10	148.80	0.99	-98.10	0.99	-98.10	0.10	148.80
12150	0.11	148.10	0.99	-98.60	0.99	-98.60	0.11	148.10
12200	0.11	148.70	0.99	-99.10	0.99	-99.10	0.11	148.70
12250	0.11	149.20	0.99	-99.50	0.99	-99.50	0.11	149.20
12300	0.12	149.00	0.99	-100.10	0.99	-100.10	0.12	149.00
12350	0.12	148.80	0.98	-100.70	0.98	-100.70	0.12	148.80
12400	0.12	147.90	0.99	-101.10	0.99	-101.10	0.12	147.90
12450	0.11	147.00	0.99	-101.50	0.99	-101.50	0.11	147.00
12500	0.11	144.20	0.99	-102.10	0.99	-102.10	0.11	144.20
12550	0.12	141.50	0.99	-102.80	0.99	-102.80	0.12	141.50
12600	0.12	140.90	0.99	-103.20	0.99	-103.20	0.12	140.90
12650	0.12	140.30	0.99	-103.60	0.99	-103.60	0.12	140.30
12700	0.11	137.90	0.99	-104.10	0.99	-104.10	0.11	137.90
12750	0.11	135.60	0.99	-104.60	0.99	-104.60	0.11	135.60
12800	0.11	132.60	0.99	-105.30	0.99	-105.30	0.11	132.60
12850	0.11	129.60	0.99	-105.90	0.99	-105.90	0.11	129.60
12900	0.11	126.60	0.99	-106.30	0.99	-106.30	0.11	126.60
12950	0.10	123.60	0.99	-106.70	0.99	-106.70	0.10	123.60
13000	0.10	122.20	0.99	-107.30	0.99	-107.30	0.10	122.20
13050	0.10	120.70	0.99	-107.90	0.99	-107.90	0.10	120.70
13100	0.10	119.60	0.99	-108.30	0.99	-108.30	0.10	119.60
13150	0.10	118.40	0.99	-108.80	0.99	-108.80	0.10	118.40
13200	0.10	114.00	0.99	-109.10	0.99	-109.10	0.10	114.00
13250	0.09	109.50	0.99	-109.40	0.99	-109.40	0.09	109.50
13300	0.09	110.30	0.99	-110.30	0.99	-110.30	0.09	110.30
13350	0.09	111.10	0.99	-111.10	0.99	-111.10	0.09	111.10
13400	0.09	105.70	0.99	-111.70	0.99	-111.70	0.09	105.70
13450	0.09	100.30	0.99	-112.30	0.99	-112.30	0.09	100.30
13500	0.09	98.50	0.99	-112.80	0.99	-112.80	0.09	98.50
13550	0.08	96.80	0.99	-113.40	0.99	-113.40	0.08	96.80
13600	0.08	94.60	0.99	-114.00	0.99	-114.00	0.08	94.60
13650	0.07	92.50	0.99	-114.70	0.99	-114.70	0.07	92.50
13700	0.07	86.70	0.99	-115.20	0.99	-115.20	0.07	86.70
13750	0.06	80.90	0.99	-115.80	0.99	-115.80	0.06	80.90
13800	0.05	80.70	0.99	-116.30	0.99	-116.30	0.05	80.70
13850	0.04	80.50	0.99	-116.80	0.99	-116.80	0.04	80.50
13900	0.04	69.00	0.99	-117.30	0.99	-117.30	0.04	69.00
13950	0.03	57.40	0.99	-117.80	0.99	-117.80	0.03	57.40
14000	0.03	43.50	0.99	-118.40	0.99	-118.40	0.03	43.50
14050	0.02	29.50	0.99	-119.10	0.99	-119.10	0.02	29.50
14100	0.02	20.50	0.99	-119.60	0.99	-119.60	0.02	20.50
14150	0.02	11.40	0.99	-120.00	0.99	-120.00	0.02	11.40
14200	0.02	-8.40	0.99	-120.60	0.99	-120.60	0.02	-8.40
14250	0.02	-28.30	0.99	-121.20	0.99	-121.20	0.02	-28.30
14300	0.02	-30.60	0.99	-121.70	0.99	-121.70	0.02	-30.60
14350	0.02	-33.00	0.99	-122.20	0.99	-122.20	0.02	-33.00
14400	0.02	-40.60	0.99	-122.90	0.99	-122.90	0.02	-40.60
14450	0.02	-48.20	0.98	-123.60	0.98	-123.60	0.02	-48.20
14500	0.02	-44.10	0.98	-124.00	0.98	-124.00	0.02	-44.10
14550	0.01	-40.10	0.98	-124.30	0.98	-124.30	0.01	-40.10
14600	0.01	-30.30	0.98	-124.90	0.98	-124.90	0.01	-30.30
14650	0.01	-20.50	0.98	-125.50	0.98	-125.50	0.01	-20.50
14700	0.01	-41.00	0.98	-126.10	0.98	-126.10	0.01	-41.00
14750	0.00	-61.50	0.98	-126.70	0.98	-126.70	0.00	-61.50
14800	0.01	-1.60	0.98	-127.30	0.98	-127.30	0.01	-1.60
14850	0.01	58.20	0.98	-128.00	0.98	-128.00	0.01	58.20
14900	0.02	82.00	0.98	-128.50	0.98	-128.50	0.02	82.00
14950	0.02	105.80	0.98	-129.00	0.98	-129.00	0.02	105.80
15000	0.02	103.70	0.98	-129.60	0.98	-129.60	0.02	103.70
15050	0.03	101.50	0.98	-130.30	0.98	-130.30	0.03	101.50
15100	0.03	103.40	0.98	-130.70	0.98	-130.70	0.03	103.40
15150	0.03	105.30	0.98	-131.20	0.98	-131.20	0.03	105.30
15200	0.03	103.80	0.98	-131.60	0.98	-131.60	0.03	103.80
15250	0.04	102.40	0.98	-132.10	0.98	-132.10	0.04	102.40
15300	0.03	106.30	0.98	-132.80	0.98	-132.80	0.03	106.30
15350	0.03	110.20	0.98	-133.50	0.98	-133.50	0.03	110.20
15400	0.03	104.90	0.98	-134.10	0.98	-134.10	0.03	104.90
15450	0.03	99.60	0.98	-134.70	0.98	-134.70	0.03	99.60
15500	0.03	98.50	0.98	-135.20	0.98	-135.20	0.03	98.50
15550	0.03	97.40	0.98	-135.70	0.98	-135.70	0.03	97.40
15600	0.04	105.70	0.98	-136.30	0.98	-136.30	0.04	105.70
15650	0.04	114.00	0.98	-136.90	0.98	-136.90	0.04	114.00
15700	0.04	106.80	0.98	-137.60	0.98	-137.60	0.04	106.80
15750	0.04	99.50	0.98	-138.30	0.98	-138.30	0.04	99.50
15800	0.05	115.10	0.97	-138.70	0.97	-138.70	0.05	115.10
15850	0.06	130.60	0.97	-139.20	0.97	-139.20	0.06	130.60
15900	0.07	123.00	0.97	-140.00	0.97	-140.00	0.07	123.00
15950	0.08	115.40	0.97	-140.80	0.97	-140.80	0.08	115.40
16000	0.09	122.80	0.97	-141.30	0.97	-141.30	0.09	122.80
16050	0.10	130.30	0.96	-141.80	0.96	-141.80	0.10	130.30
16100	0.12	130.40	0.96	-142.70	0.96	-142.70	0.12	130.40
16150	0.14	130.50	0.96	-143.60	0.96	-143.60	0.14	130.50
16200	0.16	130.90	0.95	-144.30	0.95	-144.30	0.16	130.90
16250	0.17	131.20	0.95	-145.10	0.95	-145.10	0.17	131.20
16300	0.19	132.50	0.94	-145.80	0.94	-145.80	0.19	132.50
16350	0.21	133.80	0.94	-146.40	0.94	-146.40	0.21	133.80
16400	0.23	133.60	0.93	-146.90	0.93	-146.90	0.23	133.60
16450	0.24	133.40	0.93	-147.40	0.93	-147.40	0.24	133.40
16500	0.25	134.30	0.92	-148.00	0.92	-148.00	0.25	134.30
16550	0.27	135.20	0.91	-148.60	0.91	-148.60	0.27	135.20
16600	0.28	133.30	0.91	-149.30	0.91	-149.30	0.28	133.30
16650	0.30	131.40	0.91	-150.00	0.91	-150.00	0.30	131.40
16700	0.31	131.10	0.91	-150.60	0.91	-150.60	0.31	131.10
16750	0.33	130.90	0.91	-151.10	0.91	-151.10	0.33	130.90
16800	0.34	128.90	0.90	-151.80	0.90	-151.80	0.34	128.90
16850	0.36	126.90	0.90	-152.50	0.90	-152.50	0.36	126.90
16900	0.37	123.80	0.90	-153.30	0.90	-153.30	0.37	123.80
16950	0.37	120.60	0.89	-154.00	0.89	-154.00	0.37	120.60
17000	0.38	118.60	0.89	-154.60	0.89	-154.60	0.38	118.60
17050	0.40	116.60	0.88	-155.30	0.88	-155.30	0.40	116.60
17100	0.40	113.60	0.88	-156.10	0.88	-156.10	0.40	113.60
17150	0.41	110.60	0.87	-156.90	0.87	-156.90	0.41	110.60
17200	0.42	107.80	0.87	-157.20	0.87	-157.20	0.42	107.80
17250	0.43	105.00	0.86	-157.50	0.86	-157.50	0.43	105.00
17300	0.44	103.20	0.86	-158.30	0.86	-158.30	0.44	103.20
17350	0.46	101.40	0.86	-159.00	0.86	-159.00	0.46	101.40
17400	0.47	99.00	0.85	-159.40	0.85	-159.40	0.47	99.00
17450	0.47	96.60	0.84	-159.80	0.84	-159.80	0.47	96.60
17500	0.48	95.10	0.83	-160.30	0.83	-160.30	0.48	95.10
17550	0.48	93.60	0.83	-160.80	0.83	-160.80	0.48	93.60
17600	0.49	92.00	0.83	-161.50	0.83	-161.50	0.49	92.00
17650	0.50	90.40	0.82	-162.10	0.82	-162.10	0.50	90.40
17700	0.51	89.20	0.81	-162.60	0.81	-162.60	0.51	89.20
17750	0.51	88.10	0.81	-163.10	0.81	-163.10	0.51	88.10
17800	0.52	87.00	0.80	-164.10	0.80	-164.10	0.52	87.00
17850	0.52	85.90	0.80	-165.00	0.80	-165.00	0.52	85.90
17900	0.53	84.20	0.78	-166.10	0.78	-166.10	0.53	84.20
17950	0.53	82.60	0.77	-167.10	0.77	-167.10	0.53	82.60
18000	0.54	80.30	0.74	-168.20	0.74	-168.20	0.54	80.30
18050	0.54	78.00	0.71	-169.20	0.71	-169.20	0.54	78.00
18100	0.54	73.10	0.67	-168.90	0.67	-168.90	0.54	73.10
18150	0.54	68.20	0.63	-168.60	0.63	-168.60	0.54	68.20
18200	0.52	60.00	0.59	-163.30	0.59	-163.30	0.52	60.00
18250	0.49	51.80	0.55	-157.90	0.55	-157.90	0.49	51.80
18300	0.43	43.30	0.61	-151.60	0.61	-151.60	0.43	43.30
18350	0.36	34.70	0.66	-145.20	0.66	-145.20	0.36	34.70
18400	0.29	33.60	0.73	-146.20	0.73	-146.20	0.29	33.60
18450	0.22	32.50	0.80	-147.30	0.80	-147.30	0.22	32.50
18500	0.20	39.80	0.83	-149.70	0.83	-149.70	0.20	39.80
18550	0.17	47.10	0.87	-152.00	0.87	-152.00	0.17	47.10
18600	0.16	56.60	0.89	-154.30	0.89	-154.30	0.16	56.60
18650	0.15	66.10	0.90	-156.50	0.90	-156.50	0.15	66.10
18700	0.16	70.00	0.91	-158.20	0.91	-158.20	0.16	70.00
18750	0.17	74.00	0.91	-159.90	0.91	-159.90	0.17	74.00
18800	0.17	77.50	0.91	-161.20	0.91	-161.20	0.17	77.50
18850	0.17	81.00	0.91	-162.50	0.91	-162.50	0.17	81.00
18900	0.18	86.00	0.91	-163.50	0.91	-163.50	0.18	86.00
18950	0.18	91.00	0.91	-164.50	0.91	-164.50	0.18	91.00
19000	0.17	94.20	0.92	-165.50	0.92	-165.50	0.17	94.20
