#	mhz	s	ma	r	50

50	0.96	176.80	0.05	80.40	0.05	80.40	0.96	176.80
100	0.98	173.90	0.09	79.40	0.09	79.40	0.98	173.90
150	0.99	170.90	0.14	78.50	0.14	78.50	0.99	170.90
200	0.98	168.30	0.18	76.30	0.18	76.30	0.98	168.30
250	0.96	165.80	0.22	74.20	0.22	74.20	0.96	165.80
300	0.96	162.80	0.26	71.30	0.26	71.30	0.96	162.80
350	0.95	159.80	0.31	68.40	0.31	68.40	0.95	159.80
400	0.93	157.50	0.34	66.20	0.34	66.20	0.93	157.50
450	0.91	155.20	0.38	64.00	0.38	64.00	0.91	155.20
500	0.89	150.80	0.43	60.70	0.43	60.70	0.89	150.80
550	0.87	146.30	0.49	57.40	0.49	57.40	0.87	146.30
600	0.85	144.00	0.52	54.90	0.52	54.90	0.85	144.00
650	0.83	141.70	0.55	52.40	0.55	52.40	0.83	141.70
700	0.81	139.10	0.57	50.40	0.57	50.40	0.81	139.10
750	0.79	136.50	0.60	48.30	0.60	48.30	0.79	136.50
800	0.77	134.60	0.62	46.00	0.62	46.00	0.77	134.60
850	0.76	132.60	0.65	43.80	0.65	43.80	0.76	132.60
900	0.74	130.50	0.67	41.80	0.67	41.80	0.74	130.50
950	0.71	128.30	0.69	39.80	0.69	39.80	0.71	128.30
1000	0.69	126.40	0.70	37.90	0.70	37.90	0.69	126.40
1050	0.67	124.50	0.72	36.00	0.72	36.00	0.67	124.50
1100	0.66	122.40	0.74	34.30	0.74	34.30	0.66	122.40
1150	0.64	120.20	0.76	32.70	0.76	32.70	0.64	120.20
1200	0.62	118.60	0.77	31.00	0.77	31.00	0.62	118.60
1250	0.61	116.90	0.78	29.40	0.78	29.40	0.61	116.90
1300	0.59	115.00	0.79	28.00	0.79	28.00	0.59	115.00
1350	0.58	113.10	0.81	26.60	0.81	26.60	0.58	113.10
1400	0.56	111.70	0.81	25.10	0.81	25.10	0.56	111.70
1450	0.55	110.40	0.82	23.60	0.82	23.60	0.55	110.40
1500	0.54	108.70	0.83	22.30	0.83	22.30	0.54	108.70
1550	0.52	106.90	0.84	21.00	0.84	21.00	0.52	106.90
1600	0.51	105.30	0.85	19.70	0.85	19.70	0.51	105.30
1650	0.50	103.70	0.86	18.50	0.86	18.50	0.50	103.70
1700	0.49	102.40	0.86	17.20	0.86	17.20	0.49	102.40
1750	0.47	101.00	0.87	15.90	0.87	15.90	0.47	101.00
1800	0.47	99.80	0.88	15.00	0.88	15.00	0.47	99.80
1850	0.46	98.50	0.88	14.00	0.88	14.00	0.46	98.50
1900	0.44	97.10	0.89	12.90	0.89	12.90	0.44	97.10
1950	0.44	95.70	0.89	11.90	0.89	11.90	0.44	95.70
2000	0.42	94.50	0.90	10.70	0.90	10.70	0.42	94.50
2050	0.41	93.20	0.90	9.60	0.90	9.60	0.41	93.20
2100	0.40	92.10	0.91	8.70	0.91	8.70	0.40	92.10
2150	0.39	91.00	0.91	7.80	0.91	7.80	0.39	91.00
2200	0.39	89.80	0.92	6.80	0.92	6.80	0.39	89.80
2250	0.38	88.60	0.92	5.80	0.92	5.80	0.38	88.60
2300	0.37	87.80	0.92	4.90	0.92	4.90	0.37	87.80
2350	0.36	86.90	0.92	4.10	0.92	4.10	0.36	86.90
2400	0.35	86.00	0.93	3.20	0.93	3.20	0.35	86.00
2450	0.34	85.20	0.93	2.20	0.93	2.20	0.34	85.20
2500	0.34	84.40	0.93	1.30	0.93	1.30	0.34	84.40
2550	0.32	83.60	0.94	0.40	0.94	0.40	0.32	83.60
2600	0.32	83.00	0.94	-0.40	0.94	-0.40	0.32	83.00
2650	0.31	82.40	0.94	-1.20	0.94	-1.20	0.31	82.40
2700	0.30	81.90	0.94	-2.10	0.94	-2.10	0.30	81.90
2750	0.29	81.40	0.95	-2.90	0.95	-2.90	0.29	81.40
2800	0.28	80.90	0.95	-3.60	0.95	-3.60	0.28	80.90
2850	0.28	80.30	0.96	-4.40	0.96	-4.40	0.28	80.30
2900	0.27	80.10	0.96	-5.40	0.96	-5.40	0.27	80.10
2950	0.26	79.90	0.96	-6.40	0.96	-6.40	0.26	79.90
3000	0.26	79.60	0.96	-7.10	0.96	-7.10	0.26	79.60
3050	0.25	79.20	0.96	-7.90	0.96	-7.90	0.25	79.20
3100	0.24	78.90	0.96	-8.80	0.96	-8.80	0.24	78.90
3150	0.23	78.70	0.96	-9.80	0.96	-9.80	0.23	78.70
3200	0.23	78.30	0.96	-10.30	0.96	-10.30	0.23	78.30
3250	0.22	78.00	0.97	-10.90	0.97	-10.90	0.22	78.00
3300	0.22	78.50	0.97	-11.80	0.97	-11.80	0.22	78.50
3350	0.21	79.00	0.97	-12.70	0.97	-12.70	0.21	79.00
3400	0.21	78.50	0.97	-13.30	0.97	-13.30	0.21	78.50
3450	0.20	78.00	0.97	-14.00	0.97	-14.00	0.20	78.00
3500	0.20	78.40	0.97	-14.60	0.97	-14.60	0.20	78.40
3550	0.19	78.80	0.97	-15.30	0.97	-15.30	0.19	78.80
3600	0.19	79.00	0.98	-16.00	0.98	-16.00	0.19	79.00
3650	0.19	79.30	0.98	-16.70	0.98	-16.70	0.19	79.30
3700	0.18	78.50	0.98	-17.50	0.98	-17.50	0.18	78.50
3750	0.18	77.70	0.98	-18.30	0.98	-18.30	0.18	77.70
3800	0.17	77.50	0.98	-18.80	0.98	-18.80	0.17	77.50
3850	0.17	77.40	0.98	-19.40	0.98	-19.40	0.17	77.40
3900	0.17	76.80	0.98	-20.30	0.98	-20.30	0.17	76.80
3950	0.16	76.20	0.98	-21.10	0.98	-21.10	0.16	76.20
4000	0.16	75.60	0.98	-21.70	0.98	-21.70	0.16	75.60
4050	0.16	75.00	0.98	-22.30	0.98	-22.30	0.16	75.00
4100	0.15	73.90	0.98	-23.00	0.98	-23.00	0.15	73.90
4150	0.15	72.80	0.98	-23.70	0.98	-23.70	0.15	72.80
4200	0.14	71.60	0.99	-24.40	0.99	-24.40	0.14	71.60
4250	0.14	70.40	0.99	-25.00	0.99	-25.00	0.14	70.40
4300	0.14	68.90	0.99	-25.60	0.99	-25.60	0.14	68.90
4350	0.13	67.40	0.99	-26.10	0.99	-26.10	0.13	67.40
4400	0.13	66.50	0.99	-26.80	0.99	-26.80	0.13	66.50
4450	0.12	65.60	0.99	-27.50	0.99	-27.50	0.12	65.60
4500	0.12	63.10	0.99	-28.30	0.99	-28.30	0.12	63.10
4550	0.12	60.60	0.99	-29.10	0.99	-29.10	0.12	60.60
4600	0.11	59.20	0.99	-29.80	0.99	-29.80	0.11	59.20
4650	0.10	57.80	0.99	-30.60	0.99	-30.60	0.10	57.80
4700	0.10	55.50	0.99	-31.20	0.99	-31.20	0.10	55.50
4750	0.09	53.30	0.99	-31.80	0.99	-31.80	0.09	53.30
4800	0.09	51.40	0.99	-32.40	0.99	-32.40	0.09	51.40
4850	0.08	49.60	0.99	-33.10	0.99	-33.10	0.08	49.60
4900	0.08	47.40	0.99	-33.70	0.99	-33.70	0.08	47.40
4950	0.08	45.30	0.99	-34.40	0.99	-34.40	0.08	45.30
5000	0.07	43.50	0.99	-35.10	0.99	-35.10	0.07	43.50
5050	0.06	41.70	0.99	-35.80	0.99	-35.80	0.06	41.70
5100	0.06	39.50	0.99	-36.40	0.99	-36.40	0.06	39.50
5150	0.05	37.30	0.99	-37.10	0.99	-37.10	0.05	37.30
5200	0.05	38.00	0.99	-37.50	0.99	-37.50	0.05	38.00
5250	0.04	38.70	0.99	-38.00	0.99	-38.00	0.04	38.70
5300	0.04	36.00	0.99	-38.80	0.99	-38.80	0.04	36.00
5350	0.03	33.30	0.99	-39.50	0.99	-39.50	0.03	33.30
5400	0.02	28.00	0.99	-40.20	0.99	-40.20	0.02	28.00
5450	0.02	22.70	0.99	-40.90	0.99	-40.90	0.02	22.70
5500	0.01	25.80	0.99	-41.50	0.99	-41.50	0.01	25.80
5550	0.01	28.80	0.99	-42.00	0.99	-42.00	0.01	28.80
5600	0.01	-38.30	0.99	-42.70	0.99	-42.70	0.01	-38.30
5650	0.00	-105.40	0.99	-43.40	0.99	-43.40	0.00	-105.40
5700	0.01	-130.80	0.99	-43.90	0.99	-43.90	0.01	-130.80
5750	0.02	-156.30	0.99	-44.50	0.99	-44.50	0.02	-156.30
5800	0.02	-151.80	0.99	-45.20	0.99	-45.20	0.02	-151.80
5850	0.02	-147.30	0.99	-45.90	0.99	-45.90	0.02	-147.30
5900	0.03	-151.80	0.99	-46.40	0.99	-46.40	0.03	-151.80
5950	0.04	-156.40	0.99	-46.90	0.99	-46.90	0.04	-156.40
6000	0.05	-149.10	0.99	-47.60	0.99	-47.60	0.05	-149.10
6050	0.06	-141.80	0.99	-48.40	0.99	-48.40	0.06	-141.80
6100	0.07	-144.70	0.99	-48.80	0.99	-48.80	0.07	-144.70
6150	0.07	-147.60	0.99	-49.20	0.99	-49.20	0.07	-147.60
6200	0.08	-151.10	0.99	-49.80	0.99	-49.80	0.08	-151.10
6250	0.08	-154.70	0.99	-50.50	0.99	-50.50	0.08	-154.70
6300	0.09	-155.80	0.99	-51.00	0.99	-51.00	0.09	-155.80
6350	0.10	-156.90	0.99	-51.50	0.99	-51.50	0.10	-156.90
6400	0.10	-157.60	0.98	-52.10	0.98	-52.10	0.10	-157.60
6450	0.11	-158.30	0.98	-52.70	0.98	-52.70	0.11	-158.30
6500	0.11	-159.40	0.98	-53.20	0.98	-53.20	0.11	-159.40
6550	0.11	-160.50	0.98	-53.80	0.98	-53.80	0.11	-160.50
6600	0.11	-162.10	0.98	-54.40	0.98	-54.40	0.11	-162.10
6650	0.12	-163.70	0.98	-54.90	0.98	-54.90	0.12	-163.70
6700	0.12	-164.90	0.98	-55.30	0.98	-55.30	0.12	-164.90
6750	0.12	-166.10	0.98	-55.70	0.98	-55.70	0.12	-166.10
6800	0.12	-168.00	0.98	-56.30	0.98	-56.30	0.12	-168.00
6850	0.13	-169.90	0.98	-56.80	0.98	-56.80	0.13	-169.90
6900	0.13	-171.00	0.98	-57.40	0.98	-57.40	0.13	-171.00
6950	0.13	-172.20	0.98	-57.90	0.98	-57.90	0.13	-172.20
7000	0.13	-174.80	0.98	-58.50	0.98	-58.50	0.13	-174.80
7050	0.13	-177.50	0.98	-59.20	0.98	-59.20	0.13	-177.50
7100	0.13	0.80	0.98	-59.70	0.98	-59.70	0.13	0.80
7150	0.13	179.20	0.98	-60.10	0.98	-60.10	0.13	179.20
7200	0.14	178.40	0.98	-60.70	0.98	-60.70	0.14	178.40
7250	0.14	177.70	0.98	-61.30	0.98	-61.30	0.14	177.70
7300	0.14	175.60	0.98	-61.90	0.98	-61.90	0.14	175.60
7350	0.14	173.50	0.98	-62.40	0.98	-62.40	0.14	173.50
7400	0.14	173.90	0.98	-63.00	0.98	-63.00	0.14	173.90
7450	0.14	174.30	0.98	-63.60	0.98	-63.60	0.14	174.30
7500	0.14	172.40	0.98	-64.20	0.98	-64.20	0.14	172.40
7550	0.14	170.50	0.98	-64.80	0.98	-64.80	0.14	170.50
7600	0.14	171.10	0.98	-65.30	0.98	-65.30	0.14	171.10
7650	0.13	171.70	0.98	-65.80	0.98	-65.80	0.13	171.70
7700	0.13	171.20	0.98	-66.30	0.98	-66.30	0.13	171.20
7750	0.13	170.80	0.98	-66.90	0.98	-66.90	0.13	170.80
7800	0.12	169.40	0.98	-67.50	0.98	-67.50	0.12	169.40
7850	0.12	168.10	0.98	-68.10	0.98	-68.10	0.12	168.10
7900	0.12	169.70	0.98	-68.70	0.98	-68.70	0.12	169.70
7950	0.12	171.40	0.98	-69.20	0.98	-69.20	0.12	171.40
8000	0.11	170.10	0.98	-69.90	0.98	-69.90	0.11	170.10
8050	0.11	168.70	0.98	-70.50	0.98	-70.50	0.11	168.70
8100	0.11	169.90	0.98	-71.00	0.98	-71.00	0.11	169.90
8150	0.10	171.10	0.98	-71.60	0.98	-71.60	0.10	171.10
8200	0.11	171.80	0.98	-72.20	0.98	-72.20	0.11	171.80
8250	0.11	172.40	0.98	-72.80	0.98	-72.80	0.11	172.40
8300	0.10	174.20	0.98	-73.40	0.98	-73.40	0.10	174.20
8350	0.10	175.90	0.99	-74.00	0.99	-74.00	0.10	175.90
8400	0.10	176.90	0.98	-74.60	0.98	-74.60	0.10	176.90
8450	0.11	177.90	0.98	-75.30	0.98	-75.30	0.11	177.90
8500	0.10	0.50	0.98	-75.90	0.98	-75.90	0.10	0.50
8550	0.10	-176.90	0.98	-76.60	0.98	-76.60	0.10	-176.90
8600	0.10	-177.00	0.98	-77.20	0.98	-77.20	0.10	-177.00
8650	0.11	-177.10	0.98	-77.90	0.98	-77.90	0.11	-177.10
8700	0.11	-175.60	0.98	-78.60	0.98	-78.60	0.11	-175.60
8750	0.11	-174.00	0.98	-79.20	0.98	-79.20	0.11	-174.00
8800	0.11	-174.90	0.98	-79.60	0.98	-79.60	0.11	-174.90
8850	0.11	-175.80	0.98	-80.00	0.98	-80.00	0.11	-175.80
8900	0.12	-176.00	0.98	-80.90	0.98	-80.90	0.12	-176.00
8950	0.12	-176.20	0.98	-81.70	0.98	-81.70	0.12	-176.20
9000	0.12	-175.70	0.98	-82.30	0.98	-82.30	0.12	-175.70
9050	0.13	-175.20	0.98	-82.90	0.98	-82.90	0.13	-175.20
9100	0.13	-175.70	0.98	-83.50	0.98	-83.50	0.13	-175.70
9150	0.13	-176.20	0.98	-84.20	0.98	-84.20	0.13	-176.20
9200	0.14	-175.90	0.98	-85.00	0.98	-85.00	0.14	-175.90
9250	0.14	-175.70	0.98	-85.90	0.98	-85.90	0.14	-175.70
9300	0.14	-175.50	0.98	-86.30	0.98	-86.30	0.14	-175.50
9350	0.15	-175.30	0.97	-86.80	0.97	-86.80	0.15	-175.30
9400	0.15	-174.30	0.97	-87.40	0.97	-87.40	0.15	-174.30
9450	0.15	-173.30	0.97	-88.10	0.97	-88.10	0.15	-173.30
9500	0.16	-173.40	0.97	-88.90	0.97	-88.90	0.16	-173.40
9550	0.16	-173.40	0.97	-89.60	0.97	-89.60	0.16	-173.40
9600	0.17	-173.60	0.97	-90.40	0.97	-90.40	0.17	-173.60
9650	0.17	-173.80	0.97	-91.10	0.97	-91.10	0.17	-173.80
9700	0.18	-173.20	0.97	-91.80	0.97	-91.80	0.18	-173.20
9750	0.18	-172.60	0.96	-92.50	0.96	-92.50	0.18	-172.60
9800	0.19	-172.20	0.96	-93.20	0.96	-93.20	0.19	-172.20
9850	0.19	-171.80	0.96	-93.90	0.96	-93.90	0.19	-171.80
9900	0.20	-171.80	0.96	-94.50	0.96	-94.50	0.20	-171.80
9950	0.21	-171.70	0.96	-95.10	0.96	-95.10	0.21	-171.70
10000	0.22	-172.20	0.95	-96.00	0.95	-96.00	0.22	-172.20
10050	0.23	-172.60	0.95	-96.80	0.95	-96.80	0.23	-172.60
10100	0.24	-172.90	0.95	-97.30	0.95	-97.30	0.24	-172.90
10150	0.25	-173.10	0.94	-97.90	0.94	-97.90	0.25	-173.10
10200	0.26	-173.10	0.94	-98.80	0.94	-98.80	0.26	-173.10
10250	0.28	-173.20	0.94	-99.60	0.94	-99.60	0.28	-173.20
10300	0.29	-174.50	0.93	-100.50	0.93	-100.50	0.29	-174.50
10350	0.31	-175.90	0.93	-101.30	0.93	-101.30	0.31	-175.90
10400	0.31	-176.40	0.92	-102.20	0.92	-102.20	0.31	-176.40
10450	0.31	-177.00	0.92	-103.00	0.92	-103.00	0.31	-177.00
10500	0.33	-177.90	0.92	-103.90	0.92	-103.90	0.33	-177.90
10550	0.35	-178.80	0.92	-104.70	0.92	-104.70	0.35	-178.80
10600	0.35	-1.90	0.91	-105.40	0.91	-105.40	0.35	-1.90
10650	0.35	175.00	0.90	-106.00	0.90	-106.00	0.35	175.00
10700	0.37	174.90	0.90	-106.90	0.90	-106.90	0.37	174.90
10750	0.38	174.80	0.90	-107.80	0.90	-107.80	0.38	174.80
10800	0.39	173.10	0.89	-108.20	0.89	-108.20	0.39	173.10
10850	0.40	171.40	0.89	-108.70	0.89	-108.70	0.40	171.40
10900	0.40	169.10	0.88	-109.60	0.88	-109.60	0.40	169.10
10950	0.41	166.90	0.87	-110.60	0.87	-110.60	0.41	166.90
11000	0.42	166.10	0.87	-111.10	0.87	-111.10	0.42	166.10
11050	0.44	165.30	0.88	-111.70	0.88	-111.70	0.44	165.30
11100	0.44	163.00	0.87	-112.60	0.87	-112.60	0.44	163.00
11150	0.45	160.60	0.86	-113.50	0.86	-113.50	0.45	160.60
11200	0.46	159.30	0.86	-114.10	0.86	-114.10	0.46	159.30
11250	0.46	158.10	0.86	-114.80	0.86	-114.80	0.46	158.10
11300	0.47	156.40	0.85	-115.50	0.85	-115.50	0.47	156.40
11350	0.48	154.80	0.85	-116.20	0.85	-116.20	0.48	154.80
11400	0.49	153.20	0.84	-117.20	0.84	-117.20	0.49	153.20
11450	0.49	151.60	0.84	-118.20	0.84	-118.20	0.49	151.60
11500	0.50	149.80	0.83	-118.90	0.83	-118.90	0.50	149.80
11550	0.51	147.90	0.83	-119.50	0.83	-119.50	0.51	147.90
11600	0.52	146.30	0.82	-120.60	0.82	-120.60	0.52	146.30
11650	0.53	144.70	0.82	-121.60	0.82	-121.60	0.53	144.70
11700	0.53	143.50	0.81	-122.40	0.81	-122.40	0.53	143.50
11750	0.54	142.20	0.81	-123.20	0.81	-123.20	0.54	142.20
11800	0.55	140.70	0.80	-124.00	0.80	-124.00	0.55	140.70
11850	0.56	139.10	0.79	-124.70	0.79	-124.70	0.56	139.10
11900	0.57	138.50	0.78	-125.90	0.78	-125.90	0.57	138.50
11950	0.58	137.80	0.78	-127.00	0.78	-127.00	0.58	137.80
12000	0.59	136.80	0.76	-127.70	0.76	-127.70	0.59	136.80
12050	0.60	135.80	0.75	-128.40	0.75	-128.40	0.60	135.80
12100	0.61	134.40	0.75	-129.50	0.75	-129.50	0.61	134.40
12150	0.63	133.10	0.74	-130.50	0.74	-130.50	0.63	133.10
12200	0.63	132.20	0.73	-131.40	0.73	-131.40	0.63	132.20
12250	0.64	131.30	0.72	-132.20	0.72	-132.20	0.64	131.30
12300	0.65	130.20	0.71	-133.50	0.71	-133.50	0.65	130.20
12350	0.66	129.20	0.69	-134.80	0.69	-134.80	0.66	129.20
12400	0.67	127.80	0.69	-135.80	0.69	-135.80	0.67	127.80
12450	0.68	126.40	0.68	-136.70	0.68	-136.70	0.68	126.40
12500	0.68	124.60	0.67	-138.20	0.67	-138.20	0.68	124.60
12550	0.69	122.80	0.65	-139.60	0.65	-139.60	0.69	122.80
12600	0.70	121.50	0.63	-140.90	0.63	-140.90	0.70	121.50
12650	0.71	120.30	0.62	-142.20	0.62	-142.20	0.71	120.30
12700	0.72	118.50	0.60	-143.30	0.60	-143.30	0.72	118.50
12750	0.73	116.80	0.58	-144.40	0.58	-144.40	0.73	116.80
12800	0.74	114.30	0.56	-146.40	0.56	-146.40	0.74	114.30
12850	0.75	111.80	0.54	-148.30	0.54	-148.30	0.75	111.80
12900	0.76	110.10	0.52	-149.20	0.52	-149.20	0.76	110.10
12950	0.77	108.30	0.50	-150.10	0.50	-150.10	0.77	108.30
13000	0.78	105.70	0.47	-151.70	0.47	-151.70	0.78	105.70
13050	0.79	103.00	0.44	-153.40	0.44	-153.40	0.79	103.00
13100	0.79	100.80	0.41	-153.80	0.41	-153.80	0.79	100.80
13150	0.80	98.50	0.38	-154.20	0.38	-154.20	0.80	98.50
13200	0.81	95.70	0.34	-153.90	0.34	-153.90	0.81	95.70
13250	0.82	92.80	0.31	-153.60	0.31	-153.60	0.82	92.80
13300	0.80	91.20	0.28	-152.10	0.28	-152.10	0.80	91.20
13350	0.79	89.70	0.24	-150.50	0.24	-150.50	0.79	89.70
13400	0.81	85.00	0.21	-144.10	0.21	-144.10	0.81	85.00
13450	0.83	80.30	0.18	-137.70	0.18	-137.70	0.83	80.30
13500	0.83	76.90	0.17	-125.90	0.17	-125.90	0.83	76.90
13550	0.82	73.60	0.16	-114.10	0.16	-114.10	0.82	73.60
13600	0.82	70.20	0.17	-102.50	0.17	-102.50	0.82	70.20
13650	0.82	66.90	0.18	-90.90	0.18	-90.90	0.82	66.90
13700	0.81	63.30	0.21	-84.60	0.21	-84.60	0.81	63.30
13750	0.80	59.70	0.24	-78.30	0.24	-78.30	0.80	59.70
13800	0.79	56.10	0.27	-75.70	0.27	-75.70	0.79	56.10
13850	0.78	52.50	0.30	-73.20	0.30	-73.20	0.78	52.50
13900	0.77	48.60	0.34	-72.60	0.34	-72.60	0.77	48.60
13950	0.77	44.70	0.37	-71.90	0.37	-71.90	0.77	44.70
14000	0.75	40.90	0.40	-72.50	0.40	-72.50	0.75	40.90
14050	0.74	37.10	0.43	-73.00	0.43	-73.00	0.74	37.10
14100	0.73	33.70	0.46	-73.80	0.46	-73.80	0.73	33.70
14150	0.72	30.20	0.49	-74.60	0.49	-74.60	0.72	30.20
14200	0.71	26.60	0.52	-75.90	0.52	-75.90	0.71	26.60
14250	0.70	23.00	0.55	-77.30	0.55	-77.30	0.70	23.00
14300	0.68	19.90	0.57	-78.70	0.57	-78.70	0.68	19.90
14350	0.67	16.70	0.59	-80.10	0.59	-80.10	0.67	16.70
14400	0.66	13.90	0.61	-81.40	0.61	-81.40	0.66	13.90
14450	0.65	11.10	0.63	-82.80	0.63	-82.80	0.65	11.10
14500	0.63	8.80	0.65	-83.90	0.65	-83.90	0.63	8.80
14550	0.62	6.60	0.67	-85.10	0.67	-85.10	0.62	6.60
14600	0.61	4.50	0.69	-86.50	0.69	-86.50	0.61	4.50
14650	0.60	2.50	0.70	-87.80	0.70	-87.80	0.60	2.50
14700	0.58	0.30	0.72	-89.10	0.72	-89.10	0.58	0.30
14750	0.56	-1.90	0.73	-90.40	0.73	-90.40	0.56	-1.90
14800	0.55	-3.50	0.74	-91.80	0.74	-91.80	0.55	-3.50
14850	0.54	-5.00	0.75	-93.20	0.75	-93.20	0.54	-5.00
14900	0.53	-5.70	0.77	-94.20	0.77	-94.20	0.53	-5.70
14950	0.51	-6.30	0.78	-95.30	0.78	-95.30	0.51	-6.30
15000	0.50	-8.20	0.79	-96.80	0.79	-96.80	0.50	-8.20
15050	0.48	-10.10	0.80	-98.40	0.80	-98.40	0.48	-10.10
15100	0.47	-10.40	0.81	-99.30	0.81	-99.30	0.47	-10.40
15150	0.46	-10.70	0.81	-100.30	0.81	-100.30	0.46	-10.70
15200	0.45	-11.30	0.82	-101.40	0.82	-101.40	0.45	-11.30
15250	0.44	-11.90	0.83	-102.50	0.83	-102.50	0.44	-11.90
15300	0.43	-13.00	0.83	-104.00	0.83	-104.00	0.43	-13.00
15350	0.42	-14.10	0.83	-105.50	0.83	-105.50	0.42	-14.10
15400	0.41	-13.40	0.83	-106.30	0.83	-106.30	0.41	-13.40
15450	0.41	-12.70	0.82	-107.00	0.82	-107.00	0.41	-12.70
15500	0.41	-12.20	0.83	-107.90	0.83	-107.90	0.41	-12.20
15550	0.42	-11.60	0.83	-108.70	0.83	-108.70	0.42	-11.60
15600	0.41	-12.00	0.83	-109.00	0.83	-109.00	0.41	-12.00
15650	0.41	-12.30	0.83	-109.30	0.83	-109.30	0.41	-12.30
15700	0.42	-12.60	0.83	-109.80	0.83	-109.80	0.42	-12.60
15750	0.43	-13.00	0.83	-110.40	0.83	-110.40	0.43	-13.00
15800	0.42	-14.20	0.84	-110.60	0.84	-110.60	0.42	-14.20
15850	0.40	-15.30	0.84	-110.80	0.84	-110.80	0.40	-15.30
15900	0.41	-15.50	0.85	-111.30	0.85	-111.30	0.41	-15.50
15950	0.41	-15.60	0.85	-111.90	0.85	-111.90	0.41	-15.60
16000	0.39	-16.60	0.86	-112.30	0.86	-112.30	0.39	-16.60
16050	0.37	-17.50	0.87	-112.70	0.87	-112.70	0.37	-17.50
16100	0.36	-18.00	0.87	-113.50	0.87	-113.50	0.36	-18.00
16150	0.34	-18.40	0.88	-114.40	0.88	-114.40	0.34	-18.40
16200	0.33	-19.60	0.88	-115.10	0.88	-115.10	0.33	-19.60
16250	0.31	-20.80	0.89	-115.80	0.89	-115.80	0.31	-20.80
16300	0.29	-21.90	0.89	-116.70	0.89	-116.70	0.29	-21.90
16350	0.26	-23.10	0.90	-117.60	0.90	-117.60	0.26	-23.10
16400	0.25	-23.00	0.89	-118.20	0.89	-118.20	0.25	-23.00
16450	0.25	-22.80	0.89	-118.80	0.89	-118.80	0.25	-22.80
16500	0.23	-26.50	0.89	-119.00	0.89	-119.00	0.23	-26.50
16550	0.22	-30.20	0.89	-119.20	0.89	-119.20	0.22	-30.20
16600	0.21	-32.60	0.90	-119.70	0.90	-119.70	0.21	-32.60
16650	0.20	-35.00	0.92	-120.20	0.92	-120.20	0.20	-35.00
16700	0.19	-40.00	0.93	-121.00	0.93	-121.00	0.19	-40.00
16750	0.17	-45.00	0.94	-121.80	0.94	-121.80	0.17	-45.00
16800	0.16	-49.90	0.94	-122.70	0.94	-122.70	0.16	-49.90
16850	0.14	-54.80	0.95	-123.60	0.95	-123.60	0.14	-54.80
16900	0.13	-56.30	0.95	-124.60	0.95	-124.60	0.13	-56.30
16950	0.11	-57.70	0.96	-125.60	0.96	-125.60	0.11	-57.70
17000	0.09	-62.40	0.96	-126.60	0.96	-126.60	0.09	-62.40
17050	0.07	-67.10	0.96	-127.50	0.96	-127.50	0.07	-67.10
17100	0.06	-61.40	0.97	-128.50	0.97	-128.50	0.06	-61.40
17150	0.04	-55.70	0.97	-129.50	0.97	-129.50	0.04	-55.70
17200	0.03	-22.10	0.97	-130.20	0.97	-130.20	0.03	-22.10
17250	0.02	11.60	0.97	-130.90	0.97	-130.90	0.02	11.60
17300	0.03	46.00	0.97	-131.80	0.97	-131.80	0.03	46.00
17350	0.05	80.50	0.97	-132.70	0.97	-132.70	0.05	80.50
17400	0.06	76.80	0.97	-133.30	0.97	-133.30	0.06	76.80
17450	0.07	73.10	0.97	-133.90	0.97	-133.90	0.07	73.10
17500	0.09	74.40	0.97	-134.70	0.97	-134.70	0.09	74.40
17550	0.10	75.70	0.97	-135.50	0.97	-135.50	0.10	75.70
17600	0.12	74.70	0.97	-136.20	0.97	-136.20	0.12	74.70
17650	0.13	73.80	0.96	-136.90	0.96	-136.90	0.13	73.80
17700	0.14	73.70	0.96	-137.50	0.96	-137.50	0.14	73.70
17750	0.14	73.70	0.97	-138.00	0.97	-138.00	0.14	73.70
17800	0.14	73.80	0.97	-138.70	0.97	-138.70	0.14	73.80
17850	0.15	73.80	0.97	-139.50	0.97	-139.50	0.15	73.80
17900	0.15	72.40	0.96	-140.00	0.96	-140.00	0.15	72.40
17950	0.15	71.00	0.96	-140.60	0.96	-140.60	0.15	71.00
18000	0.14	71.20	0.96	-141.30	0.96	-141.30	0.14	71.20
18050	0.13	71.40	0.96	-142.10	0.96	-142.10	0.13	71.40
18100	0.13	68.70	0.96	-142.60	0.96	-142.60	0.13	68.70
18150	0.12	66.10	0.96	-143.00	0.96	-143.00	0.12	66.10
18200	0.11	62.00	0.97	-143.80	0.97	-143.80	0.11	62.00
18250	0.10	58.00	0.97	-144.50	0.97	-144.50	0.10	58.00
18300	0.10	51.50	0.97	-145.10	0.97	-145.10	0.10	51.50
18350	0.09	45.10	0.97	-145.60	0.97	-145.60	0.09	45.10
18400	0.09	38.70	0.97	-146.20	0.97	-146.20	0.09	38.70
18450	0.09	32.30	0.97	-146.80	0.97	-146.80	0.09	32.30
18500	0.09	27.30	0.97	-147.30	0.97	-147.30	0.09	27.30
18550	0.09	22.30	0.97	-147.70	0.97	-147.70	0.09	22.30
18600	0.08	18.00	0.97	-148.40	0.97	-148.40	0.08	18.00
18650	0.08	13.60	0.97	-149.00	0.97	-149.00	0.08	13.60
18700	0.08	10.70	0.97	-149.50	0.97	-149.50	0.08	10.70
