#	mhz	s	ma	r	50			
50	0.02	83.50	1.00	0.10	1.00	0.10	0.02	83.50
100	0.03	80.00	1.00	-0.80	1.00	-0.80	0.03	80.00
150	0.05	76.40	0.99	-1.70	0.99	-1.70	0.05	76.40
200	0.06	78.40	0.99	-2.60	0.99	-2.60	0.06	78.40
250	0.08	80.30	0.99	-3.40	0.99	-3.40	0.08	80.30
300	0.09	80.30	0.99	-4.40	0.99	-4.40	0.09	80.30
350	0.10	80.20	0.99	-5.40	0.99	-5.40	0.10	80.20
400	0.12	79.20	0.99	-6.50	0.99	-6.50	0.12	79.20
450	0.13	78.10	0.98	-7.50	0.98	-7.50	0.13	78.10
500	0.16	77.40	0.98	-9.00	0.98	-9.00	0.16	77.40
550	0.18	76.60	0.98	-10.40	0.98	-10.40	0.18	76.60
600	0.19	75.50	0.98	-11.30	0.98	-11.30	0.19	75.50
650	0.21	74.30	0.97	-12.30	0.97	-12.30	0.21	74.30
700	0.22	73.70	0.97	-13.30	0.97	-13.30	0.22	73.70
750	0.24	73.10	0.96	-14.30	0.96	-14.30	0.24	73.10
800	0.25	72.00	0.96	-15.30	0.96	-15.30	0.25	72.00
850	0.27	70.90	0.95	-16.30	0.95	-16.30	0.27	70.90
900	0.28	70.10	0.95	-17.40	0.95	-17.40	0.28	70.10
950	0.30	69.20	0.94	-18.50	0.94	-18.50	0.30	69.20
1000	0.32	67.90	0.94	-19.40	0.94	-19.40	0.32	67.90
1050	0.33	66.60	0.93	-20.40	0.93	-20.40	0.33	66.60
1100	0.35	66.20	0.93	-21.50	0.93	-21.50	0.35	66.20
1150	0.37	65.80	0.92	-22.70	0.92	-22.70	0.37	65.80
1200	0.38	64.90	0.91	-23.60	0.91	-23.60	0.38	64.90
1250	0.39	63.90	0.91	-24.50	0.91	-24.50	0.39	63.90
1300	0.41	62.90	0.90	-25.70	0.90	-25.70	0.41	62.90
1350	0.42	61.80	0.90	-26.80	0.90	-26.80	0.42	61.80
1400	0.44	61.00	0.89	-27.70	0.89	-27.70	0.44	61.00
1450	0.45	60.10	0.88	-28.60	0.88	-28.60	0.45	60.10
1500	0.47	59.00	0.87	-29.70	0.87	-29.70	0.47	59.00
1550	0.48	57.80	0.87	-30.90	0.87	-30.90	0.48	57.80
1600	0.50	56.80	0.86	-31.90	0.86	-31.90	0.50	56.80
1650	0.51	55.70	0.85	-32.90	0.85	-32.90	0.51	55.70
1700	0.52	54.60	0.84	-33.90	0.84	-33.90	0.52	54.60
1750	0.54	53.60	0.83	-35.00	0.83	-35.00	0.54	53.60
1800	0.55	52.70	0.82	-36.10	0.82	-36.10	0.55	52.70
1850	0.57	51.80	0.81	-37.10	0.81	-37.10	0.57	51.80
1900	0.58	50.70	0.80	-38.20	0.80	-38.20	0.58	50.70
1950	0.59	49.50	0.79	-39.30	0.79	-39.30	0.59	49.50
2000	0.61	48.40	0.78	-40.40	0.78	-40.40	0.61	48.40
2050	0.62	47.30	0.77	-41.50	0.77	-41.50	0.62	47.30
2100	0.63	46.50	0.76	-42.40	0.76	-42.40	0.63	46.50
2150	0.64	45.60	0.75	-43.40	0.75	-43.40	0.64	45.60
2200	0.66	44.10	0.73	-44.60	0.73	-44.60	0.66	44.10
2250	0.67	42.60	0.72	-45.80	0.72	-45.80	0.67	42.60
2300	0.68	41.70	0.71	-46.70	0.71	-46.70	0.68	41.70
2350	0.69	40.80	0.69	-47.70	0.69	-47.70	0.69	40.80
2400	0.71	39.60	0.68	-48.90	0.68	-48.90	0.71	39.60
2450	0.72	38.50	0.67	-50.00	0.67	-50.00	0.72	38.50
2500	0.74	37.00	0.66	-51.30	0.66	-51.30	0.74	37.00
2550	0.75	35.50	0.64	-52.60	0.64	-52.60	0.75	35.50
2600	0.76	34.40	0.63	-53.50	0.63	-53.50	0.76	34.40
2650	0.77	33.30	0.61	-54.40	0.61	-54.40	0.77	33.30
2700	0.78	32.10	0.60	-55.80	0.60	-55.80	0.78	32.10
2750	0.80	30.90	0.58	-57.20	0.58	-57.20	0.80	30.90
2800	0.81	29.50	0.57	-58.10	0.57	-58.10	0.81	29.50
2850	0.81	28.00	0.55	-58.90	0.55	-58.90	0.81	28.00
2900	0.83	26.70	0.53	-60.30	0.53	-60.30	0.83	26.70
2950	0.84	25.40	0.52	-61.70	0.52	-61.70	0.84	25.40
3000	0.85	24.10	0.50	-62.80	0.50	-62.80	0.85	24.10
3050	0.86	22.90	0.48	-63.80	0.48	-63.80	0.86	22.90
3100	0.87	21.20	0.46	-65.20	0.46	-65.20	0.87	21.20
3150	0.88	19.50	0.44	-66.50	0.44	-66.50	0.88	19.50
3200	0.89	18.30	0.43	-67.40	0.43	-67.40	0.89	18.30
3250	0.89	17.10	0.41	-68.40	0.41	-68.40	0.89	17.10
3300	0.90	15.70	0.39	-69.60	0.39	-69.60	0.90	15.70
3350	0.92	14.30	0.37	-70.80	0.37	-70.80	0.92	14.30
3400	0.92	12.80	0.35	-71.80	0.35	-71.80	0.92	12.80
3450	0.93	11.40	0.33	-72.80	0.33	-72.80	0.93	11.40
3500	0.93	10.20	0.31	-73.80	0.31	-73.80	0.93	10.20
3550	0.94	9.10	0.29	-74.70	0.29	-74.70	0.94	9.10
3600	0.95	7.80	0.27	-75.90	0.27	-75.90	0.95	7.80
3650	0.95	6.50	0.25	-77.10	0.25	-77.10	0.95	6.50
3700	0.96	5.10	0.23	-77.80	0.23	-77.80	0.96	5.10
3750	0.96	3.80	0.21	-78.50	0.21	-78.50	0.96	3.80
3800	0.97	2.60	0.19	-79.30	0.19	-79.30	0.97	2.60
3850	0.97	1.50	0.17	-80.10	0.17	-80.10	0.97	1.50
3900	0.97	0.10	0.15	-80.50	0.15	-80.50	0.97	0.10
3950	0.98	-1.20	0.13	-81.00	0.13	-81.00	0.98	-1.20
4000	0.98	-2.30	0.11	-80.50	0.11	-80.50	0.98	-2.30
4050	0.98	-3.40	0.09	-80.00	0.09	-80.00	0.98	-3.40
4100	0.98	-4.50	0.07	-76.50	0.07	-76.50	0.98	-4.50
4150	0.98	-5.50	0.05	-73.00	0.05	-73.00	0.98	-5.50
4200	0.98	-6.60	0.03	-46.10	0.03	-46.10	0.98	-6.60
4250	0.99	-7.70	0.02	-19.20	0.02	-19.20	0.99	-7.70
4300	0.98	-8.80	0.03	18.70	0.03	18.70	0.98	-8.80
4350	0.98	-9.90	0.04	56.60	0.04	56.60	0.98	-9.90
4400	0.98	-10.80	0.06	61.50	0.06	61.50	0.98	-10.80
4450	0.98	-11.70	0.08	66.50	0.08	66.50	0.98	-11.70
4500	0.98	-12.30	0.09	67.50	0.09	67.50	0.98	-12.30
4550	0.97	-12.90	0.11	68.50	0.11	68.50	0.97	-12.90
4600	0.97	-14.00	0.13	68.40	0.13	68.40	0.97	-14.00
4650	0.98	-15.10	0.15	68.40	0.15	68.40	0.98	-15.10
4700	0.97	-16.00	0.17	67.70	0.17	67.70	0.97	-16.00
4750	0.97	-16.90	0.19	67.10	0.19	67.10	0.97	-16.90
4800	0.96	-18.10	0.20	66.20	0.20	66.20	0.96	-18.10
4850	0.95	-19.20	0.22	65.40	0.22	65.40	0.95	-19.20
4900	0.95	-19.50	0.24	64.80	0.24	64.80	0.95	-19.50
4950	0.95	-19.80	0.25	64.30	0.25	64.30	0.95	-19.80
5000	0.95	-21.30	0.27	63.10	0.27	63.10	0.95	-21.30
5050	0.94	-22.80	0.29	61.80	0.29	61.80	0.94	-22.80
5100	0.93	-23.40	0.30	60.90	0.30	60.90	0.93	-23.40
5150	0.92	-24.00	0.31	59.90	0.31	59.90	0.92	-24.00
5200	0.92	-24.00	0.33	59.60	0.33	59.60	0.92	-24.00
5250	0.92	-23.90	0.34	59.30	0.34	59.30	0.92	-23.90
5300	0.92	-25.20	0.36	58.00	0.36	58.00	0.92	-25.20
5350	0.92	-26.40	0.38	56.70	0.38	56.70	0.92	-26.40
5400	0.91	-27.10	0.39	56.00	0.39	56.00	0.91	-27.10
5450	0.89	-27.70	0.40	55.20	0.40	55.20	0.89	-27.70
5500	0.89	-28.40	0.41	54.20	0.41	54.20	0.89	-28.40
5550	0.88	-29.20	0.43	53.20	0.43	53.20	0.88	-29.20
5600	0.87	-30.00	0.44	52.20	0.44	52.20	0.87	-30.00
5650	0.86	-30.80	0.45	51.30	0.45	51.30	0.86	-30.80
5700	0.86	-31.90	0.46	50.40	0.46	50.40	0.86	-31.90
5750	0.85	-33.00	0.47	49.50	0.47	49.50	0.85	-33.00
5800	0.85	-33.40	0.49	48.80	0.49	48.80	0.85	-33.40
5850	0.84	-33.80	0.50	48.10	0.50	48.10	0.84	-33.80
5900	0.83	-34.70	0.51	47.40	0.51	47.40	0.83	-34.70
5950	0.82	-35.60	0.51	46.80	0.51	46.80	0.82	-35.60
6000	0.82	-37.00	0.53	45.50	0.53	45.50	0.82	-37.00
6050	0.81	-38.40	0.55	44.20	0.55	44.20	0.81	-38.40
6100	0.80	-39.90	0.56	43.50	0.56	43.50	0.80	-39.90
6150	0.79	-41.40	0.57	42.80	0.57	42.80	0.79	-41.40
6200	0.78	-42.90	0.58	42.00	0.58	42.00	0.78	-42.90
6250	0.78	-44.50	0.59	41.20	0.59	41.20	0.78	-44.50
6300	0.77	-45.90	0.60	40.40	0.60	40.40	0.77	-45.90
6350	0.77	-47.30	0.60	39.70	0.60	39.70	0.77	-47.30
6400	0.76	-48.70	0.61	39.00	0.61	39.00	0.76	-48.70
6450	0.75	-50.10	0.62	38.40	0.62	38.40	0.75	-50.10
6500	0.74	-51.60	0.63	37.60	0.63	37.60	0.74	-51.60
6550	0.74	-53.10	0.63	36.80	0.63	36.80	0.74	-53.10
6600	0.73	-54.50	0.64	36.30	0.64	36.30	0.73	-54.50
6650	0.72	-55.90	0.65	35.80	0.65	35.80	0.72	-55.90
6700	0.71	-57.30	0.65	35.10	0.65	35.10	0.71	-57.30
6750	0.70	-58.80	0.66	34.50	0.66	34.50	0.70	-58.80
6800	0.70	-60.30	0.67	33.80	0.67	33.80	0.70	-60.30
6850	0.70	-61.90	0.68	33.20	0.68	33.20	0.70	-61.90
6900	0.69	-63.30	0.69	32.50	0.69	32.50	0.69	-63.30
6950	0.68	-64.70	0.69	31.90	0.69	31.90	0.68	-64.70
7000	0.67	-65.60	0.70	31.40	0.70	31.40	0.67	-65.60
7050	0.67	-66.60	0.70	30.80	0.70	30.80	0.67	-66.60
7100	0.66	-68.00	0.71	30.20	0.71	30.20	0.66	-68.00
7150	0.65	-69.40	0.72	29.50	0.72	29.50	0.65	-69.40
7200	0.64	-70.00	0.72	29.20	0.72	29.20	0.64	-70.00
7250	0.64	-70.60	0.73	28.80	0.73	28.80	0.64	-70.60
7300	0.63	-72.00	0.74	28.10	0.74	28.10	0.63	-72.00
7350	0.63	-73.40	0.74	27.30	0.74	27.30	0.63	-73.40
7400	0.62	-74.50	0.75	26.70	0.75	26.70	0.62	-74.50
7450	0.61	-75.70	0.75	26.10	0.75	26.10	0.61	-75.70
7500	0.61	-76.60	0.76	25.40	0.76	25.40	0.61	-76.60
7550	0.60	-77.60	0.77	24.80	0.77	24.80	0.60	-77.60
7600	0.59	-78.40	0.77	24.00	0.77	24.00	0.59	-78.40
7650	0.58	-79.20	0.77	23.30	0.77	23.30	0.58	-79.20
7700	0.58	-79.90	0.78	22.90	0.78	22.90	0.58	-79.90
7750	0.57	-80.50	0.79	22.50	0.79	22.50	0.57	-80.50
7800	0.56	-80.90	0.79	21.80	0.79	21.80	0.56	-80.90
7850	0.56	-81.30	0.80	21.10	0.80	21.10	0.56	-81.30
7900	0.55	-82.00	0.80	20.60	0.80	20.60	0.55	-82.00
7950	0.54	-82.80	0.81	20.10	0.81	20.10	0.54	-82.80
8000	0.53	-83.40	0.81	19.40	0.81	19.40	0.53	-83.40
8050	0.52	-84.00	0.81	18.80	0.81	18.80	0.52	-84.00
8100	0.51	-84.30	0.82	18.40	0.82	18.40	0.51	-84.30
8150	0.50	-84.60	0.83	18.10	0.83	18.10	0.50	-84.60
8200	0.50	-84.90	0.84	17.40	0.84	17.40	0.50	-84.90
8250	0.49	-85.20	0.84	16.70	0.84	16.70	0.49	-85.20
8300	0.48	-85.50	0.85	16.20	0.85	16.20	0.48	-85.50
8350	0.47	-85.90	0.85	15.70	0.85	15.70	0.47	-85.90
8400	0.46	-86.40	0.86	14.90	0.86	14.90	0.46	-86.40
8450	0.45	-87.00	0.86	14.20	0.86	14.20	0.45	-87.00
8500	0.44	-87.10	0.87	13.60	0.87	13.60	0.44	-87.10
8550	0.43	-87.30	0.87	13.10	0.87	13.10	0.43	-87.30
8600	0.42	-87.60	0.87	12.50	0.87	12.50	0.42	-87.60
8650	0.41	-87.90	0.88	11.80	0.88	11.80	0.41	-87.90
8700	0.40	-88.40	0.88	10.90	0.88	10.90	0.40	-88.40
8750	0.39	-88.80	0.88	10.00	0.88	10.00	0.39	-88.80
8800	0.38	-89.10	0.88	9.70	0.88	9.70	0.38	-89.10
8850	0.38	-89.50	0.88	9.30	0.88	9.30	0.38	-89.50
8900	0.37	-89.30	0.89	8.70	0.89	8.70	0.37	-89.30
8950	0.36	-89.20	0.89	8.10	0.89	8.10	0.36	-89.20
9000	0.35	-89.40	0.89	7.70	0.89	7.70	0.35	-89.40
9050	0.34	-89.60	0.90	7.30	0.90	7.30	0.34	-89.60
9100	0.34	-89.80	0.90	6.90	0.90	6.90	0.34	-89.80
9150	0.33	-90.10	0.90	6.40	0.90	6.40	0.33	-90.10
9200	0.32	-90.50	0.91	6.10	0.91	6.10	0.32	-90.50
9250	0.31	-91.00	0.92	5.70	0.92	5.70	0.31	-91.00
9300	0.30	-90.90	0.92	5.10	0.92	5.10	0.30	-90.90
9350	0.29	-90.80	0.92	4.50	0.92	4.50	0.29	-90.80
9400	0.28	-90.70	0.93	4.10	0.93	4.10	0.28	-90.70
9450	0.28	-90.70	0.93	3.70	0.93	3.70	0.28	-90.70
9500	0.27	-90.30	0.93	2.90	0.93	2.90	0.27	-90.30
9550	0.25	-90.00	0.93	2.20	0.93	2.20	0.25	-90.00
9600	0.25	-89.40	0.94	1.80	0.94	1.80	0.25	-89.40
9650	0.24	-88.90	0.94	1.40	0.94	1.40	0.24	-88.90
9700	0.23	-88.50	0.94	1.00	0.94	1.00	0.23	-88.50
9750	0.22	-88.10	0.95	0.60	0.95	0.60	0.22	-88.10
9800	0.21	-87.00	0.95	0.10	0.95	0.10	0.21	-87.00
9850	0.20	-86.00	0.95	-0.40	0.95	-0.40	0.20	-86.00
9900	0.20	-84.40	0.95	-0.80	0.95	-0.80	0.20	-84.40
9950	0.19	-82.80	0.95	-1.10	0.95	-1.10	0.19	-82.80
10000	0.19	-82.00	0.95	-1.60	0.95	-1.60	0.19	-82.00
10050	0.18	-81.10	0.95	-2.10	0.95	-2.10	0.18	-81.10
10100	0.17	-78.70	0.96	-2.50	0.96	-2.50	0.17	-78.70
10150	0.17	-76.40	0.96	-3.00	0.96	-3.00	0.17	-76.40
10200	0.17	-74.20	0.96	-3.40	0.96	-3.40	0.17	-74.20
10250	0.16	-72.10	0.95	-3.70	0.95	-3.70	0.16	-72.10
10300	0.16	-70.10	0.96	-4.10	0.96	-4.10	0.16	-70.10
10350	0.15	-68.20	0.96	-4.50	0.96	-4.50	0.15	-68.20
10400	0.15	-66.30	0.96	-5.00	0.96	-5.00	0.15	-66.30
10450	0.14	-64.40	0.96	-5.60	0.96	-5.60	0.14	-64.40
10500	0.14	-61.60	0.96	-6.00	0.96	-6.00	0.14	-61.60
10550	0.14	-58.80	0.96	-6.30	0.96	-6.30	0.14	-58.80
10600	0.14	-56.30	0.96	-6.90	0.96	-6.90	0.14	-56.30
10650	0.14	-53.80	0.96	-7.40	0.96	-7.40	0.14	-53.80
10700	0.14	-50.80	0.96	-7.80	0.96	-7.80	0.14	-50.80
10750	0.13	-47.80	0.96	-8.20	0.96	-8.20	0.13	-47.80
10800	0.13	-45.60	0.96	-8.60	0.96	-8.60	0.13	-45.60
10850	0.13	-43.40	0.96	-9.00	0.96	-9.00	0.13	-43.40
10900	0.13	-41.60	0.97	-9.50	0.97	-9.50	0.13	-41.60
10950	0.13	-39.80	0.97	-10.00	0.97	-10.00	0.13	-39.80
11000	0.12	-36.90	0.97	-10.40	0.97	-10.40	0.12	-36.90
11050	0.12	-34.10	0.96	-10.80	0.96	-10.80	0.12	-34.10
11100	0.12	-32.00	0.97	-11.20	0.97	-11.20	0.12	-32.00
11150	0.12	-29.90	0.97	-11.60	0.97	-11.60	0.12	-29.90
11200	0.12	-27.70	0.97	-12.10	0.97	-12.10	0.12	-27.70
11250	0.12	-25.40	0.96	-12.60	0.96	-12.60	0.12	-25.40
11300	0.12	-23.30	0.96	-13.10	0.96	-13.10	0.12	-23.30
11350	0.12	-21.20	0.97	-13.50	0.97	-13.50	0.12	-21.20
11400	0.11	-18.30	0.96	-13.90	0.96	-13.90	0.11	-18.30
11450	0.11	-15.40	0.96	-14.30	0.96	-14.30	0.11	-15.40
11500	0.11	-15.00	0.96	-14.80	0.96	-14.80	0.11	-15.00
11550	0.11	-14.50	0.97	-15.30	0.97	-15.30	0.11	-14.50
11600	0.11	-12.00	0.96	-15.70	0.96	-15.70	0.11	-12.00
11650	0.11	-9.50	0.96	-16.10	0.96	-16.10	0.11	-9.50
11700	0.11	-7.50	0.96	-16.60	0.96	-16.60	0.11	-7.50
11750	0.10	-5.40	0.96	-17.10	0.96	-17.10	0.10	-5.40
11800	0.10	-4.90	0.96	-17.60	0.96	-17.60	0.10	-4.90
11850	0.10	-4.30	0.96	-18.10	0.96	-18.10	0.10	-4.30
11900	0.10	-1.60	0.96	-18.50	0.96	-18.50	0.10	-1.60
11950	0.10	1.10	0.96	-18.90	0.96	-18.90	0.10	1.10
12000	0.10	3.10	0.96	-19.30	0.96	-19.30	0.10	3.10
12050	0.09	5.00	0.96	-19.80	0.96	-19.80	0.09	5.00
12100	0.09	6.00	0.96	-20.30	0.96	-20.30	0.09	6.00
12150	0.09	7.00	0.95	-20.90	0.95	-20.90	0.09	7.00
12200	0.09	10.70	0.95	-21.40	0.95	-21.40	0.09	10.70
12250	0.09	14.30	0.95	-22.00	0.95	-22.00	0.09	14.30
12300	0.09	17.80	0.95	-22.30	0.95	-22.30	0.09	17.80
12350	0.09	21.20	0.95	-22.60	0.95	-22.60	0.09	21.20
12400	0.09	25.30	0.95	-23.30	0.95	-23.30	0.09	25.30
12450	0.09	29.30	0.95	-24.00	0.95	-24.00	0.09	29.30
12500	0.09	34.90	0.95	-24.20	0.95	-24.20	0.09	34.90
12550	0.09	40.40	0.94	-24.30	0.94	-24.30	0.09	40.40
12600	0.10	42.10	0.94	-24.70	0.94	-24.70	0.10	42.10
12650	0.10	43.80	0.94	-25.20	0.94	-25.20	0.10	43.80
12700	0.11	46.90	0.94	-25.60	0.94	-25.60	0.11	46.90
12750	0.12	49.90	0.94	-26.00	0.94	-26.00	0.12	49.90
12800	0.12	52.30	0.94	-26.50	0.94	-26.50	0.12	52.30
12850	0.13	54.70	0.93	-27.00	0.93	-27.00	0.13	54.70
12900	0.14	55.40	0.94	-27.40	0.94	-27.40	0.14	55.40
12950	0.14	56.00	0.94	-27.70	0.94	-27.70	0.14	56.00
13000	0.15	56.70	0.93	-28.30	0.93	-28.30	0.15	56.70
13050	0.16	57.40	0.93	-29.00	0.93	-29.00	0.16	57.40
13100	0.17	57.10	0.93	-29.40	0.93	-29.40	0.17	57.10
13150	0.17	56.80	0.93	-29.80	0.93	-29.80	0.17	56.80
13200	0.19	57.50	0.92	-30.40	0.92	-30.40	0.19	57.50
13250	0.20	58.10	0.92	-31.00	0.92	-31.00	0.20	58.10
13300	0.20	57.90	0.91	-31.80	0.91	-31.80	0.20	57.90
13350	0.21	57.80	0.91	-32.60	0.91	-32.60	0.21	57.80
13400	0.23	56.80	0.90	-33.20	0.90	-33.20	0.23	56.80
13450	0.24	55.90	0.89	-33.80	0.89	-33.80	0.24	55.90
13500	0.26	55.10	0.89	-34.60	0.89	-34.60	0.26	55.10
13550	0.27	54.30	0.88	-35.40	0.88	-35.40	0.27	54.30
13600	0.28	52.50	0.86	-36.20	0.86	-36.20	0.28	52.50
13650	0.30	50.60	0.85	-37.00	0.85	-37.00	0.30	50.60
13700	0.32	48.10	0.82	-37.40	0.82	-37.40	0.32	48.10
13750	0.34	45.60	0.80	-37.90	0.80	-37.90	0.34	45.60
13800	0.35	41.20	0.77	-38.10	0.77	-38.10	0.35	41.20
13850	0.37	36.80	0.74	-38.20	0.74	-38.20	0.37	36.80
13900	0.37	30.60	0.71	-36.00	0.71	-36.00	0.37	30.60
13950	0.37	24.40	0.68	-33.70	0.68	-33.70	0.37	24.40
14000	0.35	18.40	0.68	-29.70	0.68	-29.70	0.35	18.40
14050	0.33	12.30	0.68	-25.70	0.68	-25.70	0.33	12.30
14100	0.29	8.80	0.72	-23.90	0.72	-23.90	0.29	8.80
14150	0.25	5.40	0.76	-22.00	0.76	-22.00	0.25	5.40
14200	0.22	7.90	0.80	-22.30	0.80	-22.30	0.22	7.90
14250	0.19	10.40	0.83	-22.60	0.83	-22.60	0.19	10.40
14300	0.17	17.50	0.85	-23.80	0.85	-23.80	0.17	17.50
14350	0.16	24.60	0.87	-25.10	0.87	-25.10	0.16	24.60
14400	0.16	30.90	0.88	-26.10	0.88	-26.10	0.16	30.90
14450	0.16	37.20	0.90	-27.00	0.90	-27.00	0.16	37.20
14500	0.17	42.00	0.90	-28.30	0.90	-28.30	0.17	42.00
14550	0.18	46.90	0.91	-29.50	0.91	-29.50	0.18	46.90
14600	0.19	48.40	0.91	-30.40	0.91	-30.40	0.19	48.40
14650	0.20	50.00	0.91	-31.40	0.91	-31.40	0.20	50.00
14700	0.21	51.40	0.91	-31.90	0.91	-31.90	0.21	51.40
14750	0.22	52.80	0.91	-32.50	0.91	-32.50	0.22	52.80
14800	0.23	52.50	0.91	-33.30	0.91	-33.30	0.23	52.50
14850	0.24	52.20	0.91	-34.20	0.91	-34.20	0.24	52.20
14900	0.25	53.20	0.91	-34.70	0.91	-34.70	0.25	53.20
14950	0.26	54.20	0.91	-35.20	0.91	-35.20	0.26	54.20
15000	0.26	52.30	0.91	-35.80	0.91	-35.80	0.26	52.30
15050	0.27	50.30	0.91	-36.50	0.91	-36.50	0.27	50.30
15100	0.28	50.60	0.90	-37.00	0.90	-37.00	0.28	50.60
15150	0.29	50.90	0.90	-37.40	0.90	-37.40	0.29	50.90
15200	0.30	49.50	0.90	-38.00	0.90	-38.00	0.30	49.50
15250	0.31	48.00	0.90	-38.50	0.90	-38.50	0.31	48.00
15300	0.32	47.20	0.89	-39.00	0.89	-39.00	0.32	47.20
15350	0.33	46.40	0.89	-39.50	0.89	-39.50	0.33	46.40
15400	0.34	45.50	0.89	-39.90	0.89	-39.90	0.34	45.50
15450	0.34	44.50	0.89	-40.20	0.89	-40.20	0.34	44.50
15500	0.35	43.80	0.88	-40.60	0.88	-40.60	0.35	43.80
15550	0.36	43.00	0.88	-40.90	0.88	-40.90	0.36	43.00
15600	0.37	41.70	0.88	-41.30	0.88	-41.30	0.37	41.70
15650	0.38	40.40	0.88	-41.80	0.88	-41.80	0.38	40.40
15700	0.39	39.20	0.87	-42.20	0.87	-42.20	0.39	39.20
15750	0.40	37.90	0.87	-42.60	0.87	-42.60	0.40	37.90
15800	0.41	36.50	0.87	-43.00	0.87	-43.00	0.41	36.50
15850	0.41	35.10	0.86	-43.40	0.86	-43.40	0.41	35.10
15900	0.42	33.10	0.86	-44.10	0.86	-44.10	0.42	33.10
15950	0.44	31.00	0.85	-44.70	0.85	-44.70	0.44	31.00
16000	0.44	30.70	0.85	-44.60	0.85	-44.60	0.44	30.70
16050	0.43	30.40	0.85	-44.50	0.85	-44.50	0.43	30.40
16100	0.44	28.80	0.84	-44.90	0.84	-44.90	0.44	28.80
16150	0.45	27.10	0.83	-45.30	0.83	-45.30	0.45	27.10
16200	0.46	26.40	0.83	-45.50	0.83	-45.50	0.46	26.40
16250	0.47	25.60	0.83	-45.80	0.83	-45.80	0.47	25.60
16300	0.47	24.90	0.83	-45.90	0.83	-45.90	0.47	24.90
16350	0.47	24.20	0.82	-46.00	0.82	-46.00	0.47	24.20
16400	0.48	23.80	0.82	-46.50	0.82	-46.50	0.48	23.80
16450	0.49	23.30	0.82	-47.00	0.82	-47.00	0.49	23.30
16500	0.50	22.70	0.81	-47.10	0.81	-47.10	0.50	22.70
16550	0.51	22.20	0.81	-47.30	0.81	-47.30	0.51	22.20
16600	0.51	21.70	0.81	-47.60	0.81	-47.60	0.51	21.70
16650	0.51	21.20	0.80	-47.90	0.80	-47.90	0.51	21.20
16700	0.52	21.30	0.80	-48.30	0.80	-48.30	0.52	21.30
16750	0.53	21.40	0.80	-48.60	0.80	-48.60	0.53	21.40
16800	0.54	21.10	0.80	-49.20	0.80	-49.20	0.54	21.10
16850	0.54	20.70	0.79	-49.70	0.79	-49.70	0.54	20.70
16900	0.55	20.30	0.79	-50.10	0.79	-50.10	0.55	20.30
16950	0.56	19.90	0.78	-50.50	0.78	-50.50	0.56	19.90
17000	0.56	20.10	0.78	-50.80	0.78	-50.80	0.56	20.10
17050	0.57	20.40	0.78	-51.20	0.78	-51.20	0.57	20.40
17100	0.57	20.50	0.77	-51.80	0.77	-51.80	0.57	20.50
17150	0.58	20.60	0.77	-52.40	0.77	-52.40	0.58	20.60
17200	0.58	20.50	0.77	-52.60	0.77	-52.60	0.58	20.50
17250	0.58	20.30	0.76	-52.80	0.76	-52.80	0.58	20.30
17300	0.58	20.20	0.76	-53.20	0.76	-53.20	0.58	20.20
17350	0.58	20.10	0.75	-53.60	0.75	-53.60	0.58	20.10
17400	0.59	19.50	0.75	-53.80	0.75	-53.80	0.59	19.50
17450	0.60	18.90	0.75	-54.00	0.75	-54.00	0.60	18.90
17500	0.60	19.00	0.75	-54.40	0.75	-54.40	0.60	19.00
17550	0.60	19.00	0.75	-54.90	0.75	-54.90	0.60	19.00
17600	0.60	19.10	0.74	-55.50	0.74	-55.50	0.60	19.10
17650	0.61	19.10	0.74	-56.10	0.74	-56.10	0.61	19.10
17700	0.61	18.50	0.74	-56.40	0.74	-56.40	0.61	18.50
17750	0.61	17.90	0.74	-56.60	0.74	-56.60	0.61	17.90
17800	0.61	17.50	0.74	-57.50	0.74	-57.50	0.61	17.50
17850	0.61	17.10	0.74	-58.40	0.74	-58.40	0.61	17.10
17900	0.62	16.90	0.73	-59.00	0.73	-59.00	0.62	16.90
17950	0.62	16.70	0.73	-59.60	0.73	-59.60	0.62	16.70
18000	0.62	16.60	0.72	-59.90	0.72	-59.90	0.62	16.60
18050	0.63	16.50	0.72	-60.20	0.72	-60.20	0.63	16.50
18100	0.63	16.20	0.71	-60.90	0.71	-60.90	0.63	16.20
18150	0.62	16.00	0.71	-61.60	0.71	-61.60	0.62	16.00
18200	0.63	15.70	0.70	-62.10	0.70	-62.10	0.63	15.70
18250	0.63	15.30	0.70	-62.50	0.70	-62.50	0.63	15.30
18300	0.63	14.80	0.70	-63.00	0.70	-63.00	0.63	14.80
18350	0.64	14.40	0.70	-63.40	0.70	-63.40	0.64	14.40
18400	0.64	13.70	0.69	-64.10	0.69	-64.10	0.64	13.70
18450	0.64	13.00	0.69	-64.80	0.69	-64.80	0.64	13.00
18500	0.65	13.70	0.69	-64.90	0.69	-64.90	0.65	13.70
18550	0.67	14.50	0.68	-64.90	0.68	-64.90	0.67	14.50
18600	0.67	13.60	0.68	-65.70	0.68	-65.70	0.67	13.60
18650	0.66	12.70	0.68	-66.40	0.68	-66.40	0.66	12.70
18700	0.67	11.70	0.68	-67.60	0.68	-67.60	0.67	11.70
18750	0.67	10.70	0.67	-68.80	0.67	-68.80	0.67	10.70
18800	0.67	10.80	0.67	-69.10	0.67	-69.10	0.67	10.80
18850	0.67	10.90	0.66	-69.40	0.66	-69.40	0.67	10.90
18900	0.68	10.30	0.66	-70.40	0.66	-70.40	0.68	10.30
18950	0.68	9.60	0.65	-71.50	0.65	-71.50	0.68	9.60
19000	0.68	9.40	0.64	-71.90	0.64	-71.90	0.68	9.40
19050	0.69	9.20	0.64	-72.30	0.64	-72.30	0.69	9.20
19100	0.69	9.00	0.63	-72.70	0.63	-72.70	0.69	9.00
19150	0.69	8.90	0.62	-73.20	0.62	-73.20	0.69	8.90
19200	0.70	8.30	0.61	-73.80	0.61	-73.80	0.70	8.30
19250	0.70	7.80	0.61	-74.40	0.61	-74.40	0.70	7.80
19300	0.71	8.10	0.60	-74.60	0.60	-74.60	0.71	8.10
19350	0.71	8.40	0.60	-74.70	0.60	-74.70	0.71	8.40
19400	0.72	7.80	0.59	-75.50	0.59	-75.50	0.72	7.80
19450	0.72	7.10	0.59	-76.30	0.59	-76.30	0.72	7.10
19500	0.73	7.30	0.58	-76.70	0.58	-76.70	0.73	7.30
