#	mhz	s	ma	r	50

50	0.76	145.80	0.55	52.10	0.55	52.10	0.76	145.80
100	0.59	130.60	0.72	38.50	0.72	38.50	0.59	130.60
150	0.42	115.30	0.88	24.90	0.88	24.90	0.42	115.30
200	0.34	109.60	0.92	19.90	0.92	19.90	0.34	109.60
250	0.26	103.90	0.95	14.90	0.95	14.90	0.26	103.90
300	0.22	100.70	0.97	12.00	0.97	12.00	0.22	100.70
350	0.18	97.60	0.98	9.20	0.98	9.20	0.18	97.60
400	0.15	94.30	0.98	7.40	0.98	7.40	0.15	94.30
450	0.12	91.10	0.99	5.70	0.99	5.70	0.12	91.10
500	0.10	87.60	0.99	4.00	0.99	4.00	0.10	87.60
550	0.09	84.20	1.00	2.30	1.00	2.30	0.09	84.20
600	0.08	83.10	1.00	1.20	1.00	1.20	0.08	83.10
650	0.06	82.00	1.00	0.10	1.00	0.10	0.06	82.00
700	0.05	78.30	1.00	-0.80	1.00	-0.80	0.05	78.30
750	0.04	74.50	1.00	-1.70	1.00	-1.70	0.04	74.50
800	0.04	72.30	1.00	-2.60	1.00	-2.60	0.04	72.30
850	0.03	70.10	1.00	-3.40	1.00	-3.40	0.03	70.10
900	0.02	61.30	1.00	-4.20	1.00	-4.20	0.02	61.30
950	0.01	52.50	1.00	-5.00	1.00	-5.00	0.01	52.50
1000	0.01	12.10	1.00	-5.70	1.00	-5.70	0.01	12.10
1050	0.01	-28.20	1.00	-6.50	1.00	-6.50	0.01	-28.20
1100	0.01	-47.00	1.00	-7.20	1.00	-7.20	0.01	-47.00
1150	0.01	-65.90	1.00	-8.00	1.00	-8.00	0.01	-65.90
1200	0.02	-73.40	1.00	-8.70	1.00	-8.70	0.02	-73.40
1250	0.02	-80.90	1.00	-9.40	1.00	-9.40	0.02	-80.90
1300	0.03	-86.10	1.00	-10.00	1.00	-10.00	0.03	-86.10
1350	0.03	-91.20	1.00	-10.70	1.00	-10.70	0.03	-91.20
1400	0.04	-93.50	1.00	-11.30	1.00	-11.30	0.04	-93.50
1450	0.04	-95.80	1.00	-12.00	1.00	-12.00	0.04	-95.80
1500	0.05	-98.10	1.00	-12.70	1.00	-12.70	0.05	-98.10
1550	0.05	-100.50	1.00	-13.40	1.00	-13.40	0.05	-100.50
1600	0.05	-100.30	1.00	-14.10	1.00	-14.10	0.05	-100.30
1650	0.06	-100.10	1.00	-14.70	1.00	-14.70	0.06	-100.10
1700	0.06	-102.60	1.00	-15.40	1.00	-15.40	0.06	-102.60
1750	0.07	-105.10	1.00	-16.10	1.00	-16.10	0.07	-105.10
1800	0.07	-104.60	1.00	-16.80	1.00	-16.80	0.07	-104.60
1850	0.08	-104.00	1.00	-17.40	1.00	-17.40	0.08	-104.00
1900	0.08	-105.60	1.00	-18.00	1.00	-18.00	0.08	-105.60
1950	0.09	-107.10	1.00	-18.60	1.00	-18.60	0.09	-107.10
2000	0.09	-107.20	1.00	-19.40	1.00	-19.40	0.09	-107.20
2050	0.09	-107.40	1.00	-20.10	1.00	-20.10	0.09	-107.40
2100	0.10	-108.00	1.00	-20.70	1.00	-20.70	0.10	-108.00
2150	0.10	-108.70	1.00	-21.40	1.00	-21.40	0.10	-108.70
2200	0.11	-109.60	0.99	-22.00	0.99	-22.00	0.11	-109.60
2250	0.11	-110.60	0.99	-22.70	0.99	-22.70	0.11	-110.60
2300	0.12	-110.80	0.99	-23.30	0.99	-23.30	0.12	-110.80
2350	0.12	-111.10	0.99	-23.90	0.99	-23.90	0.12	-111.10
2400	0.13	-112.50	0.99	-24.70	0.99	-24.70	0.13	-112.50
2450	0.13	-114.00	0.99	-25.40	0.99	-25.40	0.13	-114.00
2500	0.14	-114.40	0.99	-26.10	0.99	-26.10	0.14	-114.40
2550	0.14	-114.80	0.99	-26.80	0.99	-26.80	0.14	-114.80
2600	0.15	-116.00	0.99	-27.40	0.99	-27.40	0.15	-116.00
2650	0.16	-117.30	0.99	-28.00	0.99	-28.00	0.16	-117.30
2700	0.16	-117.80	0.98	-28.70	0.98	-28.70	0.16	-117.80
2750	0.16	-118.20	0.98	-29.40	0.98	-29.40	0.16	-118.20
2800	0.17	-118.20	0.98	-29.80	0.98	-29.80	0.17	-118.20
2850	0.18	-118.10	0.98	-30.30	0.98	-30.30	0.18	-118.10
2900	0.18	-119.50	0.98	-31.20	0.98	-31.20	0.18	-119.50
2950	0.18	-120.80	0.98	-32.00	0.98	-32.00	0.18	-120.80
3000	0.19	-121.10	0.98	-32.60	0.98	-32.60	0.19	-121.10
3050	0.20	-121.40	0.98	-33.20	0.98	-33.20	0.20	-121.40
3100	0.20	-123.20	0.97	-34.00	0.97	-34.00	0.20	-123.20
3150	0.20	-124.90	0.97	-34.80	0.97	-34.80	0.20	-124.90
3200	0.21	-124.80	0.97	-35.40	0.97	-35.40	0.21	-124.80
3250	0.21	-124.60	0.97	-35.90	0.97	-35.90	0.21	-124.60
3300	0.22	-125.80	0.97	-36.70	0.97	-36.70	0.22	-125.80
3350	0.22	-126.90	0.97	-37.50	0.97	-37.50	0.22	-126.90
3400	0.23	-127.70	0.97	-38.20	0.97	-38.20	0.23	-127.70
3450	0.23	-128.40	0.97	-38.90	0.97	-38.90	0.23	-128.40
3500	0.24	-129.00	0.96	-39.60	0.96	-39.60	0.24	-129.00
3550	0.24	-129.50	0.96	-40.40	0.96	-40.40	0.24	-129.50
3600	0.25	-130.20	0.96	-41.10	0.96	-41.10	0.25	-130.20
3650	0.25	-130.80	0.96	-41.80	0.96	-41.80	0.25	-130.80
3700	0.26	-131.40	0.96	-42.80	0.96	-42.80	0.26	-131.40
3750	0.26	-131.90	0.95	-43.90	0.95	-43.90	0.26	-131.90
3800	0.27	-132.70	0.95	-44.70	0.95	-44.70	0.27	-132.70
3850	0.28	-133.60	0.95	-45.50	0.95	-45.50	0.28	-133.60
3900	0.29	-135.00	0.94	-46.90	0.94	-46.90	0.29	-135.00
3950	0.30	-136.40	0.93	-48.20	0.93	-48.20	0.30	-136.40
4000	0.32	-138.20	0.92	-49.50	0.92	-49.50	0.32	-138.20
4050	0.33	-140.00	0.91	-50.80	0.91	-50.80	0.33	-140.00
4100	0.36	-144.00	0.89	-52.80	0.89	-52.80	0.36	-144.00
4150	0.38	-148.00	0.87	-54.70	0.87	-54.70	0.38	-148.00
4200	0.42	-158.20	0.79	-57.00	0.79	-57.00	0.42	-158.20
4250	0.46	-168.30	0.72	-59.30	0.72	-59.30	0.46	-168.30
4300	0.41	-13.30	0.65	-45.90	0.65	-45.90	0.41	-13.30
4350	0.37	141.70	0.58	-32.50	0.58	-32.50	0.37	141.70
4400	0.22	127.40	0.73	-32.60	0.73	-32.60	0.22	127.40
4450	0.07	113.00	0.88	-32.60	0.88	-32.60	0.07	113.00
4500	0.07	-0.20	0.91	-36.30	0.91	-36.30	0.07	-0.20
4550	0.08	-113.50	0.95	-40.00	0.95	-40.00	0.08	-113.50
4600	0.11	-115.90	0.95	-42.30	0.95	-42.30	0.11	-115.90
4650	0.14	-118.30	0.96	-44.60	0.96	-44.60	0.14	-118.30
4700	0.16	-120.10	0.96	-46.00	0.96	-46.00	0.16	-120.10
4750	0.18	-121.90	0.96	-47.40	0.96	-47.40	0.18	-121.90
4800	0.20	-123.90	0.96	-48.50	0.96	-48.50	0.20	-123.90
4850	0.21	-125.80	0.96	-49.70	0.96	-49.70	0.21	-125.80
4900	0.22	-127.70	0.96	-50.70	0.96	-50.70	0.22	-127.70
4950	0.23	-129.60	0.96	-51.80	0.96	-51.80	0.23	-129.60
5000	0.25	-131.40	0.95	-52.70	0.95	-52.70	0.25	-131.40
5050	0.25	-133.20	0.95	-53.60	0.95	-53.60	0.25	-133.20
5100	0.26	-134.60	0.95	-54.30	0.95	-54.30	0.26	-134.60
5150	0.26	-136.00	0.94	-55.10	0.94	-55.10	0.26	-136.00
5200	0.28	-137.60	0.94	-55.70	0.94	-55.70	0.28	-137.60
5250	0.29	-139.20	0.94	-56.40	0.94	-56.40	0.29	-139.20
5300	0.29	-141.00	0.94	-57.40	0.94	-57.40	0.29	-141.00
5350	0.30	-142.80	0.94	-58.40	0.94	-58.40	0.30	-142.80
5400	0.31	-143.90	0.94	-59.00	0.94	-59.00	0.31	-143.90
5450	0.31	-145.00	0.93	-59.70	0.93	-59.70	0.31	-145.00
5500	0.32	-146.50	0.93	-60.50	0.93	-60.50	0.32	-146.50
5550	0.33	-148.10	0.93	-61.20	0.93	-61.20	0.33	-148.10
5600	0.33	-149.10	0.93	-61.90	0.93	-61.90	0.33	-149.10
5650	0.34	-150.10	0.93	-62.60	0.93	-62.60	0.34	-150.10
5700	0.35	-151.50	0.93	-63.30	0.93	-63.30	0.35	-151.50
5750	0.36	-153.00	0.92	-64.10	0.92	-64.10	0.36	-153.00
5800	0.36	-153.80	0.92	-64.70	0.92	-64.70	0.36	-153.80
5850	0.36	-154.50	0.91	-65.40	0.91	-65.40	0.36	-154.50
5900	0.37	-155.60	0.91	-66.00	0.91	-66.00	0.37	-155.60
5950	0.38	-156.70	0.91	-66.60	0.91	-66.60	0.38	-156.70
6000	0.40	-157.50	0.90	-67.40	0.90	-67.40	0.40	-157.50
6050	0.41	-158.30	0.89	-68.30	0.89	-68.30	0.41	-158.30
6100	0.42	-159.30	0.89	-68.80	0.89	-68.80	0.42	-159.30
6150	0.43	-160.40	0.89	-69.30	0.89	-69.30	0.43	-160.40
6200	0.43	-161.80	0.89	-70.10	0.89	-70.10	0.43	-161.80
6250	0.44	-163.20	0.88	-70.90	0.88	-70.90	0.44	-163.20
6300	0.44	-164.10	0.88	-71.60	0.88	-71.60	0.44	-164.10
6350	0.45	-164.90	0.88	-72.20	0.88	-72.20	0.45	-164.90
6400	0.46	-165.70	0.87	-73.00	0.87	-73.00	0.46	-165.70
6450	0.46	-166.60	0.87	-73.70	0.87	-73.70	0.46	-166.60
6500	0.47	-167.60	0.86	-74.50	0.86	-74.50	0.47	-167.60
6550	0.47	-168.60	0.86	-75.30	0.86	-75.30	0.47	-168.60
6600	0.48	-169.90	0.85	-76.10	0.85	-76.10	0.48	-169.90
6650	0.48	-171.20	0.85	-76.90	0.85	-76.90	0.48	-171.20
6700	0.49	-172.20	0.84	-77.50	0.84	-77.50	0.49	-172.20
6750	0.50	-173.30	0.84	-78.20	0.84	-78.20	0.50	-173.30
6800	0.50	-175.20	0.83	-79.30	0.83	-79.30	0.50	-175.20
6850	0.51	-177.10	0.83	-80.40	0.83	-80.40	0.51	-177.10
6900	0.52	-178.50	0.82	-81.30	0.82	-81.30	0.52	-178.50
6950	0.52	-179.90	0.81	-82.30	0.81	-82.30	0.52	-179.90
7000	0.54	-2.60	0.79	-83.70	0.79	-83.70	0.54	-2.60
7050	0.56	174.80	0.78	-85.10	0.78	-85.10	0.56	174.80
7100	0.56	171.90	0.76	-86.30	0.76	-86.30	0.56	171.90
7150	0.57	169.00	0.74	-87.50	0.74	-87.50	0.57	169.00
7200	0.59	164.70	0.70	-88.90	0.70	-88.90	0.59	164.70
7250	0.62	160.40	0.66	-90.30	0.66	-90.30	0.62	160.40
7300	0.62	153.30	0.59	-89.10	0.59	-89.10	0.62	153.30
7350	0.62	146.10	0.53	-87.80	0.53	-87.80	0.62	146.10
7400	0.58	136.40	0.50	-77.10	0.50	-77.10	0.58	136.40
7450	0.54	126.60	0.47	-66.30	0.47	-66.30	0.54	126.60
7500	0.44	119.10	0.57	-60.60	0.57	-60.60	0.44	119.10
7550	0.33	111.60	0.66	-54.80	0.66	-54.80	0.33	111.60
7600	0.25	120.80	0.74	-58.10	0.74	-58.10	0.25	120.80
7650	0.17	129.90	0.82	-61.40	0.82	-61.40	0.17	129.90
7700	0.17	146.80	0.85	-64.90	0.85	-64.90	0.17	146.80
7750	0.17	163.70	0.88	-68.40	0.88	-68.40	0.17	163.70
7800	0.20	169.00	0.89	-71.00	0.89	-71.00	0.20	169.00
7850	0.22	174.20	0.90	-73.70	0.90	-73.70	0.22	174.20
7900	0.24	176.10	0.91	-75.70	0.91	-75.70	0.24	176.10
7950	0.26	178.00	0.91	-77.70	0.91	-77.70	0.26	178.00
8000	0.28	177.00	0.91	-79.50	0.91	-79.50	0.28	177.00
8050	0.30	176.10	0.91	-81.20	0.91	-81.20	0.30	176.10
8100	0.31	175.90	0.91	-82.70	0.91	-82.70	0.31	175.90
8150	0.32	175.70	0.91	-84.20	0.91	-84.20	0.32	175.70
8200	0.34	174.60	0.90	-85.60	0.90	-85.60	0.34	174.60
8250	0.35	173.40	0.89	-87.00	0.89	-87.00	0.35	173.40
8300	0.36	172.90	0.89	-88.30	0.89	-88.30	0.36	172.90
8350	0.37	172.30	0.89	-89.70	0.89	-89.70	0.37	172.30
8400	0.38	171.10	0.89	-91.00	0.89	-91.00	0.38	171.10
8450	0.40	169.90	0.88	-92.30	0.88	-92.30	0.40	169.90
8500	0.41	169.20	0.88	-93.70	0.88	-93.70	0.41	169.20
8550	0.41	168.50	0.87	-95.10	0.87	-95.10	0.41	168.50
8600	0.43	167.00	0.86	-96.40	0.86	-96.40	0.43	167.00
8650	0.44	165.50	0.85	-97.70	0.85	-97.70	0.44	165.50
8700	0.45	164.60	0.84	-99.00	0.84	-99.00	0.45	164.60
8750	0.46	163.80	0.83	-100.30	0.83	-100.30	0.46	163.80
8800	0.47	162.00	0.83	-101.30	0.83	-101.30	0.47	162.00
8850	0.49	160.30	0.82	-102.30	0.82	-102.30	0.49	160.30
8900	0.50	158.80	0.81	-103.70	0.81	-103.70	0.50	158.80
8950	0.51	157.20	0.79	-105.20	0.79	-105.20	0.51	157.20
9000	0.52	155.70	0.77	-105.90	0.77	-105.90	0.52	155.70
9050	0.53	154.10	0.76	-106.60	0.76	-106.60	0.53	154.10
9100	0.54	152.90	0.76	-107.20	0.76	-107.20	0.54	152.90
9150	0.54	151.80	0.76	-107.70	0.76	-107.70	0.54	151.80
9200	0.55	150.70	0.75	-109.60	0.75	-109.60	0.55	150.70
9250	0.56	149.50	0.75	-111.50	0.75	-111.50	0.56	149.50
9300	0.58	149.20	0.73	-112.80	0.73	-112.80	0.58	149.20
9350	0.59	148.90	0.72	-114.00	0.72	-114.00	0.59	148.90
9400	0.60	147.30	0.70	-115.60	0.70	-115.60	0.60	147.30
9450	0.62	145.80	0.69	-117.10	0.69	-117.10	0.62	145.80
9500	0.62	144.60	0.67	-118.50	0.67	-118.50	0.62	144.60
9550	0.63	143.40	0.64	-119.90	0.64	-119.90	0.63	143.40
9600	0.65	141.90	0.63	-121.10	0.63	-121.10	0.65	141.90
9650	0.67	140.30	0.61	-122.30	0.61	-122.30	0.67	140.30
9700	0.67	138.60	0.58	-123.40	0.58	-123.40	0.67	138.60
9750	0.68	137.00	0.56	-124.40	0.56	-124.40	0.68	137.00
9800	0.69	136.00	0.53	-125.10	0.53	-125.10	0.69	136.00
9850	0.69	135.00	0.50	-125.80	0.50	-125.80	0.69	135.00
9900	0.71	132.80	0.48	-126.30	0.48	-126.30	0.71	132.80
9950	0.73	130.60	0.45	-126.90	0.45	-126.90	0.73	130.60
10000	0.73	128.00	0.42	-126.90	0.42	-126.90	0.73	128.00
10050	0.74	125.40	0.38	-126.90	0.38	-126.90	0.74	125.40
10100	0.75	123.20	0.35	-124.50	0.35	-124.50	0.75	123.20
10150	0.76	120.90	0.32	-122.20	0.32	-122.20	0.76	120.90
10200	0.76	117.10	0.29	-116.60	0.29	-116.60	0.76	117.10
10250	0.75	113.30	0.25	-111.00	0.25	-111.00	0.75	113.30
10300	0.74	109.00	0.25	-99.90	0.25	-99.90	0.74	109.00
10350	0.74	104.70	0.24	-88.70	0.24	-88.70	0.74	104.70
10400	0.69	99.80	0.27	-78.80	0.27	-78.80	0.69	99.80
10450	0.65	95.00	0.31	-69.00	0.31	-69.00	0.65	95.00
10500	0.60	90.00	0.37	-67.10	0.37	-67.10	0.60	90.00
10550	0.54	85.00	0.43	-65.30	0.43	-65.30	0.54	85.00
10600	0.48	81.10	0.50	-67.30	0.50	-67.30	0.48	81.10
10650	0.41	77.20	0.57	-69.30	0.57	-69.30	0.41	77.20
10700	0.32	79.80	0.62	-74.00	0.62	-74.00	0.32	79.80
10750	0.24	82.40	0.67	-78.60	0.67	-78.60	0.24	82.40
10800	0.21	100.50	0.70	-83.20	0.70	-83.20	0.21	100.50
10850	0.18	118.50	0.73	-87.80	0.73	-87.80	0.18	118.50
10900	0.21	132.30	0.74	-92.50	0.74	-92.50	0.21	132.30
10950	0.25	146.10	0.75	-97.30	0.75	-97.30	0.25	146.10
11000	0.31	149.20	0.75	-101.20	0.75	-101.20	0.31	149.20
11050	0.37	152.30	0.75	-105.10	0.75	-105.10	0.37	152.30
11100	0.41	150.10	0.73	-108.60	0.73	-108.60	0.41	150.10
11150	0.46	148.00	0.71	-112.00	0.71	-112.00	0.46	148.00
11200	0.50	145.90	0.69	-114.90	0.69	-114.90	0.50	145.90
11250	0.54	143.80	0.68	-117.70	0.68	-117.70	0.54	143.80
11300	0.57	141.10	0.66	-120.10	0.66	-120.10	0.57	141.10
11350	0.61	138.30	0.63	-122.60	0.63	-122.60	0.61	138.30
11400	0.63	135.10	0.61	-125.10	0.61	-125.10	0.63	135.10
11450	0.65	131.90	0.58	-127.60	0.58	-127.60	0.65	131.90
11500	0.68	128.90	0.56	-129.20	0.56	-129.20	0.68	128.90
11550	0.70	125.90	0.53	-130.80	0.53	-130.80	0.70	125.90
11600	0.73	122.90	0.50	-132.40	0.50	-132.40	0.73	122.90
11650	0.75	119.80	0.47	-134.10	0.47	-134.10	0.75	119.80
11700	0.76	116.80	0.43	-134.60	0.43	-134.60	0.76	116.80
11750	0.77	113.90	0.40	-135.10	0.40	-135.10	0.77	113.90
11800	0.79	111.10	0.37	-133.80	0.37	-133.80	0.79	111.10
11850	0.80	108.30	0.33	-132.50	0.33	-132.50	0.80	108.30
11900	0.80	105.50	0.30	-128.40	0.30	-128.40	0.80	105.50
11950	0.80	102.60	0.28	-124.30	0.28	-124.30	0.80	102.60
12000	0.78	100.30	0.27	-115.90	0.27	-115.90	0.78	100.30
12050	0.76	98.00	0.27	-107.60	0.27	-107.60	0.76	98.00
12100	0.74	96.70	0.30	-104.90	0.30	-104.90	0.74	96.70
12150	0.71	95.40	0.33	-102.10	0.33	-102.10	0.71	95.40
12200	0.70	96.90	0.35	-105.90	0.35	-105.90	0.70	96.90
12250	0.69	98.50	0.37	-109.70	0.37	-109.70	0.69	98.50
12300	0.72	98.80	0.34	-113.50	0.34	-113.50	0.72	98.80
12350	0.74	99.00	0.31	-117.30	0.31	-117.30	0.74	99.00
12400	0.77	96.20	0.28	-116.20	0.28	-116.20	0.77	96.20
12450	0.80	93.30	0.25	-115.10	0.25	-115.10	0.80	93.30
12500	0.81	90.30	0.22	-106.90	0.22	-106.90	0.81	90.30
12550	0.81	87.20	0.20	-98.80	0.20	-98.80	0.81	87.20
12600	0.81	84.10	0.20	-87.70	0.20	-87.70	0.81	84.10
12650	0.81	80.90	0.21	-76.70	0.21	-76.70	0.81	80.90
12700	0.81	77.40	0.24	-69.90	0.24	-69.90	0.81	77.40
12750	0.80	73.90	0.27	-63.20	0.27	-63.20	0.80	73.90
12800	0.78	70.40	0.31	-61.50	0.31	-61.50	0.78	70.40
12850	0.76	67.00	0.35	-59.90	0.35	-59.90	0.76	67.00
12900	0.75	64.00	0.39	-60.10	0.39	-60.10	0.75	64.00
12950	0.73	61.00	0.43	-60.30	0.43	-60.30	0.73	61.00
13000	0.70	58.20	0.47	-61.90	0.47	-61.90	0.70	58.20
13050	0.68	55.40	0.50	-63.50	0.50	-63.50	0.68	55.40
13100	0.65	52.70	0.54	-65.40	0.54	-65.40	0.65	52.70
13150	0.62	49.90	0.57	-67.30	0.57	-67.30	0.62	49.90
13200	0.61	47.70	0.60	-69.20	0.60	-69.20	0.61	47.70
13250	0.59	45.50	0.63	-71.20	0.63	-71.20	0.59	45.50
13300	0.55	44.80	0.65	-73.90	0.65	-73.90	0.55	44.80
13350	0.50	44.20	0.67	-76.70	0.67	-76.70	0.50	44.20
13400	0.49	41.00	0.69	-78.90	0.69	-78.90	0.49	41.00
13450	0.48	37.80	0.72	-81.20	0.72	-81.20	0.48	37.80
13500	0.46	35.80	0.73	-83.60	0.73	-83.60	0.46	35.80
13550	0.43	33.90	0.75	-86.00	0.75	-86.00	0.43	33.90
13600	0.40	32.50	0.76	-88.50	0.76	-88.50	0.40	32.50
13650	0.38	31.20	0.78	-91.10	0.78	-91.10	0.38	31.20
13700	0.35	29.40	0.79	-93.40	0.79	-93.40	0.35	29.40
13750	0.33	27.70	0.80	-95.70	0.80	-95.70	0.33	27.70
13800	0.29	27.10	0.80	-98.30	0.80	-98.30	0.29	27.10
13850	0.26	26.50	0.81	-100.90	0.81	-100.90	0.26	26.50
13900	0.24	27.60	0.81	-103.50	0.81	-103.50	0.24	27.60
13950	0.22	28.70	0.81	-106.20	0.81	-106.20	0.22	28.70
14000	0.20	34.70	0.80	-109.20	0.80	-109.20	0.20	34.70
14050	0.18	40.80	0.79	-112.30	0.79	-112.30	0.18	40.80
14100	0.19	51.90	0.77	-115.30	0.77	-115.30	0.19	51.90
14150	0.20	63.00	0.75	-118.30	0.75	-118.30	0.20	63.00
14200	0.24	65.80	0.70	-121.10	0.70	-121.10	0.24	65.80
14250	0.28	68.50	0.66	-123.90	0.66	-123.90	0.28	68.50
14300	0.34	66.40	0.61	-124.50	0.61	-124.50	0.34	66.40
14350	0.40	64.30	0.55	-125.20	0.55	-125.20	0.40	64.30
14400	0.45	57.90	0.50	-121.30	0.50	-121.30	0.45	57.90
14450	0.50	51.40	0.46	-117.50	0.46	-117.50	0.50	51.40
14500	0.52	45.00	0.45	-110.70	0.45	-110.70	0.52	45.00
14550	0.54	38.50	0.45	-103.80	0.45	-103.80	0.54	38.50
14600	0.55	32.80	0.49	-99.90	0.49	-99.90	0.55	32.80
14650	0.56	27.00	0.52	-96.00	0.52	-96.00	0.56	27.00
14700	0.54	22.00	0.56	-95.70	0.56	-95.70	0.54	22.00
14750	0.52	16.90	0.60	-95.30	0.60	-95.30	0.52	16.90
14800	0.51	13.40	0.63	-96.60	0.63	-96.60	0.51	13.40
14850	0.49	9.80	0.67	-97.90	0.67	-97.90	0.49	9.80
14900	0.46	8.50	0.70	-99.60	0.70	-99.60	0.46	8.50
14950	0.43	7.10	0.72	-101.30	0.72	-101.30	0.43	7.10
15000	0.40	5.50	0.74	-103.90	0.74	-103.90	0.40	5.50
15050	0.37	3.80	0.75	-106.50	0.75	-106.50	0.37	3.80
15100	0.35	5.20	0.76	-108.70	0.76	-108.70	0.35	5.20
15150	0.32	6.70	0.76	-111.00	0.76	-111.00	0.32	6.70
15200	0.31	11.30	0.75	-113.60	0.75	-113.60	0.31	11.30
15250	0.30	15.90	0.75	-116.10	0.75	-116.10	0.30	15.90
15300	0.31	19.90	0.72	-118.30	0.72	-118.30	0.31	19.90
15350	0.32	23.90	0.69	-120.50	0.69	-120.50	0.32	23.90
15400	0.35	25.40	0.65	-120.30	0.65	-120.30	0.35	25.40
15450	0.38	26.90	0.61	-120.10	0.61	-120.10	0.38	26.90
15500	0.42	24.60	0.60	-117.70	0.60	-117.70	0.42	24.60
15550	0.45	22.20	0.58	-115.30	0.58	-115.30	0.45	22.20
15600	0.47	19.30	0.59	-112.80	0.59	-112.80	0.47	19.30
15650	0.48	16.30	0.59	-110.30	0.59	-110.30	0.48	16.30
15700	0.50	13.10	0.61	-109.00	0.61	-109.00	0.50	13.10
15750	0.51	9.90	0.62	-107.70	0.62	-107.70	0.51	9.90
15800	0.50	7.40	0.64	-106.90	0.64	-106.90	0.50	7.40
15850	0.49	5.00	0.67	-106.20	0.67	-106.20	0.49	5.00
15900	0.49	2.90	0.69	-106.60	0.69	-106.60	0.49	2.90
15950	0.50	0.80	0.70	-106.90	0.70	-106.90	0.50	0.80
16000	0.47	-0.60	0.73	-107.40	0.73	-107.40	0.47	-0.60
16050	0.44	-1.90	0.75	-107.90	0.75	-107.90	0.44	-1.90
16100	0.42	-2.90	0.76	-109.10	0.76	-109.10	0.42	-2.90
16150	0.40	-4.00	0.78	-110.40	0.78	-110.40	0.40	-4.00
16200	0.38	-5.40	0.79	-111.70	0.79	-111.70	0.38	-5.40
16250	0.35	-6.80	0.80	-112.90	0.80	-112.90	0.35	-6.80
16300	0.31	-6.90	0.81	-114.40	0.81	-114.40	0.31	-6.90
16350	0.28	-7.00	0.82	-115.90	0.82	-115.90	0.28	-7.00
16400	0.26	-5.70	0.82	-117.00	0.82	-117.00	0.26	-5.70
16450	0.25	-4.30	0.82	-118.20	0.82	-118.20	0.25	-4.30
16500	0.23	-6.50	0.81	-118.40	0.81	-118.40	0.23	-6.50
16550	0.21	-8.70	0.81	-118.70	0.81	-118.70	0.21	-8.70
16600	0.19	-12.00	0.83	-119.40	0.83	-119.40	0.19	-12.00
16650	0.18	-15.20	0.85	-120.10	0.85	-120.10	0.18	-15.20
16700	0.15	-21.40	0.86	-121.50	0.86	-121.50	0.15	-21.40
16750	0.12	-27.60	0.87	-122.90	0.87	-122.90	0.12	-27.60
16800	0.09	-32.60	0.88	-124.50	0.88	-124.50	0.09	-32.60
16850	0.06	-37.70	0.89	-126.20	0.89	-126.20	0.06	-37.70
16900	0.04	-5.90	0.88	-127.90	0.88	-127.90	0.04	-5.90
16950	0.02	25.80	0.88	-129.70	0.88	-129.70	0.02	25.80
17000	0.04	66.40	0.88	-131.30	0.88	-131.30	0.04	66.40
17050	0.07	106.90	0.88	-133.00	0.88	-133.00	0.07	106.90
17100	0.10	102.20	0.87	-134.80	0.87	-134.80	0.10	102.20
17150	0.13	97.50	0.86	-136.70	0.86	-136.70	0.13	97.50
17200	0.17	94.00	0.84	-138.00	0.84	-138.00	0.17	94.00
17250	0.20	90.50	0.83	-139.40	0.83	-139.40	0.20	90.50
17300	0.25	88.20	0.81	-140.80	0.81	-140.80	0.25	88.20
17350	0.29	85.90	0.79	-142.30	0.79	-142.30	0.29	85.90
17400	0.32	80.50	0.75	-142.80	0.75	-142.80	0.32	80.50
17450	0.35	75.10	0.72	-143.20	0.72	-143.20	0.35	75.10
17500	0.38	70.60	0.69	-142.30	0.69	-142.30	0.38	70.60
17550	0.40	66.10	0.66	-141.40	0.66	-141.40	0.40	66.10
17600	0.42	60.60	0.64	-138.50	0.64	-138.50	0.42	60.60
17650	0.44	55.10	0.62	-135.50	0.62	-135.50	0.44	55.10
17700	0.42	50.10	0.64	-132.40	0.64	-132.40	0.42	50.10
17750	0.41	45.10	0.67	-129.30	0.67	-129.30	0.41	45.10
17800	0.38	42.70	0.70	-129.00	0.70	-129.00	0.38	42.70
17850	0.36	40.40	0.74	-128.80	0.74	-128.80	0.36	40.40
17900	0.33	39.80	0.76	-130.00	0.76	-130.00	0.33	39.80
17950	0.31	39.30	0.78	-131.10	0.78	-131.10	0.31	39.30
18000	0.29	40.40	0.79	-132.90	0.79	-132.90	0.29	40.40
18050	0.28	41.50	0.80	-134.70	0.80	-134.70	0.28	41.50
18100	0.28	40.40	0.80	-135.90	0.80	-135.90	0.28	40.40
18150	0.27	39.30	0.80	-137.20	0.80	-137.20	0.27	39.30
18200	0.28	35.60	0.79	-137.40	0.79	-137.40	0.28	35.60
18250	0.28	31.90	0.77	-137.60	0.77	-137.60	0.28	31.90
18300	0.28	24.70	0.78	-136.70	0.78	-136.70	0.28	24.70
18350	0.28	17.50	0.79	-135.80	0.79	-135.80	0.28	17.50
18400	0.27	11.60	0.80	-135.70	0.80	-135.70	0.27	11.60
18450	0.25	5.60	0.82	-135.70	0.82	-135.70	0.25	5.60
18500	0.25	2.60	0.84	-136.20	0.84	-136.20	0.25	2.60
18550	0.25	-0.50	0.87	-136.80	0.87	-136.80	0.25	-0.50
