#	mhz	s	ma	r	50

50	0.35	116.80	0.90	22.20	0.90	22.20	0.35	116.80
100	0.24	109.50	0.94	14.70	0.94	14.70	0.24	109.50
150	0.12	102.10	0.99	7.20	0.99	7.20	0.12	102.10
200	0.09	102.70	0.99	4.90	0.99	4.90	0.09	102.70
250	0.05	103.30	1.00	2.60	1.00	2.60	0.05	103.30
300	0.03	120.90	1.00	1.10	1.00	1.10	0.03	120.90
350	0.01	138.50	1.00	-0.40	1.00	-0.40	0.01	138.50
400	0.02	13.00	1.00	-1.50	1.00	-1.50	0.02	13.00
450	0.02	-112.50	1.00	-2.50	1.00	-2.50	0.02	-112.50
500	0.03	-112.50	1.00	-3.50	1.00	-3.50	0.03	-112.50
550	0.03	-112.40	1.00	-4.40	1.00	-4.40	0.03	-112.40
600	0.04	-111.60	1.00	-5.40	1.00	-5.40	0.04	-111.60
650	0.05	-110.80	1.00	-6.30	1.00	-6.30	0.05	-110.80
700	0.06	-110.50	1.00	-7.20	1.00	-7.20	0.06	-110.50
750	0.07	-110.20	1.00	-8.10	1.00	-8.10	0.07	-110.20
800	0.08	-110.40	1.00	-8.90	1.00	-8.90	0.08	-110.40
850	0.09	-110.50	1.00	-9.80	1.00	-9.80	0.09	-110.50
900	0.10	-111.20	0.99	-10.80	0.99	-10.80	0.10	-111.20
950	0.10	-112.00	0.99	-11.70	0.99	-11.70	0.10	-112.00
1000	0.12	-113.80	0.99	-12.70	0.99	-12.70	0.12	-113.80
1050	0.13	-115.70	0.99	-13.80	0.99	-13.80	0.13	-115.70
1100	0.10	-128.70	0.96	-12.70	0.96	-12.70	0.10	-128.70
1150	0.08	-141.80	0.94	-11.70	0.94	-11.70	0.08	-141.80
1200	0.10	-126.80	0.97	-13.40	0.97	-13.40	0.10	-126.80
1250	0.12	-111.80	0.99	-15.10	0.99	-15.10	0.12	-111.80
1300	0.13	-113.50	0.99	-16.20	0.99	-16.20	0.13	-113.50
1350	0.14	-115.10	0.99	-17.20	0.99	-17.20	0.14	-115.10
1400	0.15	-115.80	0.99	-18.10	0.99	-18.10	0.15	-115.80
1450	0.17	-116.40	0.99	-19.10	0.99	-19.10	0.17	-116.40
1500	0.17	-117.60	0.98	-20.10	0.98	-20.10	0.17	-117.60
1550	0.19	-118.90	0.98	-21.10	0.98	-21.10	0.19	-118.90
1600	0.20	-119.70	0.97	-22.30	0.97	-22.30	0.20	-119.70
1650	0.21	-120.60	0.97	-23.40	0.97	-23.40	0.21	-120.60
1700	0.23	-122.90	0.96	-24.90	0.96	-24.90	0.23	-122.90
1750	0.25	-125.20	0.96	-26.40	0.96	-26.40	0.25	-125.20
1800	0.28	-130.30	0.92	-28.50	0.92	-28.50	0.28	-130.30
1850	0.32	-135.50	0.89	-30.70	0.89	-30.70	0.32	-135.50
1900	0.27	21.10	0.85	-23.60	0.85	-23.60	0.27	21.10
1950	0.23	177.70	0.80	-16.60	0.80	-16.60	0.23	177.70
2000	0.19	19.30	0.88	-19.20	0.88	-19.20	0.19	19.30
2050	0.14	-139.10	0.96	-21.90	0.96	-21.90	0.14	-139.10
2100	0.16	-134.30	0.96	-23.90	0.96	-23.90	0.16	-134.30
2150	0.19	-129.50	0.97	-25.80	0.97	-25.80	0.19	-129.50
2200	0.20	-129.30	0.97	-27.20	0.97	-27.20	0.20	-129.30
2250	0.22	-129.00	0.97	-28.50	0.97	-28.50	0.22	-129.00
2300	0.23	-129.10	0.97	-29.60	0.97	-29.60	0.23	-129.10
2350	0.24	-129.20	0.97	-30.80	0.97	-30.80	0.24	-129.20
2400	0.25	-130.40	0.96	-31.90	0.96	-31.90	0.25	-130.40
2450	0.26	-131.70	0.95	-33.10	0.95	-33.10	0.26	-131.70
2500	0.28	-132.60	0.95	-34.10	0.95	-34.10	0.28	-132.60
2550	0.29	-133.60	0.94	-35.20	0.94	-35.20	0.29	-133.60
2600	0.29	-135.80	0.93	-35.60	0.93	-35.60	0.29	-135.80
2650	0.29	-138.00	0.92	-36.10	0.92	-36.10	0.29	-138.00
2700	0.30	-135.90	0.93	-36.80	0.93	-36.80	0.30	-135.90
2750	0.30	-133.70	0.94	-37.40	0.94	-37.40	0.30	-133.70
2800	0.32	-134.20	0.94	-38.50	0.94	-38.50	0.32	-134.20
2850	0.33	-134.70	0.94	-39.60	0.94	-39.60	0.33	-134.70
2900	0.34	-135.60	0.93	-40.90	0.93	-40.90	0.34	-135.60
2950	0.35	-136.60	0.92	-42.10	0.92	-42.10	0.35	-136.60
3000	0.37	-137.20	0.92	-43.10	0.92	-43.10	0.37	-137.20
3050	0.38	-137.90	0.91	-44.10	0.91	-44.10	0.38	-137.90
3100	0.39	-140.00	0.90	-45.40	0.90	-45.40	0.39	-140.00
3150	0.41	-142.10	0.89	-46.80	0.89	-46.80	0.41	-142.10
3200	0.42	-144.30	0.86	-47.90	0.86	-47.90	0.42	-144.30
3250	0.44	-146.60	0.84	-49.10	0.84	-49.10	0.44	-146.60
3300	0.44	-153.40	0.80	-47.80	0.80	-47.80	0.44	-153.40
3350	0.44	-160.20	0.75	-46.50	0.75	-46.50	0.44	-160.20
3400	0.37	-158.70	0.80	-43.40	0.80	-43.40	0.37	-158.70
3450	0.31	-157.20	0.85	-40.30	0.85	-40.30	0.31	-157.20
3500	0.32	-151.10	0.87	-42.60	0.87	-42.60	0.32	-151.10
3550	0.33	-145.10	0.90	-44.90	0.90	-44.90	0.33	-145.10
3600	0.35	-143.90	0.90	-46.50	0.90	-46.50	0.35	-143.90
3650	0.37	-142.70	0.91	-48.10	0.91	-48.10	0.37	-142.70
3700	0.38	-142.70	0.90	-49.70	0.90	-49.70	0.38	-142.70
3750	0.39	-142.80	0.90	-51.20	0.90	-51.20	0.39	-142.80
3800	0.40	-143.00	0.90	-52.30	0.90	-52.30	0.40	-143.00
3850	0.41	-143.10	0.89	-53.30	0.89	-53.30	0.41	-143.10
3900	0.42	-143.90	0.88	-54.60	0.88	-54.60	0.42	-143.90
3950	0.43	-144.60	0.88	-55.90	0.88	-55.90	0.43	-144.60
4000	0.44	-145.20	0.87	-56.80	0.87	-56.80	0.44	-145.20
4050	0.45	-145.70	0.86	-57.60	0.86	-57.60	0.45	-145.70
4100	0.45	-145.70	0.86	-58.30	0.86	-58.30	0.45	-145.70
4150	0.45	-145.60	0.86	-58.90	0.86	-58.90	0.45	-145.60
4200	0.46	-146.20	0.86	-60.20	0.86	-60.20	0.46	-146.20
4250	0.48	-146.80	0.85	-61.50	0.85	-61.50	0.48	-146.80
4300	0.49	-147.60	0.85	-62.50	0.85	-62.50	0.49	-147.60
4350	0.50	-148.40	0.84	-63.40	0.84	-63.40	0.50	-148.40
4400	0.51	-149.80	0.83	-64.70	0.83	-64.70	0.51	-149.80
4450	0.52	-151.10	0.82	-66.00	0.82	-66.00	0.52	-151.10
4500	0.54	-152.60	0.81	-67.20	0.81	-67.20	0.54	-152.60
4550	0.55	-154.10	0.79	-68.40	0.79	-68.40	0.55	-154.10
4600	0.56	-157.10	0.77	-69.60	0.77	-69.60	0.56	-157.10
4650	0.57	-160.20	0.75	-70.90	0.75	-70.90	0.57	-160.20
4700	0.57	-164.00	0.71	-70.20	0.71	-70.20	0.57	-164.00
4750	0.57	-167.80	0.68	-69.60	0.68	-69.60	0.57	-167.80
4800	0.53	-170.40	0.68	-65.60	0.68	-65.60	0.53	-170.40
4850	0.48	-173.10	0.69	-61.50	0.69	-61.50	0.48	-173.10
4900	0.47	-169.10	0.73	-62.50	0.73	-62.50	0.47	-169.10
4950	0.46	-165.10	0.78	-63.60	0.78	-63.60	0.46	-165.10
5000	0.48	-163.80	0.79	-65.90	0.79	-65.90	0.48	-163.80
5050	0.50	-162.50	0.79	-68.10	0.79	-68.10	0.50	-162.50
5100	0.52	-163.20	0.79	-69.90	0.79	-69.90	0.52	-163.20
5150	0.53	-163.80	0.79	-71.60	0.79	-71.60	0.53	-163.80
5200	0.55	-165.00	0.79	-73.00	0.79	-73.00	0.55	-165.00
5250	0.57	-166.30	0.78	-74.50	0.78	-74.50	0.57	-166.30
5300	0.59	-168.10	0.77	-75.90	0.77	-75.90	0.59	-168.10
5350	0.60	-169.90	0.75	-77.30	0.75	-77.30	0.60	-169.90
5400	0.61	-171.20	0.75	-78.20	0.75	-78.20	0.61	-171.20
5450	0.61	-172.50	0.74	-79.20	0.74	-79.20	0.61	-172.50
5500	0.62	-173.80	0.73	-79.80	0.73	-79.80	0.62	-173.80
5550	0.62	-175.10	0.72	-80.40	0.72	-80.40	0.62	-175.10
5600	0.63	-175.60	0.71	-81.30	0.71	-81.30	0.63	-175.60
5650	0.64	-176.10	0.71	-82.30	0.71	-82.30	0.64	-176.10
5700	0.66	-177.30	0.70	-83.50	0.70	-83.50	0.66	-177.30
5750	0.67	-178.50	0.70	-84.80	0.70	-84.80	0.67	-178.50
5800	0.68	0.00	0.68	-85.80	0.68	-85.80	0.68	0.00
5850	0.69	178.60	0.67	-86.90	0.67	-86.90	0.69	178.60
5900	0.70	177.10	0.66	-87.90	0.66	-87.90	0.70	177.10
5950	0.71	175.60	0.64	-88.90	0.64	-88.90	0.71	175.60
6000	0.73	173.90	0.62	-89.50	0.62	-89.50	0.73	173.90
6050	0.74	172.20	0.59	-90.10	0.59	-90.10	0.74	172.20
6100	0.74	170.00	0.56	-89.50	0.56	-89.50	0.74	170.00
6150	0.74	167.70	0.54	-88.90	0.54	-88.90	0.74	167.70
6200	0.71	165.40	0.53	-85.40	0.53	-85.40	0.71	165.40
6250	0.69	163.00	0.52	-82.00	0.52	-82.00	0.69	163.00
6300	0.66	164.70	0.56	-80.60	0.56	-80.60	0.66	164.70
6350	0.64	166.30	0.60	-79.30	0.60	-79.30	0.64	166.30
6400	0.65	168.30	0.62	-82.00	0.62	-82.00	0.65	168.30
6450	0.66	170.30	0.64	-84.70	0.64	-84.70	0.66	170.30
6500	0.68	170.20	0.63	-87.20	0.63	-87.20	0.68	170.20
6550	0.69	170.10	0.63	-89.80	0.63	-89.80	0.69	170.10
6600	0.71	169.20	0.62	-91.70	0.62	-91.70	0.71	169.20
6650	0.73	168.20	0.62	-93.60	0.62	-93.60	0.73	168.20
6700	0.74	167.20	0.60	-94.90	0.60	-94.90	0.74	167.20
6750	0.75	166.20	0.59	-96.30	0.59	-96.30	0.75	166.20
6800	0.76	164.30	0.58	-97.70	0.58	-97.70	0.76	164.30
6850	0.77	162.50	0.56	-99.10	0.56	-99.10	0.77	162.50
6900	0.77	161.50	0.55	-99.60	0.55	-99.60	0.77	161.50
6950	0.77	160.50	0.54	-100.20	0.54	-100.20	0.77	160.50
7000	0.77	159.30	0.53	-101.30	0.53	-101.30	0.77	159.30
7050	0.78	158.10	0.53	-102.40	0.53	-102.40	0.78	158.10
7100	0.79	157.00	0.52	-103.80	0.52	-103.80	0.79	157.00
7150	0.80	155.90	0.51	-105.20	0.51	-105.20	0.80	155.90
7200	0.82	154.30	0.49	-106.90	0.49	-106.90	0.82	154.30
7250	0.83	152.60	0.48	-108.70	0.48	-108.70	0.83	152.60
7300	0.84	150.60	0.45	-109.80	0.45	-109.80	0.84	150.60
7350	0.84	148.60	0.43	-110.90	0.43	-110.90	0.84	148.60
7400	0.85	146.70	0.41	-111.40	0.41	-111.40	0.85	146.70
7450	0.85	144.90	0.39	-111.90	0.39	-111.90	0.85	144.90
7500	0.85	142.30	0.36	-111.00	0.36	-111.00	0.85	142.30
7550	0.85	139.70	0.34	-110.10	0.34	-110.10	0.85	139.70
7600	0.83	137.50	0.32	-105.60	0.32	-105.60	0.83	137.50
7650	0.81	135.30	0.31	-101.00	0.31	-101.00	0.81	135.30
7700	0.79	134.00	0.32	-96.80	0.32	-96.80	0.79	134.00
7750	0.76	132.60	0.34	-92.60	0.34	-92.60	0.76	132.60
7800	0.75	133.10	0.37	-95.30	0.37	-95.30	0.75	133.10
7850	0.74	133.60	0.40	-98.00	0.40	-98.00	0.74	133.60
7900	0.76	133.70	0.40	-102.70	0.40	-102.70	0.76	133.70
7950	0.78	133.70	0.40	-107.50	0.40	-107.50	0.78	133.70
8000	0.81	131.80	0.37	-111.10	0.37	-111.10	0.81	131.80
8050	0.83	129.90	0.35	-114.80	0.35	-114.80	0.83	129.90
8100	0.84	127.30	0.33	-117.30	0.33	-117.30	0.84	127.30
8150	0.85	124.80	0.30	-119.80	0.30	-119.80	0.85	124.80
8200	0.86	122.60	0.27	-119.90	0.27	-119.90	0.86	122.60
8250	0.86	120.30	0.24	-119.90	0.24	-119.90	0.86	120.30
8300	0.86	118.00	0.22	-118.20	0.22	-118.20	0.86	118.00
8350	0.85	115.60	0.20	-116.40	0.20	-116.40	0.85	115.60
8400	0.85	114.50	0.19	-114.40	0.19	-114.40	0.85	114.50
8450	0.85	113.30	0.18	-112.40	0.18	-112.40	0.85	113.30
8500	0.85	111.70	0.16	-111.70	0.16	-111.70	0.85	111.70
8550	0.85	110.10	0.15	-111.00	0.15	-111.00	0.85	110.10
8600	0.86	108.20	0.13	-105.10	0.13	-105.10	0.86	108.20
8650	0.87	106.20	0.11	-99.10	0.11	-99.10	0.87	106.20
8700	0.88	104.40	0.10	-85.00	0.10	-85.00	0.88	104.40
8750	0.88	102.60	0.09	-70.90	0.09	-70.90	0.88	102.60
8800	0.88	100.10	0.10	-57.90	0.10	-57.90	0.88	100.10
8850	0.88	97.60	0.11	-45.00	0.11	-45.00	0.88	97.60
8900	0.87	96.20	0.14	-39.70	0.14	-39.70	0.87	96.20
8950	0.85	94.80	0.16	-34.40	0.16	-34.40	0.85	94.80
9000	0.85	93.20	0.19	-34.10	0.19	-34.10	0.85	93.20
9050	0.84	91.70	0.21	-33.90	0.21	-33.90	0.84	91.70
9100	0.82	90.70	0.24	-37.00	0.24	-37.00	0.82	90.70
9150	0.81	89.80	0.26	-40.00	0.26	-40.00	0.81	89.80
9200	0.78	89.40	0.27	-45.20	0.27	-45.20	0.78	89.40
9250	0.75	89.10	0.28	-50.30	0.28	-50.30	0.75	89.10
9300	0.76	91.00	0.26	-52.10	0.26	-52.10	0.76	91.00
9350	0.76	92.90	0.25	-53.90	0.25	-53.90	0.76	92.90
9400	0.78	91.70	0.24	-50.90	0.24	-50.90	0.78	91.70
9450	0.80	90.50	0.23	-47.80	0.23	-47.80	0.80	90.50
9500	0.79	89.80	0.24	-43.40	0.24	-43.40	0.79	89.80
9550	0.79	89.00	0.24	-39.00	0.24	-39.00	0.79	89.00
9600	0.79	88.00	0.26	-37.60	0.26	-37.60	0.79	88.00
9650	0.80	86.90	0.28	-36.20	0.28	-36.20	0.80	86.90
9700	0.78	86.00	0.29	-36.40	0.29	-36.40	0.78	86.00
9750	0.77	85.00	0.31	-36.60	0.31	-36.60	0.77	85.00
9800	0.76	85.80	0.32	-37.30	0.32	-37.30	0.76	85.80
9850	0.75	86.60	0.33	-38.10	0.33	-38.10	0.75	86.60
9900	0.76	86.30	0.33	-38.50	0.33	-38.50	0.76	86.30
9950	0.77	85.90	0.34	-39.00	0.34	-39.00	0.77	85.90
10000	0.76	85.50	0.34	-37.60	0.34	-37.60	0.76	85.50
10050	0.76	85.10	0.34	-36.20	0.34	-36.20	0.76	85.10
10100	0.77	84.60	0.36	-35.40	0.36	-35.40	0.77	84.60
10150	0.79	84.10	0.38	-34.50	0.38	-34.50	0.79	84.10
10200	0.78	82.40	0.39	-34.60	0.39	-34.60	0.78	82.40
10250	0.77	80.70	0.41	-34.70	0.41	-34.70	0.77	80.70
10300	0.76	79.50	0.42	-35.60	0.42	-35.60	0.76	79.50
10350	0.76	78.20	0.44	-36.40	0.44	-36.40	0.76	78.20
10400	0.73	77.00	0.46	-37.50	0.46	-37.50	0.73	77.00
10450	0.71	75.70	0.47	-38.60	0.47	-38.60	0.71	75.70
10500	0.70	74.80	0.48	-40.80	0.48	-40.80	0.70	74.80
10550	0.68	74.00	0.49	-43.00	0.49	-43.00	0.68	74.00
10600	0.68	73.90	0.49	-44.20	0.49	-44.20	0.68	73.90
10650	0.67	73.80	0.49	-45.40	0.49	-45.40	0.67	73.80
10700	0.67	74.10	0.48	-46.20	0.48	-46.20	0.67	74.10
10750	0.67	74.30	0.48	-47.00	0.48	-47.00	0.67	74.30
10800	0.68	73.80	0.48	-44.90	0.48	-44.90	0.68	73.80
10850	0.70	73.20	0.48	-42.90	0.48	-42.90	0.70	73.20
10900	0.70	70.30	0.50	-41.70	0.50	-41.70	0.70	70.30
10950	0.70	67.30	0.52	-40.50	0.52	-40.50	0.70	67.30
11000	0.69	65.20	0.55	-41.80	0.55	-41.80	0.69	65.20
11050	0.67	63.10	0.58	-43.10	0.58	-43.10	0.67	63.10
11100	0.66	60.90	0.60	-44.30	0.60	-44.30	0.66	60.90
11150	0.64	58.70	0.61	-45.40	0.61	-45.40	0.64	58.70
11200	0.62	57.80	0.62	-47.50	0.62	-47.50	0.62	57.80
11250	0.60	56.80	0.64	-49.70	0.64	-49.70	0.60	56.80
11300	0.59	56.40	0.64	-50.50	0.64	-50.50	0.59	56.40
11350	0.58	55.90	0.65	-51.40	0.65	-51.40	0.58	55.90
11400	0.58	54.60	0.65	-51.90	0.65	-51.90	0.58	54.60
11450	0.58	53.20	0.66	-52.30	0.66	-52.30	0.58	53.20
11500	0.58	51.50	0.68	-52.80	0.68	-52.80	0.58	51.50
11550	0.58	49.80	0.70	-53.30	0.70	-53.30	0.58	49.80
11600	0.57	48.20	0.71	-54.50	0.71	-54.50	0.57	48.20
11650	0.56	46.60	0.73	-55.60	0.73	-55.60	0.56	46.60
11700	0.54	44.90	0.74	-57.00	0.74	-57.00	0.54	44.90
11750	0.53	43.30	0.76	-58.40	0.76	-58.40	0.53	43.30
11800	0.52	42.90	0.77	-59.50	0.77	-59.50	0.52	42.90
11850	0.50	42.60	0.78	-60.70	0.78	-60.70	0.50	42.60
11900	0.48	42.30	0.79	-62.30	0.79	-62.30	0.48	42.30
11950	0.46	42.00	0.80	-64.00	0.80	-64.00	0.46	42.00
12000	0.45	41.20	0.81	-65.20	0.81	-65.20	0.45	41.20
12050	0.43	40.50	0.82	-66.40	0.82	-66.40	0.43	40.50
12100	0.42	40.40	0.82	-68.00	0.82	-68.00	0.42	40.40
12150	0.40	40.20	0.83	-69.60	0.83	-69.60	0.40	40.20
12200	0.38	39.50	0.83	-70.80	0.83	-70.80	0.38	39.50
12250	0.37	38.70	0.84	-71.90	0.84	-71.90	0.37	38.70
12300	0.35	39.20	0.85	-73.10	0.85	-73.10	0.35	39.20
12350	0.33	39.60	0.85	-74.30	0.85	-74.30	0.33	39.60
12400	0.32	38.70	0.86	-76.00	0.86	-76.00	0.32	38.70
12450	0.31	37.70	0.86	-77.70	0.86	-77.70	0.31	37.70
12500	0.29	39.80	0.86	-79.20	0.86	-79.20	0.29	39.80
12550	0.28	42.00	0.86	-80.60	0.86	-80.60	0.28	42.00
12600	0.28	44.80	0.85	-82.00	0.85	-82.00	0.28	44.80
12650	0.27	47.50	0.84	-83.30	0.84	-83.30	0.27	47.50
12700	0.28	48.60	0.83	-83.90	0.83	-83.90	0.28	48.60
12750	0.29	49.60	0.82	-84.50	0.82	-84.50	0.29	49.60
12800	0.30	48.60	0.81	-84.50	0.81	-84.50	0.30	48.60
12850	0.31	47.70	0.81	-84.50	0.81	-84.50	0.31	47.70
12900	0.31	45.30	0.82	-84.60	0.82	-84.60	0.31	45.30
12950	0.32	42.90	0.83	-84.70	0.83	-84.70	0.32	42.90
13000	0.31	40.90	0.84	-85.40	0.84	-85.40	0.31	40.90
13050	0.30	38.80	0.85	-86.20	0.85	-86.20	0.30	38.80
13100	0.29	37.40	0.86	-87.20	0.86	-87.20	0.29	37.40
13150	0.28	35.90	0.87	-88.20	0.87	-88.20	0.28	35.90
13200	0.28	35.40	0.88	-89.20	0.88	-89.20	0.28	35.40
13250	0.27	35.00	0.89	-90.20	0.89	-90.20	0.27	35.00
13300	0.25	36.20	0.89	-91.80	0.89	-91.80	0.25	36.20
13350	0.23	37.50	0.89	-93.40	0.89	-93.40	0.23	37.50
13400	0.24	36.70	0.89	-94.70	0.89	-94.70	0.24	36.70
13450	0.24	36.00	0.90	-96.00	0.90	-96.00	0.24	36.00
13500	0.23	35.60	0.90	-97.30	0.90	-97.30	0.23	35.60
13550	0.22	35.30	0.90	-98.50	0.90	-98.50	0.22	35.30
13600	0.21	35.90	0.90	-99.90	0.90	-99.90	0.21	35.90
13650	0.20	36.50	0.90	-101.40	0.90	-101.40	0.20	36.50
13700	0.20	36.10	0.89	-102.60	0.89	-102.60	0.20	36.10
13750	0.20	35.60	0.89	-103.90	0.89	-103.90	0.20	35.60
13800	0.19	36.80	0.88	-105.20	0.88	-105.20	0.19	36.80
13850	0.18	37.90	0.87	-106.50	0.87	-106.50	0.18	37.90
13900	0.18	38.40	0.86	-107.60	0.86	-107.60	0.18	38.40
13950	0.19	39.00	0.85	-108.70	0.85	-108.70	0.19	39.00
14000	0.20	38.60	0.83	-109.40	0.83	-109.40	0.20	38.60
14050	0.21	38.20	0.81	-110.10	0.81	-110.10	0.21	38.20
14100	0.22	35.90	0.80	-109.60	0.80	-109.60	0.22	35.90
14150	0.24	33.60	0.79	-109.00	0.79	-109.00	0.24	33.60
14200	0.25	27.30	0.79	-108.40	0.79	-108.40	0.25	27.30
14250	0.26	21.00	0.79	-107.70	0.79	-107.70	0.26	21.00
14300	0.26	17.00	0.80	-107.60	0.80	-107.60	0.26	17.00
14350	0.26	13.10	0.82	-107.60	0.82	-107.60	0.26	13.10
14400	0.25	8.90	0.83	-108.30	0.83	-108.30	0.25	8.90
14450	0.25	4.70	0.84	-109.10	0.84	-109.10	0.25	4.70
14500	0.23	4.00	0.85	-110.00	0.85	-110.00	0.23	4.00
14550	0.22	3.30	0.85	-110.80	0.85	-110.80	0.22	3.30
14600	0.21	4.10	0.86	-112.00	0.86	-112.00	0.21	4.10
14650	0.20	4.90	0.86	-113.20	0.86	-113.20	0.20	4.90
14700	0.19	6.70	0.86	-114.30	0.86	-114.30	0.19	6.70
14750	0.18	8.40	0.86	-115.40	0.86	-115.40	0.18	8.40
14800	0.19	10.90	0.85	-116.20	0.85	-116.20	0.19	10.90
14850	0.19	13.30	0.85	-117.00	0.85	-117.00	0.19	13.30
14900	0.19	15.00	0.85	-117.30	0.85	-117.30	0.19	15.00
14950	0.18	16.70	0.85	-117.70	0.85	-117.70	0.18	16.70
15000	0.18	16.00	0.86	-118.70	0.86	-118.70	0.18	16.00
15050	0.17	15.30	0.86	-119.60	0.86	-119.60	0.17	15.30
15100	0.16	16.70	0.87	-120.60	0.87	-120.60	0.16	16.70
15150	0.15	18.10	0.87	-121.50	0.87	-121.50	0.15	18.10
15200	0.15	22.80	0.88	-122.80	0.88	-122.80	0.15	22.80
15250	0.14	27.50	0.88	-124.10	0.88	-124.10	0.14	27.50
15300	0.14	31.20	0.88	-125.80	0.88	-125.80	0.14	31.20
15350	0.13	34.90	0.87	-127.40	0.87	-127.40	0.13	34.90
15400	0.14	40.90	0.86	-129.00	0.86	-129.00	0.14	40.90
15450	0.15	46.90	0.85	-130.70	0.85	-130.70	0.15	46.90
15500	0.16	49.80	0.84	-132.10	0.84	-132.10	0.16	49.80
15550	0.18	52.70	0.83	-133.50	0.83	-133.50	0.18	52.70
15600	0.20	55.30	0.81	-134.90	0.81	-134.90	0.20	55.30
15650	0.22	57.80	0.79	-136.30	0.79	-136.30	0.22	57.80
15700	0.25	55.30	0.76	-137.10	0.76	-137.10	0.25	55.30
15750	0.28	52.70	0.74	-137.90	0.74	-137.90	0.28	52.70
15800	0.29	51.80	0.71	-137.30	0.71	-137.30	0.29	51.80
15850	0.30	50.80	0.69	-136.60	0.69	-136.60	0.30	50.80
15900	0.32	46.80	0.68	-135.50	0.68	-135.50	0.32	46.80
15950	0.34	42.80	0.67	-134.40	0.67	-134.40	0.34	42.80
16000	0.32	43.30	0.68	-133.50	0.68	-133.50	0.32	43.30
16050	0.30	43.80	0.69	-132.60	0.69	-132.60	0.30	43.80
16100	0.29	47.90	0.70	-133.70	0.70	-133.70	0.29	47.90
16150	0.28	52.00	0.70	-134.70	0.70	-134.70	0.28	52.00
16200	0.28	57.10	0.70	-136.40	0.70	-136.40	0.28	57.10
16250	0.28	62.10	0.70	-138.20	0.70	-138.20	0.28	62.10
16300	0.30	68.30	0.69	-140.10	0.69	-140.10	0.30	68.30
16350	0.32	74.50	0.68	-141.90	0.68	-141.90	0.32	74.50
16400	0.36	75.40	0.65	-143.50	0.65	-143.50	0.36	75.40
16450	0.39	76.30	0.63	-145.10	0.63	-145.10	0.39	76.30
16500	0.41	74.80	0.59	-145.50	0.59	-145.50	0.41	74.80
16550	0.44	73.20	0.56	-145.90	0.56	-145.90	0.44	73.20
16600	0.47	69.80	0.52	-144.60	0.52	-144.60	0.47	69.80
16650	0.50	66.30	0.50	-143.30	0.50	-143.30	0.50	66.30
16700	0.50	62.40	0.48	-140.00	0.48	-140.00	0.50	62.40
16750	0.51	58.50	0.46	-136.70	0.46	-136.70	0.51	58.50
16800	0.51	53.60	0.45	-132.40	0.45	-132.40	0.51	53.60
16850	0.51	48.80	0.45	-128.10	0.45	-128.10	0.51	48.80
16900	0.50	43.80	0.47	-124.70	0.47	-124.70	0.50	43.80
16950	0.49	38.80	0.49	-121.20	0.49	-121.20	0.49	38.80
17000	0.46	35.60	0.52	-119.80	0.52	-119.80	0.46	35.60
17050	0.44	32.40	0.55	-118.50	0.55	-118.50	0.44	32.40
17100	0.41	31.10	0.58	-119.20	0.58	-119.20	0.41	31.10
17150	0.39	29.80	0.61	-119.90	0.61	-119.90	0.39	29.80
17200	0.37	30.50	0.64	-121.20	0.64	-121.20	0.37	30.50
17250	0.35	31.30	0.66	-122.50	0.66	-122.50	0.35	31.30
17300	0.34	35.90	0.67	-124.70	0.67	-124.70	0.34	35.90
17350	0.34	40.50	0.69	-126.80	0.69	-126.80	0.34	40.50
17400	0.35	42.70	0.68	-128.50	0.68	-128.50	0.35	42.70
17450	0.36	45.00	0.68	-130.20	0.68	-130.20	0.36	45.00
17500	0.38	47.00	0.67	-131.50	0.67	-131.50	0.38	47.00
17550	0.39	49.10	0.66	-132.90	0.66	-132.90	0.39	49.10
17600	0.42	48.50	0.64	-133.00	0.64	-133.00	0.42	48.50
17650	0.44	47.90	0.63	-133.10	0.63	-133.10	0.44	47.90
17700	0.45	45.70	0.62	-131.80	0.62	-131.80	0.45	45.70
17750	0.46	43.50	0.62	-130.40	0.62	-130.40	0.46	43.50
17800	0.46	41.50	0.63	-129.50	0.63	-129.50	0.46	41.50
17850	0.45	39.40	0.64	-128.70	0.64	-128.70	0.45	39.40
17900	0.44	37.70	0.65	-128.60	0.65	-128.60	0.44	37.70
17950	0.42	36.10	0.66	-128.40	0.66	-128.40	0.42	36.10
18000	0.41	34.80	0.67	-129.10	0.67	-129.10	0.41	34.80
18050	0.40	33.60	0.68	-129.70	0.68	-129.70	0.40	33.60
18100	0.39	31.40	0.69	-129.90	0.69	-129.90	0.39	31.40
18150	0.38	29.20	0.69	-130.20	0.69	-130.20	0.38	29.20
18200	0.37	25.80	0.70	-130.30	0.70	-130.30	0.37	25.80
18250	0.37	22.40	0.71	-130.30	0.71	-130.30	0.37	22.40
18300	0.36	18.50	0.73	-130.50	0.73	-130.50	0.36	18.50
18350	0.35	14.60	0.75	-130.70	0.75	-130.70	0.35	14.60
18400	0.34	11.50	0.76	-131.60	0.76	-131.60	0.34	11.50
18450	0.32	8.50	0.77	-132.50	0.77	-132.50	0.32	8.50
18500	0.32	7.90	0.79	-133.50	0.79	-133.50	0.32	7.90
18550	0.32	7.20	0.81	-134.50	0.81	-134.50	0.32	7.20
18600	0.31	5.70	0.81	-136.10	0.81	-136.10	0.31	5.70
18650	0.29	4.20	0.82	-137.80	0.82	-137.80	0.29	4.20
18700	0.29	5.90	0.82	-139.10	0.82	-139.10	0.29	5.90
