#	mhz	s	ma	r	50

50	0.87	158.00	0.37	64.00	0.37	64.00	0.87	158.00
100	0.74	144.30	0.56	50.90	0.56	50.90	0.74	144.30
150	0.61	130.50	0.76	37.70	0.76	37.70	0.61	130.50
200	0.52	124.10	0.83	31.20	0.83	31.20	0.52	124.10
250	0.42	117.70	0.89	24.70	0.89	24.70	0.42	117.70
300	0.37	114.20	0.92	20.70	0.92	20.70	0.37	114.20
350	0.31	110.70	0.94	16.60	0.94	16.60	0.31	110.70
400	0.27	108.30	0.95	14.10	0.95	14.10	0.27	108.30
450	0.23	105.90	0.96	11.70	0.96	11.70	0.23	105.90
500	0.19	103.40	0.98	9.20	0.98	9.20	0.19	103.40
550	0.16	101.00	0.98	6.70	0.98	6.70	0.16	101.00
600	0.15	101.10	0.99	5.20	0.99	5.20	0.15	101.10
650	0.13	101.20	0.99	3.80	0.99	3.80	0.13	101.20
700	0.11	100.60	0.99	2.60	0.99	2.60	0.11	100.60
750	0.10	100.00	0.99	1.40	0.99	1.40	0.10	100.00
800	0.09	101.10	1.00	0.30	1.00	0.30	0.09	101.10
850	0.08	102.10	1.00	-0.80	1.00	-0.80	0.08	102.10
900	0.06	103.70	1.00	-1.80	1.00	-1.80	0.06	103.70
950	0.05	105.30	1.00	-2.80	1.00	-2.80	0.05	105.30
1000	0.05	110.10	1.00	-3.70	1.00	-3.70	0.05	110.10
1050	0.04	114.80	1.00	-4.60	1.00	-4.60	0.04	114.80
1100	0.03	121.70	1.00	-5.40	1.00	-5.40	0.03	121.70
1150	0.02	128.60	1.00	-6.30	1.00	-6.30	0.02	128.60
1200	0.02	144.50	1.00	-7.20	1.00	-7.20	0.02	144.50
1250	0.02	160.40	1.00	-8.00	1.00	-8.00	0.02	160.40
1300	0.02	-2.70	1.00	-8.70	1.00	-8.70	0.02	-2.70
1350	0.02	-165.80	1.00	-9.50	1.00	-9.50	0.02	-165.80
1400	0.03	-154.40	1.00	-10.30	1.00	-10.30	0.03	-154.40
1450	0.03	-143.00	1.00	-11.00	1.00	-11.00	0.03	-143.00
1500	0.04	-138.10	1.00	-11.80	1.00	-11.80	0.04	-138.10
1550	0.04	-133.30	1.00	-12.60	1.00	-12.60	0.04	-133.30
1600	0.05	-130.40	1.00	-13.40	1.00	-13.40	0.05	-130.40
1650	0.05	-127.50	1.00	-14.10	1.00	-14.10	0.05	-127.50
1700	0.05	-127.50	1.00	-14.90	1.00	-14.90	0.05	-127.50
1750	0.06	-127.50	1.00	-15.70	1.00	-15.70	0.06	-127.50
1800	0.07	-125.70	1.00	-16.40	1.00	-16.40	0.07	-125.70
1850	0.07	-123.90	1.00	-17.10	1.00	-17.10	0.07	-123.90
1900	0.08	-123.90	1.00	-17.80	1.00	-17.80	0.08	-123.90
1950	0.08	-123.90	1.00	-18.40	1.00	-18.40	0.08	-123.90
2000	0.09	-123.00	1.00	-19.20	1.00	-19.20	0.09	-123.00
2050	0.09	-122.20	1.00	-20.00	1.00	-20.00	0.09	-122.20
2100	0.10	-121.90	1.00	-20.70	1.00	-20.70	0.10	-121.90
2150	0.10	-121.50	1.00	-21.40	1.00	-21.40	0.10	-121.50
2200	0.11	-122.20	0.99	-22.20	0.99	-22.20	0.11	-122.20
2250	0.12	-122.80	0.99	-22.90	0.99	-22.90	0.12	-122.80
2300	0.12	-122.50	0.99	-23.50	0.99	-23.50	0.12	-122.50
2350	0.13	-122.30	0.99	-24.20	0.99	-24.20	0.13	-122.30
2400	0.13	-123.30	0.99	-25.00	0.99	-25.00	0.13	-123.30
2450	0.14	-124.40	0.99	-25.80	0.99	-25.80	0.14	-124.40
2500	0.14	-124.40	0.99	-26.50	0.99	-26.50	0.14	-124.40
2550	0.15	-124.40	0.98	-27.20	0.98	-27.20	0.15	-124.40
2600	0.16	-125.00	0.98	-27.90	0.98	-27.90	0.16	-125.00
2650	0.17	-125.60	0.98	-28.60	0.98	-28.60	0.17	-125.60
2700	0.17	-125.90	0.98	-29.20	0.98	-29.20	0.17	-125.90
2750	0.17	-126.10	0.98	-29.90	0.98	-29.90	0.17	-126.10
2800	0.18	-126.60	0.98	-30.60	0.98	-30.60	0.18	-126.60
2850	0.19	-127.10	0.98	-31.20	0.98	-31.20	0.19	-127.10
2900	0.19	-127.80	0.98	-32.10	0.98	-32.10	0.19	-127.80
2950	0.20	-128.60	0.98	-33.00	0.98	-33.00	0.20	-128.60
3000	0.20	-128.60	0.97	-33.60	0.97	-33.60	0.20	-128.60
3050	0.21	-128.70	0.97	-34.20	0.97	-34.20	0.21	-128.70
3100	0.22	-129.90	0.97	-35.00	0.97	-35.00	0.22	-129.90
3150	0.22	-131.10	0.97	-35.80	0.97	-35.80	0.22	-131.10
3200	0.22	-130.80	0.97	-36.40	0.97	-36.40	0.22	-130.80
3250	0.23	-130.60	0.97	-37.00	0.97	-37.00	0.23	-130.60
3300	0.23	-131.40	0.97	-37.80	0.97	-37.80	0.23	-131.40
3350	0.24	-132.30	0.97	-38.50	0.97	-38.50	0.24	-132.30
3400	0.25	-132.70	0.96	-39.20	0.96	-39.20	0.25	-132.70
3450	0.25	-133.20	0.96	-39.90	0.96	-39.90	0.25	-133.20
3500	0.25	-133.70	0.96	-40.70	0.96	-40.70	0.25	-133.70
3550	0.25	-134.10	0.96	-41.40	0.96	-41.40	0.25	-134.10
3600	0.26	-134.40	0.96	-42.10	0.96	-42.10	0.26	-134.40
3650	0.27	-134.60	0.96	-42.80	0.96	-42.80	0.27	-134.60
3700	0.27	-135.70	0.95	-43.70	0.95	-43.70	0.27	-135.70
3750	0.27	-136.70	0.95	-44.70	0.95	-44.70	0.27	-136.70
3800	0.27	-135.20	0.94	-44.70	0.94	-44.70	0.27	-135.20
3850	0.26	-133.80	0.94	-44.70	0.94	-44.70	0.26	-133.80
3900	0.27	-133.80	0.94	-45.90	0.94	-45.90	0.27	-133.80
3950	0.28	-133.80	0.95	-47.00	0.95	-47.00	0.28	-133.80
4000	0.29	-133.80	0.95	-47.70	0.95	-47.70	0.29	-133.80
4050	0.30	-133.70	0.94	-48.50	0.94	-48.50	0.30	-133.70
4100	0.30	-134.00	0.94	-49.30	0.94	-49.30	0.30	-134.00
4150	0.31	-134.30	0.94	-50.10	0.94	-50.10	0.31	-134.30
4200	0.31	-134.90	0.94	-51.00	0.94	-51.00	0.31	-134.90
4250	0.32	-135.50	0.94	-51.90	0.94	-51.90	0.32	-135.50
4300	0.33	-135.90	0.93	-52.60	0.93	-52.60	0.33	-135.90
4350	0.33	-136.30	0.93	-53.30	0.93	-53.30	0.33	-136.30
4400	0.34	-137.10	0.93	-54.20	0.93	-54.20	0.34	-137.10
4450	0.35	-138.00	0.92	-55.20	0.92	-55.20	0.35	-138.00
4500	0.36	-138.50	0.92	-56.20	0.92	-56.20	0.36	-138.50
4550	0.37	-139.10	0.92	-57.10	0.92	-57.10	0.37	-139.10
4600	0.38	-140.70	0.91	-58.20	0.91	-58.20	0.38	-140.70
4650	0.39	-142.30	0.91	-59.40	0.91	-59.40	0.39	-142.30
4700	0.40	-143.30	0.90	-60.30	0.90	-60.30	0.40	-143.30
4750	0.41	-144.30	0.89	-61.10	0.89	-61.10	0.41	-144.30
4800	0.42	-145.60	0.89	-62.10	0.89	-62.10	0.42	-145.60
4850	0.43	-146.90	0.88	-63.00	0.88	-63.00	0.43	-146.90
4900	0.44	-148.60	0.88	-64.20	0.88	-64.20	0.44	-148.60
4950	0.45	-150.20	0.87	-65.40	0.87	-65.40	0.45	-150.20
5000	0.46	-151.90	0.86	-66.50	0.86	-66.50	0.46	-151.90
5050	0.47	-153.60	0.84	-67.50	0.84	-67.50	0.47	-153.60
5100	0.49	-155.30	0.83	-68.70	0.83	-68.70	0.49	-155.30
5150	0.50	-157.10	0.83	-69.80	0.83	-69.80	0.50	-157.10
5200	0.52	-159.10	0.81	-71.10	0.81	-71.10	0.52	-159.10
5250	0.54	-161.20	0.80	-72.50	0.80	-72.50	0.54	-161.20
5300	0.56	-164.00	0.78	-74.20	0.78	-74.20	0.56	-164.00
5350	0.57	-166.90	0.76	-76.00	0.76	-76.00	0.57	-166.90
5400	0.60	-169.60	0.73	-77.60	0.73	-77.60	0.60	-169.60
5450	0.62	-172.40	0.70	-79.30	0.70	-79.30	0.62	-172.40
5500	0.64	3.40	0.65	-81.00	0.65	-81.00	0.64	3.40
5550	0.67	179.20	0.61	-82.70	0.61	-82.70	0.67	179.20
5600	0.69	173.40	0.54	-82.80	0.54	-82.80	0.69	173.40
5650	0.71	167.60	0.47	-82.80	0.47	-82.80	0.71	167.60
5700	0.71	158.90	0.40	-71.50	0.40	-71.50	0.71	158.90
5750	0.71	150.30	0.32	-60.30	0.32	-60.30	0.71	150.30
5800	0.64	139.90	0.40	-44.50	0.40	-44.50	0.64	139.90
5850	0.57	129.50	0.48	-28.70	0.48	-28.70	0.57	129.50
5900	0.46	124.40	0.61	-31.10	0.61	-31.10	0.46	124.40
5950	0.35	119.30	0.73	-33.50	0.73	-33.50	0.35	119.30
6000	0.28	128.00	0.79	-38.40	0.79	-38.40	0.28	128.00
6050	0.20	136.60	0.86	-43.30	0.86	-43.30	0.20	136.60
6100	0.19	152.70	0.88	-47.00	0.88	-47.00	0.19	152.70
6150	0.19	168.80	0.90	-50.80	0.90	-50.80	0.19	168.80
6200	0.21	-4.00	0.91	-53.70	0.91	-53.70	0.21	-4.00
6250	0.23	-176.90	0.91	-56.60	0.91	-56.60	0.23	-176.90
6300	0.26	-174.30	0.91	-58.70	0.91	-58.70	0.26	-174.30
6350	0.28	-171.70	0.91	-60.80	0.91	-60.80	0.28	-171.70
6400	0.30	-170.90	0.91	-62.50	0.91	-62.50	0.30	-170.90
6450	0.32	-170.10	0.90	-64.20	0.90	-64.20	0.32	-170.10
6500	0.34	-170.20	0.90	-65.70	0.90	-65.70	0.34	-170.20
6550	0.35	-170.40	0.90	-67.20	0.90	-67.20	0.35	-170.40
6600	0.37	-171.00	0.89	-68.50	0.89	-68.50	0.37	-171.00
6650	0.38	-171.70	0.89	-69.70	0.89	-69.70	0.38	-171.70
6700	0.39	-172.20	0.89	-70.70	0.89	-70.70	0.39	-172.20
6750	0.40	-172.80	0.88	-71.70	0.88	-71.70	0.40	-172.80
6800	0.41	-173.90	0.88	-72.90	0.88	-72.90	0.41	-173.90
6850	0.42	-175.10	0.88	-74.10	0.88	-74.10	0.42	-175.10
6900	0.43	-175.70	0.88	-75.00	0.88	-75.00	0.43	-175.70
6950	0.43	-176.30	0.87	-76.00	0.87	-76.00	0.43	-176.30
7000	0.44	-177.80	0.87	-77.10	0.87	-77.10	0.44	-177.80
7050	0.45	-179.20	0.87	-78.30	0.87	-78.30	0.45	-179.20
7100	0.46	-0.10	0.87	-79.20	0.87	-79.20	0.46	-0.10
7150	0.46	179.00	0.86	-80.00	0.86	-80.00	0.46	179.00
7200	0.47	178.00	0.86	-81.20	0.86	-81.20	0.47	178.00
7250	0.49	177.10	0.86	-82.40	0.86	-82.40	0.49	177.10
7300	0.49	175.90	0.85	-83.40	0.85	-83.40	0.49	175.90
7350	0.50	174.60	0.85	-84.40	0.85	-84.40	0.50	174.60
7400	0.50	174.00	0.84	-85.40	0.84	-85.40	0.50	174.00
7450	0.51	173.30	0.84	-86.30	0.84	-86.30	0.51	173.30
7500	0.52	172.00	0.83	-87.60	0.83	-87.60	0.52	172.00
7550	0.52	170.60	0.83	-88.80	0.83	-88.80	0.52	170.60
7600	0.53	169.90	0.82	-89.70	0.82	-89.70	0.53	169.90
7650	0.53	169.30	0.82	-90.60	0.82	-90.60	0.53	169.30
7700	0.54	168.20	0.81	-91.80	0.81	-91.80	0.54	168.20
7750	0.55	167.20	0.81	-93.00	0.81	-93.00	0.55	167.20
7800	0.55	165.50	0.80	-94.30	0.80	-94.30	0.55	165.50
7850	0.56	163.90	0.79	-95.70	0.79	-95.70	0.56	163.90
7900	0.57	162.90	0.79	-96.80	0.79	-96.80	0.57	162.90
7950	0.57	162.00	0.78	-98.00	0.78	-98.00	0.57	162.00
8000	0.58	160.20	0.77	-99.30	0.77	-99.30	0.58	160.20
8050	0.59	158.40	0.76	-100.60	0.76	-100.60	0.59	158.40
8100	0.60	156.80	0.75	-102.10	0.75	-102.10	0.60	156.80
8150	0.61	155.10	0.74	-103.60	0.74	-103.60	0.61	155.10
8200	0.62	153.20	0.73	-105.00	0.73	-105.00	0.62	153.20
8250	0.63	151.40	0.71	-106.30	0.71	-106.30	0.63	151.40
8300	0.64	149.20	0.69	-107.60	0.69	-107.60	0.64	149.20
8350	0.64	147.10	0.67	-108.80	0.67	-108.80	0.64	147.10
8400	0.64	145.40	0.66	-108.90	0.66	-108.90	0.64	145.40
8450	0.63	143.80	0.64	-108.90	0.64	-108.90	0.63	143.80
8500	0.64	143.80	0.64	-110.10	0.64	-110.10	0.64	143.80
8550	0.64	143.90	0.64	-111.30	0.64	-111.30	0.64	143.90
8600	0.66	142.70	0.63	-113.40	0.63	-113.40	0.66	142.70
8650	0.68	141.50	0.62	-115.40	0.62	-115.40	0.68	141.50
8700	0.70	140.10	0.59	-117.40	0.59	-117.40	0.70	140.10
8750	0.71	138.70	0.57	-119.30	0.57	-119.30	0.71	138.70
8800	0.73	136.50	0.55	-120.70	0.55	-120.70	0.73	136.50
8850	0.75	134.30	0.53	-122.10	0.53	-122.10	0.75	134.30
8900	0.76	132.60	0.51	-123.80	0.51	-123.80	0.76	132.60
8950	0.77	130.90	0.48	-125.60	0.48	-125.60	0.77	130.90
9000	0.79	129.10	0.45	-126.80	0.45	-126.80	0.79	129.10
9050	0.80	127.40	0.43	-128.00	0.43	-128.00	0.80	127.40
9100	0.82	125.40	0.40	-128.90	0.40	-128.90	0.82	125.40
9150	0.84	123.30	0.37	-129.80	0.37	-129.80	0.84	123.30
9200	0.84	120.40	0.34	-130.60	0.34	-130.60	0.84	120.40
9250	0.84	117.40	0.31	-131.30	0.31	-131.30	0.84	117.40
9300	0.84	116.30	0.27	-129.60	0.27	-129.60	0.84	116.30
9350	0.84	115.20	0.24	-127.90	0.24	-127.90	0.84	115.20
9400	0.84	112.60	0.21	-124.00	0.21	-124.00	0.84	112.60
9450	0.85	110.00	0.18	-120.10	0.18	-120.10	0.85	110.00
9500	0.84	108.20	0.16	-110.40	0.16	-110.40	0.84	108.20
9550	0.83	106.50	0.14	-100.70	0.14	-100.70	0.83	106.50
9600	0.83	104.60	0.14	-87.20	0.14	-87.20	0.83	104.60
9650	0.84	102.60	0.14	-73.70	0.14	-73.70	0.84	102.60
9700	0.82	100.50	0.16	-63.90	0.16	-63.90	0.82	100.50
9750	0.81	98.50	0.18	-54.10	0.18	-54.10	0.81	98.50
9800	0.80	97.30	0.21	-49.20	0.21	-49.20	0.80	97.30
9850	0.79	96.10	0.24	-44.20	0.24	-44.20	0.79	96.10
9900	0.79	93.80	0.27	-42.70	0.27	-42.70	0.79	93.80
9950	0.78	91.40	0.31	-41.30	0.31	-41.30	0.78	91.40
10000	0.76	89.10	0.34	-41.00	0.34	-41.00	0.76	89.10
10050	0.73	86.70	0.37	-40.70	0.37	-40.70	0.73	86.70
10100	0.72	85.00	0.41	-41.60	0.41	-41.60	0.72	85.00
10150	0.71	83.20	0.46	-42.40	0.46	-42.40	0.71	83.20
10200	0.68	80.20	0.49	-44.40	0.49	-44.40	0.68	80.20
10250	0.64	77.30	0.53	-46.30	0.53	-46.30	0.64	77.30
10300	0.61	74.90	0.56	-48.90	0.56	-48.90	0.61	74.90
10350	0.57	72.60	0.60	-51.40	0.60	-51.40	0.57	72.60
10400	0.53	70.20	0.63	-54.20	0.63	-54.20	0.53	70.20
10450	0.48	67.70	0.67	-56.90	0.67	-56.90	0.48	67.70
10500	0.43	66.30	0.70	-60.40	0.70	-60.40	0.43	66.30
10550	0.39	64.80	0.73	-63.90	0.73	-63.90	0.39	64.80
10600	0.34	65.60	0.75	-67.00	0.75	-67.00	0.34	65.60
10650	0.30	66.30	0.77	-70.20	0.77	-70.20	0.30	66.30
10700	0.26	71.80	0.79	-74.00	0.79	-74.00	0.26	71.80
10750	0.21	77.20	0.80	-77.80	0.80	-77.80	0.21	77.20
10800	0.20	91.10	0.81	-81.20	0.81	-81.20	0.20	91.10
10850	0.18	104.90	0.81	-84.60	0.81	-84.60	0.18	104.90
10900	0.20	115.60	0.81	-88.30	0.81	-88.30	0.20	115.60
10950	0.22	126.20	0.80	-92.00	0.80	-92.00	0.22	126.20
11000	0.26	132.20	0.80	-95.50	0.80	-95.50	0.26	132.20
11050	0.30	138.10	0.79	-99.00	0.79	-99.00	0.30	138.10
11100	0.35	137.70	0.77	-102.30	0.77	-102.30	0.35	137.70
11150	0.39	137.30	0.75	-105.60	0.75	-105.60	0.39	137.30
11200	0.43	136.10	0.73	-108.70	0.73	-108.70	0.43	136.10
11250	0.47	135.00	0.71	-111.80	0.71	-111.80	0.47	135.00
11300	0.52	132.70	0.68	-114.50	0.68	-114.50	0.52	132.70
11350	0.56	130.50	0.65	-117.30	0.65	-117.30	0.56	130.50
11400	0.59	127.60	0.62	-120.20	0.62	-120.20	0.59	127.60
11450	0.62	124.60	0.58	-123.10	0.58	-123.10	0.62	124.60
11500	0.65	121.70	0.55	-125.10	0.55	-125.10	0.65	121.70
11550	0.69	118.80	0.51	-127.00	0.51	-127.00	0.69	118.80
11600	0.71	115.80	0.47	-129.00	0.47	-129.00	0.71	115.80
11650	0.74	112.70	0.44	-131.00	0.44	-131.00	0.74	112.70
11700	0.76	109.80	0.40	-131.70	0.40	-131.70	0.76	109.80
11750	0.78	106.90	0.36	-132.40	0.36	-132.40	0.78	106.90
11800	0.80	104.30	0.32	-131.40	0.32	-131.40	0.80	104.30
11850	0.82	101.60	0.28	-130.30	0.28	-130.30	0.82	101.60
11900	0.83	99.00	0.25	-126.70	0.25	-126.70	0.83	99.00
11950	0.84	96.40	0.21	-123.20	0.21	-123.20	0.84	96.40
12000	0.85	94.10	0.19	-113.30	0.19	-113.30	0.85	94.10
12050	0.85	91.90	0.17	-103.30	0.17	-103.30	0.85	91.90
12100	0.86	88.70	0.17	-90.80	0.17	-90.80	0.86	88.70
12150	0.86	85.50	0.17	-78.30	0.17	-78.30	0.86	85.50
12200	0.86	83.00	0.19	-68.90	0.19	-68.90	0.86	83.00
12250	0.85	80.50	0.21	-59.60	0.21	-59.60	0.85	80.50
12300	0.83	78.30	0.24	-55.70	0.24	-55.70	0.83	78.30
12350	0.82	76.10	0.28	-51.80	0.28	-51.80	0.82	76.10
12400	0.81	72.70	0.31	-51.40	0.31	-51.40	0.81	72.70
12450	0.80	69.30	0.35	-51.00	0.35	-51.00	0.80	69.30
12500	0.78	67.20	0.39	-51.80	0.39	-51.80	0.78	67.20
12550	0.76	65.10	0.42	-52.60	0.42	-52.60	0.76	65.10
12600	0.74	63.20	0.45	-54.70	0.45	-54.70	0.74	63.20
12650	0.71	61.20	0.48	-56.90	0.48	-56.90	0.71	61.20
12700	0.69	59.90	0.50	-59.10	0.50	-59.10	0.69	59.90
12750	0.67	58.60	0.53	-61.40	0.53	-61.40	0.67	58.60
12800	0.66	58.10	0.53	-63.10	0.53	-63.10	0.66	58.10
12850	0.65	57.60	0.53	-64.90	0.53	-64.90	0.65	57.60
12900	0.65	56.40	0.55	-64.70	0.55	-64.70	0.65	56.40
12950	0.66	55.10	0.56	-64.50	0.56	-64.50	0.66	55.10
13000	0.65	53.00	0.58	-65.00	0.58	-65.00	0.65	53.00
13050	0.64	50.90	0.60	-65.40	0.60	-65.40	0.64	50.90
13100	0.62	48.80	0.62	-66.50	0.62	-66.50	0.62	48.80
13150	0.61	46.70	0.65	-67.60	0.65	-67.60	0.61	46.70
13200	0.60	44.90	0.67	-68.90	0.67	-68.90	0.60	44.90
13250	0.59	43.10	0.68	-70.10	0.68	-70.10	0.59	43.10
13300	0.56	43.00	0.70	-72.10	0.70	-72.10	0.56	43.00
13350	0.53	42.80	0.71	-74.10	0.71	-74.10	0.53	42.80
13400	0.53	40.00	0.72	-75.50	0.72	-75.50	0.53	40.00
13450	0.54	37.10	0.74	-77.00	0.74	-77.00	0.54	37.10
13500	0.52	35.50	0.75	-78.50	0.75	-78.50	0.52	35.50
13550	0.51	33.80	0.75	-79.90	0.75	-79.90	0.51	33.80
13600	0.50	32.20	0.76	-81.50	0.76	-81.50	0.50	32.20
13650	0.50	30.50	0.77	-83.10	0.77	-83.10	0.50	30.50
13700	0.49	28.40	0.78	-84.10	0.78	-84.10	0.49	28.40
13750	0.48	26.30	0.79	-85.20	0.79	-85.20	0.48	26.30
13800	0.47	23.90	0.79	-86.40	0.79	-86.40	0.47	23.90
13850	0.46	21.50	0.79	-87.60	0.79	-87.60	0.46	21.50
13900	0.46	19.00	0.80	-88.60	0.80	-88.60	0.46	19.00
13950	0.46	16.40	0.81	-89.60	0.81	-89.60	0.46	16.40
14000	0.45	13.90	0.82	-90.70	0.82	-90.70	0.45	13.90
14050	0.44	11.40	0.82	-91.70	0.82	-91.70	0.44	11.40
14100	0.44	9.00	0.83	-92.70	0.83	-92.70	0.44	9.00
14150	0.43	6.60	0.84	-93.70	0.84	-93.70	0.43	6.60
14200	0.42	4.20	0.84	-94.80	0.84	-94.80	0.42	4.20
14250	0.42	1.80	0.84	-95.80	0.84	-95.80	0.42	1.80
14300	0.41	-0.10	0.85	-96.80	0.85	-96.80	0.41	-0.10
14350	0.40	-1.90	0.85	-97.80	0.85	-97.80	0.40	-1.90
14400	0.40	-3.90	0.86	-98.90	0.86	-98.90	0.40	-3.90
14450	0.39	-5.80	0.86	-99.90	0.86	-99.90	0.39	-5.80
14500	0.38	-6.80	0.86	-100.70	0.86	-100.70	0.38	-6.80
14550	0.37	-7.80	0.87	-101.40	0.87	-101.40	0.37	-7.80
14600	0.36	-8.80	0.87	-102.50	0.87	-102.50	0.36	-8.80
14650	0.35	-9.70	0.87	-103.50	0.87	-103.50	0.35	-9.70
14700	0.34	-11.00	0.88	-104.60	0.88	-104.60	0.34	-11.00
14750	0.33	-12.40	0.88	-105.60	0.88	-105.60	0.33	-12.40
14800	0.32	-12.40	0.88	-106.80	0.88	-106.80	0.32	-12.40
14850	0.31	-12.40	0.88	-107.90	0.88	-107.90	0.31	-12.40
14900	0.30	-11.90	0.89	-108.90	0.89	-108.90	0.30	-11.90
14950	0.28	-11.40	0.89	-109.90	0.89	-109.90	0.28	-11.40
15000	0.27	-11.70	0.89	-111.30	0.89	-111.30	0.27	-11.70
15050	0.26	-12.00	0.89	-112.70	0.89	-112.70	0.26	-12.00
15100	0.25	-10.80	0.89	-113.70	0.89	-113.70	0.25	-10.80
15150	0.24	-9.50	0.90	-114.70	0.90	-114.70	0.24	-9.50
15200	0.23	-7.80	0.90	-116.00	0.90	-116.00	0.23	-7.80
15250	0.22	-6.10	0.90	-117.20	0.90	-117.20	0.22	-6.10
15300	0.21	-4.40	0.89	-118.90	0.89	-118.90	0.21	-4.40
15350	0.20	-2.70	0.89	-120.60	0.89	-120.60	0.20	-2.70
15400	0.20	1.90	0.88	-122.10	0.88	-122.10	0.20	1.90
15450	0.19	6.50	0.87	-123.60	0.87	-123.60	0.19	6.50
15500	0.19	12.50	0.86	-125.30	0.86	-125.30	0.19	12.50
15550	0.20	18.60	0.84	-127.00	0.84	-127.00	0.20	18.60
15600	0.21	25.50	0.82	-128.70	0.82	-128.70	0.21	25.50
15650	0.22	32.30	0.80	-130.50	0.80	-130.50	0.22	32.30
15700	0.26	35.20	0.76	-132.00	0.76	-132.00	0.26	35.20
15750	0.29	38.10	0.73	-133.60	0.73	-133.60	0.29	38.10
15800	0.33	39.30	0.68	-133.40	0.68	-133.40	0.33	39.30
15850	0.36	40.40	0.64	-133.10	0.64	-133.10	0.36	40.40
15900	0.41	36.60	0.60	-130.50	0.60	-130.50	0.41	36.60
15950	0.46	32.80	0.56	-127.90	0.56	-127.90	0.46	32.80
16000	0.47	29.60	0.55	-123.00	0.55	-123.00	0.47	29.60
16050	0.48	26.40	0.55	-118.10	0.55	-118.10	0.48	26.40
16100	0.49	22.80	0.57	-115.20	0.57	-115.20	0.49	22.80
16150	0.49	19.20	0.59	-112.40	0.59	-112.40	0.49	19.20
16200	0.47	15.90	0.62	-111.40	0.62	-111.40	0.47	15.90
16250	0.46	12.50	0.64	-110.40	0.64	-110.40	0.46	12.50
16300	0.43	11.20	0.67	-110.70	0.67	-110.70	0.43	11.20
16350	0.40	9.80	0.69	-111.00	0.69	-111.00	0.40	9.80
16400	0.40	9.60	0.70	-111.70	0.70	-111.70	0.40	9.60
16450	0.39	9.40	0.71	-112.30	0.71	-112.30	0.39	9.40
16500	0.38	7.00	0.71	-111.70	0.71	-111.70	0.38	7.00
16550	0.37	4.60	0.72	-111.10	0.72	-111.10	0.37	4.60
16600	0.36	1.30	0.75	-110.80	0.75	-110.80	0.36	1.30
16650	0.36	-2.00	0.77	-110.50	0.77	-110.50	0.36	-2.00
16700	0.34	-6.70	0.80	-111.30	0.80	-111.30	0.34	-6.70
16750	0.32	-11.40	0.83	-112.10	0.83	-112.10	0.32	-11.40
16800	0.29	-15.10	0.85	-113.40	0.85	-113.40	0.29	-15.10
16850	0.27	-18.70	0.86	-114.70	0.86	-114.70	0.27	-18.70
16900	0.25	-20.70	0.88	-116.10	0.88	-116.10	0.25	-20.70
16950	0.23	-22.70	0.89	-117.60	0.89	-117.60	0.23	-22.70
17000	0.20	-23.50	0.90	-119.00	0.90	-119.00	0.20	-23.50
17050	0.17	-24.30	0.91	-120.50	0.91	-120.50	0.17	-24.30
17100	0.16	-19.90	0.91	-121.90	0.91	-121.90	0.16	-19.90
17150	0.14	-15.40	0.91	-123.40	0.91	-123.40	0.14	-15.40
17200	0.13	-6.00	0.91	-124.40	0.91	-124.40	0.13	-6.00
17250	0.12	3.40	0.91	-125.40	0.91	-125.40	0.12	3.40
17300	0.12	15.10	0.91	-126.30	0.91	-126.30	0.12	15.10
17350	0.12	26.70	0.90	-127.20	0.90	-127.20	0.12	26.70
17400	0.14	27.60	0.90	-127.30	0.90	-127.30	0.14	27.60
17450	0.15	28.50	0.90	-127.50	0.90	-127.50	0.15	28.50
17500	0.15	30.80	0.91	-128.10	0.91	-128.10	0.15	30.80
17550	0.16	33.00	0.92	-128.60	0.92	-128.60	0.16	33.00
17600	0.16	35.60	0.92	-129.40	0.92	-129.40	0.16	35.60
17650	0.17	38.10	0.93	-130.30	0.93	-130.30	0.17	38.10
17700	0.17	40.30	0.94	-131.10	0.94	-131.10	0.17	40.30
17750	0.16	42.40	0.94	-131.90	0.94	-131.90	0.16	42.40
17800	0.16	44.00	0.94	-132.90	0.94	-132.90	0.16	44.00
17850	0.16	45.50	0.95	-133.90	0.95	-133.90	0.16	45.50
17900	0.16	46.00	0.95	-134.70	0.95	-134.70	0.16	46.00
17950	0.16	46.50	0.95	-135.40	0.95	-135.40	0.16	46.50
18000	0.15	46.30	0.95	-136.40	0.95	-136.40	0.15	46.30
18050	0.15	46.10	0.95	-137.30	0.95	-137.30	0.15	46.10
18100	0.14	44.00	0.95	-138.00	0.95	-138.00	0.14	44.00
18150	0.14	41.90	0.95	-138.70	0.95	-138.70	0.14	41.90
18200	0.13	37.90	0.95	-139.60	0.95	-139.60	0.13	37.90
18250	0.13	33.90	0.95	-140.40	0.95	-140.40	0.13	33.90
18300	0.13	29.40	0.95	-141.10	0.95	-141.10	0.13	29.40
18350	0.13	24.90	0.96	-141.80	0.96	-141.80	0.13	24.90
18400	0.13	20.90	0.95	-142.50	0.95	-142.50	0.13	20.90
18450	0.13	16.90	0.95	-143.20	0.95	-143.20	0.13	16.90
18500	0.13	14.30	0.96	-143.80	0.96	-143.80	0.13	14.30
18550	0.13	11.80	0.96	-144.40	0.96	-144.40	0.13	11.80
18600	0.13	8.90	0.96	-145.10	0.96	-145.10	0.13	8.90
