#	mhz	s	ma	r	50			
50	0.01	84.90	1.00	0.40	1.00	0.40	0.01	84.90
100	0.03	79.70	1.00	-0.40	1.00	-0.40	0.03	79.70
150	0.04	74.40	0.99	-1.20	0.99	-1.20	0.04	74.40
200	0.05	77.50	0.99	-1.90	0.99	-1.90	0.05	77.50
250	0.06	80.50	0.99	-2.60	0.99	-2.60	0.06	80.50
300	0.07	80.80	0.99	-3.40	0.99	-3.40	0.07	80.80
350	0.08	81.10	0.99	-4.30	0.99	-4.30	0.08	81.10
400	0.09	80.20	0.99	-5.20	0.99	-5.20	0.09	80.20
450	0.11	79.30	0.99	-6.10	0.99	-6.10	0.11	79.30
500	0.13	79.00	0.99	-7.20	0.99	-7.20	0.13	79.00
550	0.15	78.60	0.98	-8.40	0.98	-8.40	0.15	78.60
600	0.16	77.70	0.98	-9.20	0.98	-9.20	0.16	77.70
650	0.17	76.80	0.98	-9.90	0.98	-9.90	0.17	76.80
700	0.18	76.40	0.98	-10.80	0.98	-10.80	0.18	76.40
750	0.19	76.00	0.97	-11.60	0.97	-11.60	0.19	76.00
800	0.21	75.10	0.97	-12.40	0.97	-12.40	0.21	75.10
850	0.22	74.20	0.97	-13.20	0.97	-13.20	0.22	74.20
900	0.23	73.60	0.96	-14.10	0.96	-14.10	0.23	73.60
950	0.24	73.00	0.96	-15.00	0.96	-15.00	0.24	73.00
1000	0.26	71.90	0.96	-15.80	0.96	-15.80	0.26	71.90
1050	0.27	70.90	0.95	-16.60	0.95	-16.60	0.27	70.90
1100	0.28	70.70	0.95	-17.50	0.95	-17.50	0.28	70.70
1150	0.30	70.40	0.95	-18.40	0.95	-18.40	0.30	70.40
1200	0.31	69.70	0.94	-19.20	0.94	-19.20	0.31	69.70
1250	0.32	69.00	0.94	-19.90	0.94	-19.90	0.32	69.00
1300	0.33	68.20	0.93	-20.80	0.93	-20.80	0.33	68.20
1350	0.34	67.40	0.93	-21.70	0.93	-21.70	0.34	67.40
1400	0.35	66.80	0.93	-22.50	0.93	-22.50	0.35	66.80
1450	0.37	66.20	0.92	-23.20	0.92	-23.20	0.37	66.20
1500	0.38	65.30	0.92	-24.10	0.92	-24.10	0.38	65.30
1550	0.39	64.40	0.91	-25.00	0.91	-25.00	0.39	64.40
1600	0.40	63.60	0.90	-25.80	0.90	-25.80	0.40	63.60
1650	0.41	62.80	0.90	-26.60	0.90	-26.60	0.41	62.80
1700	0.43	61.90	0.89	-27.40	0.89	-27.40	0.43	61.90
1750	0.44	61.10	0.89	-28.30	0.89	-28.30	0.44	61.10
1800	0.45	60.50	0.88	-29.10	0.88	-29.10	0.45	60.50
1850	0.46	59.80	0.88	-29.90	0.88	-29.90	0.46	59.80
1900	0.47	58.90	0.87	-30.70	0.87	-30.70	0.47	58.90
1950	0.48	58.00	0.86	-31.60	0.86	-31.60	0.48	58.00
2000	0.49	57.10	0.86	-32.50	0.86	-32.50	0.49	57.10
2050	0.50	56.30	0.85	-33.30	0.85	-33.30	0.50	56.30
2100	0.51	55.70	0.84	-34.00	0.84	-34.00	0.51	55.70
2150	0.52	55.10	0.84	-34.70	0.84	-34.70	0.52	55.10
2200	0.54	53.90	0.83	-35.70	0.83	-35.70	0.54	53.90
2250	0.55	52.70	0.82	-36.60	0.82	-36.60	0.55	52.70
2300	0.56	52.00	0.81	-37.30	0.81	-37.30	0.56	52.00
2350	0.56	51.30	0.80	-38.10	0.80	-38.10	0.56	51.30
2400	0.58	50.50	0.80	-38.90	0.80	-38.90	0.58	50.50
2450	0.59	49.70	0.79	-39.80	0.79	-39.80	0.59	49.70
2500	0.60	48.50	0.78	-40.80	0.78	-40.80	0.60	48.50
2550	0.61	47.30	0.77	-41.80	0.77	-41.80	0.61	47.30
2600	0.62	46.40	0.76	-42.50	0.76	-42.50	0.62	46.40
2650	0.63	45.60	0.75	-43.20	0.75	-43.20	0.63	45.60
2700	0.65	44.70	0.75	-44.20	0.75	-44.20	0.65	44.70
2750	0.66	43.90	0.74	-45.30	0.74	-45.30	0.66	43.90
2800	0.67	42.70	0.73	-45.90	0.73	-45.90	0.67	42.70
2850	0.67	41.50	0.71	-46.50	0.71	-46.50	0.67	41.50
2900	0.69	40.50	0.71	-47.60	0.71	-47.60	0.69	40.50
2950	0.70	39.50	0.70	-48.70	0.70	-48.70	0.70	39.50
3000	0.71	38.60	0.69	-49.50	0.69	-49.50	0.71	38.60
3050	0.72	37.60	0.68	-50.30	0.68	-50.30	0.72	37.60
3100	0.73	36.20	0.66	-51.40	0.66	-51.40	0.73	36.20
3150	0.74	34.70	0.65	-52.50	0.65	-52.50	0.74	34.70
3200	0.75	33.80	0.64	-53.20	0.64	-53.20	0.75	33.80
3250	0.75	32.90	0.63	-53.90	0.63	-53.90	0.75	32.90
3300	0.77	31.80	0.62	-54.90	0.62	-54.90	0.77	31.80
3350	0.78	30.70	0.60	-55.90	0.60	-55.90	0.78	30.70
3400	0.79	29.50	0.59	-56.80	0.59	-56.80	0.79	29.50
3450	0.80	28.20	0.58	-57.60	0.58	-57.60	0.80	28.20
3500	0.80	27.40	0.57	-58.40	0.57	-58.40	0.80	27.40
3550	0.81	26.50	0.56	-59.10	0.56	-59.10	0.81	26.50
3600	0.82	25.40	0.54	-60.30	0.54	-60.30	0.82	25.40
3650	0.84	24.40	0.53	-61.50	0.53	-61.50	0.84	24.40
3700	0.84	23.20	0.51	-62.20	0.51	-62.20	0.84	23.20
3750	0.85	22.10	0.50	-63.00	0.50	-63.00	0.85	22.10
3800	0.86	21.20	0.48	-64.00	0.48	-64.00	0.86	21.20
3850	0.87	20.20	0.47	-65.00	0.47	-65.00	0.87	20.20
3900	0.87	19.10	0.46	-66.00	0.46	-66.00	0.87	19.10
3950	0.88	18.00	0.44	-67.00	0.44	-67.00	0.88	18.00
4000	0.89	17.10	0.43	-68.00	0.43	-68.00	0.89	17.10
4050	0.89	16.20	0.41	-69.00	0.41	-69.00	0.89	16.20
4100	0.90	15.30	0.40	-70.10	0.40	-70.10	0.90	15.30
4150	0.91	14.40	0.38	-71.10	0.38	-71.10	0.91	14.40
4200	0.92	13.50	0.37	-71.80	0.37	-71.80	0.92	13.50
4250	0.92	12.60	0.35	-72.50	0.35	-72.50	0.92	12.60
4300	0.93	11.60	0.33	-73.50	0.33	-73.50	0.93	11.60
4350	0.93	10.60	0.32	-74.50	0.32	-74.50	0.93	10.60
4400	0.94	9.90	0.30	-75.30	0.30	-75.30	0.94	9.90
4450	0.95	9.20	0.29	-76.00	0.29	-76.00	0.95	9.20
4500	0.94	8.50	0.27	-76.90	0.27	-76.90	0.94	8.50
4550	0.94	7.90	0.25	-77.90	0.25	-77.90	0.94	7.90
4600	0.95	7.10	0.24	-78.40	0.24	-78.40	0.95	7.10
4650	0.96	6.20	0.22	-79.00	0.22	-79.00	0.96	6.20
4700	0.97	5.30	0.21	-79.80	0.21	-79.80	0.97	5.30
4750	0.97	4.40	0.19	-80.60	0.19	-80.60	0.97	4.40
4800	0.97	3.30	0.18	-81.40	0.18	-81.40	0.97	3.30
4850	0.97	2.10	0.16	-82.10	0.16	-82.10	0.97	2.10
4900	0.98	1.90	0.14	-82.10	0.14	-82.10	0.98	1.90
4950	0.98	1.60	0.13	-82.10	0.13	-82.10	0.98	1.60
5000	0.99	0.20	0.11	-82.30	0.11	-82.30	0.99	0.20
5050	0.99	-1.20	0.10	-82.40	0.10	-82.40	0.99	-1.20
5100	0.98	-1.90	0.08	-81.20	0.08	-81.20	0.98	-1.90
5150	0.98	-2.60	0.06	-80.00	0.06	-80.00	0.98	-2.60
5200	0.98	-2.60	0.05	-74.00	0.05	-74.00	0.98	-2.60
5250	0.98	-2.50	0.04	-67.90	0.04	-67.90	0.98	-2.50
5300	0.99	-3.60	0.03	-38.90	0.03	-38.90	0.99	-3.60
5350	1.00	-4.70	0.02	-9.80	0.02	-9.80	1.00	-4.70
5400	0.99	-5.50	0.03	20.20	0.03	20.20	0.99	-5.50
5450	0.98	-6.40	0.03	50.30	0.03	50.30	0.98	-6.40
5500	0.98	-7.10	0.05	56.00	0.05	56.00	0.98	-7.10
5550	0.99	-7.70	0.06	61.80	0.06	61.80	0.99	-7.70
5600	0.98	-8.60	0.08	63.20	0.08	63.20	0.98	-8.60
5650	0.97	-9.50	0.09	64.60	0.09	64.60	0.97	-9.50
5700	0.97	-10.60	0.10	64.90	0.10	64.90	0.97	-10.60
5750	0.97	-11.70	0.12	65.20	0.12	65.20	0.97	-11.70
5800	0.97	-12.10	0.13	65.10	0.13	65.10	0.97	-12.10
5850	0.96	-12.60	0.15	65.10	0.15	65.10	0.96	-12.60
5900	0.96	-13.50	0.16	64.80	0.16	64.80	0.96	-13.50
5950	0.96	-14.40	0.17	64.60	0.17	64.60	0.96	-14.40
6000	0.96	-15.70	0.19	63.80	0.19	63.80	0.96	-15.70
6050	0.95	-17.00	0.20	62.90	0.20	62.90	0.95	-17.00
6100	0.95	-18.40	0.22	62.40	0.22	62.40	0.95	-18.40
6150	0.94	-19.90	0.23	61.90	0.23	61.90	0.94	-19.90
6200	0.94	-21.50	0.24	61.20	0.24	61.20	0.94	-21.50
6250	0.94	-23.10	0.26	60.40	0.26	60.40	0.94	-23.10
6300	0.94	-24.50	0.27	59.80	0.27	59.80	0.94	-24.50
6350	0.94	-26.00	0.28	59.10	0.28	59.10	0.94	-26.00
6400	0.93	-27.50	0.29	58.40	0.29	58.40	0.93	-27.50
6450	0.92	-28.90	0.31	57.80	0.31	57.80	0.92	-28.90
6500	0.92	-30.50	0.32	56.90	0.32	56.90	0.92	-30.50
6550	0.92	-32.10	0.33	56.10	0.33	56.10	0.92	-32.10
6600	0.91	-33.50	0.34	55.60	0.34	55.60	0.91	-33.50
6650	0.90	-34.90	0.35	55.10	0.35	55.10	0.90	-34.90
6700	0.89	-36.40	0.36	54.40	0.36	54.40	0.89	-36.40
6750	0.89	-37.80	0.37	53.70	0.37	53.70	0.89	-37.80
6800	0.89	-39.30	0.38	53.00	0.38	53.00	0.89	-39.30
6850	0.89	-40.70	0.40	52.40	0.40	52.40	0.89	-40.70
6900	0.88	-42.30	0.40	51.60	0.40	51.60	0.88	-42.30
6950	0.87	-43.80	0.41	50.80	0.41	50.80	0.87	-43.80
7000	0.87	-44.60	0.42	50.30	0.42	50.30	0.87	-44.60
7050	0.87	-45.50	0.44	49.70	0.44	49.70	0.87	-45.50
7100	0.86	-46.90	0.44	49.00	0.44	49.00	0.86	-46.90
7150	0.85	-48.30	0.45	48.20	0.45	48.20	0.85	-48.30
7200	0.85	-48.80	0.46	47.90	0.46	47.90	0.85	-48.80
7250	0.84	-49.30	0.47	47.50	0.47	47.50	0.84	-49.30
7300	0.84	-50.70	0.48	46.70	0.48	46.70	0.84	-50.70
7350	0.84	-52.10	0.50	45.90	0.50	45.90	0.84	-52.10
7400	0.83	-53.30	0.50	45.10	0.50	45.10	0.83	-53.30
7450	0.81	-54.40	0.51	44.40	0.51	44.40	0.81	-54.40
7500	0.82	-55.30	0.52	43.70	0.52	43.70	0.82	-55.30
7550	0.82	-56.20	0.53	43.10	0.53	43.10	0.82	-56.20
7600	0.81	-57.10	0.54	42.10	0.54	42.10	0.81	-57.10
7650	0.80	-58.10	0.55	41.20	0.55	41.20	0.80	-58.10
7700	0.80	-58.70	0.56	40.80	0.56	40.80	0.80	-58.70
7750	0.79	-59.40	0.56	40.30	0.56	40.30	0.79	-59.40
7800	0.79	-59.50	0.57	39.60	0.57	39.60	0.79	-59.50
7850	0.78	-59.70	0.58	39.00	0.58	39.00	0.78	-59.70
7900	0.77	-60.50	0.59	38.30	0.59	38.30	0.77	-60.50
7950	0.77	-61.30	0.60	37.70	0.60	37.70	0.77	-61.30
8000	0.76	-61.90	0.61	36.90	0.61	36.90	0.76	-61.90
8050	0.75	-62.40	0.61	36.20	0.61	36.20	0.75	-62.40
8100	0.74	-62.60	0.62	35.80	0.62	35.80	0.74	-62.60
8150	0.73	-62.80	0.63	35.50	0.63	35.50	0.73	-62.80
8200	0.72	-63.20	0.64	34.70	0.64	34.70	0.72	-63.20
8250	0.72	-63.50	0.65	33.90	0.65	33.90	0.72	-63.50
8300	0.70	-63.80	0.66	33.40	0.66	33.40	0.70	-63.80
8350	0.69	-64.10	0.67	32.80	0.67	32.80	0.69	-64.10
8400	0.69	-64.70	0.68	31.90	0.68	31.90	0.69	-64.70
8450	0.68	-65.30	0.69	31.00	0.69	31.00	0.68	-65.30
8500	0.67	-65.40	0.69	30.40	0.69	30.40	0.67	-65.40
8550	0.66	-65.60	0.70	29.80	0.70	29.80	0.66	-65.60
8600	0.65	-66.10	0.71	28.90	0.71	28.90	0.65	-66.10
8650	0.65	-66.50	0.72	28.10	0.72	28.10	0.65	-66.50
8700	0.63	-67.00	0.72	27.00	0.72	27.00	0.63	-67.00
8750	0.62	-67.40	0.73	25.90	0.73	25.90	0.62	-67.40
8800	0.61	-67.80	0.73	25.40	0.73	25.40	0.61	-67.80
8850	0.60	-68.20	0.73	24.90	0.73	24.90	0.60	-68.20
8900	0.60	-68.10	0.74	24.30	0.74	24.30	0.60	-68.10
8950	0.59	-67.90	0.74	23.70	0.74	23.70	0.59	-67.90
9000	0.58	-68.30	0.75	23.40	0.75	23.40	0.58	-68.30
9050	0.58	-68.70	0.75	23.00	0.75	23.00	0.58	-68.70
9100	0.57	-69.20	0.76	22.50	0.76	22.50	0.57	-69.20
9150	0.56	-69.60	0.76	22.10	0.76	22.10	0.56	-69.60
9200	0.56	-70.30	0.77	21.90	0.77	21.90	0.56	-70.30
9250	0.55	-71.00	0.78	21.70	0.78	21.70	0.55	-71.00
9300	0.54	-71.20	0.79	20.90	0.79	20.90	0.54	-71.20
9350	0.53	-71.40	0.80	20.20	0.80	20.20	0.53	-71.40
9400	0.52	-71.90	0.80	19.80	0.80	19.80	0.52	-71.90
9450	0.52	-72.30	0.81	19.50	0.81	19.50	0.52	-72.30
9500	0.51	-72.50	0.81	18.70	0.81	18.70	0.51	-72.50
9550	0.50	-72.80	0.82	17.80	0.82	17.80	0.50	-72.80
9600	0.49	-72.90	0.83	17.40	0.83	17.40	0.49	-72.90
9650	0.48	-73.00	0.83	17.00	0.83	17.00	0.48	-73.00
9700	0.47	-73.30	0.84	16.50	0.84	16.50	0.47	-73.30
9750	0.46	-73.60	0.85	15.90	0.85	15.90	0.46	-73.60
9800	0.45	-73.50	0.85	15.30	0.85	15.30	0.45	-73.50
9850	0.44	-73.50	0.86	14.70	0.86	14.70	0.44	-73.50
9900	0.44	-73.10	0.86	14.20	0.86	14.20	0.44	-73.10
9950	0.43	-72.80	0.86	13.80	0.86	13.80	0.43	-72.80
10000	0.42	-73.20	0.87	13.30	0.87	13.30	0.42	-73.20
10050	0.41	-73.60	0.87	12.80	0.87	12.80	0.41	-73.60
10100	0.41	-73.00	0.88	12.10	0.88	12.10	0.41	-73.00
10150	0.40	-72.30	0.88	11.50	0.88	11.50	0.40	-72.30
10200	0.39	-72.00	0.88	11.10	0.88	11.10	0.39	-72.00
10250	0.38	-71.60	0.88	10.80	0.88	10.80	0.38	-71.60
10300	0.38	-71.20	0.89	10.40	0.89	10.40	0.38	-71.20
10350	0.38	-70.80	0.89	10.00	0.89	10.00	0.38	-70.80
10400	0.37	-70.70	0.90	9.20	0.90	9.20	0.37	-70.70
10450	0.36	-70.60	0.90	8.50	0.90	8.50	0.36	-70.60
10500	0.36	-69.50	0.90	8.20	0.90	8.20	0.36	-69.50
10550	0.36	-68.40	0.90	7.90	0.90	7.90	0.36	-68.40
10600	0.35	-68.00	0.90	7.10	0.90	7.10	0.35	-68.00
10650	0.34	-67.60	0.91	6.40	0.91	6.40	0.34	-67.60
10700	0.33	-66.50	0.91	6.00	0.91	6.00	0.33	-66.50
10750	0.33	-65.30	0.91	5.70	0.91	5.70	0.33	-65.30
10800	0.32	-64.50	0.91	5.20	0.91	5.20	0.32	-64.50
10850	0.32	-63.70	0.91	4.70	0.91	4.70	0.32	-63.70
10900	0.31	-64.00	0.92	4.00	0.92	4.00	0.31	-64.00
10950	0.30	-64.30	0.93	3.30	0.93	3.30	0.30	-64.30
11000	0.30	-63.30	0.92	2.90	0.92	2.90	0.30	-63.30
11050	0.29	-62.30	0.92	2.60	0.92	2.60	0.29	-62.30
11100	0.29	-61.90	0.93	2.00	0.93	2.00	0.29	-61.90
11150	0.28	-61.60	0.93	1.50	0.93	1.50	0.28	-61.60
11200	0.28	-61.20	0.93	1.00	0.93	1.00	0.28	-61.20
11250	0.27	-60.80	0.93	0.50	0.93	0.50	0.27	-60.80
11300	0.26	-60.80	0.93	-0.10	0.93	-0.10	0.26	-60.80
11350	0.26	-60.70	0.93	-0.60	0.93	-0.60	0.26	-60.70
11400	0.26	-59.90	0.93	-0.90	0.93	-0.90	0.26	-59.90
11450	0.25	-59.20	0.93	-1.20	0.93	-1.20	0.25	-59.20
11500	0.25	-60.20	0.94	-1.80	0.94	-1.80	0.25	-60.20
11550	0.24	-61.20	0.94	-2.50	0.94	-2.50	0.24	-61.20
11600	0.24	-60.20	0.94	-2.90	0.94	-2.90	0.24	-60.20
11650	0.24	-59.30	0.94	-3.30	0.94	-3.30	0.24	-59.30
11700	0.23	-60.20	0.94	-3.70	0.94	-3.70	0.23	-60.20
11750	0.22	-61.20	0.94	-4.20	0.94	-4.20	0.22	-61.20
11800	0.22	-61.90	0.94	-4.70	0.94	-4.70	0.22	-61.90
11850	0.22	-62.60	0.94	-5.20	0.94	-5.20	0.22	-62.60
11900	0.22	-62.30	0.94	-5.50	0.94	-5.50	0.22	-62.30
11950	0.21	-62.00	0.94	-5.80	0.94	-5.80	0.21	-62.00
12000	0.20	-63.80	0.94	-6.40	0.94	-6.40	0.20	-63.80
12050	0.20	-65.60	0.94	-7.00	0.94	-7.00	0.20	-65.60
12100	0.20	-66.30	0.94	-7.40	0.94	-7.40	0.20	-66.30
12150	0.19	-66.90	0.94	-7.70	0.94	-7.70	0.19	-66.90
12200	0.19	-68.20	0.94	-8.30	0.94	-8.30	0.19	-68.20
12250	0.18	-69.40	0.94	-8.80	0.94	-8.80	0.18	-69.40
12300	0.18	-70.40	0.94	-9.10	0.94	-9.10	0.18	-70.40
12350	0.17	-71.40	0.94	-9.40	0.94	-9.40	0.17	-71.40
12400	0.17	-72.60	0.94	-9.90	0.94	-9.90	0.17	-72.60
12450	0.16	-73.80	0.94	-10.40	0.94	-10.40	0.16	-73.80
12500	0.15	-75.40	0.94	-10.60	0.94	-10.60	0.15	-75.40
12550	0.14	-77.00	0.94	-10.70	0.94	-10.70	0.14	-77.00
12600	0.14	-78.70	0.94	-11.00	0.94	-11.00	0.14	-78.70
12650	0.13	-80.30	0.94	-11.30	0.94	-11.30	0.13	-80.30
12700	0.12	-80.20	0.94	-11.70	0.94	-11.70	0.12	-80.20
12750	0.11	-80.00	0.94	-12.00	0.94	-12.00	0.11	-80.00
12800	0.11	-83.90	0.94	-12.40	0.94	-12.40	0.11	-83.90
12850	0.10	-87.70	0.94	-12.70	0.94	-12.70	0.10	-87.70
12900	0.10	-88.20	0.94	-13.00	0.94	-13.00	0.10	-88.20
12950	0.09	-88.80	0.95	-13.30	0.95	-13.30	0.09	-88.80
13000	0.08	-91.90	0.95	-13.80	0.95	-13.80	0.08	-91.90
13050	0.08	-95.10	0.95	-14.20	0.95	-14.20	0.08	-95.10
13100	0.08	-96.10	0.95	-14.50	0.95	-14.50	0.08	-96.10
13150	0.07	-97.00	0.95	-14.80	0.95	-14.80	0.07	-97.00
13200	0.06	-100.60	0.95	-15.20	0.95	-15.20	0.06	-100.60
13250	0.06	-104.10	0.95	-15.60	0.95	-15.60	0.06	-104.10
13300	0.05	-107.40	0.95	-16.00	0.95	-16.00	0.05	-107.40
13350	0.05	-110.70	0.95	-16.40	0.95	-16.40	0.05	-110.70
13400	0.04	-114.20	0.95	-16.80	0.95	-16.80	0.04	-114.20
13450	0.04	-117.80	0.95	-17.30	0.95	-17.30	0.04	-117.80
13500	0.03	-127.70	0.95	-17.60	0.95	-17.60	0.03	-127.70
13550	0.03	-137.60	0.95	-18.00	0.95	-18.00	0.03	-137.60
13600	0.02	-151.40	0.95	-18.40	0.95	-18.40	0.02	-151.40
13650	0.02	-165.20	0.95	-18.80	0.95	-18.80	0.02	-165.20
13700	0.02	-6.40	0.95	-19.10	0.95	-19.10	0.02	-6.40
13750	0.02	152.30	0.95	-19.40	0.95	-19.40	0.02	152.30
13800	0.03	140.90	0.95	-20.10	0.95	-20.10	0.03	140.90
13850	0.03	129.50	0.95	-20.80	0.95	-20.80	0.03	129.50
13900	0.04	122.00	0.95	-21.10	0.95	-21.10	0.04	122.00
13950	0.04	114.40	0.95	-21.50	0.95	-21.50	0.04	114.40
14000	0.05	111.60	0.95	-21.90	0.95	-21.90	0.05	111.60
14050	0.06	108.80	0.95	-22.30	0.95	-22.30	0.06	108.80
14100	0.06	105.90	0.95	-22.70	0.95	-22.70	0.06	105.90
14150	0.07	102.90	0.95	-23.10	0.95	-23.10	0.07	102.90
14200	0.08	100.90	0.95	-23.50	0.95	-23.50	0.08	100.90
14250	0.08	98.90	0.95	-23.90	0.95	-23.90	0.08	98.90
14300	0.09	97.40	0.95	-24.50	0.95	-24.50	0.09	97.40
14350	0.10	96.00	0.95	-25.10	0.95	-25.10	0.10	96.00
14400	0.10	94.50	0.95	-25.40	0.95	-25.40	0.10	94.50
14450	0.11	92.90	0.95	-25.70	0.95	-25.70	0.11	92.90
14500	0.12	91.30	0.95	-26.40	0.95	-26.40	0.12	91.30
14550	0.13	89.70	0.95	-27.00	0.95	-27.00	0.13	89.70
14600	0.13	87.90	0.95	-27.60	0.95	-27.60	0.13	87.90
14650	0.14	86.00	0.94	-28.10	0.94	-28.10	0.14	86.00
14700	0.14	84.60	0.94	-28.40	0.94	-28.40	0.14	84.60
14750	0.15	83.30	0.94	-28.70	0.94	-28.70	0.15	83.30
14800	0.16	80.80	0.94	-29.30	0.94	-29.30	0.16	80.80
14850	0.17	78.30	0.94	-29.90	0.94	-29.90	0.17	78.30
14900	0.18	78.10	0.94	-30.30	0.94	-30.30	0.18	78.10
14950	0.18	77.80	0.94	-30.70	0.94	-30.70	0.18	77.80
15000	0.19	74.50	0.94	-31.20	0.94	-31.20	0.19	74.50
15050	0.19	71.30	0.94	-31.70	0.94	-31.70	0.19	71.30
15100	0.20	70.60	0.93	-32.20	0.93	-32.20	0.20	70.60
15150	0.21	69.90	0.92	-32.70	0.92	-32.70	0.21	69.90
15200	0.22	67.50	0.92	-33.20	0.92	-33.20	0.22	67.50
15250	0.23	65.10	0.92	-33.80	0.92	-33.80	0.23	65.10
15300	0.24	63.50	0.91	-34.20	0.91	-34.20	0.24	63.50
15350	0.26	61.90	0.91	-34.70	0.91	-34.70	0.26	61.90
15400	0.26	60.30	0.91	-35.20	0.91	-35.20	0.26	60.30
15450	0.27	58.70	0.90	-35.80	0.90	-35.80	0.27	58.70
15500	0.28	57.20	0.89	-36.20	0.89	-36.20	0.28	57.20
15550	0.30	55.70	0.89	-36.60	0.89	-36.60	0.30	55.70
15600	0.31	53.60	0.88	-37.20	0.88	-37.20	0.31	53.60
15650	0.32	51.60	0.88	-37.80	0.88	-37.80	0.32	51.60
15700	0.34	49.40	0.86	-38.30	0.86	-38.30	0.34	49.40
15750	0.36	47.10	0.85	-38.80	0.85	-38.80	0.36	47.10
15800	0.37	44.50	0.84	-39.20	0.84	-39.20	0.37	44.50
15850	0.38	41.90	0.82	-39.60	0.82	-39.60	0.38	41.90
15900	0.40	37.90	0.80	-39.90	0.80	-39.90	0.40	37.90
15950	0.42	33.90	0.78	-40.20	0.78	-40.20	0.42	33.90
16000	0.42	31.20	0.76	-38.60	0.76	-38.60	0.42	31.20
16050	0.42	28.50	0.75	-37.10	0.75	-37.10	0.42	28.50
16100	0.42	24.20	0.74	-35.30	0.74	-35.30	0.42	24.20
16150	0.43	19.90	0.74	-33.40	0.74	-33.40	0.43	19.90
16200	0.41	17.90	0.75	-32.10	0.75	-32.10	0.41	17.90
16250	0.40	15.90	0.77	-30.90	0.77	-30.90	0.40	15.90
16300	0.39	15.10	0.79	-30.70	0.79	-30.70	0.39	15.10
16350	0.38	14.40	0.81	-30.50	0.81	-30.50	0.38	14.40
16400	0.38	14.60	0.81	-31.00	0.81	-31.00	0.38	14.60
16450	0.38	14.90	0.82	-31.60	0.82	-31.60	0.38	14.90
16500	0.38	15.20	0.83	-32.00	0.83	-32.00	0.38	15.20
16550	0.38	15.50	0.84	-32.40	0.84	-32.40	0.38	15.50
16600	0.38	15.70	0.84	-32.90	0.84	-32.90	0.38	15.70
16650	0.38	15.80	0.84	-33.40	0.84	-33.40	0.38	15.80
16700	0.39	16.80	0.85	-33.90	0.85	-33.90	0.39	16.80
16750	0.40	17.80	0.85	-34.50	0.85	-34.50	0.40	17.80
16800	0.40	18.10	0.86	-35.20	0.86	-35.20	0.40	18.10
16850	0.40	18.40	0.86	-35.90	0.86	-35.90	0.40	18.40
16900	0.41	18.60	0.86	-36.50	0.86	-36.50	0.41	18.60
16950	0.42	18.80	0.86	-37.00	0.86	-37.00	0.42	18.80
17000	0.42	19.70	0.86	-37.50	0.86	-37.50	0.42	19.70
17050	0.43	20.60	0.86	-38.10	0.86	-38.10	0.43	20.60
17100	0.43	21.10	0.86	-38.80	0.86	-38.80	0.43	21.10
17150	0.44	21.60	0.85	-39.50	0.85	-39.50	0.44	21.60
17200	0.44	21.90	0.85	-39.80	0.85	-39.80	0.44	21.90
17250	0.44	22.10	0.85	-40.10	0.85	-40.10	0.44	22.10
17300	0.44	22.20	0.85	-40.50	0.85	-40.50	0.44	22.20
17350	0.44	22.30	0.85	-40.90	0.85	-40.90	0.44	22.30
17400	0.45	21.90	0.84	-41.30	0.84	-41.30	0.45	21.90
17450	0.45	21.40	0.84	-41.70	0.84	-41.70	0.45	21.40
17500	0.46	21.70	0.84	-42.10	0.84	-42.10	0.46	21.70
17550	0.46	22.00	0.84	-42.50	0.84	-42.50	0.46	22.00
17600	0.46	22.50	0.84	-43.10	0.84	-43.10	0.46	22.50
17650	0.46	22.90	0.84	-43.70	0.84	-43.70	0.46	22.90
17700	0.46	22.50	0.84	-43.90	0.84	-43.90	0.46	22.50
17750	0.46	22.10	0.84	-44.10	0.84	-44.10	0.46	22.10
17800	0.46	22.10	0.85	-44.80	0.85	-44.80	0.46	22.10
17850	0.46	22.10	0.85	-45.60	0.85	-45.60	0.46	22.10
17900	0.46	22.10	0.84	-46.10	0.84	-46.10	0.46	22.10
17950	0.46	22.10	0.84	-46.60	0.84	-46.60	0.46	22.10
18000	0.47	22.40	0.84	-46.90	0.84	-46.90	0.47	22.40
18050	0.47	22.80	0.84	-47.20	0.84	-47.20	0.47	22.80
18100	0.47	23.00	0.83	-47.70	0.83	-47.70	0.47	23.00
18150	0.47	23.10	0.83	-48.30	0.83	-48.30	0.47	23.10
18200	0.47	23.20	0.83	-48.70	0.83	-48.70	0.47	23.20
18250	0.47	23.20	0.83	-49.20	0.83	-49.20	0.47	23.20
18300	0.47	23.10	0.83	-49.50	0.83	-49.50	0.47	23.10
18350	0.47	23.00	0.83	-49.80	0.83	-49.80	0.47	23.00
18400	0.47	22.60	0.83	-50.40	0.83	-50.40	0.47	22.60
18450	0.47	22.20	0.83	-51.10	0.83	-51.10	0.47	22.20
18500	0.48	23.50	0.83	-51.10	0.83	-51.10	0.48	23.50
18550	0.49	24.80	0.82	-51.10	0.82	-51.10	0.49	24.80
18600	0.49	24.40	0.83	-51.60	0.83	-51.60	0.49	24.40
18650	0.49	24.00	0.83	-52.10	0.83	-52.10	0.49	24.00
18700	0.49	23.50	0.83	-53.10	0.83	-53.10	0.49	23.50
18750	0.49	23.10	0.83	-54.00	0.83	-54.00	0.49	23.10
18800	0.49	23.70	0.82	-54.20	0.82	-54.20	0.49	23.70
18850	0.48	24.20	0.82	-54.40	0.82	-54.40	0.48	24.20
18900	0.49	24.10	0.82	-55.20	0.82	-55.20	0.49	24.10
18950	0.49	23.90	0.82	-55.90	0.82	-55.90	0.49	23.90
19000	0.49	24.20	0.81	-56.20	0.81	-56.20	0.49	24.20
19050	0.49	24.50	0.81	-56.60	0.81	-56.60	0.49	24.50
19100	0.50	24.60	0.81	-56.90	0.81	-56.90	0.50	24.60
19150	0.50	24.70	0.80	-57.30	0.80	-57.30	0.50	24.70
19200	0.50	24.40	0.80	-57.70	0.80	-57.70	0.50	24.40
19250	0.51	24.20	0.80	-58.20	0.80	-58.20	0.51	24.20
19300	0.51	24.60	0.79	-58.30	0.79	-58.30	0.51	24.60
19350	0.52	25.10	0.79	-58.50	0.79	-58.50	0.52	25.10
19400	0.52	24.80	0.79	-59.00	0.79	-59.00	0.52	24.80
