#	mhz	s	ma	r	50
50	0.97316	178.002	0.02354	79.534	0.02354	79.534	0.97316	178.002
70	1.0059	178.113	0.03437	80.982	0.03437	80.982	1.0059	178.113
90	1.00568	176.971	0.043	79.514	0.043	79.514	1.00568	176.971
110	0.99812	176.5	0.05183	79.45	0.05183	79.45	0.99812	176.5
130	0.99733	176.71	0.06157	80.976	0.06157	80.976	0.99733	176.71
150	1.00583	175.692	0.0712	80.143	0.0712	80.143	1.00583	175.692
170	0.99046	175.097	0.07962	79.872	0.07962	79.872	0.99046	175.097
190	0.99337	174.726	0.08935	80.182	0.08935	80.182	0.99337	174.726
210	0.9971	173.967	0.09862	79.889	0.09862	79.889	0.9971	173.967
230	0.99558	173.154	0.1071	79.119	0.1071	79.119	0.99558	173.154
250	0.99415	173.562	0.11593	79.308	0.11593	79.308	0.99415	173.562
270	0.99898	172.618	0.12587	78.884	0.12587	78.884	0.99898	172.618
290	0.99065	171.979	0.13407	78.211	0.13407	78.211	0.99065	171.979
310	0.98491	171.595	0.14249	77.869	0.14249	77.869	0.98491	171.595
330	0.98676	171.177	0.15179	77.752	0.15179	77.752	0.98676	171.177
350	0.99043	170.193	0.16132	77.065	0.16132	77.065	0.99043	170.193
370	0.9763	169.837	0.16833	76.857	0.16833	76.857	0.9763	169.837
390	0.97836	169.359	0.17712	76.425	0.17712	76.425	0.97836	169.359
410	0.98122	168.705	0.1854	75.755	0.1854	75.755	0.98122	168.705
430	0.97838	168.071	0.19268	75.051	0.19268	75.051	0.97838	168.071
450	0.97216	167.899	0.20029	74.732	0.20029	74.732	0.97216	167.899
470	0.9755	167.259	0.20922	73.698	0.20922	73.698	0.9755	167.259
490	0.97857	166.597	0.21836	74.915	0.21836	74.915	0.97857	166.597
510	0.97618	166.119	0.22639	74.637	0.22639	74.637	0.97618	166.119
530	0.96856	165.708	0.23386	72.176	0.23386	72.176	0.96856	165.708
550	0.96138	164.929	0.24317	69.903	0.24317	69.903	0.96138	164.929
570	0.95183	164.213	0.25723	67.964	0.25723	67.964	0.95183	164.213
590	0.94796	163.366	0.27227	66.597	0.27227	66.597	0.94796	163.366
610	0.94413	162.459	0.28787	66.115	0.28787	66.115	0.94413	162.459
630	0.94039	161.65	0.30328	66.401	0.30328	66.401	0.94039	161.65
650	0.94247	161.187	0.31741	66.91	0.31741	66.91	0.94247	161.187
670	0.94471	160.519	0.32209	67.333	0.32209	67.333	0.94471	160.519
690	0.94268	160.378	0.32672	67.599	0.32672	67.599	0.94268	160.378
710	0.94073	160.121	0.33099	67.184	0.33099	67.184	0.94073	160.121
730	0.9373	159.562	0.33508	66.115	0.33508	66.115	0.9373	159.562
750	0.92496	158.979	0.33963	64.967	0.33963	64.967	0.92496	158.979
770	0.92277	158.65	0.35065	63.746	0.35065	63.746	0.92277	158.65
790	0.92178	157.719	0.36426	62.729	0.36426	62.729	0.92178	157.719
810	0.91756	156.878	0.37845	62.149	0.37845	62.149	0.91756	156.878
830	0.91377	156.401	0.39254	62.211	0.39254	62.211	0.91377	156.401
850	0.92211	156.143	0.40718	63.101	0.40718	63.101	0.92211	156.143
870	0.92469	155.436	0.41302	63.111	0.41302	63.111	0.92469	155.436
890	0.92189	155.505	0.41436	63.907	0.41436	63.907	0.92189	155.505
910	0.91893	155.598	0.41522	64.235	0.41522	64.235	0.91893	155.598
930	0.91481	155.427	0.41617	63.677	0.41617	63.677	0.91481	155.427
950	0.90238	155.176	0.41429	62.65	0.41429	62.65	0.90238	155.176
970	0.89735	154.836	0.4197	61.709	0.4197	61.709	0.89735	154.836
990	0.89322	154.235	0.42645	60.595	0.42645	60.595	0.89322	154.235
1010	0.8882	153.441	0.43555	59.659	0.43555	59.659	0.8882	153.441
1030	0.88327	152.664	0.44662	59.062	0.44662	59.062	0.88327	152.664
1050	0.88213	152.254	0.45786	58.778	0.45786	58.778	0.88213	152.254
1070	0.87909	151.733	0.4635	58.509	0.4635	58.509	0.87909	151.733
1090	0.87902	151.495	0.46832	58.673	0.46832	58.673	0.87902	151.495
1110	0.87747	151.227	0.47111	58.625	0.47111	58.625	0.87747	151.227
1130	0.87325	150.983	0.47214	58.159	0.47214	58.159	0.87325	150.983
1150	0.86844	151.182	0.47315	57.506	0.47315	57.506	0.86844	151.182
1170	0.86297	150.574	0.47737	56.507	0.47737	56.507	0.86297	150.574
1190	0.85185	150.08	0.48427	55.396	0.48427	55.396	0.85185	150.08
1210	0.84494	149.594	0.49458	54.491	0.49458	54.491	0.84494	149.594
1230	0.84304	148.904	0.50698	53.767	0.50698	53.767	0.84304	148.904
1250	0.83785	147.691	0.51819	52.855	0.51819	52.855	0.83785	147.691
1270	0.83494	147.658	0.52547	53.002	0.52547	53.002	0.83494	147.658
1290	0.84008	147.17	0.53578	53.053	0.53578	53.053	0.84008	147.17
1310	0.83968	146.716	0.54184	52.939	0.54184	52.939	0.83968	146.716
1330	0.8329	146.528	0.54312	52.735	0.54312	52.735	0.8329	146.528
1350	0.83163	146.588	0.54589	52.662	0.54589	52.662	0.83163	146.588
1370	0.82811	146.307	0.55092	52.025	0.55092	52.025	0.82811	146.307
1390	0.81904	145.882	0.5543	51.336	0.5543	51.336	0.81904	145.882
1410	0.81143	145.529	0.56116	50.677	0.56116	50.677	0.81143	145.529
1430	0.80724	145.206	0.5714	50.052	0.5714	50.052	0.80724	145.206
1450	0.80338	144.618	0.57967	49.381	0.57967	49.381	0.80338	144.618
1470	0.8002	144.242	0.588	49.538	0.588	49.538	0.8002	144.242
1490	0.80008	143.813	0.59407	49.529	0.59407	49.529	0.80008	143.813
1510	0.7981	143.425	0.5985	49.429	0.5985	49.429	0.7981	143.425
1530	0.79422	143.088	0.60114	49.346	0.60114	49.346	0.79422	143.088
1550	0.79322	142.736	0.60113	49.422	0.60113	49.422	0.79322	142.736
1570	0.78677	142.622	0.6034	48.847	0.6034	48.847	0.78677	142.622
1590	0.78162	142.282	0.60594	48.188	0.60594	48.188	0.78162	142.282
1610	0.77694	141.843	0.61091	47.411	0.61091	47.411	0.77694	141.843
1630	0.77265	141.405	0.61852	46.669	0.61852	46.669	0.77265	141.405
1650	0.76936	141.042	0.62699	46.294	0.62699	46.294	0.76936	141.042
1670	0.76709	140.456	0.63391	46.119	0.63391	46.119	0.76709	140.456
1690	0.76399	140.049	0.64041	45.957	0.64041	45.957	0.76399	140.049
1710	0.76193	139.79	0.64404	45.921	0.64404	45.921	0.76193	139.79
1730	0.76172	139.611	0.6456	45.925	0.6456	45.925	0.76172	139.611
1750	0.76312	139.406	0.64917	45.684	0.64917	45.684	0.76312	139.406
1770	0.75693	139.02	0.64623	45.071	0.64623	45.071	0.75693	139.02
1790	0.75054	139.169	0.64874	44.438	0.64874	44.438	0.75054	139.169
1810	0.74645	139.091	0.65448	43.773	0.65448	43.773	0.74645	139.091
1830	0.74173	138.609	0.66109	43.143	0.66109	43.143	0.74173	138.609
1850	0.72805	138.13	0.66613	42.694	0.66613	42.694	0.72805	138.13
1870	0.7266	137.908	0.67295	42.695	0.67295	42.695	0.7266	137.908
1890	0.72314	137.391	0.67928	42.296	0.67928	42.296	0.72314	137.391
1910	0.72186	137.016	0.68331	41.861	0.68331	41.861	0.72186	137.016
1930	0.72281	136.734	0.68507	41.609	0.68507	41.609	0.72281	136.734
1950	0.72187	136.005	0.68645	41.61	0.68645	41.61	0.72187	136.005
1970	0.71357	136.098	0.688	41.141	0.688	41.141	0.71357	136.098
1990	0.70646	135.875	0.69053	40.589	0.69053	40.589	0.70646	135.875
2010	0.7011	135.557	0.69415	39.988	0.69415	39.988	0.7011	135.557
2030	0.69662	135.228	0.69915	39.39	0.69915	39.39	0.69662	135.228
2050	0.6907	134.836	0.70603	38.868	0.70603	38.868	0.6907	134.836
2070	0.68407	134.199	0.7142	38.418	0.7142	38.418	0.68407	134.199
2090	0.67982	133.425	0.71853	38.216	0.71853	38.216	0.67982	133.425
2110	0.67827	132.934	0.72336	38.137	0.72336	38.137	0.67827	132.934
2130	0.6778	132.687	0.72926	37.969	0.72926	37.969	0.6778	132.687
2150	0.67486	132.192	0.73292	37.412	0.73292	37.412	0.67486	132.192
2170	0.67231	132.011	0.73071	37.509	0.73071	37.509	0.67231	132.011
2190	0.67241	131.863	0.73482	37.113	0.73482	37.113	0.67241	131.863
2210	0.66997	131.616	0.73835	36.618	0.73835	36.618	0.66997	131.616
2230	0.66312	131.339	0.74015	36.232	0.74015	36.232	0.66312	131.339
2250	0.6533	131.297	0.7449	35.973	0.7449	35.973	0.6533	131.297
2270	0.65066	130.545	0.75096	35.434	0.75096	35.434	0.65066	130.545
2290	0.64615	130.039	0.75223	35.166	0.75223	35.166	0.64615	130.039
2310	0.64475	129.541	0.75495	35.187	0.75495	35.187	0.64475	129.541
2330	0.64578	128.971	0.76004	35.226	0.76004	35.226	0.64578	128.971
2350	0.64296	128.405	0.76309	34.715	0.76309	34.715	0.64296	128.405
2370	0.64193	128.458	0.76092	34.301	0.76092	34.301	0.64193	128.458
2390	0.6397	128.667	0.7607	34.111	0.7607	34.111	0.6397	128.667
2410	0.63707	128.593	0.76393	33.782	0.76393	33.782	0.63707	128.593
2430	0.63206	128.231	0.76843	33.283	0.76843	33.283	0.63206	128.231
2450	0.61985	128.016	0.76837	32.916	0.76837	32.916	0.61985	128.016
2470	0.61636	127.464	0.77038	32.462	0.77038	32.462	0.61636	127.464
2490	0.61465	126.958	0.77519	32.234	0.77519	32.234	0.61465	126.958
2510	0.61429	126.268	0.77991	31.963	0.77991	31.963	0.61429	126.268
2530	0.61375	125.563	0.7829	31.687	0.7829	31.687	0.61375	125.563
2550	0.61035	125.407	0.78368	31.753	0.78368	31.753	0.61035	125.407
2570	0.61261	125.384	0.7859	31.253	0.7859	31.253	0.61261	125.384
2590	0.61278	125.115	0.78638	30.901	0.78638	30.901	0.61278	125.115
2610	0.60848	124.848	0.78578	30.463	0.78578	30.463	0.60848	124.848
2630	0.6006	124.668	0.787	30.029	0.787	30.029	0.6006	124.668
2650	0.59322	124.503	0.79514	30.011	0.79514	30.011	0.59322	124.503
2670	0.59086	123.927	0.79348	29.394	0.79348	29.394	0.59086	123.927
2690	0.5883	123.158	0.79834	29.006	0.79834	29.006	0.5883	123.158
2710	0.58744	122.531	0.80161	28.803	0.80161	28.803	0.58744	122.531
2730	0.58816	122.242	0.80292	28.569	0.80292	28.569	0.58816	122.242
2750	0.58835	122.35	0.80962	27.91	0.80962	27.91	0.58835	122.35
2770	0.58612	122.583	0.80919	28.145	0.80919	28.145	0.58612	122.583
2790	0.58365	122.43	0.80921	27.879	0.80921	27.879	0.58365	122.43
2810	0.57848	122.294	0.81141	27.641	0.81141	27.641	0.57848	122.294
2830	0.57179	122.167	0.81449	27.486	0.81449	27.486	0.57179	122.167
2850	0.56838	121.63	0.81423	26.993	0.81423	26.993	0.56838	121.63
2870	0.5648	120.878	0.81467	26.582	0.81467	26.582	0.5648	120.878
2890	0.56519	120.445	0.82018	26.439	0.82018	26.439	0.56519	120.445
2910	0.56715	120.223	0.82668	26.299	0.82668	26.299	0.56715	120.223
2930	0.56747	120.082	0.82983	26.048	0.82983	26.048	0.56747	120.082
2950	0.56211	119.869	0.82508	25.727	0.82508	25.727	0.56211	119.869
2970	0.55754	119.583	0.82592	25.575	0.82592	25.575	0.55754	119.583
2990	0.55318	119.239	0.82801	25.638	0.82801	25.638	0.55318	119.239
3010	0.54926	118.805	0.82893	25.389	0.82893	25.389	0.54926	118.805
3030	0.54568	118.262	0.82798	24.843	0.82798	24.843	0.54568	118.262
3050	0.54197	117.599	0.82612	24.556	0.82612	24.556	0.54197	117.599
3070	0.54146	117.431	0.83219	24.797	0.83219	24.797	0.54146	117.431
3090	0.54231	117.08	0.83601	24.312	0.83601	24.312	0.54231	117.08
3110	0.54087	116.735	0.8366	23.763	0.8366	23.763	0.54087	116.735
3130	0.53736	116.626	0.8361	23.535	0.8361	23.535	0.53736	116.626
3150	0.53589	117.022	0.83982	23.733	0.83982	23.733	0.53589	117.022
3170	0.53619	115.941	0.84232	23.196	0.84232	23.196	0.53619	115.941
3190	0.53195	115.377	0.84118	22.79	0.84118	22.79	0.53195	115.377
3210	0.52869	115.069	0.84109	22.561	0.84109	22.561	0.52869	115.069
3230	0.52854	114.758	0.84359	22.336	0.84359	22.336	0.52854	114.758
3250	0.5302	114.19	0.84711	21.728	0.84711	21.728	0.5302	114.19
3270	0.53022	114.214	0.84436	21.841	0.84436	21.841	0.53022	114.214
3290	0.52859	114.21	0.84809	21.695	0.84809	21.695	0.52859	114.21
3310	0.52531	114.233	0.85155	21.439	0.85155	21.439	0.52531	114.233
3330	0.52139	114.19	0.85347	21.217	0.85347	21.217	0.52139	114.19
3350	0.51884	113.841	0.85798	21.163	0.85798	21.163	0.51884	113.841
3370	0.51484	113.297	0.85896	20.835	0.85896	20.835	0.51484	113.297
3390	0.51262	112.961	0.8582	20.726	0.8582	20.726	0.51262	112.961
3410	0.51079	112.779	0.85719	20.662	0.85719	20.662	0.51079	112.779
3430	0.5087	112.649	0.85753	20.538	0.85753	20.538	0.5087	112.649
3450	0.50645	112.419	0.86092	20.315	0.86092	20.315	0.50645	112.419
3470	0.50267	111.906	0.86219	19.69	0.86219	19.69	0.50267	111.906
3490	0.49898	111.887	0.86283	19.521	0.86283	19.521	0.49898	111.887
3510	0.49585	111.701	0.8622	19.558	0.8622	19.558	0.49585	111.701
3530	0.49382	111.138	0.86295	19.559	0.86295	19.559	0.49382	111.138
3550	0.49349	110.441	0.87104	19.288	0.87104	19.288	0.49349	110.441
3570	0.49103	110.151	0.86939	18.934	0.86939	18.934	0.49103	110.151
3590	0.48899	109.936	0.8692	18.808	0.8692	18.808	0.48899	109.936
3610	0.48904	109.68	0.87057	18.728	0.87057	18.728	0.48904	109.68
3630	0.48932	109.444	0.87169	18.582	0.87169	18.582	0.48932	109.444
3650	0.48448	109.47	0.86888	18.322	0.86888	18.322	0.48448	109.47
3670	0.48234	109.185	0.87469	18.025	0.87469	18.025	0.48234	109.185
3690	0.4781	108.656	0.877	17.789	0.877	17.789	0.4781	108.656
3710	0.47522	108.269	0.87652	17.638	0.87652	17.638	0.47522	108.269
3730	0.47471	107.964	0.87652	17.481	0.87652	17.481	0.47471	107.964
3750	0.4752	107.242	0.88285	17.116	0.88285	17.116	0.4752	107.242
3770	0.47124	107.177	0.87789	16.919	0.87789	16.919	0.47124	107.177
3790	0.47071	107.191	0.87854	16.765	0.87854	16.765	0.47071	107.191
3810	0.46998	107.062	0.88188	16.643	0.88188	16.643	0.46998	107.062
3830	0.46761	106.772	0.88508	16.476	0.88508	16.476	0.46761	106.772
3850	0.46439	106.5	0.8854	16.121	0.8854	16.121	0.46439	106.5
3870	0.45908	106.315	0.88618	16.044	0.88618	16.044	0.45908	106.315
3890	0.4572	105.858	0.88589	15.812	0.88589	15.812	0.4572	105.858
3910	0.45631	105.494	0.88747	15.569	0.88747	15.569	0.45631	105.494
3930	0.45528	105.267	0.89085	15.377	0.89085	15.377	0.45528	105.267
3950	0.4543	104.901	0.893	15.216	0.893	15.216	0.4543	104.901
3970	0.45385	105.079	0.89332	15.1	0.89332	15.1	0.45385	105.079
3990	0.45273	105.03	0.89382	14.768	0.89382	14.768	0.45273	105.03
4010	0.44977	104.978	0.89613	14.538	0.89613	14.538	0.44977	104.978
4030	0.44516	104.926	0.89875	14.461	0.89875	14.461	0.44516	104.926
4050	0.44043	104.662	0.89705	14.315	0.89705	14.315	0.44043	104.662
4070	0.43678	104.333	0.89705	14.071	0.89705	14.071	0.43678	104.333
4090	0.43449	103.961	0.90021	13.912	0.90021	13.912	0.43449	103.961
4110	0.43357	103.474	0.90405	13.616	0.90405	13.616	0.43357	103.474
4130	0.43285	102.998	0.90472	13.285	0.90472	13.285	0.43285	102.998
4150	0.43001	102.855	0.89695	13.341	0.89695	13.341	0.43001	102.855
4170	0.43085	102.891	0.90316	13.137	0.90316	13.137	0.43085	102.891
4190	0.43164	103.034	0.90802	12.981	0.90802	12.981	0.43164	103.034
4210	0.4286	103.084	0.90854	12.764	0.90854	12.764	0.4286	103.084
4230	0.42232	102.995	0.90595	12.565	0.90595	12.565	0.42232	102.995
4250	0.41774	102.862	0.90566	12.652	0.90566	12.652	0.41774	102.862
4270	0.41242	102.125	0.91012	12.212	0.91012	12.212	0.41242	102.125
4290	0.41102	101.738	0.91029	12.053	0.91029	12.053	0.41102	101.738
4310	0.41127	101.516	0.91169	11.891	0.91169	11.891	0.41127	101.516
4330	0.41102	101.317	0.91439	11.682	0.91439	11.682	0.41102	101.317
4350	0.40827	101.041	0.91296	11.628	0.91296	11.628	0.40827	101.041
4370	0.40882	101.106	0.91345	11.394	0.91345	11.394	0.40882	101.106
4390	0.40785	101.027	0.91704	10.962	0.91704	10.962	0.40785	101.027
4410	0.40432	100.914	0.9193	10.683	0.9193	10.683	0.40432	100.914
4430	0.39908	100.874	0.91932	10.622	0.91932	10.622	0.39908	100.874
4450	0.39493	101.003	0.91964	10.563	0.91964	10.563	0.39493	101.003
4470	0.39204	100.024	0.91887	10.302	0.91887	10.302	0.39204	100.024
4490	0.39229	99.461	0.919	10.104	0.919	10.104	0.39229	99.461
4510	0.39351	99.273	0.9205	9.967	0.9205	9.967	0.39351	99.273
4530	0.39441	99.29	0.92236	9.859	0.92236	9.859	0.39441	99.29
4550	0.39464	99.22	0.92216	9.717	0.92216	9.717	0.39464	99.22
4570	0.39409	99.845	0.92581	9.745	0.92581	9.745	0.39409	99.845
4590	0.38993	99.958	0.92584	9.238	0.92584	9.238	0.38993	99.958
4610	0.38384	100.194	0.9241	8.975	0.9241	8.975	0.38384	100.194
4630	0.37779	100.451	0.92399	9.072	0.92399	9.072	0.37779	100.451
4650	0.37392	99.895	0.93047	8.978	0.93047	8.978	0.37392	99.895
4670	0.37194	98.824	0.93025	8.323	0.93025	8.323	0.37194	98.824
4690	0.37065	98.31	0.93205	8.393	0.93205	8.393	0.37065	98.31
4710	0.37044	98.246	0.93321	8.33	0.93321	8.33	0.37044	98.246
4730	0.37082	98.415	0.93312	8.04	0.93312	8.04	0.37082	98.415
4750	0.37041	98.495	0.93324	8.197	0.93324	8.197	0.37041	98.495
4770	0.37008	98.891	0.94073	7.96	0.94073	7.96	0.37008	98.891
4790	0.36303	98.928	0.93919	7.747	0.93919	7.747	0.36303	98.928
4810	0.35748	98.904	0.9376	7.61	0.9376	7.61	0.35748	98.904
4830	0.35551	98.696	0.9391	7.438	0.9391	7.438	0.35551	98.696
4850	0.35307	97.757	0.94094	6.952	0.94094	6.952	0.35307	97.757
4870	0.35204	97.431	0.94145	6.814	0.94145	6.814	0.35204	97.431
4890	0.35313	97.297	0.941	6.747	0.941	6.747	0.35313	97.297
4910	0.35383	97.329	0.94212	6.739	0.94212	6.739	0.35383	97.329
4930	0.35296	97.575	0.94376	6.677	0.94376	6.677	0.35296	97.575
4950	0.35079	98.152	0.94132	6.347	0.94132	6.347	0.35079	98.152
4970	0.34583	98.069	0.94253	5.945	0.94253	5.945	0.34583	98.069
4990	0.34015	97.958	0.94303	5.854	0.94303	5.854	0.34015	97.958
5010	0.33507	97.809	0.9442	5.895	0.9442	5.895	0.33507	97.809
5030	0.33183	97.497	0.94673	5.84	0.94673	5.84	0.33183	97.497
5050	0.33152	96.775	0.9506	5.42	0.9506	5.42	0.33152	96.775
5070	0.33025	96.37	0.94895	5.308	0.94895	5.308	0.33025	96.37
5090	0.33118	96.816	0.94708	5.45	0.94708	5.45	0.33118	96.816
5110	0.33166	97.318	0.94906	5.298	0.94906	5.298	0.33166	97.318
5130	0.32957	97.596	0.95285	4.852	0.95285	4.852	0.32957	97.596
5150	0.3233	97.891	0.95029	4.664	0.95029	4.664	0.3233	97.891
5170	0.3189	98.337	0.95188	4.574	0.95188	4.574	0.3189	98.337
5190	0.31319	97.774	0.95506	4.397	0.95506	4.397	0.31319	97.774
5210	0.30848	97.003	0.95883	4.009	0.95883	4.009	0.30848	97.003
5230	0.30578	96.471	0.96052	3.661	0.96052	3.661	0.30578	96.471
5250	0.3048	96.268	0.95574	3.984	0.95574	3.984	0.3048	96.268
5270	0.3042	96.339	0.95623	3.859	0.95623	3.859	0.3042	96.339
5290	0.30289	96.466	0.96141	3.646	0.96141	3.646	0.30289	96.466
5310	0.29973	96.964	0.96181	3.491	0.96181	3.491	0.29973	96.964
5330	0.29474	97.517	0.95904	3.366	0.95904	3.366	0.29474	97.517
5350	0.28906	97.187	0.9658	3.072	0.9658	3.072	0.28906	97.187
5370	0.2829	96.987	0.96736	2.647	0.96736	2.647	0.2829	96.987
5390	0.27892	96.556	0.96645	2.569	0.96645	2.569	0.27892	96.556
5410	0.27736	95.944	0.96837	2.549	0.96837	2.549	0.27736	95.944
5430	0.2765	95.41	0.97215	2.481	0.97215	2.481	0.2765	95.41
5450	0.27263	95.428	0.9706	2.433	0.9706	2.433	0.27263	95.428
5470	0.27291	95.883	0.97189	2.009	0.97189	2.009	0.27291	95.883
5490	0.27071	96.042	0.97161	1.829	0.97161	1.829	0.27071	96.042
5510	0.2664	96.463	0.97155	1.692	0.97155	1.692	0.2664	96.463
5530	0.26097	96.961	0.97317	1.511	0.97317	1.511	0.26097	96.961
5550	0.256	96.606	0.97758	1.309	0.97758	1.309	0.256	96.606
5570	0.2499	96.096	0.9765	1.221	0.9765	1.221	0.2499	96.096
5590	0.24665	95.921	0.97571	1.088	0.97571	1.088	0.24665	95.921
5610	0.24525	95.825	0.97767	0.95	0.97767	0.95	0.24525	95.825
5630	0.24405	95.718	0.98099	0.753	0.98099	0.753	0.24405	95.718
5650	0.2408	95.679	0.98043	0.351	0.98043	0.351	0.2408	95.679
5670	0.23671	96.064	0.97839	0.206	0.97839	0.206	0.23671	96.064
5690	0.23134	96.309	0.97938	0.165	0.97938	0.165	0.23134	96.309
5710	0.22628	96.405	0.98112	0.127	0.98112	0.127	0.22628	96.405
5730	0.22157	96.215	0.97875	0.002	0.97875	0.002	0.22157	96.215
5750	0.21574	95.479	0.9648	-0.29	0.9648	-0.29	0.21574	95.479
5770	0.21261	95.706	0.9794	-0.634	0.9794	-0.634	0.21261	95.706
5790	0.2101	95.423	0.98539	-0.479	0.98539	-0.479	0.2101	95.423
5810	0.20732	95.343	0.98805	-0.566	0.98805	-0.566	0.20732	95.343
5830	0.2037	95.543	0.98858	-0.916	0.98858	-0.916	0.2037	95.543
5850	0.19895	95.457	0.98411	-0.835	0.98411	-0.835	0.19895	95.457
5870	0.19606	95.33	0.98662	-1.193	0.98662	-1.193	0.19606	95.33
5890	0.19311	95.453	0.99133	-1.48	0.99133	-1.48	0.19311	95.453
5910	0.1893	95.32	0.99311	-1.737	0.99311	-1.737	0.1893	95.32
5930	0.18501	95.069	0.992	-1.977	0.992	-1.977	0.18501	95.069
5950	0.18174	95.488	0.99315	-2.184	0.99315	-2.184	0.18174	95.488
5970	0.17956	95.339	0.99324	-2.313	0.99324	-2.313	0.17956	95.339
5990	0.17563	95.497	0.99476	-2.167	0.99476	-2.167	0.17563	95.497
6010	0.17193	95.559	0.99409	-2.163	0.99409	-2.163	0.17193	95.559
6030	0.16914	95.456	0.99254	-2.419	0.99254	-2.419	0.16914	95.456
6050	0.1666	95.455	0.99627	-2.753	0.99627	-2.753	0.1666	95.455
6070	0.1626	95.582	0.99587	-2.858	0.99587	-2.858	0.1626	95.582
6090	0.15954	95.574	0.9976	-3.117	0.9976	-3.117	0.15954	95.574
6110	0.1567	95.706	0.99785	-3.257	0.99785	-3.257	0.1567	95.706
6130	0.15354	95.981	0.99635	-3.357	0.99635	-3.357	0.15354	95.981
6150	0.14964	96.131	0.99617	-3.849	0.99617	-3.849	0.14964	96.131
6170	0.14735	96.616	1.00186	-3.663	1.00186	-3.663	0.14735	96.616
