# MHZ S MA R 50

      50  0.00   27.40    1.00    1.10    1.00    1.10    0.00   27.40
     100  0.01   51.00    1.00    1.00    1.00    1.00    0.01   51.00
     150  0.01   74.60    1.00    0.80    1.00    0.80    0.01   74.60
     200  0.01   76.50    1.00    0.40    1.00    0.40    0.01   76.50
     250  0.02   78.40    1.00    0.00    1.00    0.00    0.02   78.40
     300  0.02   78.40    1.00   -0.40    1.00   -0.40    0.02   78.40
     350  0.02   78.40    1.00   -0.80    1.00   -0.80    0.02   78.40
     400  0.03   78.00    1.00   -1.00    1.00   -1.00    0.03   78.00
     450  0.03   77.50    0.99   -1.20    0.99   -1.20    0.03   77.50
     500  0.04   82.90    0.99   -1.70    0.99   -1.70    0.04   82.90
     550  0.05   88.20    0.99   -2.30    0.99   -2.30    0.05   88.20
     600  0.05   88.50    0.99   -2.60    0.99   -2.60    0.05   88.50
     650  0.05   88.90    0.99   -3.00    0.99   -3.00    0.05   88.90
     700  0.05   88.80    0.99   -3.30    0.99   -3.30    0.05   88.80
     750  0.06   88.60    0.99   -3.60    0.99   -3.60    0.06   88.60
     800  0.06   88.00    0.99   -3.90    0.99   -3.90    0.06   88.00
     850  0.06   87.30    0.99   -4.20    0.99   -4.20    0.06   87.30
     900  0.07   87.60    0.99   -4.60    0.99   -4.60    0.07   87.60
     950  0.08   87.90    0.99   -4.90    0.99   -4.90    0.08   87.90
    1000  0.08   87.10    0.99   -5.20    0.99   -5.20    0.08   87.10
    1050  0.08   86.20    0.99   -5.50    0.99   -5.50    0.08   86.20
    1100  0.09   86.30    0.99   -5.90    0.99   -5.90    0.09   86.30
    1150  0.09   86.30    0.99   -6.30    0.99   -6.30    0.09   86.30
    1200  0.09   86.40    0.99   -6.60    0.99   -6.60    0.09   86.40
    1250  0.10   86.40    0.99   -6.90    0.99   -6.90    0.10   86.40
    1300  0.10   86.00    0.99   -7.20    0.99   -7.20    0.10   86.00
    1350  0.11   85.60    0.99   -7.50    0.99   -7.50    0.11   85.60
    1400  0.11   84.90    0.99   -7.80    0.99   -7.80    0.11   84.90
    1450  0.11   84.20    0.99   -8.10    0.99   -8.10    0.11   84.20
    1500  0.12   83.60    0.98   -8.50    0.98   -8.50    0.12   83.60
    1550  0.12   83.00    0.98   -8.80    0.98   -8.80    0.12   83.00
    1600  0.13   82.50    0.98   -9.20    0.98   -9.20    0.13   82.50
    1650  0.13   81.90    0.98   -9.50    0.98   -9.50    0.13   81.90
    1700  0.13   81.80    0.98   -9.80    0.98   -9.80    0.13   81.80
    1750  0.14   81.70    0.98   -10.20   0.98   -10.20   0.14   81.70
    1800  0.14   81.20    0.98   -10.50   0.98   -10.50   0.14   81.20
    1850  0.14   80.70    0.98   -10.70   0.98   -10.70   0.14   80.70
    1900  0.15   79.80    0.98   -11.00   0.98   -11.00   0.15   79.80
    1950  0.15   78.90    0.98   -11.30   0.98   -11.30   0.15   78.90
    2000  0.16   78.40    0.98   -11.70   0.98   -11.70   0.16   78.40
    2050  0.16   78.00    0.98   -12.10   0.98   -12.10   0.16   78.00
    2100  0.16   77.30    0.98   -12.30   0.98   -12.30   0.16   77.30
    2150  0.17   76.60    0.98   -12.50   0.98   -12.50   0.17   76.60
    2200  0.17   76.40    0.98   -12.90   0.98   -12.90   0.17   76.40
    2250  0.18   76.30    0.98   -13.30   0.98   -13.30   0.18   76.30
    2300  0.18   75.70    0.98   -13.50   0.98   -13.50   0.18   75.70
    2350  0.18   75.20    0.97   -13.70   0.97   -13.70   0.18   75.20
    2400  0.19   74.80    0.97   -14.10   0.97   -14.10   0.19   74.80
    2450  0.19   74.40    0.97   -14.40   0.97   -14.40   0.19   74.40
    2500  0.19   74.00    0.97   -14.80   0.97   -14.80   0.19   74.00
    2550  0.20   73.60    0.97   -15.10   0.97   -15.10   0.20   73.60
    2600  0.20   73.10    0.97   -15.30   0.97   -15.30   0.20   73.10
    2650  0.21   72.60    0.97   -15.50   0.97   -15.50   0.21   72.60
    2700  0.21   72.30    0.97   -15.80   0.97   -15.80   0.21   72.30
    2750  0.21   72.00    0.97   -16.10   0.97   -16.10   0.21   72.00
    2800  0.22   71.60    0.97   -16.30   0.97   -16.30   0.22   71.60
    2850  0.22   71.20    0.97   -16.60   0.97   -16.60   0.22   71.20
    2900  0.23   70.80    0.96   -17.10   0.96   -17.10   0.23   70.80
    2950  0.23   70.50    0.96   -17.60   0.96   -17.60   0.23   70.50
    3000  0.23   70.40    0.96   -17.80   0.96   -17.80   0.23   70.40
    3050  0.24   70.20    0.96   -18.00   0.96   -18.00   0.24   70.20
    3100  0.24   69.10    0.96   -18.50   0.96   -18.50   0.24   69.10
    3150  0.25   68.00    0.95   -19.00   0.95   -19.00   0.25   68.00
    3200  0.25   68.10    0.95   -19.10   0.95   -19.10   0.25   68.10
    3250  0.26   68.20    0.95   -19.10   0.95   -19.10   0.26   68.20
    3300  0.26   67.90    0.95   -19.60   0.95   -19.60   0.26   67.90
    3350  0.27   67.60    0.95   -20.10   0.95   -20.10   0.27   67.60
    3400  0.27   67.10    0.95   -20.30   0.95   -20.30   0.27   67.10
    3450  0.27   66.70    0.95   -20.50   0.95   -20.50   0.27   66.70
    3500  0.28   66.60    0.95   -20.70   0.95   -20.70   0.28   66.60
    3550  0.28   66.60    0.95   -21.00   0.95   -21.00   0.28   66.60
    3600  0.29   66.30    0.95   -21.30   0.95   -21.30   0.29   66.30
    3650  0.29   66.10    0.95   -21.70   0.95   -21.70   0.29   66.10
    3700  0.30   65.60    0.94   -22.00   0.94   -22.00   0.30   65.60
    3750  0.30   65.10    0.94   -22.40   0.94   -22.40   0.30   65.10
    3800  0.31   64.70    0.94   -22.60   0.94   -22.60   0.31   64.70
    3850  0.31   64.40    0.94   -22.90   0.94   -22.90   0.31   64.40
    3900  0.32   64.00    0.94   -23.40   0.94   -23.40   0.32   64.00
    3950  0.32   63.70    0.94   -23.90   0.94   -23.90   0.32   63.70
    4000  0.32   63.30    0.94   -24.10   0.94   -24.10   0.32   63.30
    4050  0.33   62.90    0.93   -24.40   0.93   -24.40   0.33   62.90
    4100  0.34   62.40    0.93   -24.80   0.93   -24.80   0.34   62.40
    4150  0.34   62.00    0.93   -25.30   0.93   -25.30   0.34   62.00
    4200  0.35   61.40    0.93   -25.60   0.93   -25.60   0.35   61.40
    4250  0.35   60.90    0.93   -25.90   0.93   -25.90   0.35   60.90
    4300  0.36   60.50    0.92   -26.10   0.92   -26.10   0.36   60.50
    4350  0.36   60.00    0.92   -26.40   0.92   -26.40   0.36   60.00
    4400  0.37   59.40    0.92   -26.80   0.92   -26.80   0.37   59.40
    4450  0.37   58.80    0.92   -27.20   0.92   -27.20   0.37   58.80
    4500  0.38   58.10    0.92   -27.80   0.92   -27.80   0.38   58.10
    4550  0.38   57.40    0.91   -28.40   0.91   -28.40   0.38   57.40
    4600  0.39   56.80    0.91   -28.70   0.91   -28.70   0.39   56.80
    4650  0.39   56.20    0.91   -29.10   0.91   -29.10   0.39   56.20
    4700  0.40   55.80    0.91   -29.40   0.91   -29.40   0.40   55.80
    4750  0.40   55.40    0.90   -29.70   0.90   -29.70   0.40   55.40
    4800  0.40   54.70    0.90   -30.10   0.90   -30.10   0.40   54.70
    4850  0.41   54.00    0.90   -30.60   0.90   -30.60   0.41   54.00
    4900  0.41   53.80    0.90   -30.90   0.90   -30.90   0.41   53.80
    4950  0.42   53.50    0.89   -31.30   0.89   -31.30   0.42   53.50
    5000  0.42   52.70    0.89   -31.70   0.89   -31.70   0.42   52.70
    5050  0.43   52.00    0.89   -32.10   0.89   -32.10   0.43   52.00
    5100  0.43   51.30    0.89   -32.70   0.89   -32.70   0.43   51.30
    5150  0.44   50.70    0.89   -33.20   0.89   -33.20   0.44   50.70
    5200  0.44   50.80    0.88   -33.40   0.88   -33.40   0.44   50.80
    5250  0.44   50.90    0.88   -33.70   0.88   -33.70   0.44   50.90
    5300  0.45   50.30    0.88   -34.00   0.88   -34.00   0.45   50.30
    5350  0.46   49.70    0.88   -34.30   0.88   -34.30   0.46   49.70
    5400  0.46   49.30    0.88   -34.90   0.88   -34.90   0.46   49.30
    5450  0.46   48.90    0.87   -35.60   0.87   -35.60   0.46   48.90
    5500  0.47   48.60    0.87   -35.80   0.87   -35.80   0.47   48.60
    5550  0.48   48.20    0.87   -36.10   0.87   -36.10   0.48   48.20
    5600  0.48   48.00    0.87   -36.70   0.87   -36.70   0.48   48.00
    5650  0.49   47.90    0.87   -37.30   0.87   -37.30   0.49   47.90
    5700  0.49   47.50    0.87   -37.80   0.87   -37.80   0.49   47.50
    5750  0.50   47.10    0.86   -38.40   0.86   -38.40   0.50   47.10
    5800  0.50   46.90    0.86   -38.80   0.86   -38.80   0.50   46.90
    5850  0.51   46.80    0.85   -39.20   0.85   -39.20   0.51   46.80
    5900  0.51   47.10    0.84   -39.50   0.84   -39.50   0.51   47.10
    5950  0.52   47.30    0.84   -39.80   0.84   -39.80   0.52   47.30
    6000  0.52   46.80    0.85   -40.00   0.85   -40.00   0.52   46.80
    6050  0.51   46.30    0.85   -40.20   0.85   -40.20   0.51   46.30
    6100  0.52   46.60    0.84   -40.50   0.84   -40.50   0.52   46.60
    6150  0.52   46.80    0.84   -40.80   0.84   -40.80   0.52   46.80
    6200  0.53   47.10    0.84   -41.20   0.84   -41.20   0.53   47.10
    6250  0.54   47.40    0.83   -41.70   0.83   -41.70   0.54   47.40
    6300  0.54   47.80    0.83   -42.10   0.83   -42.10   0.54   47.80
    6350  0.55   48.30    0.83   -42.40   0.83   -42.40   0.55   48.30
    6400  0.55   48.50    0.82   -42.90   0.82   -42.90   0.55   48.50
    6450  0.55   48.80    0.82   -43.40   0.82   -43.40   0.55   48.80
    6500  0.56   48.70    0.81   -43.80   0.81   -43.80   0.56   48.70
    6550  0.56   48.70    0.81   -44.30   0.81   -44.30   0.56   48.70
    6600  0.57   49.00    0.81   -44.80   0.81   -44.80   0.57   49.00
    6650  0.58   49.30    0.81   -45.40   0.81   -45.40   0.58   49.30
    6700  0.58   49.40    0.80   -45.70   0.80   -45.70   0.58   49.40
    6750  0.58   49.50    0.80   -46.00   0.80   -46.00   0.58   49.50
    6800  0.59   49.40    0.80   -46.30   0.80   -46.30   0.59   49.40
    6850  0.60   49.30    0.79   -46.60   0.79   -46.60   0.60   49.30
    6900  0.60   49.00    0.79   -47.30   0.79   -47.30   0.60   49.00
    6950  0.61   48.60    0.79   -48.00   0.79   -48.00   0.61   48.60
    7000  0.61   48.60    0.78   -48.40   0.78   -48.40   0.61   48.60
    7050  0.62   48.50    0.78   -48.90   0.78   -48.90   0.62   48.50
    7100  0.62   48.20    0.77   -49.40   0.77   -49.40   0.62   48.20
    7150  0.62   47.90    0.77   -49.90   0.77   -49.90   0.62   47.90
    7200  0.63   47.60    0.76   -50.20   0.76   -50.20   0.63   47.60
    7250  0.63   47.30    0.76   -50.60   0.76   -50.60   0.63   47.30
    7300  0.64   46.80    0.75   -50.90   0.75   -50.90   0.64   46.80
    7350  0.65   46.30    0.75   -51.10   0.75   -51.10   0.65   46.30
    7400  0.65   45.90    0.75   -51.70   0.75   -51.70   0.65   45.90
    7450  0.66   45.40    0.74   -52.30   0.74   -52.30   0.66   45.40
    7500  0.66   44.60    0.74   -52.60   0.74   -52.60   0.66   44.60
    7550  0.67   43.90    0.73   -52.80   0.73   -52.80   0.67   43.90
    7600  0.67   43.10    0.73   -53.30   0.73   -53.30   0.67   43.10
    7650  0.68   42.30    0.73   -53.80   0.73   -53.80   0.68   42.30
    7700  0.68   41.00    0.72   -54.30   0.72   -54.30   0.68   41.00
    7750  0.68   39.80    0.71   -54.80   0.71   -54.80   0.68   39.80
    7800  0.69   39.30    0.71   -55.00   0.71   -55.00   0.69   39.30
    7850  0.69   38.70    0.70   -55.30   0.70   -55.30   0.69   38.70
    7900  0.70   37.20    0.70   -55.70   0.70   -55.70   0.70   37.20
    7950  0.70   35.70    0.70   -56.10   0.70   -56.10   0.70   35.70
    8000  0.71   34.60    0.69   -56.50   0.69   -56.50   0.71   34.60
    8050  0.71   33.40    0.69   -57.00   0.69   -57.00   0.71   33.40
    8100  0.71   32.20    0.68   -57.50   0.68   -57.50   0.71   32.20
    8150  0.71   30.90    0.67   -57.90   0.67   -57.90   0.71   30.90
    8200  0.71   29.90    0.67   -58.10   0.67   -58.10   0.71   29.90
    8250  0.72   28.90    0.67   -58.20   0.67   -58.20   0.72   28.90
    8300  0.72   27.80    0.66   -58.60   0.66   -58.60   0.72   27.80
    8350  0.72   26.60    0.65   -58.90   0.65   -58.90   0.72   26.60
    8400  0.73   25.70    0.65   -59.20   0.65   -59.20   0.73   25.70
    8450  0.74   24.70    0.65   -59.50   0.65   -59.50   0.74   24.70
    8500  0.74   23.70    0.64   -59.70   0.64   -59.70   0.74   23.70
    8550  0.73   22.70    0.63   -59.90   0.63   -59.90   0.73   22.70
    8600  0.74   21.70    0.63   -60.20   0.63   -60.20   0.74   21.70
    8650  0.75   20.70    0.63   -60.60   0.63   -60.60   0.75   20.70
    8700  0.76   20.00    0.62   -60.70   0.62   -60.70   0.76   20.00
    8750  0.76   19.30    0.61   -60.80   0.61   -60.80   0.76   19.30
    8800  0.76   18.30    0.61   -60.90   0.61   -60.90   0.76   18.30
    8850  0.76   17.20    0.61   -61.10   0.61   -61.10   0.76   17.20
    8900  0.76   17.30    0.60   -61.20   0.60   -61.20   0.76   17.30
    8950  0.76   17.40    0.60   -61.30   0.60   -61.30   0.76   17.40
    9000  0.77   16.80    0.60   -61.80   0.60   -61.80   0.77   16.80
    9050  0.78   16.20    0.59   -62.30   0.59   -62.30   0.78   16.20
    9100  0.78   15.70    0.59   -62.90   0.59   -62.90   0.78   15.70
    9150  0.79   15.20    0.59   -63.40   0.59   -63.40   0.79   15.20
    9200  0.78   14.50    0.58   -63.80   0.58   -63.80   0.78   14.50
    9250  0.77   13.90    0.57   -64.10   0.57   -64.10   0.77   13.90
    9300  0.78   14.20    0.57   -64.20   0.57   -64.20   0.78   14.20
    9350  0.79   14.60    0.57   -64.30   0.57   -64.30   0.79   14.60
    9400  0.79   13.90    0.56   -64.70   0.56   -64.70   0.79   13.90
    9450  0.79   13.10    0.55   -65.20   0.55   -65.20   0.79   13.10
    9500  0.80   13.40    0.55   -65.40   0.55   -65.40   0.80   13.40
    9550  0.80   13.70    0.55   -65.60   0.55   -65.60   0.80   13.70
    9600  0.81   13.10    0.54   -66.30   0.54   -66.30   0.81   13.10
    9650  0.81   12.60    0.54   -66.90   0.54   -66.90   0.81   12.60
    9700  0.81   12.60    0.53   -67.10   0.53   -67.10   0.81   12.60
    9750  0.82   12.60    0.53   -67.20   0.53   -67.20   0.82   12.60
    9800  0.82   12.50    0.52   -67.70   0.52   -67.70   0.82   12.50
    9850  0.83   12.50    0.52   -68.10   0.52   -68.10   0.83   12.50
    9900  0.84   12.10    0.51   -68.90   0.51   -68.90   0.84   12.10
    9950  0.84   11.70    0.51   -69.70   0.51   -69.70   0.84   11.70
   10000  0.84   11.80    0.50   -69.60   0.50   -69.60   0.84   11.80
   10050  0.85   11.80    0.50   -69.60   0.50   -69.60   0.85   11.80
   10100  0.85   11.60    0.49   -70.30   0.49   -70.30   0.85   11.60
   10150  0.85   11.40    0.49   -71.00   0.49   -71.00   0.85   11.40
   10200  0.86   11.40    0.48   -71.20   0.48   -71.20   0.86   11.40
   10250  0.86   11.40    0.47   -71.50   0.47   -71.50   0.86   11.40
   10300  0.86   10.80    0.47   -71.90   0.47   -71.90   0.86   10.80
   10350  0.87   10.20    0.45   -72.20   0.45   -72.20   0.87   10.20
   10400  0.86   10.30    0.45   -72.40   0.45   -72.40   0.86   10.30
   10450  0.86   10.40    0.45   -72.60   0.45   -72.60   0.86   10.40
   10500  0.87    9.80    0.44   -73.10   0.44   -73.10   0.87    9.80
   10550  0.88    9.20    0.43   -73.70   0.43   -73.70   0.88    9.20
   10600  0.87    8.60    0.43   -74.00   0.43   -74.00   0.87    8.60
   10650  0.87    8.00    0.43   -74.40   0.43   -74.40   0.87    8.00
   10700  0.88    7.80    0.42   -74.90   0.42   -74.90   0.88    7.80
   10750  0.88    7.70    0.41   -75.40   0.41   -75.40   0.88    7.70
   10800  0.89    6.90    0.41   -75.80   0.41   -75.80   0.89    6.90
   10850  0.89    6.20    0.40   -76.10   0.40   -76.10   0.89    6.20
   10900  0.89    5.60    0.40   -76.60   0.40   -76.60   0.89    5.60
   10950  0.90    5.00    0.40   -77.10   0.40   -77.10   0.90    5.00
   11000  0.89    4.00    0.39   -78.40   0.39   -78.40   0.89    4.00
   11050  0.88    2.90    0.38   -79.70   0.38   -79.70   0.88    2.90
   11100  0.89    2.50    0.37   -79.60   0.37   -79.60   0.89    2.50
   11150  0.91    2.00    0.37   -79.60   0.37   -79.60   0.91    2.00
   11200  0.90    1.20    0.36   -80.70   0.36   -80.70   0.90    1.20
   11250  0.90    0.40    0.35   -81.80   0.35   -81.80   0.90    0.40
   11300  0.90   -0.70    0.34   -82.40   0.34   -82.40   0.90   -0.70
   11350  0.90   -1.80    0.34   -83.10   0.34   -83.10   0.90   -1.80
   11400  0.90   -1.60    0.32   -83.30   0.32   -83.30   0.90   -1.60
   11450  0.91   -1.40    0.31   -83.50   0.31   -83.50   0.91   -1.40
   11500  0.91   -2.30    0.31   -84.30   0.31   -84.30   0.91   -2.30
   11550  0.92   -3.20    0.30   -85.10   0.30   -85.10   0.92   -3.20
   11600  0.92   -3.10    0.29   -85.30   0.29   -85.30   0.92   -3.10
   11650  0.93   -3.10    0.28   -85.50   0.28   -85.50   0.93   -3.10
   11700  0.92   -3.60    0.28   -86.20   0.28   -86.20   0.92   -3.60
   11750  0.92   -4.20    0.27   -86.90   0.27   -86.90   0.92   -4.20
   11800  0.94   -4.20    0.26   -87.20   0.26   -87.20   0.94   -4.20
   11850  0.94   -4.30    0.26   -87.50   0.26   -87.50   0.94   -4.30
   11900  0.93   -4.40    0.25   -88.10   0.25   -88.10   0.93   -4.40
   11950  0.91   -4.50    0.24   -88.70   0.24   -88.70   0.91   -4.50
   12000  0.94   -5.20    0.24   -89.50   0.24   -89.50   0.94   -5.20
   12050  0.96   -5.80    0.23   -90.20   0.23   -90.20   0.96   -5.80
   12100  0.94   -6.80    0.22   -91.30   0.22   -91.30   0.94   -6.80
   12150  0.93   -7.80    0.21   -92.30   0.21   -92.30   0.93   -7.80
   12200  0.94   -8.20    0.20   -93.20   0.20   -93.20   0.94   -8.20
   12250  0.94   -8.50    0.20   -94.10   0.20   -94.10   0.94   -8.50
   12300  0.94   -8.40    0.19   -94.70   0.19   -94.70   0.94   -8.40
   12350  0.94   -8.20    0.18   -95.40   0.18   -95.40   0.94   -8.20
   12400  0.94   -9.60    0.17   -97.00   0.17   -97.00   0.94   -9.60
   12450  0.93   -11.10   0.16   -98.60   0.16   -98.60   0.93   -11.10
   12500  0.94   -10.60   0.15   -99.00   0.15   -99.00   0.94   -10.60
   12550  0.95   -10.00   0.14   -99.50   0.14   -99.50   0.95   -10.00
   12600  0.95   -10.50   0.13  -100.40   0.13  -100.40   0.95   -10.50
   12650  0.94   -11.00   0.12  -101.30   0.12  -101.30   0.94   -11.00
   12700  0.95   -11.10   0.11  -101.90   0.11  -101.90   0.95   -11.10
   12750  0.96   -11.30   0.10  -102.60   0.10  -102.60   0.96   -11.30
   12800  0.96   -11.20   0.09  -102.60   0.09  -102.60   0.96   -11.20
   12850  0.96   -11.20   0.08  -102.60   0.08  -102.60   0.96   -11.20
   12900  0.96   -11.70   0.07  -102.90   0.07  -102.90   0.96   -11.70
   12950  0.97   -12.20   0.06  -103.20   0.06  -103.20   0.97   -12.20
   13000  0.97   -12.10   0.05  -101.90   0.05  -101.90   0.97   -12.10
   13050  0.96   -12.00   0.04  -100.70   0.04  -100.70   0.96   -12.00
   13100  0.96   -12.70   0.04   -98.90   0.04   -98.90   0.96   -12.70
   13150  0.96   -13.40   0.03   -97.10   0.03   -97.10   0.96   -13.40
   13200  0.96   -14.00   0.02   -86.70   0.02   -86.70   0.96   -14.00
   13250  0.96   -14.50   0.01   -76.30   0.01   -76.30   0.96   -14.50
   13300  0.93   -13.50   0.01   -19.10   0.01   -19.10   0.93   -13.50
   13350  0.90   -12.40   0.01   38.10    0.01   38.10    0.90   -12.40
   13400  0.92   -14.80   0.02   46.80    0.02   46.80    0.92   -14.80
   13450  0.94   -17.30   0.03   55.50    0.03   55.50    0.94   -17.30
   13500  0.93   -17.80   0.04   57.20    0.04   57.20    0.93   -17.80
   13550  0.92   -18.40   0.05   58.90    0.05   58.90    0.92   -18.40
   13600  0.93   -19.80   0.05   58.70    0.05   58.70    0.93   -19.80
   13650  0.93   -21.10   0.06   58.40    0.06   58.40    0.93   -21.10
   13700  0.93   -21.70   0.07   58.20    0.07   58.20    0.93   -21.70
   13750  0.93   -22.30   0.08   58.00    0.08   58.00    0.93   -22.30
   13800  0.92   -23.60   0.09   57.10    0.09   57.10    0.92   -23.60
   13850  0.92   -25.00   0.09   56.10    0.09   56.10    0.92   -25.00
   13900  0.92   -26.00   0.10   55.50    0.10   55.50    0.92   -26.00
   13950  0.93   -27.10   0.11   54.90    0.11   54.90    0.93   -27.10
   14000  0.92   -27.60   0.12   55.30    0.12   55.30    0.92   -27.60
