# MHZ S MA R 50

      50  0.01   41.40    1.00    1.00    1.00    1.00    0.01   41.40
     100  0.01   60.70    1.00    0.70    1.00    0.70    0.01   60.70
     150  0.02   79.90    1.00    0.40    1.00    0.40    0.02   79.90
     200  0.02   80.80    1.00   -0.10    1.00   -0.10    0.02   80.80
     250  0.03   81.70    1.00   -0.50    1.00   -0.50    0.03   81.70
     300  0.03   81.30    1.00   -1.10    1.00   -1.10    0.03   81.30
     350  0.04   80.90    1.00   -1.60    1.00   -1.60    0.04   80.90
     400  0.05   80.20    1.00   -1.90    1.00   -1.90    0.05   80.20
     450  0.05   79.50    0.99   -2.30    0.99   -2.30    0.05   79.50
     500  0.06   83.90    0.99   -3.00    0.99   -3.00    0.06   83.90
     550  0.07   88.40    0.99   -3.70    0.99   -3.70    0.07   88.40
     600  0.08   88.30    0.99   -4.10    0.99   -4.10    0.08   88.30
     650  0.08   88.20    0.99   -4.60    0.99   -4.60    0.08   88.20
     700  0.09   88.20    0.99   -5.00    0.99   -5.00    0.09   88.20
     750  0.09   88.10    0.99   -5.50    0.99   -5.50    0.09   88.10
     800  0.10   87.20    0.99   -6.00    0.99   -6.00    0.10   87.20
     850  0.10   86.20    0.99   -6.40    0.99   -6.40    0.10   86.20
     900  0.11   86.20    0.99   -6.90    0.99   -6.90    0.11   86.20
     950  0.12   86.10    0.99   -7.30    0.99   -7.30    0.12   86.10
    1000  0.12   85.30    0.99   -7.80    0.99   -7.80    0.12   85.30
    1050  0.13   84.40    0.99   -8.20    0.99   -8.20    0.13   84.40
    1100  0.14   84.30    0.99   -8.70    0.99   -8.70    0.14   84.30
    1150  0.14   84.10    0.98   -9.20    0.98   -9.20    0.14   84.10
    1200  0.15   83.90    0.98   -9.60    0.98   -9.60    0.15   83.90
    1250  0.16   83.60    0.98   -10.10   0.98   -10.10   0.16   83.60
    1300  0.16   83.10    0.98   -10.50   0.98   -10.50   0.16   83.10
    1350  0.17   82.50    0.98   -10.90   0.98   -10.90   0.17   82.50
    1400  0.17   81.80    0.98   -11.30   0.98   -11.30   0.17   81.80
    1450  0.18   81.00    0.98   -11.80   0.98   -11.80   0.18   81.00
    1500  0.18   80.30    0.98   -12.30   0.98   -12.30   0.18   80.30
    1550  0.19   79.70    0.97   -12.80   0.97   -12.80   0.19   79.70
    1600  0.20   78.90    0.97   -13.20   0.97   -13.20   0.20   78.90
    1650  0.20   78.20    0.97   -13.70   0.97   -13.70   0.20   78.20
    1700  0.21   77.90    0.97   -14.20   0.97   -14.20   0.21   77.90
    1750  0.21   77.50    0.97   -14.60   0.97   -14.60   0.21   77.50
    1800  0.22   76.90    0.97   -15.00   0.97   -15.00   0.22   76.90
    1850  0.22   76.20    0.97   -15.40   0.97   -15.40   0.22   76.20
    1900  0.23   75.30    0.97   -15.80   0.97   -15.80   0.23   75.30
    1950  0.23   74.30    0.96   -16.20   0.96   -16.20   0.23   74.30
    2000  0.24   73.60    0.96   -16.70   0.96   -16.70   0.24   73.60
    2050  0.25   72.90    0.96   -17.20   0.96   -17.20   0.25   72.90
    2100  0.25   72.30    0.96   -17.60   0.96   -17.60   0.25   72.30
    2150  0.26   71.60    0.96   -17.90   0.96   -17.90   0.26   71.60
    2200  0.26   71.00    0.96   -18.40   0.96   -18.40   0.26   71.00
    2250  0.27   70.50    0.95   -18.90   0.95   -18.90   0.27   70.50
    2300  0.28   70.00    0.95   -19.20   0.95   -19.20   0.28   70.00
    2350  0.28   69.40    0.95   -19.50   0.95   -19.50   0.28   69.40
    2400  0.29   68.80    0.95   -20.00   0.95   -20.00   0.29   68.80
    2450  0.29   68.20    0.95   -20.50   0.95   -20.50   0.29   68.20
    2500  0.30   67.60    0.94   -21.00   0.94   -21.00   0.30   67.60
    2550  0.31   67.00    0.94   -21.50   0.94   -21.50   0.31   67.00
    2600  0.31   66.50    0.94   -21.80   0.94   -21.80   0.31   66.50
    2650  0.32   65.90    0.94   -22.20   0.94   -22.20   0.32   65.90
    2700  0.32   65.50    0.94   -22.60   0.94   -22.60   0.32   65.50
    2750  0.33   65.00    0.93   -23.00   0.93   -23.00   0.33   65.00
    2800  0.34   64.50    0.93   -23.40   0.93   -23.40   0.34   64.50
    2850  0.34   63.90    0.93   -23.70   0.93   -23.70   0.34   63.90
    2900  0.35   63.40    0.93   -24.40   0.93   -24.40   0.35   63.40
    2950  0.35   62.90    0.93   -25.10   0.93   -25.10   0.35   62.90
    3000  0.36   62.60    0.92   -25.40   0.92   -25.40   0.36   62.60
    3050  0.37   62.30    0.92   -25.80   0.92   -25.80   0.37   62.30
    3100  0.37   61.10    0.92   -26.40   0.92   -26.40   0.37   61.10
    3150  0.38   59.90    0.91   -27.10   0.91   -27.10   0.38   59.90
    3200  0.38   59.90    0.91   -27.30   0.91   -27.30   0.38   59.90
    3250  0.39   59.90    0.91   -27.40   0.91   -27.40   0.39   59.90
    3300  0.40   59.40    0.91   -28.10   0.91   -28.10   0.40   59.40
    3350  0.41   58.90    0.90   -28.80   0.90   -28.80   0.41   58.90
    3400  0.41   58.20    0.90   -29.10   0.90   -29.10   0.41   58.20
    3450  0.42   57.60    0.89   -29.40   0.89   -29.40   0.42   57.60
    3500  0.42   57.30    0.89   -29.80   0.89   -29.80   0.42   57.30
    3550  0.43   57.10    0.89   -30.20   0.89   -30.20   0.43   57.10
    3600  0.44   56.60    0.89   -30.70   0.89   -30.70   0.44   56.60
    3650  0.44   56.10    0.88   -31.30   0.88   -31.30   0.44   56.10
    3700  0.45   55.50    0.88   -31.80   0.88   -31.80   0.45   55.50
    3750  0.46   54.90    0.88   -32.20   0.88   -32.20   0.46   54.90
    3800  0.47   54.30    0.87   -32.70   0.87   -32.70   0.47   54.30
    3850  0.47   53.80    0.87   -33.10   0.87   -33.10   0.47   53.80
    3900  0.48   53.30    0.87   -33.80   0.87   -33.80   0.48   53.30
    3950  0.49   52.70    0.86   -34.40   0.86   -34.40   0.49   52.70
    4000  0.49   52.10    0.86   -34.90   0.86   -34.90   0.49   52.10
    4050  0.50   51.40    0.86   -35.30   0.86   -35.30   0.50   51.40
    4100  0.51   50.80    0.85   -36.00   0.85   -36.00   0.51   50.80
    4150  0.52   50.20    0.85   -36.60   0.85   -36.60   0.52   50.20
    4200  0.52   49.40    0.84   -37.10   0.84   -37.10   0.52   49.40
    4250  0.53   48.60    0.84   -37.50   0.84   -37.50   0.53   48.60
    4300  0.54   47.90    0.83   -38.00   0.83   -38.00   0.54   47.90
    4350  0.55   47.30    0.83   -38.50   0.83   -38.50   0.55   47.30
    4400  0.55   46.40    0.82   -39.10   0.82   -39.10   0.55   46.40
    4450  0.56   45.60    0.82   -39.70   0.82   -39.70   0.56   45.60
    4500  0.57   44.80    0.81   -40.50   0.81   -40.50   0.57   44.80
    4550  0.57   43.90    0.81   -41.30   0.81   -41.30   0.57   43.90
    4600  0.58   43.10    0.80   -41.80   0.80   -41.80   0.58   43.10
    4650  0.59   42.30    0.80   -42.20   0.80   -42.20   0.59   42.30
    4700  0.60   41.60    0.79   -42.80   0.79   -42.80   0.60   41.60
    4750  0.60   40.90    0.79   -43.40   0.79   -43.40   0.60   40.90
    4800  0.61   40.00    0.78   -44.00   0.78   -44.00   0.61   40.00
    4850  0.61   39.10    0.78   -44.70   0.78   -44.70   0.61   39.10
    4900  0.62   38.60    0.77   -45.10   0.77   -45.10   0.62   38.60
    4950  0.63   38.10    0.76   -45.60   0.76   -45.60   0.63   38.10
    5000  0.64   37.00    0.76   -46.30   0.76   -46.30   0.64   37.00
    5050  0.65   36.00    0.76   -47.10   0.76   -47.10   0.65   36.00
    5100  0.65   35.10    0.75   -47.90   0.75   -47.90   0.65   35.10
    5150  0.65   34.30    0.74   -48.70   0.74   -48.70   0.65   34.30
    5200  0.66   34.20    0.73   -49.00   0.73   -49.00   0.66   34.20
    5250  0.66   34.10    0.72   -49.40   0.72   -49.40   0.66   34.10
    5300  0.68   33.30    0.72   -49.90   0.72   -49.90   0.68   33.30
    5350  0.69   32.60    0.72   -50.40   0.72   -50.40   0.69   32.60
    5400  0.69   31.90    0.71   -51.30   0.71   -51.30   0.69   31.90
    5450  0.69   31.30    0.70   -52.20   0.70   -52.20   0.69   31.30
    5500  0.71   30.80    0.70   -52.70   0.70   -52.70   0.71   30.80
    5550  0.72   30.30    0.69   -53.20   0.69   -53.20   0.72   30.30
    5600  0.72   29.80    0.69   -54.00   0.69   -54.00   0.72   29.80
    5650  0.73   29.30    0.68   -54.90   0.68   -54.90   0.73   29.30
    5700  0.73   28.70    0.67   -55.60   0.67   -55.60   0.73   28.70
    5750  0.74   28.00    0.66   -56.40   0.66   -56.40   0.74   28.00
    5800  0.75   27.70    0.65   -57.00   0.65   -57.00   0.75   27.70
    5850  0.75   27.50    0.64   -57.70   0.64   -57.70   0.75   27.50
    5900  0.76   27.50    0.64   -58.20   0.64   -58.20   0.76   27.50
    5950  0.76   27.50    0.63   -58.70   0.63   -58.70   0.76   27.50
    6000  0.76   26.80    0.63   -59.10   0.63   -59.10   0.76   26.80
    6050  0.77   26.00    0.63   -59.60   0.63   -59.60   0.77   26.00
    6100  0.77   26.00    0.62   -60.10   0.62   -60.10   0.77   26.00
    6150  0.78   25.90    0.61   -60.60   0.61   -60.60   0.78   25.90
    6200  0.79   26.00    0.60   -61.30   0.60   -61.30   0.79   26.00
    6250  0.80   26.10    0.60   -62.00   0.60   -62.00   0.80   26.10
    6300  0.80   26.20    0.59   -62.60   0.59   -62.60   0.80   26.20
    6350  0.81   26.20    0.58   -63.20   0.58   -63.20   0.81   26.20
    6400  0.81   26.20    0.57   -63.90   0.57   -63.90   0.81   26.20
    6450  0.81   26.20    0.56   -64.70   0.56   -64.70   0.81   26.20
    6500  0.82   26.00    0.55   -65.40   0.55   -65.40   0.82   26.00
    6550  0.83   25.70    0.54   -66.10   0.54   -66.10   0.83   25.70
    6600  0.84   25.70    0.53   -66.90   0.53   -66.90   0.84   25.70
    6650  0.84   25.80    0.53   -67.70   0.53   -67.70   0.84   25.80
    6700  0.85   25.60    0.52   -68.20   0.52   -68.20   0.85   25.60
    6750  0.85   25.50    0.51   -68.80   0.51   -68.80   0.85   25.50
    6800  0.86   25.40    0.50   -69.20   0.50   -69.20   0.86   25.40
    6850  0.87   25.20    0.49   -69.70   0.49   -69.70   0.87   25.20
    6900  0.87   24.60    0.48   -70.70   0.48   -70.70   0.87   24.60
    6950  0.87   23.90    0.47   -71.70   0.47   -71.70   0.87   23.90
    7000  0.88   23.70    0.46   -72.40   0.46   -72.40   0.88   23.70
    7050  0.88   23.50    0.45   -73.00   0.45   -73.00   0.88   23.50
    7100  0.88   22.90    0.44   -73.80   0.44   -73.80   0.88   22.90
    7150  0.89   22.30    0.43   -74.50   0.43   -74.50   0.89   22.30
    7200  0.89   22.00    0.42   -75.00   0.42   -75.00   0.89   22.00
    7250  0.89   21.70    0.41   -75.50   0.41   -75.50   0.89   21.70
    7300  0.90   21.00    0.40   -75.90   0.40   -75.90   0.90   21.00
    7350  0.91   20.30    0.39   -76.40   0.39   -76.40   0.91   20.30
    7400  0.91   19.60    0.38   -77.20   0.38   -77.20   0.91   19.60
    7450  0.91   18.80    0.37   -78.10   0.37   -78.10   0.91   18.80
    7500  0.92   18.00    0.36   -78.50   0.36   -78.50   0.92   18.00
    7550  0.93   17.10    0.35   -78.80   0.35   -78.80   0.93   17.10
    7600  0.93   16.00    0.34   -79.60   0.34   -79.60   0.93   16.00
    7650  0.93   14.90    0.33   -80.50   0.33   -80.50   0.93   14.90
    7700  0.93   13.60    0.32   -81.10   0.32   -81.10   0.93   13.60
    7750  0.93   12.30    0.31   -81.70   0.31   -81.70   0.93   12.30
    7800  0.93   11.50    0.30   -82.00   0.30   -82.00   0.93   11.50
    7850  0.93   10.70    0.29   -82.40   0.29   -82.40   0.93   10.70
    7900  0.94    9.00    0.28   -83.00   0.28   -83.00   0.94    9.00
    7950  0.95    7.30    0.27   -83.60   0.27   -83.60   0.95    7.30
    8000  0.95    5.90    0.26   -84.30   0.26   -84.30   0.95    5.90
    8050  0.95    4.50    0.25   -84.90   0.25   -84.90   0.95    4.50
    8100  0.95    3.30    0.23   -85.20   0.23   -85.20   0.95    3.30
    8150  0.94    2.00    0.22   -85.50   0.22   -85.50   0.94    2.00
    8200  0.95    0.70    0.21   -85.70   0.21   -85.70   0.95    0.70
    8250  0.95   -0.50    0.20   -85.90   0.20   -85.90   0.95   -0.50
    8300  0.95   -1.70    0.19   -85.90   0.19   -85.90   0.95   -1.70
    8350  0.95   -2.90    0.18   -85.90   0.18   -85.90   0.95   -2.90
    8400  0.95   -4.10    0.17   -85.90   0.17   -85.90   0.95   -4.10
    8450  0.96   -5.40    0.16   -85.90   0.16   -85.90   0.96   -5.40
    8500  0.95   -6.50    0.14   -84.90   0.14   -84.90   0.95   -6.50
    8550  0.95   -7.60    0.13   -84.00   0.13   -84.00   0.95   -7.60
    8600  0.95   -8.80    0.12   -82.30   0.12   -82.30   0.95   -8.80
    8650  0.96   -10.00   0.11   -80.60   0.11   -80.60   0.96   -10.00
    8700  0.96   -10.80   0.10   -76.70   0.10   -76.70   0.96   -10.80
    8750  0.96   -11.70   0.09   -72.80   0.09   -72.80   0.96   -11.70
    8800  0.95   -12.70   0.09   -68.90   0.09   -68.90   0.95   -12.70
    8850  0.95   -13.70   0.08   -65.10   0.08   -65.10   0.95   -13.70
    8900  0.94   -13.80   0.08   -62.20   0.08   -62.20   0.94   -13.80
    8950  0.94   -14.00   0.08   -59.30   0.08   -59.30   0.94   -14.00
    9000  0.95   -14.70   0.07   -56.70   0.07   -56.70   0.95   -14.70
    9050  0.95   -15.40   0.06   -54.00   0.06   -54.00   0.95   -15.40
    9100  0.95   -16.10   0.06   -48.60   0.06   -48.60   0.95   -16.10
    9150  0.95   -16.90   0.05   -43.20   0.05   -43.20   0.95   -16.90
    9200  0.95   -17.60   0.04   -31.70   0.04   -31.70   0.95   -17.60
    9250  0.94   -18.30   0.04   -20.30   0.04   -20.30   0.94   -18.30
    9300  0.94   -18.40   0.04   -4.80    0.04   -4.80    0.94   -18.40
    9350  0.95   -18.60   0.04   10.80    0.04   10.80    0.95   -18.60
    9400  0.95   -19.40   0.05   22.50    0.05   22.50    0.95   -19.40
    9450  0.95   -20.20   0.05   34.20    0.05   34.20    0.95   -20.20
    9500  0.95   -20.40   0.06   40.30    0.06   40.30    0.95   -20.40
    9550  0.95   -20.60   0.07   46.40    0.07   46.40    0.95   -20.60
    9600  0.95   -21.30   0.08   49.50    0.08   49.50    0.95   -21.30
    9650  0.96   -22.00   0.09   52.60    0.09   52.60    0.96   -22.00
    9700  0.95   -22.50   0.10   54.50    0.10   54.50    0.95   -22.50
    9750  0.95   -23.00   0.11   56.30    0.11   56.30    0.95   -23.00
    9800  0.96   -23.30   0.12   57.10    0.12   57.10    0.96   -23.30
    9850  0.96   -23.70   0.13   57.80    0.13   57.80    0.96   -23.70
    9900  0.95   -24.20   0.14   58.10    0.14   58.10    0.95   -24.20
    9950  0.95   -24.80   0.16   58.30    0.16   58.30    0.95   -24.80
   10000  0.95   -25.10   0.17   58.80    0.17   58.80    0.95   -25.10
   10050  0.95   -25.40   0.18   59.30    0.18   59.30    0.95   -25.40
   10100  0.94   -26.10   0.19   58.90    0.19   58.90    0.94   -26.10
   10150  0.94   -26.80   0.20   58.50    0.20   58.50    0.94   -26.80
   10200  0.94   -27.10   0.22   58.40    0.22   58.40    0.94   -27.10
   10250  0.93   -27.40   0.23   58.40    0.23   58.40    0.93   -27.40
   10300  0.93   -28.20   0.24   58.20    0.24   58.20    0.93   -28.20
   10350  0.93   -29.00   0.25   58.00    0.25   58.00    0.93   -29.00
   10400  0.92   -29.90   0.26   57.30    0.26   57.30    0.92   -29.90
   10450  0.91   -30.90   0.28   56.60    0.28   56.60    0.91   -30.90
   10500  0.92   -31.40   0.29   56.20    0.29   56.20    0.92   -31.40
   10550  0.92   -31.90   0.30   55.90    0.30   55.90    0.92   -31.90
   10600  0.91   -33.60   0.31   54.80    0.31   54.80    0.91   -33.60
   10650  0.90   -35.30   0.33   53.70    0.33   53.70    0.90   -35.30
   10700  0.90   -35.50   0.34   53.40    0.34   53.40    0.90   -35.50
   10750  0.90   -35.70   0.35   53.00    0.35   53.00    0.90   -35.70
   10800  0.89   -36.90   0.36   52.30    0.36   52.30    0.89   -36.90
   10850  0.89   -38.20   0.37   51.60    0.37   51.60    0.89   -38.20
   10900  0.89   -39.60   0.39   50.60    0.39   50.60    0.89   -39.60
   10950  0.88   -41.10   0.40   49.60    0.40   49.60    0.88   -41.10
   11000  0.86   -41.80   0.41   48.70    0.41   48.70    0.86   -41.80
   11050  0.84   -42.60   0.41   47.90    0.41   47.90    0.84   -42.60
   11100  0.85   -43.80   0.42   47.30    0.42   47.30    0.85   -43.80
   11150  0.86   -45.10   0.44   46.80    0.44   46.80    0.86   -45.10
   11200  0.85   -45.60   0.44   45.90    0.44   45.90    0.85   -45.60
   11250  0.84   -46.00   0.45   45.00    0.45   45.00    0.84   -46.00
   11300  0.83   -47.50   0.46   44.10    0.46   44.10    0.83   -47.50
   11350  0.83   -48.90   0.47   43.10    0.47   43.10    0.83   -48.90
   11400  0.82   -48.50   0.48   43.00    0.48   43.00    0.82   -48.50
   11450  0.82   -48.10   0.49   43.00    0.49   43.00    0.82   -48.10
   11500  0.81   -49.40   0.50   41.90    0.50   41.90    0.81   -49.40
   11550  0.81   -50.60   0.50   40.80    0.50   40.80    0.81   -50.60
   11600  0.81   -50.70   0.51   40.40    0.51   40.40    0.81   -50.70
   11650  0.81   -50.80   0.52   40.00    0.52   40.00    0.81   -50.80
   11700  0.79   -51.60   0.53   39.20    0.53   39.20    0.79   -51.60
   11750  0.78   -52.40   0.54   38.50    0.54   38.50    0.78   -52.40
   11800  0.78   -53.00   0.55   37.80    0.55   37.80    0.78   -53.00
   11850  0.78   -53.60   0.56   37.10    0.56   37.10    0.78   -53.60
   11900  0.76   -53.80   0.57   36.70    0.57   36.70    0.76   -53.80
   11950  0.74   -54.10   0.57   36.20    0.57   36.20    0.74   -54.10
   12000  0.75   -55.70   0.58   35.00    0.58   35.00    0.75   -55.70
   12050  0.75   -57.40   0.60   33.70    0.60   33.70    0.75   -57.40
   12100  0.74   -58.10   0.60   33.10    0.60   33.10    0.74   -58.10
   12150  0.73   -58.90   0.60   32.60    0.60   32.60    0.73   -58.90
   12200  0.72   -59.80   0.61   31.90    0.61   31.90    0.72   -59.80
   12250  0.71   -60.70   0.62   31.10    0.62   31.10    0.71   -60.70
   12300  0.71   -60.80   0.63   30.60    0.63   30.60    0.71   -60.80
   12350  0.70   -60.90   0.63   30.00    0.63   30.00    0.70   -60.90
   12400  0.69   -62.00   0.63   29.40    0.63   29.40    0.69   -62.00
   12450  0.68   -63.10   0.63   28.90    0.63   28.90    0.68   -63.10
   12500  0.68   -62.70   0.64   28.40    0.64   28.40    0.68   -62.70
   12550  0.68   -62.30   0.66   28.00    0.66   28.00    0.68   -62.30
   12600  0.68   -62.50   0.66   27.60    0.66   27.60    0.68   -62.50
   12650  0.67   -62.70   0.66   27.30    0.66   27.30    0.67   -62.70
   12700  0.67   -62.60   0.67   26.60    0.67   26.60    0.67   -62.60
   12750  0.66   -62.40   0.68   25.90    0.68   25.90    0.66   -62.40
   12800  0.66   -62.20   0.69   25.70    0.69   25.70    0.66   -62.20
   12850  0.65   -62.10   0.69   25.50    0.69   25.50    0.65   -62.10
   12900  0.65   -62.10   0.70   24.70    0.70   24.70    0.65   -62.10
   12950  0.64   -62.10   0.70   23.90    0.70   23.90    0.64   -62.10
   13000  0.64   -62.10   0.71   23.70    0.71   23.70    0.64   -62.10
   13050  0.63   -62.10   0.72   23.50    0.72   23.50    0.63   -62.10
   13100  0.62   -62.30   0.73   22.70    0.73   22.70    0.62   -62.30
   13150  0.61   -62.50   0.73   21.90    0.73   21.90    0.61   -62.50
   13200  0.60   -63.10   0.74   21.50    0.74   21.50    0.60   -63.10
   13250  0.60   -63.70   0.75   21.20    0.75   21.20    0.60   -63.70
   13300  0.57   -62.30   0.75   20.40    0.75   20.40    0.57   -62.30
   13350  0.55   -60.80   0.75   19.60    0.75   19.60    0.55   -60.80
   13400  0.56   -63.00   0.76   18.80    0.76   18.80    0.56   -63.00
   13450  0.56   -65.10   0.76   18.00    0.76   18.00    0.56   -65.10
   13500  0.55   -65.70   0.77   17.50    0.77   17.50    0.55   -65.70
   13550  0.54   -66.30   0.77   17.00    0.77   17.00    0.54   -66.30
   13600  0.53   -67.00   0.77   16.40    0.77   16.40    0.53   -67.00
   13650  0.53   -67.60   0.78   15.80    0.78   15.80    0.53   -67.60
   13700  0.52   -68.10   0.78   15.20    0.78   15.20    0.52   -68.10
   13750  0.52   -68.60   0.79   14.60    0.79   14.60    0.52   -68.60
   13800  0.51   -69.30   0.79   14.10    0.79   14.10    0.51   -69.30
   13850  0.50   -69.90   0.79   13.50    0.79   13.50    0.50   -69.90
   13900  0.50   -70.50   0.80   13.00    0.80   13.00    0.50   -70.50
   13950  0.50   -71.00   0.81   12.40    0.81   12.40    0.50   -71.00
