# MHZ S MA R 50

      50  0.17   73.10    0.96   -8.50    0.96   -8.50    0.17   73.10
     100  0.32   66.00    0.91   -17.20   0.91   -17.20   0.32   66.00
     150  0.46   58.90    0.86   -25.90   0.86   -25.90   0.46   58.90
     200  0.56   52.50    0.80   -32.80   0.80   -32.80   0.56   52.50
     250  0.66   46.10    0.73   -39.60   0.73   -39.60   0.66   46.10
     300  0.72   40.90    0.66   -44.90   0.66   -44.90   0.72   40.90
     350  0.77   35.70    0.60   -50.20   0.60   -50.20   0.77   35.70
     400  0.82   31.50    0.54   -54.30   0.54   -54.30   0.82   31.50
     450  0.86   27.20    0.48   -58.30   0.48   -58.30   0.86   27.20
     500  0.91   26.10    0.42   -63.10   0.42   -63.10   0.91   26.10
     550  0.96   25.00    0.36   -68.00   0.36   -68.00   0.96   25.00
     600  0.96   22.70    0.32   -70.10   0.32   -70.10   0.96   22.70
     650  0.96   20.40    0.28   -72.30   0.28   -72.30   0.96   20.40
     700  0.98   18.90    0.25   -74.50   0.25   -74.50   0.98   18.90
     750  0.99   17.40    0.22   -76.60   0.22   -76.60   0.99   17.40
     800  0.98   15.20    0.19   -78.00   0.19   -78.00   0.98   15.20
     850  0.98   13.00    0.16   -79.30   0.16   -79.30   0.98   13.00
     900  0.99   11.50    0.13   -80.30   0.13   -80.30   0.99   11.50
     950  1.00   10.00    0.11   -81.40   0.11   -81.40   1.00   10.00
    1000  1.00    8.60    0.09   -81.80   0.09   -81.80   1.00    8.60
    1050  1.00    7.10    0.06   -82.10   0.06   -82.10   1.00    7.10
    1100  1.00    5.80    0.04   -79.00   0.04   -79.00   1.00    5.80
    1150  1.00    4.50    0.02   -75.90   0.02   -75.90   1.00    4.50
    1200  1.00    3.50    0.02   -2.00    0.02   -2.00    1.00    3.50
    1250  1.00    2.50    0.02   71.80    0.02   71.80    1.00    2.50
    1300  1.00    0.90    0.04   75.70    0.04   75.70    1.00    0.90
    1350  1.00   -0.80    0.05   79.60    0.05   79.60    1.00   -0.80
    1400  1.00   -1.60    0.07   79.90    0.07   79.90    1.00   -1.60
    1450  1.00   -2.50    0.09   80.20    0.09   80.20    1.00   -2.50
    1500  1.00   -4.00    0.10   79.40    0.10   79.40    1.00   -4.00
    1550  1.00   -5.50    0.12   78.60    0.12   78.60    1.00   -5.50
    1600  0.99   -6.80    0.14   77.80    0.14   77.80    0.99   -6.80
    1650  0.99   -8.10    0.15   77.00    0.15   77.00    0.99   -8.10
    1700  0.99   -9.10    0.17   76.30    0.17   76.30    0.99   -9.10
    1750  0.98   -10.10   0.18   75.50    0.18   75.50    0.98   -10.10
    1800  0.98   -11.50   0.19   74.50    0.19   74.50    0.98   -11.50
    1850  0.98   -12.90   0.21   73.50    0.21   73.50    0.98   -12.90
    1900  0.97   -14.00   0.22   72.80    0.22   72.80    0.97   -14.00
    1950  0.96   -15.20   0.24   72.20    0.24   72.20    0.96   -15.20
    2000  0.96   -16.40   0.25   71.30    0.25   71.30    0.96   -16.40
    2050  0.95   -17.60   0.26   70.40    0.26   70.40    0.95   -17.60
    2100  0.95   -18.50   0.28   69.60    0.28   69.60    0.95   -18.50
    2150  0.95   -19.40   0.29   68.80    0.29   68.80    0.95   -19.40
    2200  0.94   -20.80   0.31   67.90    0.31   67.90    0.94   -20.80
    2250  0.94   -22.20   0.32   66.90    0.32   66.90    0.94   -22.20
    2300  0.93   -23.00   0.33   66.30    0.33   66.30    0.93   -23.00
    2350  0.93   -23.80   0.34   65.70    0.34   65.70    0.93   -23.80
    2400  0.93   -25.10   0.36   64.60    0.36   64.60    0.93   -25.10
    2450  0.92   -26.40   0.37   63.50    0.37   63.50    0.92   -26.40
    2500  0.92   -27.40   0.38   62.60    0.38   62.60    0.92   -27.40
    2550  0.91   -28.40   0.39   61.80    0.39   61.80    0.91   -28.40
    2600  0.90   -29.20   0.40   61.10    0.40   61.10    0.90   -29.20
    2650  0.90   -30.00   0.42   60.40    0.42   60.40    0.90   -30.00
    2700  0.89   -31.10   0.43   59.50    0.43   59.50    0.89   -31.10
    2750  0.89   -32.10   0.44   58.60    0.44   58.60    0.89   -32.10
    2800  0.88   -32.80   0.45   58.10    0.45   58.10    0.88   -32.80
    2850  0.87   -33.50   0.47   57.60    0.47   57.60    0.87   -33.50
    2900  0.87   -34.40   0.47   56.40    0.47   56.40    0.87   -34.40
    2950  0.87   -35.20   0.48   55.30    0.48   55.30    0.87   -35.20
    3000  0.86   -36.00   0.49   54.50    0.49   54.50    0.86   -36.00
    3050  0.85   -36.80   0.50   53.70    0.50   53.70    0.85   -36.80
    3100  0.84   -37.80   0.51   53.00    0.51   53.00    0.84   -37.80
    3150  0.84   -38.80   0.52   52.20    0.52   52.20    0.84   -38.80
    3200  0.83   -39.40   0.53   51.50    0.53   51.50    0.83   -39.40
    3250  0.82   -40.00   0.55   50.70    0.55   50.70    0.82   -40.00
    3300  0.81   -40.70   0.56   49.80    0.56   49.80    0.81   -40.70
    3350  0.81   -41.40   0.57   48.90    0.57   48.90    0.81   -41.40
    3400  0.80   -42.40   0.58   48.20    0.58   48.20    0.80   -42.40
    3450  0.79   -43.30   0.59   47.50    0.59   47.50    0.79   -43.30
    3500  0.78   -44.40   0.60   46.50    0.60   46.50    0.78   -44.40
    3550  0.77   -45.40   0.61   45.40    0.61   45.40    0.77   -45.40
    3600  0.76   -46.10   0.62   44.60    0.62   44.60    0.76   -46.10
    3650  0.75   -46.80   0.63   43.70    0.63   43.70    0.75   -46.80
    3700  0.74   -48.20   0.65   42.50    0.65   42.50    0.74   -48.20
    3750  0.73   -49.50   0.66   41.30    0.66   41.30    0.73   -49.50
    3800  0.71   -50.50   0.67   40.10    0.67   40.10    0.71   -50.50
    3850  0.69   -51.40   0.69   39.00    0.69   39.00    0.69   -51.40
    3900  0.67   -53.00   0.70   37.10    0.70   37.10    0.67   -53.00
    3950  0.65   -54.60   0.71   35.20    0.71   35.20    0.65   -54.60
    4000  0.63   -56.10   0.73   33.20    0.73   33.20    0.63   -56.10
    4050  0.60   -57.60   0.75   31.20    0.75   31.20    0.60   -57.60
    4100  0.55   -59.00   0.76   28.00    0.76   28.00    0.55   -59.00
    4150  0.51   -60.50   0.78   24.90    0.78   24.90    0.51   -60.50
    4200  0.44   -60.10   0.79   19.50    0.79   19.50    0.44   -60.10
    4250  0.36   -59.70   0.81   14.10    0.81   14.10    0.36   -59.70
    4300  0.31   -35.10   0.77    4.40    0.77    4.40    0.31   -35.10
    4350  0.26   -10.50   0.73   -5.30    0.73   -5.30    0.26   -10.50
    4400  0.45   -5.40    0.55   -14.40   0.55   -14.40   0.45   -5.40
    4450  0.64   -0.30    0.38   -23.40   0.38   -23.40   0.64   -0.30
    4500  0.74   -10.00   0.30    3.30    0.30    3.30    0.74   -10.00
    4550  0.83   -19.60   0.21   30.00    0.21   30.00    0.83   -19.60
    4600  0.85   -26.00   0.28   39.90    0.28   39.90    0.85   -26.00
    4650  0.86   -32.30   0.36   49.80    0.36   49.80    0.86   -32.30
    4700  0.85   -35.90   0.40   49.80    0.40   49.80    0.85   -35.90
    4750  0.84   -39.50   0.45   49.70    0.45   49.70    0.84   -39.50
    4800  0.82   -42.10   0.48   48.60    0.48   48.60    0.82   -42.10
    4850  0.81   -44.80   0.51   47.50    0.51   47.50    0.81   -44.80
    4900  0.81   -46.20   0.54   46.70    0.54   46.70    0.81   -46.20
    4950  0.80   -47.70   0.56   45.90    0.56   45.90    0.80   -47.70
    5000  0.79   -49.70   0.57   44.50    0.57   44.50    0.79   -49.70
    5050  0.78   -51.70   0.59   43.10    0.59   43.10    0.78   -51.70
    5100  0.76   -52.60   0.60   42.40    0.60   42.40    0.76   -52.60
    5150  0.75   -53.40   0.61   41.80    0.61   41.80    0.75   -53.40
    5200  0.74   -53.90   0.62   41.40    0.62   41.40    0.74   -53.90
    5250  0.74   -54.50   0.64   41.00    0.64   41.00    0.74   -54.50
    5300  0.74   -55.90   0.65   39.80    0.65   39.80    0.74   -55.90
    5350  0.74   -57.30   0.66   38.50    0.66   38.50    0.74   -57.30
    5400  0.72   -57.80   0.67   37.90    0.67   37.90    0.72   -57.80
    5450  0.71   -58.30   0.67   37.20    0.67   37.20    0.71   -58.30
    5500  0.70   -59.00   0.68   36.50    0.68   36.50    0.70   -59.00
    5550  0.70   -59.60   0.69   35.80    0.69   35.80    0.70   -59.60
    5600  0.69   -60.10   0.70   35.10    0.70   35.10    0.69   -60.10
    5650  0.68   -60.60   0.70   34.30    0.70   34.30    0.68   -60.60
    5700  0.67   -61.10   0.71   33.80    0.71   33.80    0.67   -61.10
    5750  0.67   -61.60   0.71   33.30    0.71   33.30    0.67   -61.60
    5800  0.66   -61.60   0.72   32.70    0.72   32.70    0.66   -61.60
    5850  0.65   -61.50   0.72   32.00    0.72   32.00    0.65   -61.50
    5900  0.65   -61.70   0.73   31.70    0.73   31.70    0.65   -61.70
    5950  0.64   -61.90   0.73   31.30    0.73   31.30    0.64   -61.90
    6000  0.63   -63.20   0.74   30.20    0.74   30.20    0.63   -63.20
    6050  0.62   -64.50   0.75   29.10    0.75   29.10    0.62   -64.50
    6100  0.61   -64.60   0.76   28.80    0.76   28.80    0.61   -64.60
    6150  0.61   -64.70   0.76   28.50    0.76   28.50    0.61   -64.70
    6200  0.60   -64.40   0.77   27.70    0.77   27.70    0.60   -64.40
    6250  0.59   -64.10   0.78   26.90    0.78   26.90    0.59   -64.10
    6300  0.59   -64.40   0.78   26.30    0.78   26.30    0.59   -64.40
    6350  0.58   -64.60   0.79   25.70    0.79   25.70    0.58   -64.60
    6400  0.57   -64.30   0.79   25.00    0.79   25.00    0.57   -64.30
    6450  0.56   -64.00   0.79   24.40    0.79   24.40    0.56   -64.00
    6500  0.56   -64.00   0.80   23.70    0.80   23.70    0.56   -64.00
    6550  0.55   -64.00   0.80   23.00    0.80   23.00    0.55   -64.00
    6600  0.54   -63.80   0.81   22.30    0.81   22.30    0.54   -63.80
    6650  0.53   -63.60   0.81   21.50    0.81   21.50    0.53   -63.60
    6700  0.52   -63.30   0.82   21.00    0.82   21.00    0.52   -63.30
    6750  0.52   -63.00   0.82   20.50    0.82   20.50    0.52   -63.00
    6800  0.51   -63.00   0.83   19.60    0.83   19.60    0.51   -63.00
    6850  0.50   -63.00   0.84   18.80    0.84   18.80    0.50   -63.00
    6900  0.48   -63.10   0.84   17.90    0.84   17.90    0.48   -63.10
    6950  0.47   -63.10   0.84   16.90    0.84   16.90    0.47   -63.10
    7000  0.45   -62.90   0.85   15.80    0.85   15.80    0.45   -62.90
    7050  0.44   -62.70   0.85   14.70    0.85   14.70    0.44   -62.70
    7100  0.41   -62.70   0.86   13.40    0.86   13.40    0.41   -62.70
    7150  0.39   -62.70   0.86   12.10    0.86   12.10    0.39   -62.70
    7200  0.37   -61.90   0.86   10.40    0.86   10.40    0.37   -61.90
    7250  0.34   -61.20   0.87    8.80    0.87    8.80    0.34   -61.20
    7300  0.31   -58.80   0.87    6.30    0.87    6.30    0.31   -58.80
    7350  0.28   -56.40   0.86    3.80    0.86    3.80    0.28   -56.40
    7400  0.25   -45.60   0.84    0.30    0.84    0.30    0.25   -45.60
    7450  0.21   -34.80   0.82   -3.20    0.82   -3.20    0.21   -34.80
    7500  0.26   -18.70   0.76   -7.50    0.76   -7.50    0.26   -18.70
    7550  0.30   -2.60    0.70   -11.70   0.70   -11.70   0.30   -2.60
    7600  0.41   -4.00    0.59   -11.00   0.59   -11.00   0.41   -4.00
    7650  0.53   -5.50    0.47   -10.30   0.47   -10.30   0.53   -5.50
    7700  0.59   -13.90   0.44    3.10    0.44    3.10    0.59   -13.90
    7750  0.66   -22.40   0.41   16.40    0.41   16.40    0.66   -22.40
    7800  0.67   -28.90   0.47   22.20    0.47   22.20    0.67   -28.90
    7850  0.68   -35.50   0.53   28.00    0.53   28.00    0.68   -35.50
    7900  0.67   -40.50   0.58   28.00    0.58   28.00    0.67   -40.50
    7950  0.66   -45.50   0.63   28.10    0.63   28.10    0.66   -45.50
    8000  0.64   -48.60   0.66   27.10    0.66   27.10    0.64   -48.60
    8050  0.62   -51.70   0.69   26.10    0.69   26.10    0.62   -51.70
    8100  0.60   -54.00   0.71   25.40    0.71   25.40    0.60   -54.00
    8150  0.59   -56.20   0.74   24.70    0.74   24.70    0.59   -56.20
    8200  0.57   -58.10   0.75   23.50    0.75   23.50    0.57   -58.10
    8250  0.56   -60.00   0.77   22.40    0.77   22.40    0.56   -60.00
    8300  0.55   -61.50   0.78   21.70    0.78   21.70    0.55   -61.50
    8350  0.54   -62.90   0.79   21.00    0.79   21.00    0.54   -62.90
    8400  0.52   -64.20   0.80   20.00    0.80   20.00    0.52   -64.20
    8450  0.51   -65.50   0.81   18.90    0.81   18.90    0.51   -65.50
    8500  0.50   -66.40   0.82   18.20    0.82   18.20    0.50   -66.40
    8550  0.49   -67.20   0.83   17.50    0.83   17.50    0.49   -67.20
    8600  0.48   -67.80   0.84   16.60    0.84   16.60    0.48   -67.80
    8650  0.47   -68.40   0.85   15.70    0.85   15.70    0.47   -68.40
    8700  0.47   -68.80   0.85   14.90    0.85   14.90    0.47   -68.80
    8750  0.46   -69.20   0.85   14.10    0.85   14.10    0.46   -69.20
    8800  0.45   -69.30   0.86   13.80    0.86   13.80    0.45   -69.30
    8850  0.44   -69.40   0.86   13.40    0.86   13.40    0.44   -69.40
    8900  0.43   -69.40   0.86   12.50    0.86   12.50    0.43   -69.40
    8950  0.42   -69.30   0.87   11.70    0.87   11.70    0.42   -69.30
    9000  0.42   -69.40   0.86   11.20    0.86   11.20    0.42   -69.40
    9050  0.41   -69.60   0.86   10.70    0.86   10.70    0.41   -69.60
    9100  0.41   -70.50   0.86   10.60    0.86   10.60    0.41   -70.50
    9150  0.40   -71.50   0.86   10.50    0.86   10.50    0.40   -71.50
    9200  0.39   -72.70   0.87   10.30    0.87   10.30    0.39   -72.70
    9250  0.38   -73.90   0.88   10.10    0.88   10.10    0.38   -73.90
    9300  0.37   -73.90   0.89    9.40    0.89    9.40    0.37   -73.90
    9350  0.35   -73.90   0.90    8.70    0.90    8.70    0.35   -73.90
    9400  0.35   -74.10   0.90    8.30    0.90    8.30    0.35   -74.10
    9450  0.34   -74.30   0.90    7.80    0.90    7.80    0.34   -74.30
    9500  0.33   -74.10   0.91    7.00    0.91    7.00    0.33   -74.10
    9550  0.32   -74.00   0.91    6.20    0.91    6.20    0.32   -74.00
    9600  0.31   -73.50   0.92    5.50    0.92    5.50    0.31   -73.50
    9650  0.30   -73.10   0.92    4.80    0.92    4.80    0.30   -73.10
    9700  0.29   -73.30   0.92    4.20    0.92    4.20    0.29   -73.30
    9750  0.28   -73.60   0.93    3.60    0.93    3.60    0.28   -73.60
    9800  0.27   -72.60   0.93    2.80    0.93    2.80    0.27   -72.60
    9850  0.26   -71.60   0.93    2.10    0.93    2.10    0.26   -71.60
    9900  0.25   -70.60   0.93    1.50    0.93    1.50    0.25   -70.60
    9950  0.24   -69.50   0.93    0.90    0.93    0.90    0.24   -69.50
   10000  0.23   -69.00   0.93    0.10    0.93    0.10    0.23   -69.00
   10050  0.22   -68.50   0.94   -0.60    0.94   -0.60    0.22   -68.50
   10100  0.20   -66.40   0.94   -1.40    0.94   -1.40    0.20   -66.40
   10150  0.19   -64.20   0.93   -2.20    0.93   -2.20    0.19   -64.20
   10200  0.18   -61.80   0.94   -3.20    0.94   -3.20    0.18   -61.80
   10250  0.17   -59.40   0.94   -4.20    0.94   -4.20    0.17   -59.40
   10300  0.16   -55.20   0.93   -5.20    0.93   -5.20    0.16   -55.20
   10350  0.15   -51.00   0.92   -6.30    0.92   -6.30    0.15   -51.00
   10400  0.14   -43.80   0.92   -7.70    0.92   -7.70    0.14   -43.80
   10450  0.13   -36.50   0.92   -9.10    0.92   -9.10    0.13   -36.50
   10500  0.14   -27.10   0.90   -10.60   0.90   -10.60   0.14   -27.10
   10550  0.16   -17.80   0.88   -12.20   0.88   -12.20   0.16   -17.80
   10600  0.18   -10.70   0.86   -14.00   0.86   -14.00   0.18   -10.70
   10650  0.21   -3.60    0.83   -15.80   0.83   -15.80   0.21   -3.60
   10700  0.26   -3.80    0.77   -16.90   0.77   -16.90   0.26   -3.80
   10750  0.31   -4.10    0.72   -18.10   0.72   -18.10   0.31   -4.10
   10800  0.37   -10.70   0.66   -15.00   0.66   -15.00   0.37   -10.70
   10850  0.42   -17.40   0.59   -12.00   0.59   -12.00   0.42   -17.40
   10900  0.44   -27.10   0.59   -4.90    0.59   -4.90    0.44   -27.10
   10950  0.47   -36.90   0.59    2.20    0.59    2.20    0.47   -36.90
   11000  0.46   -44.50   0.63    5.70    0.63    5.70    0.46   -44.50
   11050  0.44   -52.20   0.67    9.20    0.67    9.20    0.44   -52.20
   11100  0.43   -58.30   0.72    9.20    0.72    9.20    0.43   -58.30
   11150  0.42   -64.50   0.77    9.20    0.77    9.20    0.42   -64.50
   11200  0.40   -67.80   0.79    8.30    0.79    8.30    0.40   -67.80
   11250  0.38   -71.10   0.82    7.50    0.82    7.50    0.38   -71.10
   11300  0.37   -74.00   0.84    6.30    0.84    6.30    0.37   -74.00
   11350  0.35   -76.90   0.86    5.20    0.86    5.20    0.35   -76.90
   11400  0.34   -77.60   0.87    4.50    0.87    4.50    0.34   -77.60
   11450  0.33   -78.30   0.88    3.90    0.88    3.90    0.33   -78.30
   11500  0.31   -79.90   0.89    2.80    0.89    2.80    0.31   -79.90
   11550  0.30   -81.40   0.90    1.80    0.90    1.80    0.30   -81.40
   11600  0.29   -81.90   0.90    1.00    0.90    1.00    0.29   -81.90
   11650  0.28   -82.40   0.91    0.30    0.91    0.30    0.28   -82.40
   11700  0.26   -82.80   0.92   -0.60    0.92   -0.60    0.26   -82.80
   11750  0.25   -83.30   0.92   -1.40    0.92   -1.40    0.25   -83.30
   11800  0.24   -84.00   0.92   -2.20    0.92   -2.20    0.24   -84.00
   11850  0.23   -84.80   0.92   -2.90    0.92   -2.90    0.23   -84.80
   11900  0.22   -84.80   0.92   -3.60    0.92   -3.60    0.22   -84.80
   11950  0.20   -84.80   0.92   -4.30    0.92   -4.30    0.20   -84.80
   12000  0.20   -85.60   0.92   -5.30    0.92   -5.30    0.20   -85.60
   12050  0.20   -86.40   0.92   -6.30    0.92   -6.30    0.20   -86.40
   12100  0.20   -86.70   0.90   -6.60    0.90   -6.60    0.20   -86.70
   12150  0.20   -87.10   0.89   -7.00    0.89   -7.00    0.20   -87.10
   12200  0.21   -89.90   0.89   -6.60    0.89   -6.60    0.21   -89.90
   12250  0.21   -92.60   0.88   -6.20    0.88   -6.20    0.21   -92.60
   12300  0.21   -96.20   0.89   -6.20    0.89   -6.20    0.21   -96.20
   12350  0.20   -99.80   0.90   -6.20    0.90   -6.20    0.20   -99.80
   12400  0.20  -101.90   0.91   -6.50    0.91   -6.50    0.20  -101.90
   12450  0.19  -104.00   0.91   -6.80    0.91   -6.80    0.19  -104.00
   12500  0.18  -104.30   0.92   -7.30    0.92   -7.30    0.18  -104.30
   12550  0.17  -104.60   0.92   -7.90    0.92   -7.90    0.17  -104.60
   12600  0.17  -105.00   0.93   -8.40    0.93   -8.40    0.17  -105.00
   12650  0.16  -105.30   0.93   -8.80    0.93   -8.80    0.16  -105.30
   12700  0.15  -103.30   0.93   -9.40    0.93   -9.40    0.15  -103.30
   12750  0.14  -101.20   0.93   -9.90    0.93   -9.90    0.14  -101.20
   12800  0.14  -100.10   0.93   -10.40   0.93   -10.40   0.14  -100.10
   12850  0.13   -98.90   0.93   -11.00   0.93   -11.00   0.13   -98.90
   12900  0.12   -95.70   0.93   -11.50   0.93   -11.50   0.12   -95.70
   12950  0.11   -92.40   0.93   -12.10   0.93   -12.10   0.11   -92.40
   13000  0.10   -89.40   0.94   -12.60   0.94   -12.60   0.10   -89.40
   13050  0.09   -86.40   0.94   -13.20   0.94   -13.20   0.09   -86.40
   13100  0.09   -79.00   0.94   -13.80   0.94   -13.80   0.09   -79.00
   13150  0.08   -71.60   0.94   -14.40   0.94   -14.40   0.08   -71.60
   13200  0.07   -62.60   0.94   -14.90   0.94   -14.90   0.07   -62.60
   13250  0.06   -53.60   0.94   -15.50   0.94   -15.50   0.06   -53.60
   13300  0.06   -41.70   0.93   -16.50   0.93   -16.50   0.06   -41.70
   13350  0.06   -29.90   0.93   -17.50   0.93   -17.50   0.06   -29.90
   13400  0.07   -17.10   0.92   -18.50   0.92   -18.50   0.07   -17.10
   13450  0.08   -4.30    0.92   -19.40   0.92   -19.40   0.08   -4.30
   13500  0.09    3.00    0.91   -20.40   0.91   -20.40   0.09    3.00
   13550  0.09   10.40    0.90   -21.30   0.90   -21.30   0.09   10.40
   13600  0.11   12.70    0.89   -22.60   0.89   -22.60   0.11   12.70
   13650  0.13   15.00    0.88   -23.80   0.88   -23.80   0.13   15.00
   13700  0.16   14.90    0.86   -25.00   0.86   -25.00   0.16   14.90
   13750  0.18   14.80    0.85   -26.20   0.85   -26.20   0.18   14.80
   13800  0.21   11.20    0.81   -27.20   0.81   -27.20   0.21   11.20
   13850  0.24    7.70    0.78   -28.20   0.78   -28.20   0.24    7.70
   13900  0.28    1.80    0.74   -28.00   0.74   -28.00   0.28    1.80
