#	mhz	s	ma	r	50

50	0.84	154.90	0.42	61.10	0.42	61.10	0.84	154.90
100	0.70	140.20	0.61	47.50	0.61	47.50	0.70	140.20
150	0.56	125.40	0.80	33.90	0.80	33.90	0.56	125.40
200	0.47	119.00	0.86	27.70	0.86	27.70	0.47	119.00
250	0.38	112.60	0.92	21.50	0.92	21.50	0.38	112.60
300	0.32	109.00	0.94	17.80	0.94	17.80	0.32	109.00
350	0.26	105.50	0.96	14.10	0.96	14.10	0.26	105.50
400	0.23	102.50	0.96	11.80	0.96	11.80	0.23	102.50
450	0.19	99.60	0.97	9.50	0.97	9.50	0.19	99.60
500	0.16	96.90	0.98	7.30	0.98	7.30	0.16	96.90
550	0.14	94.20	0.99	5.00	0.99	5.00	0.14	94.20
600	0.12	93.70	0.99	3.70	0.99	3.70	0.12	93.70
650	0.10	93.10	0.99	2.40	0.99	2.40	0.10	93.10
700	0.09	91.20	1.00	1.20	1.00	1.20	0.09	91.20
750	0.08	89.20	1.00	0.10	1.00	0.10	0.08	89.20
800	0.06	89.70	1.00	-0.90	1.00	-0.90	0.06	89.70
850	0.05	90.20	1.00	-2.00	1.00	-2.00	0.05	90.20
900	0.04	89.60	1.00	-2.90	1.00	-2.90	0.04	89.60
950	0.03	89.10	1.00	-3.90	1.00	-3.90	0.03	89.10
1000	0.03	94.50	1.00	-4.70	1.00	-4.70	0.03	94.50
1050	0.02	99.90	1.00	-5.60	1.00	-5.60	0.02	99.90
1100	0.01	127.50	1.00	-6.40	1.00	-6.40	0.01	127.50
1150	0.00	155.00	1.00	-7.30	1.00	-7.30	0.00	155.00
1200	0.01	21.00	1.00	-8.10	1.00	-8.10	0.01	21.00
1250	0.01	-113.00	1.00	-8.90	1.00	-8.90	0.01	-113.00
1300	0.02	-112.40	1.00	-9.70	1.00	-9.70	0.02	-112.40
1350	0.03	-111.70	1.00	-10.40	1.00	-10.40	0.03	-111.70
1400	0.03	-110.80	1.00	-11.20	1.00	-11.20	0.03	-110.80
1450	0.04	-109.80	1.00	-11.90	1.00	-11.90	0.04	-109.80
1500	0.04	-111.20	1.00	-12.70	1.00	-12.70	0.04	-111.20
1550	0.05	-112.70	1.00	-13.50	1.00	-13.50	0.05	-112.70
1600	0.05	-111.80	1.00	-14.20	1.00	-14.20	0.05	-111.80
1650	0.06	-110.90	1.00	-15.00	1.00	-15.00	0.06	-110.90
1700	0.07	-112.30	1.00	-15.70	1.00	-15.70	0.07	-112.30
1750	0.07	-113.70	1.00	-16.50	1.00	-16.50	0.07	-113.70
1800	0.08	-113.00	1.00	-17.20	1.00	-17.20	0.08	-113.00
1850	0.08	-112.20	1.00	-17.90	1.00	-17.90	0.08	-112.20
1900	0.09	-113.10	1.00	-18.60	1.00	-18.60	0.09	-113.10
1950	0.09	-114.00	1.00	-19.20	1.00	-19.20	0.09	-114.00
2000	0.10	-113.90	1.00	-20.00	1.00	-20.00	0.10	-113.90
2050	0.10	-113.80	1.00	-20.80	1.00	-20.80	0.10	-113.80
2100	0.11	-114.50	1.00	-21.60	1.00	-21.60	0.11	-114.50
2150	0.12	-115.20	0.99	-22.30	0.99	-22.30	0.12	-115.20
2200	0.12	-115.90	0.99	-23.00	0.99	-23.00	0.12	-115.90
2250	0.13	-116.70	0.99	-23.70	0.99	-23.70	0.13	-116.70
2300	0.13	-116.60	0.99	-24.40	0.99	-24.40	0.13	-116.60
2350	0.14	-116.60	0.99	-25.00	0.99	-25.00	0.14	-116.60
2400	0.15	-117.90	0.99	-25.90	0.99	-25.90	0.15	-117.90
2450	0.15	-119.30	0.99	-26.70	0.99	-26.70	0.15	-119.30
2500	0.16	-119.30	0.98	-27.40	0.98	-27.40	0.16	-119.30
2550	0.16	-119.40	0.98	-28.10	0.98	-28.10	0.16	-119.40
2600	0.17	-120.50	0.98	-28.80	0.98	-28.80	0.17	-120.50
2650	0.18	-121.50	0.98	-29.50	0.98	-29.50	0.18	-121.50
2700	0.18	-122.00	0.98	-30.10	0.98	-30.10	0.18	-122.00
2750	0.19	-122.50	0.98	-30.80	0.98	-30.80	0.19	-122.50
2800	0.19	-123.00	0.98	-31.50	0.98	-31.50	0.19	-123.00
2850	0.20	-123.50	0.98	-32.10	0.98	-32.10	0.20	-123.50
2900	0.21	-124.40	0.98	-33.00	0.98	-33.00	0.21	-124.40
2950	0.21	-125.40	0.97	-33.90	0.97	-33.90	0.21	-125.40
3000	0.22	-125.30	0.97	-34.50	0.97	-34.50	0.22	-125.30
3050	0.22	-125.20	0.97	-35.10	0.97	-35.10	0.22	-125.20
3100	0.23	-126.80	0.97	-36.00	0.97	-36.00	0.23	-126.80
3150	0.23	-128.30	0.96	-36.80	0.96	-36.80	0.23	-128.30
3200	0.24	-128.00	0.96	-37.40	0.96	-37.40	0.24	-128.00
3250	0.24	-127.60	0.96	-38.00	0.96	-38.00	0.24	-127.60
3300	0.25	-128.40	0.96	-38.80	0.96	-38.80	0.25	-128.40
3350	0.25	-129.20	0.96	-39.60	0.96	-39.60	0.25	-129.20
3400	0.26	-129.90	0.96	-40.20	0.96	-40.20	0.26	-129.90
3450	0.27	-130.60	0.96	-40.80	0.96	-40.80	0.27	-130.60
3500	0.27	-130.90	0.96	-41.60	0.96	-41.60	0.27	-130.90
3550	0.27	-131.20	0.95	-42.30	0.95	-42.30	0.27	-131.20
3600	0.28	-131.50	0.95	-43.00	0.95	-43.00	0.28	-131.50
3650	0.28	-131.80	0.95	-43.60	0.95	-43.60	0.28	-131.80
3700	0.29	-132.10	0.95	-44.60	0.95	-44.60	0.29	-132.10
3750	0.29	-132.30	0.95	-45.50	0.95	-45.50	0.29	-132.30
3800	0.30	-132.40	0.95	-46.20	0.95	-46.20	0.30	-132.40
3850	0.30	-132.60	0.94	-46.80	0.94	-46.80	0.30	-132.60
3900	0.31	-133.20	0.94	-47.80	0.94	-47.80	0.31	-133.20
3950	0.31	-133.70	0.94	-48.90	0.94	-48.90	0.31	-133.70
4000	0.32	-133.70	0.94	-49.60	0.94	-49.60	0.32	-133.70
4050	0.32	-133.60	0.94	-50.30	0.94	-50.30	0.32	-133.60
4100	0.33	-134.00	0.93	-51.10	0.93	-51.10	0.33	-134.00
4150	0.33	-134.40	0.93	-52.00	0.93	-52.00	0.33	-134.40
4200	0.34	-135.20	0.93	-53.00	0.93	-53.00	0.34	-135.20
4250	0.35	-136.10	0.92	-54.00	0.92	-54.00	0.35	-136.10
4300	0.36	-136.70	0.92	-54.80	0.92	-54.80	0.36	-136.70
4350	0.37	-137.40	0.91	-55.50	0.91	-55.50	0.37	-137.40
4400	0.38	-138.60	0.91	-56.60	0.91	-56.60	0.38	-138.60
4450	0.39	-139.80	0.90	-57.70	0.90	-57.70	0.39	-139.80
4500	0.40	-140.70	0.90	-58.90	0.90	-58.90	0.40	-140.70
4550	0.41	-141.60	0.89	-60.00	0.89	-60.00	0.41	-141.60
4600	0.43	-143.80	0.88	-61.40	0.88	-61.40	0.43	-143.80
4650	0.44	-146.00	0.88	-62.80	0.88	-62.80	0.44	-146.00
4700	0.46	-147.70	0.86	-64.10	0.86	-64.10	0.46	-147.70
4750	0.47	-149.50	0.85	-65.30	0.85	-65.30	0.47	-149.50
4800	0.49	-152.00	0.83	-66.80	0.83	-66.80	0.49	-152.00
4850	0.50	-154.50	0.81	-68.30	0.81	-68.30	0.50	-154.50
4900	0.53	-158.20	0.79	-70.20	0.79	-70.20	0.53	-158.20
4950	0.56	-161.80	0.76	-72.20	0.76	-72.20	0.56	-161.80
5000	0.58	-166.70	0.71	-74.00	0.71	-74.00	0.58	-166.70
5050	0.61	-171.60	0.66	-75.90	0.66	-75.90	0.61	-171.60
5100	0.63	0.00	0.58	-75.60	0.58	-75.60	0.63	0.00
5150	0.65	171.60	0.50	-75.20	0.50	-75.20	0.65	171.60
5200	0.62	158.00	0.45	-58.50	0.45	-58.50	0.62	158.00
5250	0.59	144.50	0.40	-41.80	0.40	-41.80	0.59	144.50
5300	0.46	131.70	0.54	-36.00	0.54	-36.00	0.46	131.70
5350	0.33	118.90	0.69	-30.20	0.69	-30.20	0.33	118.90
5400	0.23	127.60	0.78	-35.60	0.78	-35.60	0.23	127.60
5450	0.12	136.30	0.86	-41.00	0.86	-41.00	0.12	136.30
5500	0.13	-15.60	0.89	-45.00	0.89	-45.00	0.13	-15.60
5550	0.13	-167.60	0.91	-48.90	0.91	-48.90	0.13	-167.60
5600	0.17	-161.10	0.92	-51.70	0.92	-51.70	0.17	-161.10
5650	0.20	-154.70	0.93	-54.50	0.93	-54.50	0.20	-154.70
5700	0.23	-154.80	0.93	-56.50	0.93	-56.50	0.23	-154.80
5750	0.26	-154.90	0.93	-58.60	0.93	-58.60	0.26	-154.90
5800	0.28	-155.10	0.93	-60.10	0.93	-60.10	0.28	-155.10
5850	0.30	-155.30	0.92	-61.60	0.92	-61.60	0.30	-155.30
5900	0.32	-156.50	0.92	-62.80	0.92	-62.80	0.32	-156.50
5950	0.34	-157.70	0.92	-64.10	0.92	-64.10	0.34	-157.70
6000	0.36	-158.10	0.91	-65.40	0.91	-65.40	0.36	-158.10
6050	0.38	-158.50	0.90	-66.80	0.90	-66.80	0.38	-158.50
6100	0.39	-159.50	0.90	-67.70	0.90	-67.70	0.39	-159.50
6150	0.41	-160.50	0.89	-68.50	0.89	-68.50	0.41	-160.50
6200	0.42	-161.90	0.89	-69.50	0.89	-69.50	0.42	-161.90
6250	0.43	-163.30	0.88	-70.60	0.88	-70.60	0.43	-163.30
6300	0.44	-163.90	0.88	-71.40	0.88	-71.40	0.44	-163.90
6350	0.44	-164.60	0.88	-72.20	0.88	-72.20	0.44	-164.60
6400	0.45	-165.40	0.87	-73.10	0.87	-73.10	0.45	-165.40
6450	0.46	-166.30	0.87	-73.90	0.87	-73.90	0.46	-166.30
6500	0.46	-167.10	0.86	-74.80	0.86	-74.80	0.46	-167.10
6550	0.47	-168.00	0.86	-75.60	0.86	-75.60	0.47	-168.00
6600	0.47	-169.00	0.86	-76.40	0.86	-76.40	0.47	-169.00
6650	0.48	-170.00	0.86	-77.20	0.86	-77.20	0.48	-170.00
6700	0.49	-170.70	0.85	-77.80	0.85	-77.80	0.49	-170.70
6750	0.49	-171.30	0.85	-78.40	0.85	-78.40	0.49	-171.30
6800	0.50	-172.80	0.85	-79.40	0.85	-79.40	0.50	-172.80
6850	0.50	-174.30	0.84	-80.40	0.84	-80.40	0.50	-174.30
6900	0.51	-174.90	0.84	-81.10	0.84	-81.10	0.51	-174.90
6950	0.51	-175.40	0.84	-81.80	0.84	-81.80	0.51	-175.40
7000	0.52	-176.90	0.84	-82.80	0.84	-82.80	0.52	-176.90
7050	0.52	-178.40	0.83	-83.80	0.83	-83.80	0.52	-178.40
7100	0.52	0.60	0.83	-84.50	0.83	-84.50	0.52	0.60
7150	0.52	179.60	0.83	-85.30	0.83	-85.30	0.52	179.60
7200	0.54	178.50	0.83	-86.40	0.83	-86.40	0.54	178.50
7250	0.55	177.40	0.82	-87.40	0.82	-87.40	0.55	177.40
7300	0.55	176.00	0.82	-88.40	0.82	-88.40	0.55	176.00
7350	0.55	174.60	0.81	-89.40	0.81	-89.40	0.55	174.60
7400	0.55	174.20	0.81	-90.30	0.81	-90.30	0.55	174.20
7450	0.56	173.80	0.80	-91.10	0.80	-91.10	0.56	173.80
7500	0.57	172.50	0.80	-92.20	0.80	-92.20	0.57	172.50
7550	0.58	171.20	0.79	-93.30	0.79	-93.30	0.58	171.20
7600	0.58	170.60	0.79	-94.20	0.79	-94.20	0.58	170.60
7650	0.58	169.90	0.78	-95.10	0.78	-95.10	0.58	169.90
7700	0.59	168.60	0.78	-96.30	0.78	-96.30	0.59	168.60
7750	0.60	167.30	0.77	-97.40	0.77	-97.40	0.60	167.30
7800	0.60	165.50	0.76	-98.80	0.76	-98.80	0.60	165.50
7850	0.61	163.70	0.75	-100.10	0.75	-100.10	0.61	163.70
7900	0.62	162.60	0.75	-101.30	0.75	-101.30	0.62	162.60
7950	0.63	161.40	0.74	-102.50	0.74	-102.50	0.63	161.40
8000	0.64	159.50	0.73	-103.80	0.73	-103.80	0.64	159.50
8050	0.65	157.60	0.72	-105.10	0.72	-105.10	0.65	157.60
8100	0.65	155.80	0.71	-106.70	0.71	-106.70	0.65	155.80
8150	0.66	154.10	0.70	-108.30	0.70	-108.30	0.66	154.10
8200	0.68	152.20	0.68	-109.70	0.68	-109.70	0.68	152.20
8250	0.69	150.30	0.66	-111.10	0.66	-111.10	0.69	150.30
8300	0.70	148.40	0.64	-112.80	0.64	-112.80	0.70	148.40
8350	0.71	146.40	0.63	-114.50	0.63	-114.50	0.71	146.40
8400	0.72	144.40	0.61	-116.00	0.61	-116.00	0.72	144.40
8450	0.73	142.50	0.58	-117.40	0.58	-117.40	0.73	142.50
8500	0.74	140.20	0.56	-119.20	0.56	-119.20	0.74	140.20
8550	0.74	138.00	0.54	-120.90	0.54	-120.90	0.74	138.00
8600	0.76	135.60	0.51	-122.20	0.51	-122.20	0.76	135.60
8650	0.77	133.10	0.48	-123.50	0.48	-123.50	0.77	133.10
8700	0.78	130.80	0.44	-124.40	0.44	-124.40	0.78	130.80
8750	0.79	128.40	0.41	-125.30	0.41	-125.30	0.79	128.40
8800	0.80	125.10	0.37	-125.20	0.37	-125.20	0.80	125.10
8850	0.81	121.80	0.34	-125.10	0.34	-125.10	0.81	121.80
8900	0.81	118.80	0.29	-122.70	0.29	-122.70	0.81	118.80
8950	0.81	115.80	0.25	-120.20	0.25	-120.20	0.81	115.80
9000	0.81	112.30	0.22	-110.80	0.22	-110.80	0.81	112.30
9050	0.81	108.80	0.19	-101.50	0.19	-101.50	0.81	108.80
9100	0.81	104.60	0.19	-84.70	0.19	-84.70	0.81	104.60
9150	0.80	100.40	0.20	-67.80	0.20	-67.80	0.80	100.40
9200	0.76	95.20	0.25	-59.50	0.25	-59.50	0.76	95.20
9250	0.72	90.00	0.30	-51.20	0.30	-51.20	0.72	90.00
9300	0.67	86.60	0.37	-50.50	0.37	-50.50	0.67	86.60
9350	0.62	83.20	0.44	-49.70	0.44	-49.70	0.62	83.20
9400	0.55	79.10	0.51	-53.20	0.51	-53.20	0.55	79.10
9450	0.49	75.00	0.58	-56.80	0.58	-56.80	0.49	75.00
9500	0.41	74.50	0.63	-61.50	0.63	-61.50	0.41	74.50
9550	0.33	74.00	0.69	-66.10	0.69	-66.10	0.33	74.00
9600	0.28	81.30	0.73	-71.30	0.73	-71.30	0.28	81.30
9650	0.22	88.50	0.76	-76.50	0.76	-76.50	0.22	88.50
9700	0.20	106.50	0.78	-81.30	0.78	-81.30	0.20	106.50
9750	0.18	124.40	0.79	-86.10	0.79	-86.10	0.18	124.40
9800	0.22	136.80	0.79	-90.40	0.79	-90.40	0.22	136.80
9850	0.26	149.20	0.79	-94.80	0.79	-94.80	0.26	149.20
9900	0.31	151.60	0.78	-98.50	0.78	-98.50	0.31	151.60
9950	0.35	154.00	0.77	-102.30	0.77	-102.30	0.35	154.00
10000	0.40	154.00	0.75	-105.80	0.75	-105.80	0.40	154.00
10050	0.45	154.10	0.73	-109.30	0.73	-109.30	0.45	154.10
10100	0.49	153.10	0.71	-111.80	0.71	-111.80	0.49	153.10
10150	0.53	152.00	0.69	-114.30	0.69	-114.30	0.53	152.00
10200	0.56	150.40	0.66	-117.10	0.66	-117.10	0.56	150.40
10250	0.60	148.70	0.64	-119.80	0.64	-119.80	0.60	148.70
10300	0.63	146.50	0.61	-122.10	0.61	-122.10	0.63	146.50
10350	0.67	144.20	0.58	-124.40	0.58	-124.40	0.67	144.20
10400	0.68	142.10	0.56	-126.10	0.56	-126.10	0.68	142.10
10450	0.68	140.10	0.53	-127.70	0.53	-127.70	0.68	140.10
10500	0.71	138.10	0.51	-129.40	0.51	-129.40	0.71	138.10
10550	0.74	136.10	0.49	-131.10	0.49	-131.10	0.74	136.10
10600	0.74	133.40	0.46	-131.50	0.46	-131.50	0.74	133.40
10650	0.74	130.60	0.44	-131.80	0.44	-131.80	0.74	130.60
10700	0.76	129.70	0.43	-133.20	0.43	-133.20	0.76	129.70
10750	0.77	128.80	0.41	-134.50	0.41	-134.50	0.77	128.80
10800	0.79	127.40	0.40	-135.70	0.40	-135.70	0.79	127.40
10850	0.81	126.00	0.38	-136.90	0.38	-136.90	0.81	126.00
10900	0.81	123.60	0.35	-138.50	0.35	-138.50	0.81	123.60
10950	0.82	121.20	0.33	-140.20	0.33	-140.20	0.82	121.20
11000	0.84	119.50	0.31	-141.50	0.31	-141.50	0.84	119.50
11050	0.87	117.80	0.29	-142.90	0.29	-142.90	0.87	117.80
11100	0.87	114.90	0.26	-143.10	0.26	-143.10	0.87	114.90
11150	0.87	112.00	0.23	-143.20	0.23	-143.20	0.87	112.00
11200	0.88	109.80	0.21	-142.20	0.21	-142.20	0.88	109.80
11250	0.89	107.60	0.18	-141.20	0.18	-141.20	0.89	107.60
11300	0.89	105.20	0.16	-137.00	0.16	-137.00	0.89	105.20
11350	0.89	102.80	0.14	-132.80	0.14	-132.80	0.89	102.80
11400	0.89	100.00	0.12	-123.90	0.12	-123.90	0.89	100.00
11450	0.88	97.10	0.11	-114.90	0.11	-114.90	0.88	97.10
11500	0.87	95.40	0.11	-102.70	0.11	-102.70	0.87	95.40
11550	0.86	93.60	0.11	-90.60	0.11	-90.60	0.86	93.60
11600	0.85	92.90	0.12	-85.60	0.12	-85.60	0.85	92.90
11650	0.84	92.20	0.12	-80.60	0.12	-80.60	0.84	92.20
11700	0.85	91.30	0.12	-73.30	0.12	-73.30	0.85	91.30
11750	0.87	90.40	0.12	-66.00	0.12	-66.00	0.87	90.40
11800	0.88	89.00	0.14	-57.30	0.14	-57.30	0.88	89.00
11850	0.89	87.50	0.15	-48.70	0.15	-48.70	0.89	87.50
11900	0.89	85.60	0.17	-45.10	0.17	-45.10	0.89	85.60
11950	0.88	83.70	0.19	-41.50	0.19	-41.50	0.88	83.70
12000	0.88	82.30	0.22	-39.40	0.22	-39.40	0.88	82.30
12050	0.88	80.80	0.24	-37.40	0.24	-37.40	0.88	80.80
12100	0.88	78.50	0.27	-37.90	0.27	-37.90	0.88	78.50
12150	0.88	76.20	0.30	-38.40	0.30	-38.40	0.88	76.20
12200	0.86	74.40	0.32	-38.90	0.32	-38.90	0.86	74.40
12250	0.85	72.50	0.35	-39.30	0.35	-39.30	0.85	72.50
12300	0.84	71.40	0.37	-40.30	0.37	-40.30	0.84	71.40
12350	0.82	70.30	0.40	-41.30	0.40	-41.30	0.82	70.30
12400	0.81	67.40	0.43	-43.20	0.43	-43.20	0.81	67.40
12450	0.81	64.50	0.46	-45.10	0.46	-45.10	0.81	64.50
12500	0.79	63.20	0.48	-46.60	0.48	-46.60	0.79	63.20
12550	0.77	61.90	0.50	-48.10	0.50	-48.10	0.77	61.90
12600	0.75	60.00	0.52	-50.00	0.52	-50.00	0.75	60.00
12650	0.74	58.20	0.54	-52.00	0.54	-52.00	0.74	58.20
12700	0.72	56.40	0.57	-53.70	0.57	-53.70	0.72	56.40
12750	0.71	54.70	0.59	-55.50	0.59	-55.50	0.71	54.70
12800	0.69	53.00	0.60	-57.60	0.60	-57.60	0.69	53.00
12850	0.67	51.20	0.62	-59.70	0.62	-59.70	0.67	51.20
12900	0.66	49.80	0.64	-61.60	0.64	-61.60	0.66	49.80
12950	0.64	48.40	0.66	-63.40	0.66	-63.40	0.64	48.40
13000	0.62	46.90	0.67	-65.30	0.67	-65.30	0.62	46.90
13050	0.60	45.50	0.68	-67.10	0.68	-67.10	0.60	45.50
13100	0.58	44.00	0.70	-69.00	0.70	-69.00	0.58	44.00
13150	0.56	42.40	0.71	-70.80	0.71	-70.80	0.56	42.40
13200	0.55	41.50	0.72	-72.40	0.72	-72.40	0.55	41.50
13250	0.54	40.60	0.74	-74.10	0.74	-74.10	0.54	40.60
13300	0.51	40.90	0.74	-76.40	0.74	-76.40	0.51	40.90
13350	0.48	41.10	0.75	-78.80	0.75	-78.80	0.48	41.10
13400	0.47	39.00	0.76	-80.70	0.76	-80.70	0.47	39.00
13450	0.47	36.90	0.77	-82.50	0.77	-82.50	0.47	36.90
13500	0.45	35.70	0.78	-84.50	0.78	-84.50	0.45	35.70
13550	0.43	34.40	0.78	-86.50	0.78	-86.50	0.43	34.40
13600	0.42	33.70	0.79	-88.80	0.79	-88.80	0.42	33.70
13650	0.40	32.90	0.80	-91.10	0.80	-91.10	0.40	32.90
13700	0.38	32.00	0.80	-93.20	0.80	-93.20	0.38	32.00
13750	0.37	31.00	0.80	-95.30	0.80	-95.30	0.37	31.00
13800	0.34	31.20	0.80	-97.80	0.80	-97.80	0.34	31.20
13850	0.31	31.30	0.80	-100.30	0.80	-100.30	0.31	31.30
13900	0.30	33.10	0.79	-103.00	0.79	-103.00	0.30	33.10
13950	0.29	34.90	0.79	-105.80	0.79	-105.80	0.29	34.90
14000	0.28	39.70	0.76	-109.00	0.76	-109.00	0.28	39.70
14050	0.27	44.60	0.74	-112.30	0.74	-112.30	0.27	44.60
14100	0.30	50.40	0.70	-115.20	0.70	-115.20	0.30	50.40
14150	0.33	56.30	0.67	-118.00	0.67	-118.00	0.33	56.30
14200	0.38	55.80	0.60	-119.40	0.60	-119.40	0.38	55.80
14250	0.43	55.30	0.54	-120.80	0.54	-120.80	0.43	55.30
14300	0.49	51.60	0.49	-117.50	0.49	-117.50	0.49	51.60
14350	0.55	47.90	0.44	-114.20	0.44	-114.20	0.55	47.90
14400	0.58	42.30	0.43	-107.00	0.43	-107.00	0.58	42.30
14450	0.62	36.70	0.41	-99.90	0.41	-99.90	0.62	36.70
14500	0.63	31.90	0.44	-94.80	0.44	-94.80	0.63	31.90
14550	0.64	27.10	0.46	-89.80	0.46	-89.80	0.64	27.10
14600	0.64	23.20	0.49	-88.10	0.49	-88.10	0.64	23.20
14650	0.65	19.20	0.53	-86.40	0.53	-86.40	0.65	19.20
14700	0.64	15.70	0.56	-86.50	0.56	-86.50	0.64	15.70
14750	0.62	12.20	0.59	-86.70	0.59	-86.70	0.62	12.20
14800	0.62	9.50	0.61	-87.70	0.61	-87.70	0.62	9.50
14850	0.62	6.80	0.63	-88.60	0.63	-88.60	0.62	6.80
14900	0.60	5.70	0.66	-89.30	0.66	-89.30	0.60	5.70
14950	0.58	4.60	0.68	-90.10	0.68	-90.10	0.58	4.60
15000	0.57	1.80	0.69	-91.70	0.69	-91.70	0.57	1.80
15050	0.56	-0.90	0.71	-93.30	0.71	-93.30	0.56	-0.90
15100	0.55	-1.60	0.72	-94.20	0.72	-94.20	0.55	-1.60
15150	0.53	-2.30	0.73	-95.10	0.73	-95.10	0.53	-2.30
15200	0.52	-3.10	0.74	-96.50	0.74	-96.50	0.52	-3.10
15250	0.52	-3.90	0.75	-97.80	0.75	-97.80	0.52	-3.90
15300	0.51	-5.40	0.76	-99.40	0.76	-99.40	0.51	-5.40
15350	0.50	-6.80	0.76	-101.00	0.76	-101.00	0.50	-6.80
15400	0.48	-6.20	0.75	-101.90	0.75	-101.90	0.48	-6.20
15450	0.47	-5.60	0.75	-102.80	0.75	-102.80	0.47	-5.60
15500	0.47	-5.60	0.75	-103.70	0.75	-103.70	0.47	-5.60
15550	0.48	-5.60	0.75	-104.70	0.75	-104.70	0.48	-5.60
15600	0.48	-5.80	0.74	-104.80	0.74	-104.80	0.48	-5.80
15650	0.47	-5.90	0.74	-105.00	0.74	-105.00	0.47	-5.90
15700	0.48	-6.30	0.74	-105.30	0.74	-105.30	0.48	-6.30
15750	0.49	-6.70	0.73	-105.60	0.73	-105.60	0.49	-6.70
15800	0.47	-6.90	0.73	-105.30	0.73	-105.30	0.47	-6.90
15850	0.45	-7.10	0.73	-104.90	0.73	-104.90	0.45	-7.10
15900	0.45	-5.80	0.74	-104.80	0.74	-104.80	0.45	-5.80
15950	0.45	-4.40	0.74	-104.70	0.74	-104.70	0.45	-4.40
16000	0.45	-3.60	0.76	-104.60	0.76	-104.60	0.45	-3.60
16050	0.44	-2.90	0.78	-104.50	0.78	-104.50	0.44	-2.90
16100	0.44	-2.50	0.79	-105.40	0.79	-105.40	0.44	-2.50
16150	0.43	-2.10	0.79	-106.30	0.79	-106.30	0.43	-2.10
16200	0.42	-3.00	0.80	-107.10	0.80	-107.10	0.42	-3.00
16250	0.41	-3.90	0.81	-107.90	0.81	-107.90	0.41	-3.90
16300	0.39	-3.50	0.81	-108.70	0.81	-108.70	0.39	-3.50
16350	0.37	-3.10	0.82	-109.50	0.82	-109.50	0.37	-3.10
16400	0.36	-3.30	0.82	-110.10	0.82	-110.10	0.36	-3.30
16450	0.36	-3.60	0.82	-110.70	0.82	-110.70	0.36	-3.60
16500	0.34	-5.40	0.82	-110.80	0.82	-110.80	0.34	-5.40
16550	0.33	-7.20	0.82	-110.80	0.82	-110.80	0.33	-7.20
16600	0.33	-9.00	0.84	-111.30	0.84	-111.30	0.33	-9.00
16650	0.32	-10.90	0.86	-111.70	0.86	-111.70	0.32	-10.90
16700	0.31	-14.20	0.88	-112.60	0.88	-112.60	0.31	-14.20
16750	0.29	-17.50	0.89	-113.40	0.89	-113.40	0.29	-17.50
16800	0.27	-19.90	0.90	-114.60	0.90	-114.60	0.27	-19.90
16850	0.25	-22.30	0.91	-115.70	0.91	-115.70	0.25	-22.30
16900	0.24	-22.70	0.91	-116.90	0.91	-116.90	0.24	-22.70
16950	0.23	-23.10	0.92	-118.20	0.92	-118.20	0.23	-23.10
17000	0.21	-23.10	0.93	-119.30	0.93	-119.30	0.21	-23.10
17050	0.19	-23.00	0.93	-120.50	0.93	-120.50	0.19	-23.00
17100	0.17	-18.60	0.93	-121.90	0.93	-121.90	0.17	-18.60
17150	0.16	-14.20	0.94	-123.20	0.94	-123.20	0.16	-14.20
17200	0.16	-8.30	0.94	-124.20	0.94	-124.20	0.16	-8.30
17250	0.15	-2.40	0.94	-125.20	0.94	-125.20	0.15	-2.40
17300	0.14	7.60	0.94	-126.40	0.94	-126.40	0.14	7.60
17350	0.14	17.70	0.94	-127.70	0.94	-127.70	0.14	17.70
17400	0.15	21.40	0.93	-128.70	0.93	-128.70	0.15	21.40
17450	0.16	25.10	0.93	-129.60	0.93	-129.60	0.16	25.10
17500	0.17	30.30	0.93	-130.80	0.93	-130.80	0.17	30.30
17550	0.18	35.40	0.92	-132.00	0.92	-132.00	0.18	35.40
17600	0.20	38.00	0.92	-133.30	0.92	-133.30	0.20	38.00
17650	0.22	40.60	0.91	-134.50	0.91	-134.50	0.22	40.60
17700	0.23	40.30	0.90	-135.40	0.90	-135.40	0.23	40.30
17750	0.24	40.10	0.89	-136.40	0.89	-136.40	0.24	40.10
17800	0.25	39.40	0.88	-137.50	0.88	-137.50	0.25	39.40
17850	0.26	38.70	0.86	-138.70	0.86	-138.70	0.26	38.70
17900	0.28	34.50	0.84	-139.00	0.84	-139.00	0.28	34.50
17950	0.29	30.20	0.81	-139.30	0.81	-139.30	0.29	30.20
18000	0.29	23.90	0.79	-138.50	0.79	-138.50	0.29	23.90
18050	0.28	17.70	0.77	-137.80	0.77	-137.80	0.28	17.70
18100	0.28	9.20	0.77	-135.90	0.77	-135.90	0.28	9.20
18150	0.27	0.80	0.78	-134.00	0.78	-134.00	0.27	0.80
18200	0.25	-6.90	0.80	-133.40	0.80	-133.40	0.25	-6.90
18250	0.23	-14.70	0.83	-132.90	0.83	-132.90	0.23	-14.70
18300	0.22	-19.40	0.85	-133.50	0.85	-133.50	0.22	-19.40
18350	0.22	-24.10	0.87	-134.10	0.87	-134.10	0.22	-24.10
18400	0.20	-27.20	0.88	-135.10	0.88	-135.10	0.20	-27.20
18450	0.19	-30.30	0.89	-136.10	0.89	-136.10	0.19	-30.30
18500	0.20	-30.20	0.91	-137.00	0.91	-137.00	0.20	-30.20
18550	0.20	-30.10	0.92	-138.00	0.92	-138.00	0.20	-30.10
18600	0.19	-33.90	0.92	-139.20	0.92	-139.20	0.19	-33.90
