#	mhz	s	ma	r	50

50	0.44	121.70	0.86	27.60	0.86	27.60	0.44	121.70
100	0.30	112.60	0.92	18.60	0.92	18.60	0.30	112.60
150	0.16	103.60	0.98	9.60	0.98	9.60	0.16	103.60
200	0.12	102.50	0.99	7.00	0.99	7.00	0.12	102.50
250	0.08	101.40	0.99	4.40	0.99	4.40	0.08	101.40
300	0.06	105.10	1.00	2.80	1.00	2.80	0.06	105.10
350	0.04	108.80	1.00	1.20	1.00	1.20	0.04	108.80
400	0.02	122.50	1.00	0.10	1.00	0.10	0.02	122.50
450	0.01	136.10	1.00	-1.00	1.00	-1.00	0.01	136.10
500	0.01	-5.60	1.00	-2.00	1.00	-2.00	0.01	-5.60
550	0.01	-147.40	1.00	-3.00	1.00	-3.00	0.01	-147.40
600	0.02	-135.30	1.00	-3.90	1.00	-3.90	0.02	-135.30
650	0.03	-123.20	1.00	-4.80	1.00	-4.80	0.03	-123.20
700	0.03	-119.00	1.00	-5.60	1.00	-5.60	0.03	-119.00
750	0.04	-114.80	1.00	-6.30	1.00	-6.30	0.04	-114.80
800	0.05	-113.60	1.00	-7.20	1.00	-7.20	0.05	-113.60
850	0.05	-112.50	1.00	-8.00	1.00	-8.00	0.05	-112.50
900	0.06	-112.20	1.00	-8.70	1.00	-8.70	0.06	-112.20
950	0.07	-111.90	1.00	-9.40	1.00	-9.40	0.07	-111.90
1000	0.07	-112.10	1.00	-10.20	1.00	-10.20	0.07	-112.10
1050	0.08	-112.30	1.00	-10.90	1.00	-10.90	0.08	-112.30
1100	0.08	-112.50	1.00	-11.60	1.00	-11.60	0.08	-112.50
1150	0.09	-112.70	0.99	-12.40	0.99	-12.40	0.09	-112.70
1200	0.09	-113.20	0.99	-13.10	0.99	-13.10	0.09	-113.20
1250	0.10	-113.70	1.00	-13.90	1.00	-13.90	0.10	-113.70
1300	0.11	-115.20	0.99	-14.60	0.99	-14.60	0.11	-115.20
1350	0.11	-116.70	0.99	-15.30	0.99	-15.30	0.11	-116.70
1400	0.12	-116.30	0.99	-16.00	0.99	-16.00	0.12	-116.30
1450	0.12	-115.80	0.99	-16.70	0.99	-16.70	0.12	-115.80
1500	0.13	-116.70	0.99	-17.50	0.99	-17.50	0.13	-116.70
1550	0.14	-117.70	0.99	-18.30	0.99	-18.30	0.14	-117.70
1600	0.14	-118.00	0.99	-19.10	0.99	-19.10	0.14	-118.00
1650	0.15	-118.40	0.99	-19.80	0.99	-19.80	0.15	-118.40
1700	0.15	-119.60	0.99	-20.70	0.99	-20.70	0.15	-119.60
1750	0.16	-120.90	0.99	-21.50	0.99	-21.50	0.16	-120.90
1800	0.17	-121.20	0.98	-22.40	0.98	-22.40	0.17	-121.20
1850	0.18	-121.50	0.98	-23.20	0.98	-23.20	0.18	-121.50
1900	0.19	-122.50	0.98	-24.10	0.98	-24.10	0.19	-122.50
1950	0.19	-123.40	0.98	-24.90	0.98	-24.90	0.19	-123.40
2000	0.21	-124.20	0.97	-26.00	0.97	-26.00	0.21	-124.20
2050	0.22	-124.90	0.97	-27.10	0.97	-27.10	0.22	-124.90
2100	0.23	-126.40	0.96	-28.40	0.96	-28.40	0.23	-126.40
2150	0.25	-128.00	0.96	-29.70	0.96	-29.70	0.25	-128.00
2200	0.28	-133.10	0.93	-31.40	0.93	-31.40	0.28	-133.10
2250	0.30	-138.20	0.90	-33.20	0.90	-33.20	0.30	-138.20
2300	0.28	-157.40	0.84	-28.40	0.84	-28.40	0.28	-157.40
2350	0.26	-176.70	0.78	-23.50	0.78	-23.50	0.26	-176.70
2400	0.20	-161.90	0.86	-24.00	0.86	-24.00	0.20	-161.90
2450	0.14	-147.20	0.94	-24.50	0.94	-24.50	0.14	-147.20
2500	0.16	-139.70	0.95	-26.40	0.95	-26.40	0.16	-139.70
2550	0.18	-132.30	0.96	-28.40	0.96	-28.40	0.18	-132.30
2600	0.19	-131.50	0.97	-29.70	0.97	-29.70	0.19	-131.50
2650	0.21	-130.80	0.97	-30.90	0.97	-30.90	0.21	-130.80
2700	0.22	-130.70	0.96	-31.90	0.96	-31.90	0.22	-130.70
2750	0.23	-130.70	0.96	-32.90	0.96	-32.90	0.23	-130.70
2800	0.24	-131.00	0.96	-33.80	0.96	-33.80	0.24	-131.00
2850	0.25	-131.40	0.96	-34.70	0.96	-34.70	0.25	-131.40
2900	0.25	-132.10	0.96	-35.70	0.96	-35.70	0.25	-132.10
2950	0.26	-132.70	0.96	-36.70	0.96	-36.70	0.26	-132.70
3000	0.27	-132.90	0.95	-37.50	0.95	-37.50	0.27	-132.90
3050	0.28	-133.00	0.95	-38.20	0.95	-38.20	0.28	-133.00
3100	0.29	-134.10	0.95	-39.20	0.95	-39.20	0.29	-134.10
3150	0.29	-135.30	0.94	-40.10	0.94	-40.10	0.29	-135.30
3200	0.30	-135.20	0.94	-40.80	0.94	-40.80	0.30	-135.20
3250	0.30	-135.20	0.94	-41.50	0.94	-41.50	0.30	-135.20
3300	0.31	-135.80	0.94	-42.40	0.94	-42.40	0.31	-135.80
3350	0.32	-136.40	0.94	-43.20	0.94	-43.20	0.32	-136.40
3400	0.33	-137.10	0.94	-44.00	0.94	-44.00	0.33	-137.10
3450	0.34	-137.70	0.93	-44.90	0.93	-44.90	0.34	-137.70
3500	0.34	-138.20	0.93	-45.70	0.93	-45.70	0.34	-138.20
3550	0.34	-138.70	0.93	-46.60	0.93	-46.60	0.34	-138.70
3600	0.35	-139.00	0.92	-47.40	0.92	-47.40	0.35	-139.00
3650	0.36	-139.30	0.92	-48.20	0.92	-48.20	0.36	-139.30
3700	0.37	-140.00	0.92	-49.40	0.92	-49.40	0.37	-140.00
3750	0.38	-140.70	0.91	-50.50	0.91	-50.50	0.38	-140.70
3800	0.39	-141.40	0.90	-51.40	0.90	-51.40	0.39	-141.40
3850	0.40	-142.10	0.89	-52.30	0.89	-52.30	0.40	-142.10
3900	0.41	-143.90	0.88	-53.70	0.88	-53.70	0.41	-143.90
3950	0.42	-145.70	0.86	-55.10	0.86	-55.10	0.42	-145.70
4000	0.43	-148.90	0.83	-55.90	0.83	-55.90	0.43	-148.90
4050	0.45	-152.00	0.81	-56.70	0.81	-56.70	0.45	-152.00
4100	0.43	-159.20	0.77	-53.80	0.77	-53.80	0.43	-159.20
4150	0.41	-166.40	0.73	-51.00	0.73	-51.00	0.41	-166.40
4200	0.35	-164.00	0.78	-48.50	0.78	-48.50	0.35	-164.00
4250	0.29	-161.60	0.84	-46.10	0.84	-46.10	0.29	-161.60
4300	0.29	-154.40	0.87	-48.00	0.87	-48.00	0.29	-154.40
4350	0.29	-147.20	0.89	-50.00	0.89	-50.00	0.29	-147.20
4400	0.31	-145.80	0.90	-51.90	0.90	-51.90	0.31	-145.80
4450	0.34	-144.30	0.91	-53.70	0.91	-53.70	0.34	-144.30
4500	0.35	-144.10	0.91	-55.20	0.91	-55.20	0.35	-144.10
4550	0.37	-143.90	0.91	-56.60	0.91	-56.60	0.37	-143.90
4600	0.38	-145.20	0.90	-58.00	0.90	-58.00	0.38	-145.20
4650	0.39	-146.40	0.90	-59.40	0.90	-59.40	0.39	-146.40
4700	0.40	-147.20	0.89	-60.30	0.89	-60.30	0.40	-147.20
4750	0.41	-147.90	0.89	-61.30	0.89	-61.30	0.41	-147.90
4800	0.42	-149.00	0.88	-62.20	0.88	-62.20	0.42	-149.00
4850	0.43	-150.10	0.88	-63.10	0.88	-63.10	0.43	-150.10
4900	0.44	-151.50	0.88	-64.20	0.88	-64.20	0.44	-151.50
4950	0.45	-152.80	0.87	-65.30	0.87	-65.30	0.45	-152.80
5000	0.46	-154.10	0.86	-66.10	0.86	-66.10	0.46	-154.10
5050	0.47	-155.40	0.85	-67.00	0.85	-67.00	0.47	-155.40
5100	0.47	-156.60	0.85	-67.70	0.85	-67.70	0.47	-156.60
5150	0.48	-157.70	0.85	-68.50	0.85	-68.50	0.48	-157.70
5200	0.49	-159.10	0.84	-69.40	0.84	-69.40	0.49	-159.10
5250	0.51	-160.40	0.84	-70.30	0.84	-70.30	0.51	-160.40
5300	0.51	-162.20	0.83	-71.40	0.83	-71.40	0.51	-162.20
5350	0.52	-163.90	0.82	-72.50	0.82	-72.50	0.52	-163.90
5400	0.53	-165.10	0.81	-73.40	0.81	-73.40	0.53	-165.10
5450	0.54	-166.40	0.81	-74.20	0.81	-74.20	0.54	-166.40
5500	0.55	-168.10	0.80	-75.20	0.80	-75.20	0.55	-168.10
5550	0.56	-169.90	0.78	-76.20	0.78	-76.20	0.56	-169.90
5600	0.57	-171.60	0.77	-77.10	0.77	-77.10	0.57	-171.60
5650	0.58	-173.30	0.76	-78.00	0.76	-78.00	0.58	-173.30
5700	0.59	-175.70	0.74	-78.80	0.74	-78.80	0.59	-175.70
5750	0.60	-178.00	0.72	-79.50	0.72	-79.50	0.60	-178.00
5800	0.60	-1.40	0.69	-79.10	0.69	-79.10	0.60	-1.40
5850	0.60	175.20	0.66	-78.60	0.66	-78.60	0.60	175.20
5900	0.57	171.80	0.65	-75.00	0.65	-75.00	0.57	171.80
5950	0.54	168.40	0.63	-71.30	0.63	-71.30	0.54	168.40
6000	0.51	171.40	0.68	-69.80	0.68	-69.80	0.51	171.40
6050	0.47	174.40	0.72	-68.30	0.72	-68.30	0.47	174.40
6100	0.48	-2.20	0.75	-70.30	0.75	-70.30	0.48	-2.20
6150	0.50	-178.90	0.78	-72.40	0.78	-72.40	0.50	-178.90
6200	0.51	-178.60	0.78	-74.50	0.78	-74.50	0.51	-178.60
6250	0.54	-178.30	0.78	-76.60	0.78	-76.60	0.54	-178.30
6300	0.55	-178.50	0.78	-78.10	0.78	-78.10	0.55	-178.50
6350	0.57	-178.80	0.78	-79.70	0.78	-79.70	0.57	-178.80
6400	0.58	-179.40	0.77	-81.00	0.77	-81.00	0.58	-179.40
6450	0.59	-180.00	0.76	-82.30	0.76	-82.30	0.59	-180.00
6500	0.60	-0.80	0.76	-83.40	0.76	-83.40	0.60	-0.80
6550	0.61	178.40	0.75	-84.60	0.75	-84.60	0.61	178.40
6600	0.62	177.20	0.74	-85.60	0.74	-85.60	0.62	177.20
6650	0.63	176.10	0.74	-86.70	0.74	-86.70	0.63	176.10
6700	0.63	175.10	0.73	-87.50	0.73	-87.50	0.63	175.10
6750	0.64	174.10	0.72	-88.30	0.72	-88.30	0.64	174.10
6800	0.65	172.60	0.71	-89.30	0.71	-89.30	0.65	172.60
6850	0.65	171.00	0.71	-90.30	0.71	-90.30	0.65	171.00
6900	0.65	170.30	0.70	-90.90	0.70	-90.90	0.65	170.30
6950	0.65	169.50	0.70	-91.40	0.70	-91.40	0.65	169.50
7000	0.67	168.20	0.69	-92.70	0.69	-92.70	0.67	168.20
7050	0.68	166.90	0.69	-93.90	0.69	-93.90	0.68	166.90
7100	0.68	165.80	0.68	-95.00	0.68	-95.00	0.68	165.80
7150	0.69	164.60	0.67	-96.00	0.67	-96.00	0.69	164.60
7200	0.70	163.00	0.66	-97.50	0.66	-97.50	0.70	163.00
7250	0.72	161.50	0.65	-98.90	0.65	-98.90	0.72	161.50
7300	0.72	159.60	0.63	-100.00	0.63	-100.00	0.72	159.60
7350	0.73	157.80	0.61	-101.10	0.61	-101.10	0.73	157.80
7400	0.74	155.90	0.59	-102.00	0.59	-102.00	0.74	155.90
7450	0.74	154.10	0.57	-102.80	0.57	-102.80	0.74	154.10
7500	0.75	151.30	0.55	-103.20	0.55	-103.20	0.75	151.30
7550	0.75	148.50	0.52	-103.50	0.52	-103.50	0.75	148.50
7600	0.74	145.60	0.49	-101.30	0.49	-101.30	0.74	145.60
7650	0.73	142.70	0.47	-99.10	0.47	-99.10	0.73	142.70
7700	0.69	139.80	0.47	-94.20	0.47	-94.20	0.69	139.80
7750	0.66	136.80	0.47	-89.20	0.47	-89.20	0.66	136.80
7800	0.62	136.80	0.51	-87.40	0.51	-87.40	0.62	136.80
7850	0.57	136.80	0.55	-85.50	0.55	-85.50	0.57	136.80
7900	0.57	140.00	0.59	-88.40	0.59	-88.40	0.57	140.00
7950	0.56	143.10	0.63	-91.30	0.63	-91.30	0.56	143.10
8000	0.59	143.90	0.64	-94.90	0.64	-94.90	0.59	143.90
8050	0.61	144.60	0.64	-98.50	0.64	-98.50	0.61	144.60
8100	0.63	143.80	0.64	-101.80	0.64	-101.80	0.63	143.80
8150	0.65	142.90	0.63	-105.10	0.63	-105.10	0.65	142.90
8200	0.67	141.50	0.62	-107.50	0.62	-107.50	0.67	141.50
8250	0.69	140.10	0.60	-109.90	0.60	-109.90	0.69	140.10
8300	0.71	138.30	0.58	-112.40	0.58	-112.40	0.71	138.30
8350	0.73	136.40	0.57	-114.80	0.57	-114.80	0.73	136.40
8400	0.74	134.70	0.54	-116.50	0.54	-116.50	0.74	134.70
8450	0.75	132.90	0.52	-118.20	0.52	-118.20	0.75	132.90
8500	0.76	130.90	0.50	-120.00	0.50	-120.00	0.76	130.90
8550	0.76	128.90	0.48	-121.70	0.48	-121.70	0.76	128.90
8600	0.77	126.90	0.45	-122.60	0.45	-122.60	0.77	126.90
8650	0.78	125.00	0.43	-123.40	0.43	-123.40	0.78	125.00
8700	0.79	123.70	0.41	-124.00	0.41	-124.00	0.79	123.70
8750	0.79	122.30	0.39	-124.50	0.39	-124.50	0.79	122.30
8800	0.80	120.50	0.37	-125.30	0.37	-125.30	0.80	120.50
8850	0.81	118.60	0.35	-126.00	0.35	-126.00	0.81	118.60
8900	0.82	117.20	0.33	-126.70	0.33	-126.70	0.82	117.20
8950	0.82	115.80	0.30	-127.50	0.30	-127.50	0.82	115.80
9000	0.84	114.00	0.28	-126.80	0.28	-126.80	0.84	114.00
9050	0.85	112.30	0.25	-126.20	0.25	-126.20	0.85	112.30
9100	0.86	110.20	0.23	-123.00	0.23	-123.00	0.86	110.20
9150	0.86	108.20	0.20	-119.90	0.20	-119.90	0.86	108.20
9200	0.85	105.30	0.19	-113.00	0.19	-113.00	0.85	105.30
9250	0.84	102.40	0.17	-106.00	0.17	-106.00	0.84	102.40
9300	0.82	101.40	0.17	-94.80	0.17	-94.80	0.82	101.40
9350	0.80	100.40	0.17	-83.50	0.17	-83.50	0.80	100.40
9400	0.78	98.10	0.20	-77.00	0.20	-77.00	0.78	98.10
9450	0.76	95.80	0.23	-70.60	0.23	-70.60	0.76	95.80
9500	0.72	95.50	0.27	-70.30	0.27	-70.30	0.72	95.50
9550	0.68	95.20	0.30	-70.00	0.30	-70.00	0.68	95.20
9600	0.65	97.10	0.34	-74.80	0.34	-74.80	0.65	97.10
9650	0.62	99.00	0.37	-79.60	0.37	-79.60	0.62	99.00
9700	0.62	102.70	0.38	-86.00	0.38	-86.00	0.62	102.70
9750	0.61	106.30	0.39	-92.40	0.39	-92.40	0.61	106.30
9800	0.64	108.90	0.37	-97.50	0.37	-97.50	0.64	108.90
9850	0.66	111.60	0.34	-102.50	0.34	-102.50	0.66	111.60
9900	0.70	111.10	0.32	-105.30	0.32	-105.30	0.70	111.10
9950	0.74	110.70	0.29	-108.10	0.29	-108.10	0.74	110.70
10000	0.76	109.10	0.26	-107.30	0.26	-107.30	0.76	109.10
10050	0.77	107.60	0.22	-106.50	0.22	-106.50	0.77	107.60
10100	0.79	106.80	0.21	-101.60	0.21	-101.60	0.79	106.80
10150	0.81	105.90	0.19	-96.70	0.19	-96.70	0.81	105.90
10200	0.81	103.90	0.18	-89.80	0.18	-89.80	0.81	103.90
10250	0.81	101.80	0.17	-82.90	0.17	-82.90	0.81	101.80
10300	0.81	100.10	0.18	-76.80	0.18	-76.80	0.81	100.10
10350	0.80	98.30	0.19	-70.70	0.19	-70.70	0.80	98.30
10400	0.78	97.30	0.21	-68.60	0.21	-68.60	0.78	97.30
10450	0.75	96.40	0.22	-66.40	0.22	-66.40	0.75	96.40
10500	0.75	96.10	0.23	-68.40	0.23	-68.40	0.75	96.10
10550	0.74	95.90	0.24	-70.40	0.24	-70.40	0.74	95.90
10600	0.75	95.70	0.23	-69.90	0.23	-69.90	0.75	95.70
10650	0.75	95.50	0.22	-69.30	0.22	-69.30	0.75	95.50
10700	0.77	94.60	0.22	-66.70	0.22	-66.70	0.77	94.60
10750	0.78	93.70	0.21	-64.20	0.21	-64.20	0.78	93.70
10800	0.80	92.50	0.21	-58.20	0.21	-58.20	0.80	92.50
10850	0.81	91.30	0.21	-52.20	0.21	-52.20	0.81	91.30
10900	0.81	88.30	0.23	-46.80	0.23	-46.80	0.81	88.30
10950	0.81	85.40	0.24	-41.40	0.24	-41.40	0.81	85.40
11000	0.81	82.90	0.28	-40.40	0.28	-40.40	0.81	82.90
11050	0.80	80.50	0.31	-39.30	0.31	-39.30	0.80	80.50
11100	0.79	77.90	0.34	-39.70	0.34	-39.70	0.79	77.90
11150	0.78	75.20	0.37	-40.20	0.37	-40.20	0.78	75.20
11200	0.75	73.10	0.40	-42.90	0.40	-42.90	0.75	73.10
11250	0.73	70.90	0.43	-45.70	0.43	-45.70	0.73	70.90
11300	0.70	69.90	0.45	-48.90	0.45	-48.90	0.70	69.90
11350	0.68	69.00	0.47	-52.10	0.47	-52.10	0.68	69.00
11400	0.65	69.30	0.47	-56.10	0.47	-56.10	0.65	69.30
11450	0.63	69.70	0.47	-60.10	0.47	-60.10	0.63	69.70
11500	0.63	71.20	0.46	-62.50	0.46	-62.50	0.63	71.20
11550	0.64	72.70	0.44	-64.90	0.44	-64.90	0.64	72.70
11600	0.66	72.70	0.42	-64.10	0.42	-64.10	0.66	72.70
11650	0.68	72.60	0.40	-63.40	0.40	-63.40	0.68	72.60
11700	0.70	70.60	0.40	-60.10	0.40	-60.10	0.70	70.60
11750	0.71	68.60	0.40	-56.80	0.40	-56.80	0.71	68.60
11800	0.72	66.70	0.42	-54.30	0.42	-54.30	0.72	66.70
11850	0.73	64.70	0.44	-51.90	0.44	-51.90	0.73	64.70
11900	0.71	62.70	0.47	-52.10	0.47	-52.10	0.71	62.70
11950	0.69	60.70	0.49	-52.40	0.49	-52.40	0.69	60.70
12000	0.68	59.10	0.52	-52.90	0.52	-52.90	0.68	59.10
12050	0.67	57.40	0.55	-53.50	0.55	-53.50	0.67	57.40
12100	0.65	55.80	0.57	-55.60	0.57	-55.60	0.65	55.80
12150	0.63	54.10	0.59	-57.80	0.59	-57.80	0.63	54.10
12200	0.61	53.70	0.60	-59.60	0.60	-59.60	0.61	53.70
12250	0.58	53.20	0.61	-61.40	0.61	-61.40	0.58	53.20
12300	0.57	54.00	0.61	-62.90	0.61	-62.90	0.57	54.00
12350	0.56	54.80	0.61	-64.30	0.61	-64.30	0.56	54.80
12400	0.56	53.50	0.61	-64.90	0.61	-64.90	0.56	53.50
12450	0.57	52.30	0.62	-65.60	0.62	-65.60	0.57	52.30
12500	0.57	51.10	0.63	-65.40	0.63	-65.40	0.57	51.10
12550	0.57	50.00	0.64	-65.20	0.64	-65.20	0.57	50.00
12600	0.56	48.00	0.66	-66.00	0.66	-66.00	0.56	48.00
12650	0.55	46.00	0.68	-66.80	0.68	-66.80	0.55	46.00
12700	0.53	44.10	0.70	-68.10	0.70	-68.10	0.53	44.10
12750	0.52	42.20	0.72	-69.40	0.72	-69.40	0.52	42.20
12800	0.50	40.90	0.73	-71.30	0.73	-71.30	0.50	40.90
12850	0.49	39.70	0.74	-73.10	0.74	-73.10	0.49	39.70
12900	0.47	39.20	0.75	-74.90	0.75	-74.90	0.47	39.20
12950	0.46	38.70	0.77	-76.80	0.77	-76.80	0.46	38.70
13000	0.44	38.80	0.77	-78.70	0.77	-78.70	0.44	38.80
13050	0.42	38.90	0.77	-80.50	0.77	-80.50	0.42	38.90
13100	0.40	39.70	0.77	-82.50	0.77	-82.50	0.40	39.70
13150	0.39	40.50	0.77	-84.50	0.77	-84.50	0.39	40.50
13200	0.39	41.90	0.76	-86.00	0.76	-86.00	0.39	41.90
13250	0.39	43.40	0.75	-87.50	0.75	-87.50	0.39	43.40
13300	0.38	46.20	0.74	-89.00	0.74	-89.00	0.38	46.20
13350	0.38	49.00	0.72	-90.40	0.72	-90.40	0.38	49.00
13400	0.40	46.70	0.71	-90.20	0.71	-90.20	0.40	46.70
13450	0.43	44.40	0.70	-90.00	0.70	-90.00	0.43	44.40
13500	0.43	41.70	0.70	-89.40	0.70	-89.40	0.43	41.70
13550	0.44	39.00	0.70	-88.90	0.70	-88.90	0.44	39.00
13600	0.44	36.20	0.71	-89.30	0.71	-89.30	0.44	36.20
13650	0.43	33.40	0.73	-89.70	0.73	-89.70	0.43	33.40
13700	0.43	30.60	0.74	-90.50	0.74	-90.50	0.43	30.60
13750	0.42	27.70	0.75	-91.30	0.75	-91.30	0.42	27.70
13800	0.40	25.50	0.76	-92.60	0.76	-92.60	0.40	25.50
13850	0.39	23.20	0.76	-93.90	0.76	-93.90	0.39	23.20
13900	0.38	21.50	0.77	-95.20	0.77	-95.20	0.38	21.50
13950	0.38	19.90	0.77	-96.40	0.77	-96.40	0.38	19.90
14000	0.38	18.90	0.76	-97.60	0.76	-97.60	0.38	18.90
14050	0.37	17.90	0.76	-98.70	0.76	-98.70	0.37	17.90
14100	0.38	16.80	0.75	-99.00	0.75	-99.00	0.38	16.80
14150	0.38	15.70	0.75	-99.30	0.75	-99.30	0.38	15.70
14200	0.39	13.00	0.75	-99.40	0.75	-99.40	0.39	13.00
14250	0.40	10.30	0.75	-99.40	0.75	-99.40	0.40	10.30
14300	0.39	7.50	0.76	-99.70	0.76	-99.70	0.39	7.50
14350	0.39	4.70	0.77	-99.90	0.77	-99.90	0.39	4.70
14400	0.38	2.00	0.78	-100.80	0.78	-100.80	0.38	2.00
14450	0.38	-0.70	0.79	-101.70	0.79	-101.70	0.38	-0.70
14500	0.36	-1.80	0.80	-102.80	0.80	-102.80	0.36	-1.80
14550	0.35	-3.00	0.80	-103.80	0.80	-103.80	0.35	-3.00
14600	0.34	-3.20	0.81	-105.30	0.81	-105.30	0.34	-3.20
14650	0.32	-3.50	0.81	-106.80	0.81	-106.80	0.32	-3.50
14700	0.30	-3.00	0.81	-108.40	0.81	-108.40	0.30	-3.00
14750	0.28	-2.60	0.81	-110.10	0.81	-110.10	0.28	-2.60
14800	0.28	0.60	0.81	-111.90	0.81	-111.90	0.28	0.60
14850	0.28	3.90	0.80	-113.70	0.80	-113.70	0.28	3.90
14900	0.27	9.10	0.78	-115.20	0.78	-115.20	0.27	9.10
14950	0.27	14.40	0.77	-116.60	0.77	-116.60	0.27	14.40
15000	0.29	17.20	0.74	-117.90	0.74	-117.90	0.29	17.20
15050	0.31	19.90	0.71	-119.10	0.71	-119.10	0.31	19.90
15100	0.33	20.60	0.69	-118.40	0.69	-118.40	0.33	20.60
15150	0.36	21.40	0.66	-117.70	0.66	-117.70	0.36	21.40
15200	0.38	19.00	0.65	-115.60	0.65	-115.60	0.38	19.00
15250	0.41	16.70	0.64	-113.60	0.64	-113.60	0.41	16.70
15300	0.42	12.90	0.64	-112.20	0.64	-112.20	0.42	12.90
15350	0.43	9.20	0.65	-110.80	0.65	-110.80	0.43	9.20
15400	0.43	7.10	0.66	-110.10	0.66	-110.10	0.43	7.10
15450	0.42	5.00	0.67	-109.50	0.67	-109.50	0.42	5.00
15500	0.43	3.90	0.69	-109.70	0.69	-109.70	0.43	3.90
15550	0.44	2.80	0.70	-109.90	0.70	-109.90	0.44	2.80
15600	0.43	1.50	0.71	-109.90	0.71	-109.90	0.43	1.50
15650	0.43	0.20	0.72	-109.90	0.72	-109.90	0.43	0.20
15700	0.43	-1.10	0.73	-110.40	0.73	-110.40	0.43	-1.10
15750	0.44	-2.40	0.74	-110.80	0.74	-110.80	0.44	-2.40
15800	0.42	-3.80	0.75	-111.10	0.75	-111.10	0.42	-3.80
15850	0.40	-5.20	0.76	-111.40	0.76	-111.40	0.40	-5.20
15900	0.40	-5.50	0.76	-112.30	0.76	-112.30	0.40	-5.50
15950	0.40	-5.80	0.77	-113.20	0.77	-113.20	0.40	-5.80
16000	0.37	-5.70	0.78	-113.90	0.78	-113.90	0.37	-5.70
16050	0.35	-5.60	0.79	-114.60	0.79	-114.60	0.35	-5.60
16100	0.33	-4.10	0.79	-115.70	0.79	-115.70	0.33	-4.10
16150	0.32	-2.70	0.78	-116.80	0.78	-116.80	0.32	-2.70
16200	0.31	-2.10	0.78	-117.20	0.78	-117.20	0.31	-2.10
16250	0.30	-1.50	0.78	-117.70	0.78	-117.70	0.30	-1.50
16300	0.28	-0.80	0.79	-118.20	0.79	-118.20	0.28	-0.80
16350	0.25	-0.10	0.79	-118.80	0.79	-118.80	0.25	-0.10
16400	0.25	0.70	0.80	-119.30	0.80	-119.30	0.25	0.70
16450	0.24	1.50	0.80	-119.90	0.80	-119.90	0.24	1.50
16500	0.23	-1.20	0.80	-120.10	0.80	-120.10	0.23	-1.20
16550	0.21	-3.90	0.80	-120.30	0.80	-120.30	0.21	-3.90
16600	0.19	-5.20	0.82	-121.00	0.82	-121.00	0.19	-5.20
16650	0.18	-6.50	0.84	-121.80	0.84	-121.80	0.18	-6.50
16700	0.15	-8.60	0.85	-123.10	0.85	-123.10	0.15	-8.60
16750	0.12	-10.70	0.86	-124.50	0.86	-124.50	0.12	-10.70
16800	0.09	-1.80	0.87	-126.10	0.87	-126.10	0.09	-1.80
16850	0.07	7.10	0.87	-127.80	0.87	-127.80	0.07	7.10
16900	0.07	28.30	0.87	-129.50	0.87	-129.50	0.07	28.30
16950	0.07	49.50	0.87	-131.20	0.87	-131.20	0.07	49.50
17000	0.09	65.00	0.86	-132.90	0.86	-132.90	0.09	65.00
17050	0.11	80.40	0.86	-134.60	0.86	-134.60	0.11	80.40
17100	0.14	80.60	0.84	-136.40	0.84	-136.40	0.14	80.60
17150	0.18	80.80	0.83	-138.20	0.83	-138.20	0.18	80.80
17200	0.21	79.00	0.81	-139.50	0.81	-139.50	0.21	79.00
17250	0.25	77.30	0.80	-140.80	0.80	-140.80	0.25	77.30
17300	0.29	75.80	0.77	-142.20	0.77	-142.20	0.29	75.80
17350	0.32	74.30	0.75	-143.60	0.75	-143.60	0.32	74.30
17400	0.35	69.90	0.72	-143.90	0.72	-143.90	0.35	69.90
17450	0.38	65.60	0.69	-144.30	0.69	-144.30	0.38	65.60
17500	0.41	61.70	0.66	-143.70	0.66	-143.70	0.41	61.70
17550	0.44	57.80	0.63	-143.00	0.63	-143.00	0.44	57.80
17600	0.46	53.30	0.60	-140.60	0.60	-140.60	0.46	53.30
17650	0.47	48.80	0.58	-138.20	0.58	-138.20	0.47	48.80
17700	0.47	44.10	0.58	-134.50	0.58	-134.50	0.47	44.10
17750	0.47	39.40	0.59	-130.80	0.59	-130.80	0.47	39.40
17800	0.45	35.20	0.61	-128.80	0.61	-128.80	0.45	35.20
17850	0.43	30.90	0.64	-126.70	0.64	-126.70	0.43	30.90
17900	0.40	28.30	0.67	-126.40	0.67	-126.40	0.40	28.30
17950	0.38	25.60	0.70	-126.00	0.70	-126.00	0.38	25.60
18000	0.35	23.60	0.73	-127.10	0.73	-127.10	0.35	23.60
18050	0.32	21.60	0.76	-128.20	0.76	-128.20	0.32	21.60
18100	0.30	20.50	0.77	-129.60	0.77	-129.60	0.30	20.50
18150	0.28	19.40	0.79	-131.10	0.79	-131.10	0.28	19.40
18200	0.27	18.40	0.80	-132.80	0.80	-132.80	0.27	18.40
18250	0.25	17.50	0.81	-134.40	0.81	-134.40	0.25	17.50
18300	0.25	17.00	0.82	-135.90	0.82	-135.90	0.25	17.00
18350	0.25	16.60	0.82	-137.40	0.82	-137.40	0.25	16.60
18400	0.25	16.70	0.81	-138.80	0.81	-138.80	0.25	16.70
18450	0.25	16.90	0.81	-140.30	0.81	-140.30	0.25	16.90
18500	0.26	17.60	0.80	-141.20	0.80	-141.20	0.26	17.60
18550	0.27	18.40	0.79	-142.10	0.79	-142.10	0.27	18.40
18600	0.28	17.20	0.78	-142.70	0.78	-142.70	0.28	17.20
18650	0.29	16.10	0.76	-143.20	0.76	-143.20	0.29	16.10
