#	mhz	s	ma	r	50

50	0.96	177.10	0.04	79.80	0.04	79.80	0.96	177.10
100	0.98	174.80	0.07	79.90	0.07	79.90	0.98	174.80
150	1.00	172.50	0.11	80.00	0.11	80.00	1.00	172.50
200	0.99	170.40	0.14	78.40	0.14	78.40	0.99	170.40
250	0.98	168.30	0.17	76.90	0.17	76.90	0.98	168.30
300	0.97	165.80	0.21	74.50	0.21	74.50	0.97	165.80
350	0.97	163.30	0.24	72.20	0.24	72.20	0.97	163.30
400	0.95	161.40	0.27	70.40	0.27	70.40	0.95	161.40
450	0.94	159.40	0.30	68.70	0.30	68.70	0.94	159.40
500	0.93	155.50	0.35	66.00	0.35	66.00	0.93	155.50
550	0.91	151.60	0.40	63.30	0.40	63.30	0.91	151.60
600	0.90	149.50	0.42	61.00	0.42	61.00	0.90	149.50
650	0.89	147.40	0.45	58.80	0.45	58.80	0.89	147.40
700	0.87	144.90	0.47	57.00	0.47	57.00	0.87	144.90
750	0.86	142.50	0.50	55.20	0.50	55.20	0.86	142.50
800	0.85	140.60	0.52	53.00	0.52	53.00	0.85	140.60
850	0.83	138.80	0.55	50.90	0.55	50.90	0.83	138.80
900	0.82	136.60	0.57	49.00	0.57	49.00	0.82	136.60
950	0.80	134.50	0.59	47.20	0.59	47.20	0.80	134.50
1000	0.78	132.60	0.61	45.30	0.61	45.30	0.78	132.60
1050	0.76	130.80	0.63	43.40	0.63	43.40	0.76	130.80
1100	0.75	128.60	0.65	41.90	0.65	41.90	0.75	128.60
1150	0.74	126.50	0.66	40.30	0.66	40.30	0.74	126.50
1200	0.72	124.80	0.68	38.60	0.68	38.60	0.72	124.80
1250	0.70	123.00	0.69	36.90	0.69	36.90	0.70	123.00
1300	0.69	121.00	0.71	35.50	0.71	35.50	0.69	121.00
1350	0.68	118.90	0.72	34.10	0.72	34.10	0.68	118.90
1400	0.67	117.40	0.73	32.60	0.73	32.60	0.67	117.40
1450	0.65	115.90	0.74	31.10	0.74	31.10	0.65	115.90
1500	0.64	114.10	0.75	29.70	0.75	29.70	0.64	114.10
1550	0.63	112.40	0.77	28.30	0.77	28.30	0.63	112.40
1600	0.62	110.70	0.78	27.00	0.78	27.00	0.62	110.70
1650	0.60	109.10	0.79	25.70	0.79	25.70	0.60	109.10
1700	0.59	107.50	0.80	24.40	0.80	24.40	0.59	107.50
1750	0.58	106.00	0.80	23.00	0.80	23.00	0.58	106.00
1800	0.57	104.70	0.81	22.00	0.81	22.00	0.57	104.70
1850	0.56	103.40	0.82	21.00	0.82	21.00	0.56	103.40
1900	0.55	101.80	0.83	19.90	0.83	19.90	0.55	101.80
1950	0.54	100.30	0.83	18.70	0.83	18.70	0.54	100.30
2000	0.53	98.90	0.84	17.50	0.84	17.50	0.53	98.90
2050	0.52	97.50	0.85	16.30	0.85	16.30	0.52	97.50
2100	0.51	96.40	0.85	15.30	0.85	15.30	0.51	96.40
2150	0.50	95.30	0.86	14.40	0.86	14.40	0.50	95.30
2200	0.49	94.00	0.86	13.30	0.86	13.30	0.49	94.00
2250	0.48	92.60	0.87	12.20	0.87	12.20	0.48	92.60
2300	0.47	91.60	0.87	11.30	0.87	11.30	0.47	91.60
2350	0.45	90.70	0.88	10.40	0.88	10.40	0.45	90.70
2400	0.45	89.60	0.88	9.40	0.88	9.40	0.45	89.60
2450	0.44	88.60	0.89	8.40	0.89	8.40	0.44	88.60
2500	0.43	87.60	0.89	7.40	0.89	7.40	0.43	87.60
2550	0.42	86.60	0.90	6.30	0.90	6.30	0.42	86.60
2600	0.41	85.90	0.90	5.50	0.90	5.50	0.41	85.90
2650	0.41	85.20	0.90	4.60	0.90	4.60	0.41	85.20
2700	0.40	84.60	0.91	3.80	0.91	3.80	0.40	84.60
2750	0.39	83.90	0.91	2.90	0.91	2.90	0.39	83.90
2800	0.38	83.20	0.92	2.00	0.92	2.00	0.38	83.20
2850	0.37	82.40	0.92	1.20	0.92	1.20	0.37	82.40
2900	0.36	82.00	0.93	0.10	0.93	0.10	0.36	82.00
2950	0.35	81.60	0.93	-1.00	0.93	-1.00	0.35	81.60
3000	0.34	80.90	0.93	-1.80	0.93	-1.80	0.34	80.90
3050	0.34	80.10	0.93	-2.60	0.93	-2.60	0.34	80.10
3100	0.33	79.70	0.93	-3.60	0.93	-3.60	0.33	79.70
3150	0.32	79.20	0.93	-4.70	0.93	-4.70	0.32	79.20
3200	0.31	78.70	0.94	-5.30	0.94	-5.30	0.31	78.70
3250	0.31	78.20	0.94	-5.90	0.94	-5.90	0.31	78.20
3300	0.30	78.30	0.94	-6.90	0.94	-6.90	0.30	78.30
3350	0.29	78.40	0.95	-7.90	0.95	-7.90	0.29	78.40
3400	0.29	77.70	0.95	-8.60	0.95	-8.60	0.29	77.70
3450	0.28	77.00	0.95	-9.30	0.95	-9.30	0.28	77.00
3500	0.28	76.90	0.95	-10.00	0.95	-10.00	0.28	76.90
3550	0.27	76.80	0.95	-10.70	0.95	-10.70	0.27	76.80
3600	0.26	76.90	0.96	-11.50	0.96	-11.50	0.26	76.90
3650	0.26	77.00	0.96	-12.30	0.96	-12.30	0.26	77.00
3700	0.25	76.10	0.96	-13.20	0.96	-13.20	0.25	76.10
3750	0.25	75.10	0.96	-14.00	0.96	-14.00	0.25	75.10
3800	0.24	74.90	0.96	-14.60	0.96	-14.60	0.24	74.90
3850	0.24	74.70	0.96	-15.30	0.96	-15.30	0.24	74.70
3900	0.23	73.90	0.96	-16.20	0.96	-16.20	0.23	73.90
3950	0.23	73.10	0.97	-17.10	0.97	-17.10	0.23	73.10
4000	0.22	72.40	0.97	-17.80	0.97	-17.80	0.22	72.40
4050	0.22	71.70	0.97	-18.40	0.97	-18.40	0.22	71.70
4100	0.22	70.40	0.97	-19.20	0.97	-19.20	0.22	70.40
4150	0.21	69.10	0.97	-20.00	0.97	-20.00	0.21	69.10
4200	0.21	67.90	0.97	-20.70	0.97	-20.70	0.21	67.90
4250	0.20	66.70	0.97	-21.40	0.97	-21.40	0.20	66.70
4300	0.20	65.20	0.97	-22.00	0.97	-22.00	0.20	65.20
4350	0.19	63.70	0.97	-22.60	0.97	-22.60	0.19	63.70
4400	0.19	62.60	0.98	-23.40	0.98	-23.40	0.19	62.60
4450	0.18	61.40	0.98	-24.10	0.98	-24.10	0.18	61.40
4500	0.18	59.10	0.98	-25.00	0.98	-25.00	0.18	59.10
4550	0.17	56.80	0.98	-25.90	0.98	-25.90	0.17	56.80
4600	0.17	55.10	0.98	-26.60	0.98	-26.60	0.17	55.10
4650	0.16	53.50	0.98	-27.30	0.98	-27.30	0.16	53.50
4700	0.16	51.20	0.98	-28.00	0.98	-28.00	0.16	51.20
4750	0.15	49.00	0.98	-28.70	0.98	-28.70	0.15	49.00
4800	0.14	47.00	0.98	-29.40	0.98	-29.40	0.14	47.00
4850	0.14	45.10	0.98	-30.20	0.98	-30.20	0.14	45.10
4900	0.13	43.00	0.98	-30.80	0.98	-30.80	0.13	43.00
4950	0.13	41.00	0.99	-31.50	0.99	-31.50	0.13	41.00
5000	0.12	38.60	0.99	-32.30	0.99	-32.30	0.12	38.60
5050	0.11	36.20	0.98	-33.00	0.98	-33.00	0.11	36.20
5100	0.11	33.70	0.99	-33.70	0.99	-33.70	0.11	33.70
5150	0.10	31.20	0.99	-34.40	0.99	-34.40	0.10	31.20
5200	0.10	30.10	0.99	-34.90	0.99	-34.90	0.10	30.10
5250	0.09	29.10	0.99	-35.40	0.99	-35.40	0.09	29.10
5300	0.09	26.30	0.99	-36.20	0.99	-36.20	0.09	26.30
5350	0.08	23.50	0.99	-37.00	0.99	-37.00	0.08	23.50
5400	0.07	20.00	0.99	-37.70	0.99	-37.70	0.07	20.00
5450	0.07	16.60	0.99	-38.50	0.99	-38.50	0.07	16.60
5500	0.06	15.30	0.99	-39.10	0.99	-39.10	0.06	15.30
5550	0.06	14.10	0.99	-39.70	0.99	-39.70	0.06	14.10
5600	0.05	8.10	0.99	-40.50	0.99	-40.50	0.05	8.10
5650	0.05	2.10	0.99	-41.20	0.99	-41.20	0.05	2.10
5700	0.04	-3.70	0.99	-41.90	0.99	-41.90	0.04	-3.70
5750	0.03	-9.60	0.99	-42.50	0.99	-42.50	0.03	-9.60
5800	0.03	-18.90	0.99	-43.20	0.99	-43.20	0.03	-18.90
5850	0.03	-28.30	0.99	-43.80	0.99	-43.80	0.03	-28.30
5900	0.03	-46.60	0.99	-44.40	0.99	-44.40	0.03	-46.60
5950	0.02	-64.90	0.99	-44.90	0.99	-44.90	0.02	-64.90
6000	0.03	-81.30	0.99	-45.70	0.99	-45.70	0.03	-81.30
6050	0.05	-97.80	0.99	-46.50	0.99	-46.50	0.05	-97.80
6100	0.05	-105.90	0.99	-46.90	0.99	-46.90	0.05	-105.90
6150	0.05	-114.10	0.99	-47.40	0.99	-47.40	0.05	-114.10
6200	0.06	-120.00	0.99	-48.10	0.99	-48.10	0.06	-120.00
6250	0.06	-126.00	0.99	-48.70	0.99	-48.70	0.06	-126.00
6300	0.06	-128.60	0.99	-49.30	0.99	-49.30	0.06	-128.60
6350	0.07	-131.20	0.99	-49.90	0.99	-49.90	0.07	-131.20
6400	0.08	-133.70	0.99	-50.50	0.99	-50.50	0.08	-133.70
6450	0.08	-136.30	0.98	-51.10	0.98	-51.10	0.08	-136.30
6500	0.08	-138.40	0.98	-51.70	0.98	-51.70	0.08	-138.40
6550	0.08	-140.60	0.98	-52.30	0.98	-52.30	0.08	-140.60
6600	0.09	-143.00	0.98	-52.90	0.98	-52.90	0.09	-143.00
6650	0.09	-145.50	0.98	-53.50	0.98	-53.50	0.09	-145.50
6700	0.09	-146.60	0.98	-53.90	0.98	-53.90	0.09	-146.60
6750	0.10	-147.70	0.98	-54.30	0.98	-54.30	0.10	-147.70
6800	0.10	-150.70	0.98	-54.90	0.98	-54.90	0.10	-150.70
6850	0.10	-153.80	0.98	-55.50	0.98	-55.50	0.10	-153.80
6900	0.10	-154.40	0.98	-56.10	0.98	-56.10	0.10	-154.40
6950	0.10	-155.10	0.98	-56.70	0.98	-56.70	0.10	-155.10
7000	0.10	-158.60	0.98	-57.30	0.98	-57.30	0.10	-158.60
7050	0.11	-162.20	0.98	-58.00	0.98	-58.00	0.11	-162.20
7100	0.11	-163.60	0.98	-58.50	0.98	-58.50	0.11	-163.60
7150	0.10	-165.00	0.98	-59.00	0.98	-59.00	0.10	-165.00
7200	0.11	-166.40	0.98	-59.60	0.98	-59.60	0.11	-166.40
7250	0.12	-167.70	0.99	-60.20	0.99	-60.20	0.12	-167.70
7300	0.11	-170.10	0.99	-60.80	0.99	-60.80	0.11	-170.10
7350	0.11	-172.50	0.98	-61.40	0.98	-61.40	0.11	-172.50
7400	0.11	-171.50	0.98	-62.00	0.98	-62.00	0.11	-171.50
7450	0.12	-170.60	0.98	-62.60	0.98	-62.60	0.12	-170.60
7500	0.12	-172.90	0.98	-63.30	0.98	-63.30	0.12	-172.90
7550	0.12	-175.20	0.98	-63.90	0.98	-63.90	0.12	-175.20
7600	0.11	-173.10	0.98	-64.50	0.98	-64.50	0.11	-173.10
7650	0.11	-170.90	0.98	-65.00	0.98	-65.00	0.11	-170.90
7700	0.11	-171.10	0.98	-65.60	0.98	-65.60	0.11	-171.10
7750	0.11	-171.30	0.98	-66.20	0.98	-66.20	0.11	-171.30
7800	0.10	-172.00	0.98	-66.90	0.98	-66.90	0.10	-172.00
7850	0.10	-172.70	0.98	-67.50	0.98	-67.50	0.10	-172.70
7900	0.10	-169.90	0.98	-68.10	0.98	-68.10	0.10	-169.90
7950	0.10	-167.20	0.98	-68.70	0.98	-68.70	0.10	-167.20
8000	0.10	-167.90	0.98	-69.40	0.98	-69.40	0.10	-167.90
8050	0.10	-168.70	0.98	-70.00	0.98	-70.00	0.10	-168.70
8100	0.10	-166.10	0.98	-70.60	0.98	-70.60	0.10	-166.10
8150	0.09	-163.50	0.98	-71.20	0.98	-71.20	0.09	-163.50
8200	0.10	-163.30	0.98	-71.90	0.98	-71.90	0.10	-163.30
8250	0.10	-163.20	0.98	-72.50	0.98	-72.50	0.10	-163.20
8300	0.10	-160.40	0.98	-73.10	0.98	-73.10	0.10	-160.40
8350	0.10	-157.70	0.98	-73.80	0.98	-73.80	0.10	-157.70
8400	0.11	-157.90	0.98	-74.50	0.98	-74.50	0.11	-157.90
8450	0.11	-158.10	0.98	-75.20	0.98	-75.20	0.11	-158.10
8500	0.11	-155.60	0.98	-75.90	0.98	-75.90	0.11	-155.60
8550	0.12	-153.20	0.98	-76.60	0.98	-76.60	0.12	-153.20
8600	0.12	-154.20	0.98	-77.30	0.98	-77.30	0.12	-154.20
8650	0.12	-155.20	0.98	-78.10	0.98	-78.10	0.12	-155.20
8700	0.13	-154.00	0.98	-78.80	0.98	-78.80	0.13	-154.00
8750	0.13	-152.90	0.98	-79.50	0.98	-79.50	0.13	-152.90
8800	0.13	-154.30	0.98	-80.00	0.98	-80.00	0.13	-154.30
8850	0.14	-155.70	0.98	-80.40	0.98	-80.40	0.14	-155.70
8900	0.14	-156.10	0.98	-81.30	0.98	-81.30	0.14	-156.10
8950	0.14	-156.50	0.98	-82.20	0.98	-82.20	0.14	-156.50
9000	0.15	-156.90	0.97	-82.90	0.97	-82.90	0.15	-156.90
9050	0.16	-157.30	0.97	-83.60	0.97	-83.60	0.16	-157.30
9100	0.16	-158.10	0.97	-84.30	0.97	-84.30	0.16	-158.10
9150	0.16	-159.00	0.97	-85.00	0.97	-85.00	0.16	-159.00
9200	0.17	-159.60	0.97	-85.90	0.97	-85.90	0.17	-159.60
9250	0.17	-160.20	0.97	-86.80	0.97	-86.80	0.17	-160.20
9300	0.18	-160.40	0.97	-87.40	0.97	-87.40	0.18	-160.40
9350	0.18	-160.60	0.97	-88.00	0.97	-88.00	0.18	-160.60
9400	0.19	-160.50	0.97	-88.70	0.97	-88.70	0.19	-160.50
9450	0.19	-160.50	0.96	-89.40	0.96	-89.40	0.19	-160.50
9500	0.20	-160.60	0.96	-90.30	0.96	-90.30	0.20	-160.60
9550	0.20	-160.60	0.96	-91.20	0.96	-91.20	0.20	-160.60
9600	0.21	-161.70	0.96	-92.00	0.96	-92.00	0.21	-161.70
9650	0.22	-162.80	0.96	-92.90	0.96	-92.90	0.22	-162.80
9700	0.22	-162.40	0.96	-93.70	0.96	-93.70	0.22	-162.40
9750	0.23	-162.10	0.95	-94.50	0.95	-94.50	0.23	-162.10
9800	0.24	-162.50	0.95	-95.30	0.95	-95.30	0.24	-162.50
9850	0.25	-163.00	0.94	-96.10	0.94	-96.10	0.25	-163.00
9900	0.26	-163.30	0.94	-96.80	0.94	-96.80	0.26	-163.30
9950	0.26	-163.70	0.94	-97.50	0.94	-97.50	0.26	-163.70
10000	0.28	-164.60	0.93	-98.50	0.93	-98.50	0.28	-164.60
10050	0.29	-165.50	0.93	-99.40	0.93	-99.40	0.29	-165.50
10100	0.30	-166.30	0.92	-100.10	0.92	-100.10	0.30	-166.30
10150	0.31	-167.20	0.92	-100.70	0.92	-100.70	0.31	-167.20
10200	0.33	-167.60	0.92	-101.70	0.92	-101.70	0.33	-167.60
10250	0.34	-167.90	0.91	-102.70	0.91	-102.70	0.34	-167.90
10300	0.36	-170.00	0.90	-103.60	0.90	-103.60	0.36	-170.00
10350	0.38	-172.10	0.90	-104.60	0.90	-104.60	0.38	-172.10
10400	0.38	-173.00	0.89	-105.60	0.89	-105.60	0.38	-173.00
10450	0.38	-174.00	0.89	-106.60	0.89	-106.60	0.38	-174.00
10500	0.40	-175.20	0.88	-107.50	0.88	-107.50	0.40	-175.20
10550	0.43	-176.50	0.88	-108.40	0.88	-108.40	0.43	-176.50
10600	0.42	0.30	0.87	-109.20	0.87	-109.20	0.42	0.30
10650	0.42	177.00	0.86	-109.90	0.86	-109.90	0.42	177.00
10700	0.44	176.90	0.86	-110.80	0.86	-110.80	0.44	176.90
10750	0.46	176.70	0.85	-111.70	0.85	-111.70	0.46	176.70
10800	0.47	174.70	0.85	-112.30	0.85	-112.30	0.47	174.70
10850	0.48	172.70	0.84	-112.90	0.84	-112.90	0.48	172.70
10900	0.48	170.80	0.83	-114.00	0.83	-114.00	0.48	170.80
10950	0.49	168.90	0.82	-115.10	0.82	-115.10	0.49	168.90
11000	0.50	167.90	0.82	-115.70	0.82	-115.70	0.50	167.90
11050	0.52	166.90	0.82	-116.30	0.82	-116.30	0.52	166.90
11100	0.53	164.50	0.81	-117.50	0.81	-117.50	0.53	164.50
11150	0.53	162.20	0.80	-118.60	0.80	-118.60	0.53	162.20
11200	0.54	160.90	0.80	-119.30	0.80	-119.30	0.54	160.90
11250	0.56	159.60	0.80	-120.10	0.80	-120.10	0.56	159.60
11300	0.56	157.90	0.79	-121.00	0.79	-121.00	0.56	157.90
11350	0.57	156.30	0.78	-121.90	0.78	-121.90	0.57	156.30
11400	0.58	154.40	0.77	-123.10	0.77	-123.10	0.58	154.40
11450	0.59	152.50	0.77	-124.30	0.77	-124.30	0.59	152.50
11500	0.60	150.60	0.76	-125.10	0.76	-125.10	0.60	150.60
11550	0.61	148.80	0.75	-125.90	0.75	-125.90	0.61	148.80
11600	0.62	147.00	0.74	-127.20	0.74	-127.20	0.62	147.00
11650	0.63	145.20	0.73	-128.40	0.73	-128.40	0.63	145.20
11700	0.64	143.70	0.72	-129.40	0.72	-129.40	0.64	143.70
11750	0.65	142.20	0.71	-130.40	0.71	-130.40	0.65	142.20
11800	0.66	140.70	0.70	-131.30	0.70	-131.30	0.66	140.70
11850	0.67	139.20	0.68	-132.30	0.68	-132.30	0.67	139.20
11900	0.69	138.10	0.67	-133.60	0.67	-133.60	0.69	138.10
11950	0.70	136.90	0.66	-135.00	0.66	-135.00	0.70	136.90
12000	0.71	135.80	0.64	-135.80	0.64	-135.80	0.71	135.80
12050	0.71	134.80	0.63	-136.60	0.63	-136.60	0.71	134.80
12100	0.73	133.10	0.62	-137.80	0.62	-137.80	0.73	133.10
12150	0.75	131.50	0.61	-139.10	0.61	-139.10	0.75	131.50
12200	0.75	130.20	0.59	-140.10	0.59	-140.10	0.75	130.20
12250	0.76	129.00	0.57	-141.20	0.57	-141.20	0.76	129.00
12300	0.77	127.80	0.55	-142.60	0.55	-142.60	0.77	127.80
12350	0.78	126.60	0.53	-144.10	0.53	-144.10	0.78	126.60
12400	0.79	124.70	0.52	-145.20	0.52	-145.20	0.79	124.70
12450	0.81	122.90	0.50	-146.40	0.50	-146.40	0.81	122.90
12500	0.81	121.00	0.48	-147.90	0.48	-147.90	0.81	121.00
12550	0.82	119.10	0.45	-149.50	0.45	-149.50	0.82	119.10
12600	0.83	117.20	0.43	-150.70	0.43	-150.70	0.83	117.20
12650	0.84	115.40	0.41	-151.90	0.41	-151.90	0.84	115.40
12700	0.85	113.30	0.38	-152.60	0.38	-152.60	0.85	113.30
12750	0.85	111.30	0.35	-153.40	0.35	-153.40	0.85	111.30
12800	0.86	108.40	0.32	-154.30	0.32	-154.30	0.86	108.40
12850	0.86	105.50	0.29	-155.30	0.29	-155.30	0.86	105.50
12900	0.87	103.40	0.26	-153.70	0.26	-153.70	0.87	103.40
12950	0.88	101.30	0.22	-152.10	0.22	-152.10	0.88	101.30
13000	0.87	98.20	0.19	-147.90	0.19	-147.90	0.87	98.20
13050	0.87	95.10	0.16	-143.60	0.16	-143.60	0.87	95.10
13100	0.87	92.50	0.14	-131.80	0.14	-131.80	0.87	92.50
13150	0.87	90.00	0.12	-120.10	0.12	-120.10	0.87	90.00
13200	0.87	87.10	0.13	-103.80	0.13	-103.80	0.87	87.10
13250	0.87	84.20	0.13	-87.50	0.13	-87.50	0.87	84.20
13300	0.84	82.80	0.16	-78.90	0.16	-78.90	0.84	82.80
13350	0.81	81.30	0.18	-70.30	0.18	-70.30	0.81	81.30
13400	0.82	77.10	0.21	-66.90	0.21	-66.90	0.82	77.10
13450	0.83	72.90	0.24	-63.60	0.24	-63.60	0.83	72.90
13500	0.82	69.90	0.28	-63.20	0.28	-63.20	0.82	69.90
13550	0.80	67.00	0.31	-62.80	0.31	-62.80	0.80	67.00
13600	0.80	64.20	0.34	-63.70	0.34	-63.70	0.80	64.20
13650	0.79	61.50	0.37	-64.60	0.37	-64.60	0.79	61.50
13700	0.77	58.50	0.40	-65.50	0.40	-65.50	0.77	58.50
13750	0.76	55.50	0.42	-66.50	0.42	-66.50	0.76	55.50
13800	0.74	52.50	0.45	-67.70	0.45	-67.70	0.74	52.50
13850	0.73	49.60	0.47	-68.80	0.47	-68.80	0.73	49.60
13900	0.72	46.20	0.50	-69.90	0.50	-69.90	0.72	46.20
13950	0.71	42.80	0.52	-71.00	0.52	-71.00	0.71	42.80
14000	0.70	39.40	0.54	-72.30	0.54	-72.30	0.70	39.40
14050	0.68	36.00	0.56	-73.60	0.56	-73.60	0.68	36.00
14100	0.68	33.10	0.58	-74.80	0.58	-74.80	0.68	33.10
14150	0.67	30.10	0.61	-75.90	0.61	-75.90	0.67	30.10
14200	0.66	26.80	0.62	-77.30	0.62	-77.30	0.66	26.80
14250	0.65	23.60	0.64	-78.80	0.64	-78.80	0.65	23.60
14300	0.64	21.00	0.65	-80.10	0.65	-80.10	0.64	21.00
14350	0.62	18.50	0.67	-81.40	0.67	-81.40	0.62	18.50
14400	0.62	15.90	0.68	-82.60	0.68	-82.60	0.62	15.90
14450	0.61	13.40	0.70	-83.80	0.70	-83.80	0.61	13.40
14500	0.60	11.40	0.71	-84.80	0.71	-84.80	0.60	11.40
14550	0.58	9.40	0.72	-85.80	0.72	-85.80	0.58	9.40
14600	0.57	7.70	0.73	-87.00	0.73	-87.00	0.57	7.70
14650	0.57	5.90	0.75	-88.20	0.75	-88.20	0.57	5.90
14700	0.55	4.00	0.76	-89.40	0.76	-89.40	0.55	4.00
14750	0.53	2.00	0.77	-90.60	0.77	-90.60	0.53	2.00
14800	0.53	0.70	0.77	-91.90	0.77	-91.90	0.53	0.70
14850	0.52	-0.70	0.78	-93.10	0.78	-93.10	0.52	-0.70
14900	0.51	-1.00	0.79	-94.00	0.79	-94.00	0.51	-1.00
14950	0.49	-1.40	0.80	-94.90	0.80	-94.90	0.49	-1.40
15000	0.48	-3.30	0.81	-96.40	0.81	-96.40	0.48	-3.30
15050	0.47	-5.20	0.81	-97.90	0.81	-97.90	0.47	-5.20
15100	0.46	-5.50	0.82	-98.70	0.82	-98.70	0.46	-5.50
15150	0.44	-5.80	0.83	-99.50	0.83	-99.50	0.44	-5.80
15200	0.44	-6.00	0.83	-100.60	0.83	-100.60	0.44	-6.00
15250	0.43	-6.20	0.84	-101.70	0.84	-101.70	0.43	-6.20
15300	0.43	-7.30	0.84	-103.00	0.84	-103.00	0.43	-7.30
15350	0.42	-8.50	0.84	-104.40	0.84	-104.40	0.42	-8.50
15400	0.41	-7.50	0.83	-105.10	0.83	-105.10	0.41	-7.50
15450	0.40	-6.50	0.82	-105.80	0.82	-105.80	0.40	-6.50
15500	0.41	-6.30	0.82	-106.50	0.82	-106.50	0.41	-6.30
15550	0.42	-6.10	0.82	-107.20	0.82	-107.20	0.42	-6.10
15600	0.42	-6.20	0.82	-107.40	0.82	-107.40	0.42	-6.20
15650	0.42	-6.30	0.82	-107.50	0.82	-107.50	0.42	-6.30
15700	0.43	-6.70	0.82	-108.00	0.82	-108.00	0.43	-6.70
15750	0.44	-7.00	0.82	-108.40	0.82	-108.40	0.44	-7.00
15800	0.43	-8.10	0.83	-108.50	0.83	-108.50	0.43	-8.10
15850	0.42	-9.10	0.83	-108.60	0.83	-108.60	0.42	-9.10
15900	0.42	-9.20	0.84	-109.10	0.84	-109.10	0.42	-9.20
15950	0.43	-9.40	0.84	-109.60	0.84	-109.60	0.43	-9.40
16000	0.41	-10.00	0.85	-109.90	0.85	-109.90	0.41	-10.00
16050	0.40	-10.60	0.86	-110.20	0.86	-110.20	0.40	-10.60
16100	0.38	-10.40	0.86	-111.00	0.86	-111.00	0.38	-10.40
16150	0.37	-10.10	0.86	-111.80	0.86	-111.80	0.37	-10.10
16200	0.35	-11.30	0.87	-112.40	0.87	-112.40	0.35	-11.30
16250	0.34	-12.40	0.87	-113.00	0.87	-113.00	0.34	-12.40
16300	0.31	-12.50	0.88	-113.70	0.88	-113.70	0.31	-12.50
16350	0.29	-12.60	0.88	-114.50	0.88	-114.50	0.29	-12.60
16400	0.28	-13.00	0.88	-115.00	0.88	-115.00	0.28	-13.00
16450	0.28	-13.40	0.88	-115.60	0.88	-115.60	0.28	-13.40
16500	0.26	-15.90	0.88	-115.80	0.88	-115.80	0.26	-15.90
16550	0.24	-18.50	0.88	-116.00	0.88	-116.00	0.24	-18.50
16600	0.24	-20.30	0.90	-116.40	0.90	-116.40	0.24	-20.30
16650	0.23	-22.00	0.91	-116.80	0.91	-116.80	0.23	-22.00
16700	0.22	-26.60	0.92	-117.60	0.92	-117.60	0.22	-26.60
16750	0.20	-31.20	0.93	-118.30	0.93	-118.30	0.20	-31.20
16800	0.18	-34.70	0.94	-119.30	0.94	-119.30	0.18	-34.70
16850	0.17	-38.10	0.95	-120.20	0.95	-120.20	0.17	-38.10
16900	0.15	-38.50	0.95	-121.20	0.95	-121.20	0.15	-38.50
16950	0.14	-38.90	0.96	-122.30	0.96	-122.30	0.14	-38.90
17000	0.12	-40.20	0.96	-123.20	0.96	-123.20	0.12	-40.20
17050	0.10	-41.60	0.96	-124.10	0.96	-124.10	0.10	-41.60
17100	0.09	-33.80	0.96	-125.20	0.96	-125.20	0.09	-33.80
17150	0.08	-26.10	0.97	-126.30	0.97	-126.30	0.08	-26.10
17200	0.07	-13.80	0.97	-126.90	0.97	-126.90	0.07	-13.80
17250	0.07	-1.60	0.97	-127.60	0.97	-127.60	0.07	-1.60
17300	0.06	19.90	0.97	-128.50	0.97	-128.50	0.06	19.90
17350	0.06	41.50	0.97	-129.50	0.97	-129.50	0.06	41.50
17400	0.08	43.50	0.97	-130.10	0.97	-130.10	0.08	43.50
17450	0.09	45.60	0.96	-130.60	0.96	-130.60	0.09	45.60
17500	0.10	51.80	0.97	-131.50	0.97	-131.50	0.10	51.80
17550	0.11	58.00	0.97	-132.30	0.97	-132.30	0.11	58.00
17600	0.12	59.20	0.97	-133.00	0.97	-133.00	0.12	59.20
17650	0.14	60.30	0.96	-133.80	0.96	-133.80	0.14	60.30
17700	0.14	61.20	0.96	-134.40	0.96	-134.40	0.14	61.20
17750	0.14	62.10	0.97	-135.00	0.97	-135.00	0.14	62.10
17800	0.15	63.20	0.97	-135.70	0.97	-135.70	0.15	63.20
17850	0.16	64.30	0.97	-136.50	0.97	-136.50	0.16	64.30
17900	0.16	63.00	0.96	-137.10	0.96	-137.10	0.16	63.00
17950	0.15	61.80	0.96	-137.60	0.96	-137.60	0.15	61.80
18000	0.15	62.00	0.96	-138.40	0.96	-138.40	0.15	62.00
18050	0.14	62.30	0.96	-139.20	0.96	-139.20	0.14	62.30
18100	0.14	59.30	0.96	-139.70	0.96	-139.70	0.14	59.30
18150	0.13	56.40	0.96	-140.20	0.96	-140.20	0.13	56.40
18200	0.12	52.60	0.96	-141.00	0.96	-141.00	0.12	52.60
18250	0.11	48.80	0.97	-141.80	0.97	-141.80	0.11	48.80
18300	0.11	41.60	0.97	-142.30	0.97	-142.30	0.11	41.60
18350	0.11	34.40	0.97	-142.80	0.97	-142.80	0.11	34.40
18400	0.11	29.40	0.96	-143.40	0.96	-143.40	0.11	29.40
18450	0.10	24.40	0.96	-144.00	0.96	-144.00	0.10	24.40
18500	0.11	19.60	0.97	-144.50	0.97	-144.50	0.11	19.60
18550	0.12	14.80	0.97	-144.90	0.97	-144.90	0.12	14.80
18600	0.11	11.00	0.97	-145.60	0.97	-145.60	0.11	11.00
18650	0.10	7.20	0.97	-146.30	0.97	-146.30	0.10	7.20
18700	0.10	7.10	0.97	-146.80	0.97	-146.80	0.10	7.10
18750	0.11	7.00	0.97	-147.30	0.97	-147.30	0.11	7.00
