# MHZ S MA R 50

50	0.94	170.70	0.15	76.40	0.15	76.40	0.94	170.70
100	0.92	162.40	0.29	69.40	0.29	69.40	0.92	162.40
150	0.89	154.10	0.42	62.50	0.42	62.50	0.89	154.10
200	0.83	147.80	0.51	56.40	0.51	56.40	0.83	147.80
250	0.77	141.40	0.61	50.40	0.61	50.40	0.77	141.40
300	0.72	136.20	0.67	45.20	0.67	45.20	0.72	136.20
350	0.66	131.00	0.73	40.00	0.73	40.00	0.66	131.00
400	0.61	127.10	0.77	36.30	0.77	36.30	0.61	127.10
450	0.56	123.30	0.81	32.60	0.81	32.60	0.56	123.30
500	0.50	118.00	0.85	28.40	0.85	28.40	0.50	118.00
550	0.45	112.80	0.89	24.20	0.89	24.20	0.45	112.80
600	0.42	110.80	0.90	21.80	0.90	21.80	0.42	110.80
650	0.39	108.80	0.92	19.50	0.92	19.50	0.39	108.80
700	0.37	106.40	0.93	17.60	0.93	17.60	0.37	106.40
750	0.34	103.90	0.94	15.70	0.94	15.70	0.34	103.90
800	0.32	102.60	0.94	14.00	0.94	14.00	0.32	102.60
850	0.30	101.30	0.95	12.30	0.95	12.30	0.30	101.30
900	0.28	99.70	0.96	10.80	0.96	10.80	0.28	99.70
950	0.26	98.00	0.96	9.40	0.96	9.40	0.26	98.00
1000	0.25	96.90	0.96	8.10	0.96	8.10	0.25	96.90
1050	0.23	95.70	0.97	6.70	0.97	6.70	0.23	95.70
1100	0.22	93.90	0.97	5.60	0.97	5.60	0.22	93.90
1150	0.20	92.10	0.98	4.40	0.98	4.40	0.20	92.10
1200	0.19	91.10	0.98	3.30	0.98	3.30	0.19	91.10
1250	0.18	90.10	0.98	2.20	0.98	2.20	0.18	90.10
1300	0.17	88.90	0.98	1.20	0.98	1.20	0.17	88.90
1350	0.16	87.70	0.99	0.30	0.99	0.30	0.16	87.70
1400	0.15	86.90	0.99	-0.70	0.99	-0.70	0.15	86.90
1450	0.14	86.00	0.99	-1.60	0.99	-1.60	0.14	86.00
1500	0.13	84.70	0.99	-2.50	0.99	-2.50	0.13	84.70
1550	0.13	83.30	0.99	-3.40	0.99	-3.40	0.13	83.30
1600	0.12	81.60	0.99	-4.30	0.99	-4.30	0.12	81.60
1650	0.11	80.00	0.99	-5.20	0.99	-5.20	0.11	80.00
1700	0.10	79.50	0.99	-6.00	0.99	-6.00	0.10	79.50
1750	0.10	79.00	0.99	-6.90	0.99	-6.90	0.10	79.00
1800	0.09	77.10	0.99	-7.60	0.99	-7.60	0.09	77.10
1850	0.08	75.30	1.00	-8.40	1.00	-8.40	0.08	75.30
1900	0.08	74.00	1.00	-9.10	1.00	-9.10	0.08	74.00
1950	0.07	72.70	1.00	-9.80	1.00	-9.80	0.07	72.70
2000	0.06	70.20	1.00	-10.70	1.00	-10.70	0.06	70.20
2050	0.06	67.70	1.00	-11.50	1.00	-11.50	0.06	67.70
2100	0.05	64.80	1.00	-12.20	1.00	-12.20	0.05	64.80
2150	0.05	61.90	1.00	-12.90	1.00	-12.90	0.05	61.90
2200	0.04	59.50	1.00	-13.70	1.00	-13.70	0.04	59.50
2250	0.04	57.10	1.00	-14.40	1.00	-14.40	0.04	57.10
2300	0.03	50.90	1.00	-15.10	1.00	-15.10	0.03	50.90
2350	0.03	44.70	1.00	-15.70	1.00	-15.70	0.03	44.70
2400	0.02	39.00	1.00	-16.50	1.00	-16.50	0.02	39.00
2450	0.01	33.30	1.00	-17.30	1.00	-17.30	0.01	33.30
2500	0.01	4.50	1.00	-18.00	1.00	-18.00	0.01	4.50
2550	0.01	-24.20	1.00	-18.70	1.00	-18.70	0.01	-24.20
2600	0.01	-51.80	1.00	-19.30	1.00	-19.30	0.01	-51.80
2650	0.01	-79.30	1.00	-20.00	1.00	-20.00	0.01	-79.30
2700	0.02	-86.40	1.00	-20.60	1.00	-20.60	0.02	-86.40
2750	0.02	-93.50	1.00	-21.30	1.00	-21.30	0.02	-93.50
2800	0.03	-98.40	1.00	-21.90	1.00	-21.90	0.03	-98.40
2850	0.04	-103.30	1.00	-22.50	1.00	-22.50	0.04	-103.30
2900	0.04	-106.80	1.00	-23.30	1.00	-23.30	0.04	-106.80
2950	0.04	-110.30	1.00	-24.20	1.00	-24.20	0.04	-110.30
3000	0.05	-110.90	1.00	-24.70	1.00	-24.70	0.05	-110.90
3050	0.05	-111.50	0.99	-25.30	0.99	-25.30	0.05	-111.50
3100	0.06	-114.90	0.99	-26.00	0.99	-26.00	0.06	-114.90
3150	0.06	-118.20	0.99	-26.80	0.99	-26.80	0.06	-118.20
3200	0.06	-117.20	0.99	-27.30	0.99	-27.30	0.06	-117.20
3250	0.07	-116.20	0.99	-27.80	0.99	-27.80	0.07	-116.20
3300	0.07	-118.80	0.99	-28.50	0.99	-28.50	0.07	-118.80
3350	0.08	-121.50	0.99	-29.20	0.99	-29.20	0.08	-121.50
3400	0.08	-121.80	0.99	-29.80	0.99	-29.80	0.08	-121.80
3450	0.08	-122.10	0.99	-30.40	0.99	-30.40	0.08	-122.10
3500	0.08	-122.90	0.99	-31.00	0.99	-31.00	0.08	-122.90
3550	0.09	-123.60	0.99	-31.60	0.99	-31.60	0.09	-123.60
3600	0.09	-123.90	0.99	-32.10	0.99	-32.10	0.09	-123.90
3650	0.09	-124.30	0.99	-32.70	0.99	-32.70	0.09	-124.30
3700	0.09	-123.60	0.99	-33.40	0.99	-33.40	0.09	-123.60
3750	0.10	-123.00	0.99	-34.20	0.99	-34.20	0.10	-123.00
3800	0.10	-122.80	0.99	-34.60	0.99	-34.60	0.10	-122.80
3850	0.10	-122.60	0.99	-35.10	0.99	-35.10	0.10	-122.60
3900	0.10	-122.80	0.99	-36.00	0.99	-36.00	0.10	-122.80
3950	0.10	-122.90	0.99	-36.80	0.99	-36.80	0.10	-122.90
4000	0.11	-122.10	0.99	-37.30	0.99	-37.30	0.11	-122.10
4050	0.11	-121.30	0.99	-37.80	0.99	-37.80	0.11	-121.30
4100	0.11	-120.90	0.99	-38.40	0.99	-38.40	0.11	-120.90
4150	0.11	-120.60	0.99	-39.00	0.99	-39.00	0.11	-120.60
4200	0.12	-120.60	0.99	-39.70	0.99	-39.70	0.12	-120.60
4250	0.12	-120.50	0.99	-40.40	0.99	-40.40	0.12	-120.50
4300	0.13	-120.20	0.99	-40.80	0.99	-40.80	0.13	-120.20
4350	0.13	-119.90	0.98	-41.30	0.98	-41.30	0.13	-119.90
4400	0.13	-120.60	0.99	-42.00	0.99	-42.00	0.13	-120.60
4450	0.14	-121.30	0.99	-42.70	0.99	-42.70	0.14	-121.30
4500	0.14	-121.00	0.99	-43.40	0.99	-43.40	0.14	-121.00
4550	0.15	-120.60	0.98	-44.10	0.98	-44.10	0.15	-120.60
4600	0.15	-122.00	0.98	-44.90	0.98	-44.90	0.15	-122.00
4650	0.16	-123.40	0.98	-45.70	0.98	-45.70	0.16	-123.40
4700	0.16	-124.00	0.98	-46.20	0.98	-46.20	0.16	-124.00
4750	0.17	-124.50	0.98	-46.80	0.98	-46.80	0.17	-124.50
4800	0.17	-125.60	0.98	-47.40	0.98	-47.40	0.17	-125.60
4850	0.17	-126.60	0.98	-48.00	0.98	-48.00	0.17	-126.60
4900	0.18	-127.70	0.98	-48.70	0.98	-48.70	0.18	-127.70
4950	0.19	-128.80	0.98	-49.30	0.98	-49.30	0.19	-128.80
5000	0.19	-130.30	0.97	-50.00	0.97	-50.00	0.19	-130.30
5050	0.19	-131.80	0.97	-50.70	0.97	-50.70	0.19	-131.80
5100	0.20	-132.80	0.97	-51.20	0.97	-51.20	0.20	-132.80
5150	0.20	-133.90	0.97	-51.70	0.97	-51.70	0.20	-133.90
5200	0.21	-135.50	0.97	-52.20	0.97	-52.20	0.21	-135.50
5250	0.21	-137.10	0.97	-52.60	0.97	-52.60	0.21	-137.10
5300	0.22	-138.60	0.97	-53.50	0.97	-53.50	0.22	-138.60
5350	0.22	-140.20	0.96	-54.30	0.96	-54.30	0.22	-140.20
5400	0.23	-141.10	0.96	-54.90	0.96	-54.90	0.23	-141.10
5450	0.23	-142.10	0.96	-55.40	0.96	-55.40	0.23	-142.10
5500	0.24	-143.50	0.96	-56.00	0.96	-56.00	0.24	-143.50
5550	0.24	-145.00	0.96	-56.60	0.96	-56.60	0.24	-145.00
5600	0.25	-145.90	0.96	-57.20	0.96	-57.20	0.25	-145.90
5650	0.25	-146.90	0.96	-57.80	0.96	-57.80	0.25	-146.90
5700	0.26	-148.40	0.96	-58.40	0.96	-58.40	0.26	-148.40
5750	0.26	-149.90	0.96	-59.00	0.96	-59.00	0.26	-149.90
5800	0.27	-150.50	0.95	-59.60	0.95	-59.60	0.27	-150.50
5850	0.27	-151.10	0.95	-60.20	0.95	-60.20	0.27	-151.10
5900	0.28	-152.30	0.95	-60.70	0.95	-60.70	0.28	-152.30
5950	0.28	-153.40	0.95	-61.20	0.95	-61.20	0.28	-153.40
6000	0.30	-153.40	0.94	-62.00	0.94	-62.00	0.30	-153.40
6050	0.31	-153.50	0.94	-62.80	0.94	-62.80	0.31	-153.50
6100	0.31	-154.50	0.94	-63.20	0.94	-63.20	0.31	-154.50
6150	0.32	-155.40	0.94	-63.60	0.94	-63.60	0.32	-155.40
6200	0.32	-156.80	0.94	-64.30	0.94	-64.30	0.32	-156.80
6250	0.33	-158.30	0.94	-64.90	0.94	-64.90	0.33	-158.30
6300	0.33	-159.00	0.93	-65.40	0.93	-65.40	0.33	-159.00
6350	0.34	-159.80	0.93	-65.90	0.93	-65.90	0.34	-159.80
6400	0.34	-160.40	0.93	-66.50	0.93	-66.50	0.34	-160.40
6450	0.35	-161.00	0.93	-67.10	0.93	-67.10	0.35	-161.00
6500	0.35	-161.70	0.92	-67.60	0.92	-67.60	0.35	-161.70
6550	0.35	-162.40	0.92	-68.20	0.92	-68.20	0.35	-162.40
6600	0.35	-163.40	0.92	-68.80	0.92	-68.80	0.35	-163.40
6650	0.35	-164.40	0.92	-69.30	0.92	-69.30	0.35	-164.40
6700	0.35	-165.10	0.92	-69.70	0.92	-69.70	0.35	-165.10
6750	0.36	-165.80	0.92	-70.10	0.92	-70.10	0.36	-165.80
6800	0.36	-167.10	0.92	-70.80	0.92	-70.80	0.36	-167.10
6850	0.36	-168.30	0.92	-71.50	0.92	-71.50	0.36	-168.30
6900	0.36	-169.00	0.92	-72.00	0.92	-72.00	0.36	-169.00
6950	0.36	-169.60	0.92	-72.50	0.92	-72.50	0.36	-169.60
7000	0.37	-171.20	0.92	-73.30	0.92	-73.30	0.37	-171.20
7050	0.37	-172.80	0.92	-74.00	0.92	-74.00	0.37	-172.80
7100	0.37	-173.70	0.92	-74.50	0.92	-74.50	0.37	-173.70
7150	0.37	-174.60	0.92	-75.10	0.92	-75.10	0.37	-174.60
7200	0.38	-175.50	0.92	-75.80	0.92	-75.80	0.38	-175.50
7250	0.38	-176.50	0.92	-76.60	0.92	-76.60	0.38	-176.50
7300	0.38	-177.60	0.92	-77.30	0.92	-77.30	0.38	-177.60
7350	0.38	-178.80	0.91	-78.00	0.91	-78.00	0.38	-178.80
7400	0.38	-179.20	0.91	-78.60	0.91	-78.60	0.38	-179.20
7450	0.39	-179.60	0.91	-79.30	0.91	-79.30	0.39	-179.60
7500	0.39	-0.90	0.91	-80.10	0.91	-80.10	0.39	-0.90
7550	0.39	177.90	0.91	-81.00	0.91	-81.00	0.39	177.90
7600	0.39	177.60	0.91	-81.60	0.91	-81.60	0.39	177.60
7650	0.39	177.30	0.90	-82.30	0.90	-82.30	0.39	177.30
7700	0.39	176.60	0.90	-83.10	0.90	-83.10	0.39	176.60
7750	0.39	176.00	0.90	-83.90	0.90	-83.90	0.39	176.00
7800	0.40	174.60	0.90	-84.80	0.90	-84.80	0.40	174.60
7850	0.40	173.30	0.90	-85.80	0.90	-85.80	0.40	173.30
7900	0.40	173.00	0.90	-86.60	0.90	-86.60	0.40	173.00
7950	0.41	172.70	0.90	-87.40	0.90	-87.40	0.41	172.70
8000	0.41	171.30	0.89	-88.30	0.89	-88.30	0.41	171.30
8050	0.41	170.00	0.89	-89.30	0.89	-89.30	0.41	170.00
8100	0.42	169.20	0.89	-90.30	0.89	-90.30	0.42	169.20
8150	0.42	168.50	0.89	-91.30	0.89	-91.30	0.42	168.50
8200	0.43	167.40	0.88	-92.30	0.88	-92.30	0.43	167.40
8250	0.44	166.30	0.87	-93.30	0.87	-93.30	0.44	166.30
8300	0.44	165.50	0.87	-94.50	0.87	-94.50	0.44	165.50
8350	0.45	164.70	0.87	-95.60	0.87	-95.60	0.45	164.70
8400	0.46	163.70	0.86	-96.70	0.86	-96.70	0.46	163.70
8450	0.47	162.60	0.85	-97.90	0.85	-97.90	0.47	162.60
8500	0.47	161.70	0.85	-99.20	0.85	-99.20	0.47	161.70
8550	0.48	160.80	0.84	-100.50	0.84	-100.50	0.48	160.80
8600	0.49	159.40	0.83	-101.70	0.83	-101.70	0.49	159.40
8650	0.50	158.00	0.82	-103.00	0.82	-103.00	0.50	158.00
8700	0.51	157.10	0.81	-104.30	0.81	-104.30	0.51	157.10
8750	0.52	156.10	0.80	-105.60	0.80	-105.60	0.52	156.10
8800	0.54	154.40	0.79	-106.60	0.79	-106.60	0.54	154.40
8850	0.55	152.70	0.78	-107.70	0.78	-107.70	0.55	152.70
8900	0.56	151.40	0.76	-109.30	0.76	-109.30	0.56	151.40
8950	0.57	150.00	0.75	-111.00	0.75	-111.00	0.57	150.00
9000	0.59	148.70	0.73	-112.40	0.73	-112.40	0.59	148.70
9050	0.61	147.40	0.71	-113.70	0.71	-113.70	0.61	147.40
9100	0.63	145.80	0.70	-115.30	0.70	-115.30	0.63	145.80
9150	0.65	144.20	0.68	-116.80	0.68	-116.80	0.65	144.20
9200	0.66	141.70	0.66	-118.90	0.66	-118.90	0.66	141.70
9250	0.67	139.10	0.64	-120.90	0.64	-120.90	0.67	139.10
9300	0.68	138.00	0.61	-122.20	0.61	-122.20	0.68	138.00
9350	0.69	136.80	0.58	-123.50	0.58	-123.50	0.69	136.80
9400	0.71	134.30	0.55	-125.00	0.55	-125.00	0.71	134.30
9450	0.73	131.90	0.52	-126.60	0.52	-126.60	0.73	131.90
9500	0.74	129.80	0.49	-127.70	0.49	-127.70	0.74	129.80
9550	0.74	127.70	0.45	-128.80	0.45	-128.80	0.74	127.70
9600	0.76	125.40	0.41	-129.20	0.41	-129.20	0.76	125.40
9650	0.78	123.00	0.38	-129.60	0.38	-129.60	0.78	123.00
9700	0.78	120.40	0.34	-128.50	0.34	-128.50	0.78	120.40
9750	0.79	117.70	0.30	-127.50	0.30	-127.50	0.79	117.70
9800	0.79	115.80	0.26	-123.30	0.26	-123.30	0.79	115.80
9850	0.79	113.90	0.23	-119.10	0.23	-119.10	0.79	113.90
9900	0.80	110.90	0.20	-109.80	0.20	-109.80	0.80	110.90
9950	0.82	107.80	0.18	-100.50	0.18	-100.50	0.82	107.80
10000	0.81	104.50	0.18	-86.00	0.18	-86.00	0.81	104.50
10050	0.79	101.20	0.17	-71.50	0.17	-71.50	0.79	101.20
10100	0.80	98.60	0.20	-61.00	0.20	-61.00	0.80	98.60
10150	0.80	96.00	0.24	-50.50	0.24	-50.50	0.80	96.00
10200	0.78	92.00	0.28	-47.00	0.28	-47.00	0.78	92.00
10250	0.76	88.00	0.32	-43.40	0.32	-43.40	0.76	88.00
10300	0.74	84.30	0.37	-43.40	0.37	-43.40	0.74	84.30
10350	0.72	80.60	0.42	-43.30	0.42	-43.30	0.72	80.60
10400	0.69	76.90	0.47	-44.30	0.47	-44.30	0.69	76.90
10450	0.65	73.10	0.51	-45.30	0.51	-45.30	0.65	73.10
10500	0.62	69.30	0.55	-47.70	0.55	-47.70	0.62	69.30
10550	0.59	65.50	0.59	-50.10	0.59	-50.10	0.59	65.50
10600	0.56	62.30	0.63	-52.00	0.63	-52.00	0.56	62.30
10650	0.52	59.20	0.67	-53.90	0.67	-53.90	0.52	59.20
10700	0.49	55.90	0.70	-56.30	0.70	-56.30	0.49	55.90
10750	0.45	52.60	0.73	-58.70	0.73	-58.70	0.45	52.60
10800	0.42	49.90	0.76	-60.60	0.76	-60.60	0.42	49.90
10850	0.39	47.10	0.79	-62.40	0.79	-62.40	0.39	47.10
10900	0.35	43.00	0.81	-64.80	0.81	-64.80	0.35	43.00
10950	0.32	38.80	0.84	-67.30	0.84	-67.30	0.32	38.80
11000	0.27	37.40	0.86	-69.90	0.86	-69.90	0.27	37.40
11050	0.23	36.00	0.88	-72.60	0.88	-72.60	0.23	36.00
11100	0.20	34.40	0.89	-74.70	0.89	-74.70	0.20	34.40
11150	0.17	32.70	0.90	-76.90	0.90	-76.90	0.17	32.70
11200	0.14	34.60	0.91	-79.10	0.91	-79.10	0.14	34.60
11250	0.11	36.60	0.92	-81.30	0.92	-81.30	0.11	36.60
11300	0.09	45.80	0.93	-83.20	0.93	-83.20	0.09	45.80
11350	0.06	55.10	0.93	-85.20	0.93	-85.20	0.06	55.10
11400	0.05	74.10	0.94	-86.90	0.94	-86.90	0.05	74.10
11450	0.05	93.20	0.94	-88.70	0.94	-88.70	0.05	93.20
11500	0.06	110.80	0.94	-90.40	0.94	-90.40	0.06	110.80
11550	0.07	128.50	0.94	-92.00	0.94	-92.00	0.07	128.50
11600	0.09	134.30	0.94	-93.60	0.94	-93.60	0.09	134.30
11650	0.11	140.20	0.94	-95.20	0.94	-95.20	0.11	140.20
11700	0.12	142.80	0.94	-96.70	0.94	-96.70	0.12	142.80
11750	0.14	145.50	0.94	-98.10	0.94	-98.10	0.14	145.50
11800	0.16	144.60	0.94	-99.40	0.94	-99.40	0.16	144.60
11850	0.18	143.70	0.94	-100.60	0.94	-100.60	0.18	143.70
11900	0.20	145.50	0.93	-102.00	0.93	-102.00	0.20	145.50
11950	0.22	147.30	0.93	-103.40	0.93	-103.40	0.22	147.30
12000	0.23	147.10	0.93	-104.60	0.93	-104.60	0.23	147.10
12050	0.25	146.90	0.92	-105.80	0.92	-105.80	0.25	146.90
12100	0.26	146.40	0.92	-107.10	0.92	-107.10	0.26	146.40
12150	0.28	145.90	0.92	-108.40	0.92	-108.40	0.28	145.90
12200	0.29	145.70	0.92	-109.40	0.92	-109.40	0.29	145.70
12250	0.31	145.50	0.91	-110.50	0.91	-110.50	0.31	145.50
12300	0.32	145.10	0.90	-111.90	0.90	-111.90	0.32	145.10
12350	0.33	144.70	0.90	-113.20	0.90	-113.20	0.33	144.70
12400	0.34	143.90	0.90	-114.10	0.90	-114.10	0.34	143.90
12450	0.35	143.10	0.90	-115.10	0.90	-115.10	0.35	143.10
12500	0.36	141.50	0.89	-116.40	0.89	-116.40	0.36	141.50
12550	0.37	140.00	0.89	-117.80	0.89	-117.80	0.37	140.00
12600	0.38	139.60	0.88	-118.90	0.88	-118.90	0.38	139.60
12650	0.39	139.10	0.88	-120.00	0.88	-120.00	0.39	139.10
12700	0.39	137.90	0.87	-121.00	0.87	-121.00	0.39	137.90
12750	0.40	136.80	0.87	-122.10	0.87	-122.10	0.40	136.80
12800	0.41	135.30	0.86	-123.70	0.86	-123.70	0.41	135.30
12850	0.42	133.80	0.86	-125.20	0.86	-125.20	0.42	133.80
12900	0.43	132.70	0.85	-126.10	0.85	-126.10	0.43	132.70
12950	0.44	131.60	0.85	-127.10	0.85	-127.10	0.44	131.60
13000	0.44	130.40	0.84	-128.70	0.84	-128.70	0.44	130.40
13050	0.46	129.20	0.83	-130.40	0.83	-130.40	0.46	129.20
13100	0.46	128.10	0.82	-131.50	0.82	-131.50	0.46	128.10
13150	0.47	127.10	0.81	-132.60	0.81	-132.60	0.47	127.10
13200	0.48	125.50	0.81	-133.80	0.81	-133.80	0.48	125.50
13250	0.49	123.90	0.80	-135.10	0.80	-135.10	0.49	123.90
13300	0.50	124.10	0.79	-137.00	0.79	-137.00	0.50	124.10
13350	0.50	124.30	0.78	-138.90	0.78	-138.90	0.50	124.30
13400	0.52	120.70	0.76	-140.50	0.76	-140.50	0.52	120.70
13450	0.54	117.20	0.75	-142.10	0.75	-142.10	0.54	117.20
13500	0.56	115.50	0.73	-143.90	0.73	-143.90	0.56	115.50
13550	0.57	113.80	0.72	-145.60	0.72	-145.60	0.57	113.80
13600	0.58	111.90	0.70	-147.40	0.70	-147.40	0.58	111.90
13650	0.60	110.10	0.69	-149.30	0.69	-149.30	0.60	110.10
13700	0.61	107.60	0.66	-151.30	0.66	-151.30	0.61	107.60
13750	0.62	105.00	0.64	-153.20	0.64	-153.20	0.62	105.00
13800	0.64	102.70	0.61	-154.90	0.61	-154.90	0.64	102.70
13850	0.65	100.30	0.59	-156.60	0.59	-156.60	0.65	100.30
13900	0.67	97.10	0.56	-158.40	0.56	-158.40	0.67	97.10
13950	0.69	93.80	0.53	-160.10	0.53	-160.10	0.69	93.80
14000	0.70	90.10	0.50	-161.90	0.50	-161.90	0.70	90.10
14050	0.71	86.30	0.46	-163.70	0.46	-163.70	0.71	86.30
14100	0.73	82.90	0.42	-164.40	0.42	-164.40	0.73	82.90
14150	0.75	79.50	0.38	-165.10	0.38	-165.10	0.75	79.50
14200	0.76	75.30	0.34	-164.90	0.34	-164.90	0.76	75.30
14250	0.77	71.10	0.30	-164.70	0.30	-164.70	0.77	71.10
14300	0.79	66.70	0.26	-161.40	0.26	-161.40	0.79	66.70
14350	0.80	62.40	0.22	-158.00	0.22	-158.00	0.80	62.40
14400	0.80	58.50	0.19	-148.40	0.19	-148.40	0.80	58.50
14450	0.81	54.70	0.17	-138.90	0.17	-138.90	0.81	54.70
14500	0.81	50.70	0.16	-124.40	0.16	-124.40	0.81	50.70
14550	0.81	46.70	0.16	-109.90	0.16	-109.90	0.81	46.70
14600	0.81	43.30	0.19	-99.70	0.19	-99.70	0.81	43.30
14650	0.81	39.90	0.21	-89.50	0.21	-89.50	0.81	39.90
14700	0.79	36.20	0.25	-85.80	0.25	-85.80	0.79	36.20
14750	0.78	32.60	0.28	-82.10	0.28	-82.10	0.78	32.60
14800	0.77	29.20	0.32	-81.60	0.32	-81.60	0.77	29.20
14850	0.77	25.80	0.36	-81.10	0.36	-81.10	0.77	25.80
14900	0.75	24.10	0.40	-81.40	0.40	-81.40	0.75	24.10
14950	0.73	22.40	0.43	-81.70	0.43	-81.70	0.73	22.40
15000	0.71	19.00	0.47	-83.70	0.47	-83.70	0.71	19.00
15050	0.69	15.60	0.50	-85.80	0.50	-85.80	0.69	15.60
15100	0.67	14.30	0.53	-87.40	0.53	-87.40	0.67	14.30
15150	0.64	13.00	0.56	-89.00	0.56	-89.00	0.64	13.00
15200	0.62	11.60	0.58	-91.30	0.58	-91.30	0.62	11.60
15250	0.61	10.10	0.61	-93.60	0.61	-93.60	0.61	10.10
15300	0.58	9.00	0.62	-96.70	0.62	-96.70	0.58	9.00
15350	0.56	7.90	0.63	-99.80	0.63	-99.80	0.56	7.90
15400	0.54	9.20	0.63	-102.40	0.63	-102.40	0.54	9.20
15450	0.51	10.40	0.62	-104.90	0.62	-104.90	0.51	10.40
15500	0.52	12.70	0.61	-106.70	0.61	-106.70	0.52	12.70
15550	0.54	15.00	0.59	-108.40	0.59	-108.40	0.54	15.00
15600	0.55	15.20	0.57	-107.20	0.57	-107.20	0.55	15.20
15650	0.57	15.40	0.56	-106.00	0.56	-106.00	0.57	15.40
15700	0.59	13.60	0.56	-104.40	0.56	-104.40	0.59	13.60
15750	0.62	11.80	0.56	-102.70	0.56	-102.70	0.62	11.80
15800	0.61	10.20	0.58	-101.60	0.58	-101.60	0.61	10.20
15850	0.60	8.70	0.60	-100.40	0.60	-100.40	0.60	8.70
15900	0.60	7.00	0.61	-100.40	0.61	-100.40	0.60	7.00
15950	0.61	5.30	0.63	-100.50	0.63	-100.50	0.61	5.30
16000	0.59	4.40	0.65	-100.60	0.65	-100.60	0.59	4.40
16050	0.57	3.40	0.67	-100.70	0.67	-100.70	0.57	3.40
16100	0.56	2.50	0.69	-101.80	0.69	-101.80	0.56	2.50
16150	0.54	1.70	0.70	-102.90	0.70	-102.90	0.54	1.70
16200	0.52	0.50	0.71	-103.70	0.71	-103.70	0.52	0.50
16250	0.50	-0.60	0.73	-104.60	0.73	-104.60	0.50	-0.60
16300	0.47	-0.80	0.74	-105.80	0.74	-105.80	0.47	-0.80
16350	0.44	-1.00	0.75	-107.00	0.75	-107.00	0.44	-1.00
16400	0.44	-0.30	0.75	-107.90	0.75	-107.90	0.44	-0.30
16450	0.43	0.40	0.75	-108.80	0.75	-108.80	0.43	0.40
16500	0.42	-1.30	0.75	-108.40	0.75	-108.40	0.42	-1.30
16550	0.41	-3.00	0.75	-108.10	0.75	-108.10	0.41	-3.00
16600	0.41	-5.30	0.77	-108.10	0.77	-108.10	0.41	-5.30
16650	0.41	-7.70	0.79	-108.10	0.79	-108.10	0.41	-7.70
16700	0.39	-11.50	0.82	-108.90	0.82	-108.90	0.39	-11.50
16750	0.37	-15.30	0.84	-109.80	0.84	-109.80	0.37	-15.30
16800	0.35	-18.40	0.85	-111.10	0.85	-111.10	0.35	-18.40
16850	0.32	-21.60	0.87	-112.30	0.87	-112.30	0.32	-21.60
16900	0.31	-23.40	0.88	-113.70	0.88	-113.70	0.31	-23.40
16950	0.29	-25.20	0.89	-115.00	0.89	-115.00	0.29	-25.20
17000	0.26	-26.80	0.90	-116.40	0.90	-116.40	0.26	-26.80
17050	0.23	-28.40	0.91	-117.70	0.91	-117.70	0.23	-28.40
17100	0.22	-27.00	0.92	-119.10	0.92	-119.10	0.22	-27.00
17150	0.20	-25.70	0.93	-120.50	0.93	-120.50	0.20	-25.70
17200	0.18	-22.60	0.93	-121.50	0.93	-121.50	0.18	-22.60
17250	0.17	-19.60	0.94	-122.60	0.94	-122.60	0.17	-19.60
17300	0.15	-13.30	0.94	-123.80	0.94	-123.80	0.15	-13.30
17350	0.13	-7.00	0.95	-125.10	0.95	-125.10	0.13	-7.00
17400	0.13	-2.00	0.95	-126.00	0.95	-126.00	0.13	-2.00
17450	0.13	3.00	0.95	-126.90	0.95	-126.90	0.13	3.00
17500	0.12	10.80	0.95	-128.00	0.95	-128.00	0.12	10.80
17550	0.12	18.60	0.95	-129.20	0.95	-129.20	0.12	18.60
17600	0.13	24.90	0.95	-130.20	0.95	-130.20	0.13	24.90
17650	0.13	31.10	0.95	-131.30	0.95	-131.30	0.13	31.10
17700	0.14	34.70	0.95	-132.10	0.95	-132.10	0.14	34.70
17750	0.14	38.30	0.96	-133.00	0.96	-133.00	0.14	38.30
17800	0.14	40.30	0.96	-133.90	0.96	-133.90	0.14	40.30
17850	0.14	42.30	0.96	-134.90	0.96	-134.90	0.14	42.30
17900	0.14	42.90	0.95	-135.70	0.95	-135.70	0.14	42.90
17950	0.14	43.50	0.95	-136.50	0.95	-136.50	0.14	43.50
18000	0.14	43.20	0.95	-137.40	0.95	-137.40	0.14	43.20
18050	0.13	42.80	0.95	-138.40	0.95	-138.40	0.13	42.80
18100	0.13	40.60	0.95	-139.10	0.95	-139.10	0.13	40.60
18150	0.13	38.30	0.95	-139.80	0.95	-139.80	0.13	38.30
18200	0.12	33.70	0.96	-140.70	0.96	-140.70	0.12	33.70
18250	0.12	29.10	0.96	-141.50	0.96	-141.50	0.12	29.10
18300	0.12	24.30	0.96	-142.20	0.96	-142.20	0.12	24.30
18350	0.12	19.50	0.96	-142.90	0.96	-142.90	0.12	19.50
18400	0.12	15.40	0.96	-143.60	0.96	-143.60	0.12	15.40
18450	0.12	11.30	0.95	-144.30	0.95	-144.30	0.12	11.30
18500	0.12	8.50	0.96	-144.90	0.96	-144.90	0.12	8.50
18550	0.13	5.70	0.96	-145.60	0.96	-145.60	0.13	5.70
18600	0.12	2.80	0.96	-146.30	0.96	-146.30	0.12	2.80
