#	mhz	s	ma	r	50

50	0.93	167.00	0.21	73.20	0.21	73.20	0.93	167.00
100	0.87	156.50	0.37	64.00	0.37	64.00	0.87	156.50
150	0.82	146.00	0.53	54.70	0.53	54.70	0.82	146.00
200	0.74	138.80	0.63	48.00	0.63	48.00	0.74	138.80
250	0.67	131.50	0.72	41.30	0.72	41.30	0.67	131.50
300	0.60	126.20	0.77	36.10	0.77	36.10	0.60	126.20
350	0.54	120.80	0.83	30.90	0.83	30.90	0.54	120.80
400	0.48	116.90	0.86	27.50	0.86	27.50	0.48	116.90
450	0.43	113.00	0.89	24.10	0.89	24.10	0.43	113.00
500	0.38	107.90	0.91	20.40	0.91	20.40	0.38	107.90
550	0.33	102.80	0.94	16.80	0.94	16.80	0.33	102.80
600	0.31	100.90	0.95	14.70	0.95	14.70	0.31	100.90
650	0.28	99.00	0.96	12.70	0.96	12.70	0.28	99.00
700	0.26	96.40	0.96	11.00	0.96	11.00	0.26	96.40
750	0.23	93.80	0.97	9.40	0.97	9.40	0.23	93.80
800	0.22	92.60	0.97	7.90	0.97	7.90	0.22	92.60
850	0.20	91.30	0.98	6.40	0.98	6.40	0.20	91.30
900	0.18	89.40	0.98	5.10	0.98	5.10	0.18	89.40
950	0.17	87.50	0.98	3.90	0.98	3.90	0.17	87.50
1000	0.15	86.10	0.99	2.70	0.99	2.70	0.15	86.10
1050	0.14	84.70	0.99	1.50	0.99	1.50	0.14	84.70
1100	0.13	82.10	0.99	0.50	0.99	0.50	0.13	82.10
1150	0.12	79.50	0.99	-0.60	0.99	-0.60	0.12	79.50
1200	0.11	77.70	0.99	-1.60	0.99	-1.60	0.11	77.70
1250	0.10	76.00	0.99	-2.60	0.99	-2.60	0.10	76.00
1300	0.09	74.10	0.99	-3.50	0.99	-3.50	0.09	74.10
1350	0.08	72.20	1.00	-4.50	1.00	-4.50	0.08	72.20
1400	0.07	70.20	1.00	-5.30	1.00	-5.30	0.07	70.20
1450	0.06	68.20	1.00	-6.20	1.00	-6.20	0.06	68.20
1500	0.05	64.80	1.00	-7.10	1.00	-7.10	0.05	64.80
1550	0.05	61.40	1.00	-8.00	1.00	-8.00	0.05	61.40
1600	0.04	54.80	1.00	-8.80	1.00	-8.80	0.04	54.80
1650	0.04	48.20	1.00	-9.70	1.00	-9.70	0.04	48.20
1700	0.03	40.80	1.00	-10.50	1.00	-10.50	0.03	40.80
1750	0.02	33.40	1.00	-11.30	1.00	-11.30	0.02	33.40
1800	0.02	13.10	1.00	-12.10	1.00	-12.10	0.02	13.10
1850	0.02	-7.30	1.00	-12.90	1.00	-12.90	0.02	-7.30
1900	0.02	-26.50	1.00	-13.60	1.00	-13.60	0.02	-26.50
1950	0.02	-45.70	1.00	-14.30	1.00	-14.30	0.02	-45.70
2000	0.03	-56.80	1.00	-15.20	1.00	-15.20	0.03	-56.80
2050	0.03	-67.90	1.00	-16.00	1.00	-16.00	0.03	-67.90
2100	0.04	-74.10	1.00	-16.70	1.00	-16.70	0.04	-74.10
2150	0.04	-80.20	1.00	-17.50	1.00	-17.50	0.04	-80.20
2200	0.05	-83.90	1.00	-18.20	1.00	-18.20	0.05	-83.90
2250	0.05	-87.50	1.00	-19.00	1.00	-19.00	0.05	-87.50
2300	0.06	-89.80	1.00	-19.70	1.00	-19.70	0.06	-89.80
2350	0.07	-92.00	1.00	-20.30	1.00	-20.30	0.07	-92.00
2400	0.07	-95.10	1.00	-21.20	1.00	-21.20	0.07	-95.10
2450	0.08	-98.10	0.99	-22.00	0.99	-22.00	0.08	-98.10
2500	0.08	-99.60	0.99	-22.70	0.99	-22.70	0.08	-99.60
2550	0.09	-101.20	0.99	-23.50	0.99	-23.50	0.09	-101.20
2600	0.10	-103.40	0.99	-24.10	0.99	-24.10	0.10	-103.40
2650	0.10	-105.60	0.99	-24.80	0.99	-24.80	0.10	-105.60
2700	0.11	-106.60	0.99	-25.50	0.99	-25.50	0.11	-106.60
2750	0.11	-107.50	0.99	-26.20	0.99	-26.20	0.11	-107.50
2800	0.12	-108.80	0.99	-26.80	0.99	-26.80	0.12	-108.80
2850	0.13	-110.00	0.99	-27.50	0.99	-27.50	0.13	-110.00
2900	0.13	-111.30	0.99	-28.40	0.99	-28.40	0.13	-111.30
2950	0.13	-112.60	0.99	-29.30	0.99	-29.30	0.13	-112.60
3000	0.14	-113.00	0.99	-29.90	0.99	-29.90	0.14	-113.00
3050	0.15	-113.30	0.98	-30.50	0.98	-30.50	0.15	-113.30
3100	0.15	-115.50	0.98	-31.30	0.98	-31.30	0.15	-115.50
3150	0.16	-117.70	0.98	-32.10	0.98	-32.10	0.16	-117.70
3200	0.16	-117.40	0.98	-32.70	0.98	-32.70	0.16	-117.40
3250	0.16	-117.10	0.98	-33.20	0.98	-33.20	0.16	-117.10
3300	0.17	-118.50	0.98	-34.00	0.98	-34.00	0.17	-118.50
3350	0.17	-119.90	0.98	-34.80	0.98	-34.80	0.17	-119.90
3400	0.18	-120.50	0.98	-35.40	0.98	-35.40	0.18	-120.50
3450	0.18	-121.00	0.98	-36.10	0.98	-36.10	0.18	-121.00
3500	0.19	-121.50	0.98	-36.70	0.98	-36.70	0.19	-121.50
3550	0.19	-121.90	0.98	-37.40	0.98	-37.40	0.19	-121.90
3600	0.19	-122.40	0.98	-38.00	0.98	-38.00	0.19	-122.40
3650	0.20	-122.90	0.98	-38.70	0.98	-38.70	0.20	-122.90
3700	0.20	-122.90	0.98	-39.50	0.98	-39.50	0.20	-122.90
3750	0.20	-122.90	0.97	-40.30	0.97	-40.30	0.20	-122.90
3800	0.21	-123.10	0.97	-40.90	0.97	-40.90	0.21	-123.10
3850	0.21	-123.30	0.97	-41.50	0.97	-41.50	0.21	-123.30
3900	0.22	-123.60	0.97	-42.40	0.97	-42.40	0.22	-123.60
3950	0.22	-123.90	0.97	-43.30	0.97	-43.30	0.22	-123.90
4000	0.22	-123.80	0.97	-43.90	0.97	-43.90	0.22	-123.80
4050	0.23	-123.60	0.97	-44.50	0.97	-44.50	0.23	-123.60
4100	0.23	-123.70	0.96	-45.20	0.96	-45.20	0.23	-123.70
4150	0.23	-123.80	0.96	-45.90	0.96	-45.90	0.23	-123.80
4200	0.24	-124.40	0.96	-46.60	0.96	-46.60	0.24	-124.40
4250	0.25	-125.00	0.96	-47.40	0.96	-47.40	0.25	-125.00
4300	0.25	-125.30	0.96	-48.00	0.96	-48.00	0.25	-125.30
4350	0.25	-125.60	0.96	-48.50	0.96	-48.50	0.25	-125.60
4400	0.26	-126.50	0.96	-49.30	0.96	-49.30	0.26	-126.50
4450	0.27	-127.30	0.95	-50.20	0.95	-50.20	0.27	-127.30
4500	0.28	-127.60	0.95	-50.90	0.95	-50.90	0.28	-127.60
4550	0.28	-127.90	0.95	-51.70	0.95	-51.70	0.28	-127.90
4600	0.29	-129.50	0.95	-52.60	0.95	-52.60	0.29	-129.50
4650	0.29	-131.00	0.95	-53.60	0.95	-53.60	0.29	-131.00
4700	0.30	-131.80	0.94	-54.20	0.94	-54.20	0.30	-131.80
4750	0.31	-132.60	0.94	-54.90	0.94	-54.90	0.31	-132.60
4800	0.31	-133.80	0.94	-55.60	0.94	-55.60	0.31	-133.80
4850	0.32	-135.00	0.93	-56.30	0.93	-56.30	0.32	-135.00
4900	0.32	-136.30	0.93	-57.10	0.93	-57.10	0.32	-136.30
4950	0.33	-137.60	0.93	-57.90	0.93	-57.90	0.33	-137.60
5000	0.34	-139.00	0.93	-58.60	0.93	-58.60	0.34	-139.00
5050	0.34	-140.30	0.92	-59.30	0.92	-59.30	0.34	-140.30
5100	0.35	-141.50	0.92	-59.90	0.92	-59.90	0.35	-141.50
5150	0.35	-142.60	0.92	-60.50	0.92	-60.50	0.35	-142.60
5200	0.36	-143.90	0.92	-61.20	0.92	-61.20	0.36	-143.90
5250	0.37	-145.20	0.92	-61.80	0.92	-61.80	0.37	-145.20
5300	0.38	-146.90	0.91	-62.70	0.91	-62.70	0.38	-146.90
5350	0.38	-148.60	0.91	-63.70	0.91	-63.70	0.38	-148.60
5400	0.39	-149.60	0.90	-64.30	0.90	-64.30	0.39	-149.60
5450	0.40	-150.60	0.90	-65.00	0.90	-65.00	0.40	-150.60
5500	0.40	-152.10	0.90	-65.80	0.90	-65.80	0.40	-152.10
5550	0.41	-153.60	0.89	-66.50	0.89	-66.50	0.41	-153.60
5600	0.41	-154.80	0.89	-67.20	0.89	-67.20	0.41	-154.80
5650	0.42	-156.00	0.89	-68.00	0.89	-68.00	0.42	-156.00
5700	0.42	-156.80	0.88	-68.40	0.88	-68.40	0.42	-156.80
5750	0.43	-157.70	0.88	-68.90	0.88	-68.90	0.43	-157.70
5800	0.43	-158.30	0.88	-69.60	0.88	-69.60	0.43	-158.30
5850	0.44	-158.80	0.88	-70.40	0.88	-70.40	0.44	-158.80
5900	0.45	-159.90	0.87	-71.10	0.87	-71.10	0.45	-159.90
5950	0.46	-161.00	0.87	-71.80	0.87	-71.80	0.46	-161.00
6000	0.47	-161.80	0.86	-72.80	0.86	-72.80	0.47	-161.80
6050	0.49	-162.50	0.85	-73.70	0.85	-73.70	0.49	-162.50
6100	0.50	-163.50	0.85	-74.30	0.85	-74.30	0.50	-163.50
6150	0.51	-164.40	0.85	-74.90	0.85	-74.90	0.51	-164.40
6200	0.51	-165.80	0.84	-75.70	0.84	-75.70	0.51	-165.80
6250	0.52	-167.10	0.84	-76.60	0.84	-76.60	0.52	-167.10
6300	0.53	-167.90	0.83	-77.30	0.83	-77.30	0.53	-167.90
6350	0.53	-168.60	0.83	-77.90	0.83	-77.90	0.53	-168.60
6400	0.54	-169.40	0.82	-78.70	0.82	-78.70	0.54	-169.40
6450	0.55	-170.20	0.82	-79.50	0.82	-79.50	0.55	-170.20
6500	0.55	-171.00	0.81	-80.30	0.81	-80.30	0.55	-171.00
6550	0.55	-171.90	0.81	-81.10	0.81	-81.10	0.55	-171.90
6600	0.56	-173.00	0.81	-81.90	0.81	-81.90	0.56	-173.00
6650	0.56	-174.00	0.80	-82.60	0.80	-82.60	0.56	-174.00
6700	0.57	-174.80	0.80	-83.30	0.80	-83.30	0.57	-174.80
6750	0.57	-175.50	0.79	-83.90	0.79	-83.90	0.57	-175.50
6800	0.58	-177.10	0.79	-85.00	0.79	-85.00	0.58	-177.10
6850	0.59	-178.60	0.78	-86.00	0.78	-86.00	0.59	-178.60
6900	0.59	0.60	0.78	-86.80	0.78	-86.80	0.59	0.60
6950	0.60	179.90	0.77	-87.60	0.77	-87.60	0.60	179.90
7000	0.61	178.20	0.77	-88.80	0.77	-88.80	0.61	178.20
7050	0.62	176.50	0.76	-89.90	0.76	-89.90	0.62	176.50
7100	0.62	175.40	0.76	-90.80	0.76	-90.80	0.62	175.40
7150	0.62	174.20	0.75	-91.70	0.75	-91.70	0.62	174.20
7200	0.63	172.80	0.74	-93.10	0.74	-93.10	0.63	172.80
7250	0.65	171.30	0.74	-94.40	0.74	-94.40	0.65	171.30
7300	0.65	169.60	0.73	-95.60	0.73	-95.60	0.65	169.60
7350	0.66	167.90	0.71	-96.80	0.71	-96.80	0.66	167.90
7400	0.67	166.70	0.71	-98.10	0.71	-98.10	0.67	166.70
7450	0.68	165.50	0.70	-99.30	0.70	-99.30	0.68	165.50
7500	0.69	163.50	0.68	-100.90	0.68	-100.90	0.69	163.50
7550	0.70	161.40	0.67	-102.40	0.67	-102.40	0.70	161.40
7600	0.71	160.00	0.65	-103.70	0.65	-103.70	0.71	160.00
7650	0.71	158.60	0.64	-104.90	0.64	-104.90	0.71	158.60
7700	0.73	156.50	0.62	-106.60	0.62	-106.60	0.73	156.50
7750	0.74	154.40	0.61	-108.30	0.61	-108.30	0.74	154.40
7800	0.75	151.80	0.58	-110.10	0.58	-110.10	0.75	151.80
7850	0.76	149.20	0.56	-111.90	0.56	-111.90	0.76	149.20
7900	0.77	147.00	0.54	-113.40	0.54	-113.40	0.77	147.00
7950	0.78	144.70	0.51	-115.00	0.51	-115.00	0.78	144.70
8000	0.80	141.70	0.48	-116.60	0.48	-116.60	0.80	141.70
8050	0.81	138.60	0.46	-118.20	0.46	-118.20	0.81	138.60
8100	0.82	135.30	0.42	-119.90	0.42	-119.90	0.82	135.30
8150	0.83	132.00	0.39	-121.60	0.39	-121.60	0.83	132.00
8200	0.84	128.90	0.35	-122.10	0.35	-122.10	0.84	128.90
8250	0.85	125.70	0.31	-122.50	0.31	-122.50	0.85	125.70
8300	0.85	122.00	0.27	-121.60	0.27	-121.60	0.85	122.00
8350	0.85	118.30	0.23	-120.70	0.23	-120.70	0.85	118.30
8400	0.86	114.80	0.19	-113.60	0.19	-113.60	0.86	114.80
8450	0.86	111.30	0.15	-106.50	0.15	-106.50	0.86	111.30
8500	0.85	107.30	0.14	-87.50	0.14	-87.50	0.85	107.30
8550	0.83	103.30	0.12	-68.60	0.12	-68.60	0.83	103.30
8600	0.83	99.40	0.15	-52.60	0.15	-52.60	0.83	99.40
8650	0.82	95.50	0.18	-36.50	0.18	-36.50	0.82	95.50
8700	0.81	91.80	0.22	-32.10	0.22	-32.10	0.81	91.80
8750	0.79	88.10	0.27	-27.60	0.27	-27.60	0.79	88.10
8800	0.77	83.70	0.32	-27.70	0.32	-27.70	0.77	83.70
8850	0.75	79.20	0.37	-27.80	0.37	-27.80	0.75	79.20
8900	0.72	76.00	0.42	-29.50	0.42	-29.50	0.72	76.00
8950	0.69	72.90	0.47	-31.20	0.47	-31.20	0.69	72.90
9000	0.67	69.30	0.51	-33.70	0.51	-33.70	0.67	69.30
9050	0.64	65.80	0.56	-36.30	0.56	-36.30	0.64	65.80
9100	0.61	62.50	0.60	-39.10	0.60	-39.10	0.61	62.50
9150	0.58	59.20	0.64	-42.00	0.64	-42.00	0.58	59.20
9200	0.53	55.60	0.67	-45.00	0.67	-45.00	0.53	55.60
9250	0.49	52.00	0.70	-48.00	0.70	-48.00	0.49	52.00
9300	0.45	50.20	0.73	-50.50	0.73	-50.50	0.45	50.20
9350	0.41	48.40	0.76	-52.90	0.76	-52.90	0.41	48.40
9400	0.38	45.20	0.78	-55.80	0.78	-55.80	0.38	45.20
9450	0.34	41.90	0.80	-58.70	0.80	-58.70	0.34	41.90
9500	0.30	40.00	0.82	-61.30	0.82	-61.30	0.30	40.00
9550	0.26	38.10	0.83	-63.90	0.83	-63.90	0.26	38.10
9600	0.22	36.70	0.85	-66.70	0.85	-66.70	0.22	36.70
9650	0.19	35.30	0.87	-69.50	0.87	-69.50	0.19	35.30
9700	0.15	32.80	0.87	-72.00	0.87	-72.00	0.15	32.80
9750	0.11	30.40	0.88	-74.60	0.88	-74.60	0.11	30.40
9800	0.07	36.50	0.89	-77.10	0.89	-77.10	0.07	36.50
9850	0.03	42.60	0.89	-79.70	0.89	-79.70	0.03	42.60
9900	0.04	110.00	0.89	-82.20	0.89	-82.20	0.04	110.00
9950	0.04	177.30	0.89	-84.80	0.89	-84.80	0.04	177.30
10000	0.08	2.00	0.89	-87.30	0.89	-87.30	0.08	2.00
10050	0.13	-173.40	0.88	-89.80	0.88	-89.80	0.13	-173.40
10100	0.16	-176.00	0.88	-92.10	0.88	-92.10	0.16	-176.00
10150	0.20	-178.50	0.87	-94.40	0.87	-94.40	0.20	-178.50
10200	0.24	0.50	0.86	-96.90	0.86	-96.90	0.24	0.50
10250	0.28	179.60	0.85	-99.40	0.85	-99.40	0.28	179.60
10300	0.32	176.20	0.83	-101.80	0.83	-101.80	0.32	176.20
10350	0.36	172.70	0.81	-104.20	0.81	-104.20	0.36	172.70
10400	0.39	170.30	0.80	-106.50	0.80	-106.50	0.39	170.30
10450	0.41	168.00	0.78	-108.80	0.78	-108.80	0.41	168.00
10500	0.45	165.30	0.76	-111.00	0.76	-111.00	0.45	165.30
10550	0.49	162.70	0.74	-113.20	0.74	-113.20	0.49	162.70
10600	0.51	158.50	0.72	-114.90	0.72	-114.90	0.51	158.50
10650	0.52	154.40	0.69	-116.50	0.69	-116.50	0.52	154.40
10700	0.55	153.00	0.68	-118.40	0.68	-118.40	0.55	153.00
10750	0.59	151.60	0.66	-120.40	0.66	-120.40	0.59	151.60
10800	0.61	149.20	0.64	-121.90	0.64	-121.90	0.61	149.20
10850	0.63	146.80	0.62	-123.40	0.62	-123.40	0.63	146.80
10900	0.65	143.70	0.59	-125.50	0.59	-125.50	0.65	143.70
10950	0.67	140.70	0.56	-127.60	0.56	-127.60	0.67	140.70
11000	0.70	138.70	0.55	-129.40	0.55	-129.40	0.70	138.70
11050	0.73	136.70	0.53	-131.20	0.53	-131.20	0.73	136.70
11100	0.74	133.30	0.49	-132.90	0.49	-132.90	0.74	133.30
11150	0.76	129.90	0.46	-134.60	0.46	-134.60	0.76	129.90
11200	0.78	127.30	0.44	-136.00	0.44	-136.00	0.78	127.30
11250	0.80	124.80	0.41	-137.40	0.41	-137.40	0.80	124.80
11300	0.81	122.00	0.38	-138.20	0.38	-138.20	0.81	122.00
11350	0.83	119.20	0.35	-138.90	0.35	-138.90	0.83	119.20
11400	0.83	115.90	0.32	-139.70	0.32	-139.70	0.83	115.90
11450	0.84	112.60	0.29	-140.50	0.29	-140.50	0.84	112.60
11500	0.85	110.00	0.25	-139.10	0.25	-139.10	0.85	110.00
11550	0.86	107.30	0.22	-137.70	0.22	-137.70	0.86	107.30
11600	0.87	104.40	0.20	-134.50	0.20	-134.50	0.87	104.40
11650	0.88	101.60	0.17	-131.30	0.17	-131.30	0.88	101.60
11700	0.88	99.00	0.15	-122.60	0.15	-122.60	0.88	99.00
11750	0.89	96.40	0.13	-114.00	0.13	-114.00	0.89	96.40
11800	0.89	94.40	0.12	-98.80	0.12	-98.80	0.89	94.40
11850	0.89	92.30	0.11	-83.70	0.11	-83.70	0.89	92.30
11900	0.89	90.10	0.13	-71.70	0.13	-71.70	0.89	90.10
11950	0.89	87.90	0.14	-59.70	0.14	-59.70	0.89	87.90
12000	0.88	86.20	0.17	-53.00	0.17	-53.00	0.88	86.20
12050	0.88	84.50	0.19	-46.20	0.19	-46.20	0.88	84.50
12100	0.88	81.90	0.22	-44.40	0.22	-44.40	0.88	81.90
12150	0.88	79.30	0.25	-42.70	0.25	-42.70	0.88	79.30
12200	0.87	77.20	0.28	-42.00	0.28	-42.00	0.87	77.20
12250	0.85	75.10	0.31	-41.30	0.31	-41.30	0.85	75.10
12300	0.84	73.60	0.34	-41.70	0.34	-41.70	0.84	73.60
12350	0.82	72.10	0.37	-42.10	0.37	-42.10	0.82	72.10
12400	0.81	68.90	0.40	-43.60	0.40	-43.60	0.81	68.90
12450	0.81	65.80	0.43	-45.10	0.43	-45.10	0.81	65.80
12500	0.79	64.10	0.46	-46.40	0.46	-46.40	0.79	64.10
12550	0.77	62.40	0.48	-47.70	0.48	-47.70	0.77	62.40
12600	0.75	60.40	0.51	-49.50	0.51	-49.50	0.75	60.40
12650	0.74	58.40	0.53	-51.30	0.53	-51.30	0.74	58.40
12700	0.73	56.30	0.56	-52.90	0.56	-52.90	0.73	56.30
12750	0.71	54.20	0.58	-54.50	0.58	-54.50	0.71	54.20
12800	0.69	52.30	0.60	-56.50	0.60	-56.50	0.69	52.30
12850	0.68	50.50	0.61	-58.40	0.61	-58.40	0.68	50.50
12900	0.67	48.80	0.63	-60.00	0.63	-60.00	0.67	48.80
12950	0.66	47.20	0.65	-61.60	0.65	-61.60	0.66	47.20
13000	0.64	45.80	0.67	-63.20	0.67	-63.20	0.64	45.80
13050	0.62	44.30	0.68	-64.90	0.68	-64.90	0.62	44.30
13100	0.60	42.70	0.69	-66.40	0.69	-66.40	0.60	42.70
13150	0.59	41.10	0.71	-67.90	0.71	-67.90	0.59	41.10
13200	0.58	40.00	0.72	-69.10	0.72	-69.10	0.58	40.00
13250	0.58	39.00	0.73	-70.30	0.73	-70.30	0.58	39.00
13300	0.55	39.10	0.74	-72.20	0.74	-72.20	0.55	39.10
13350	0.52	39.20	0.74	-74.20	0.74	-74.20	0.52	39.20
13400	0.52	36.80	0.75	-75.50	0.75	-75.50	0.52	36.80
13450	0.53	34.40	0.76	-76.80	0.76	-76.80	0.53	34.40
13500	0.52	32.70	0.76	-78.10	0.76	-78.10	0.52	32.70
13550	0.50	31.10	0.77	-79.50	0.77	-79.50	0.50	31.10
13600	0.50	29.70	0.78	-80.90	0.78	-80.90	0.50	29.70
13650	0.49	28.20	0.78	-82.40	0.78	-82.40	0.49	28.20
13700	0.49	26.30	0.79	-83.40	0.79	-83.40	0.49	26.30
13750	0.48	24.30	0.79	-84.40	0.79	-84.40	0.48	24.30
13800	0.47	22.20	0.79	-85.50	0.79	-85.50	0.47	22.20
13850	0.46	20.10	0.79	-86.60	0.79	-86.60	0.46	20.10
13900	0.46	18.10	0.79	-87.30	0.79	-87.30	0.46	18.10
13950	0.46	16.10	0.80	-88.00	0.80	-88.00	0.46	16.10
14000	0.46	13.50	0.80	-88.70	0.80	-88.70	0.46	13.50
14050	0.46	10.90	0.80	-89.30	0.80	-89.30	0.46	10.90
14100	0.46	8.50	0.81	-89.90	0.81	-89.90	0.46	8.50
14150	0.46	6.10	0.82	-90.60	0.82	-90.60	0.46	6.10
14200	0.46	3.40	0.82	-91.50	0.82	-91.50	0.46	3.40
14250	0.46	0.60	0.82	-92.30	0.82	-92.30	0.46	0.60
14300	0.46	-1.20	0.83	-93.10	0.83	-93.10	0.46	-1.20
14350	0.45	-3.10	0.83	-93.80	0.83	-93.80	0.45	-3.10
14400	0.45	-5.10	0.84	-94.60	0.84	-94.60	0.45	-5.10
14450	0.46	-7.00	0.84	-95.50	0.84	-95.50	0.46	-7.00
14500	0.44	-8.20	0.84	-96.00	0.84	-96.00	0.44	-8.20
14550	0.44	-9.40	0.85	-96.50	0.85	-96.50	0.44	-9.40
14600	0.43	-10.40	0.85	-97.30	0.85	-97.30	0.43	-10.40
14650	0.43	-11.50	0.86	-98.10	0.86	-98.10	0.43	-11.50
14700	0.42	-13.00	0.86	-98.90	0.86	-98.90	0.42	-13.00
14750	0.41	-14.50	0.87	-99.70	0.87	-99.70	0.41	-14.50
14800	0.41	-15.00	0.87	-100.60	0.87	-100.60	0.41	-15.00
14850	0.40	-15.50	0.87	-101.40	0.87	-101.40	0.40	-15.50
14900	0.39	-15.60	0.88	-102.10	0.88	-102.10	0.39	-15.60
14950	0.38	-15.70	0.88	-102.70	0.88	-102.70	0.38	-15.70
15000	0.37	-17.10	0.88	-103.70	0.88	-103.70	0.37	-17.10
15050	0.37	-18.50	0.88	-104.80	0.88	-104.80	0.37	-18.50
15100	0.36	-18.70	0.89	-105.30	0.89	-105.30	0.36	-18.70
15150	0.35	-19.00	0.89	-105.90	0.89	-105.90	0.35	-19.00
15200	0.35	-18.70	0.89	-106.60	0.89	-106.60	0.35	-18.70
15250	0.35	-18.50	0.90	-107.40	0.90	-107.40	0.35	-18.50
15300	0.34	-19.90	0.89	-108.50	0.89	-108.50	0.34	-19.90
15350	0.34	-21.30	0.89	-109.50	0.89	-109.50	0.34	-21.30
15400	0.34	-20.00	0.89	-110.00	0.89	-110.00	0.34	-20.00
15450	0.33	-18.70	0.88	-110.50	0.88	-110.50	0.33	-18.70
15500	0.34	-18.60	0.88	-111.10	0.88	-111.10	0.34	-18.60
15550	0.35	-18.60	0.88	-111.70	0.88	-111.70	0.35	-18.60
15600	0.35	-18.60	0.88	-111.90	0.88	-111.90	0.35	-18.60
15650	0.35	-18.70	0.88	-112.10	0.88	-112.10	0.35	-18.70
15700	0.36	-18.70	0.88	-112.50	0.88	-112.50	0.36	-18.70
15750	0.37	-18.70	0.88	-112.90	0.88	-112.90	0.37	-18.70
15800	0.36	-19.80	0.88	-113.10	0.88	-113.10	0.36	-19.80
15850	0.35	-21.00	0.88	-113.30	0.88	-113.30	0.35	-21.00
15900	0.36	-20.60	0.88	-113.70	0.88	-113.70	0.36	-20.60
15950	0.36	-20.20	0.88	-114.20	0.88	-114.20	0.36	-20.20
16000	0.35	-20.90	0.89	-114.50	0.89	-114.50	0.35	-20.90
16050	0.33	-21.70	0.90	-114.80	0.90	-114.80	0.33	-21.70
16100	0.32	-21.90	0.90	-115.50	0.90	-115.50	0.32	-21.90
16150	0.30	-22.00	0.90	-116.30	0.90	-116.30	0.30	-22.00
16200	0.29	-23.50	0.90	-116.90	0.90	-116.90	0.29	-23.50
16250	0.27	-24.90	0.91	-117.50	0.91	-117.50	0.27	-24.90
16300	0.25	-26.10	0.91	-118.30	0.91	-118.30	0.25	-26.10
16350	0.22	-27.20	0.92	-119.00	0.92	-119.00	0.22	-27.20
16400	0.22	-27.90	0.91	-119.50	0.91	-119.50	0.22	-27.90
16450	0.21	-28.60	0.91	-120.00	0.91	-120.00	0.21	-28.60
16500	0.19	-33.20	0.91	-120.30	0.91	-120.30	0.19	-33.20
16550	0.18	-37.90	0.91	-120.50	0.91	-120.50	0.18	-37.90
16600	0.17	-41.40	0.92	-121.10	0.92	-121.10	0.17	-41.40
16650	0.16	-44.90	0.94	-121.70	0.94	-121.70	0.16	-44.90
16700	0.15	-52.30	0.94	-122.50	0.94	-122.50	0.15	-52.30
16750	0.14	-59.60	0.95	-123.20	0.95	-123.20	0.14	-59.60
16800	0.13	-66.10	0.95	-124.10	0.95	-124.10	0.13	-66.10
16850	0.11	-72.60	0.96	-124.90	0.96	-124.90	0.11	-72.60
16900	0.10	-74.90	0.96	-125.80	0.96	-125.80	0.10	-74.90
16950	0.09	-77.10	0.96	-126.80	0.96	-126.80	0.09	-77.10
17000	0.07	-86.40	0.96	-127.60	0.96	-127.60	0.07	-86.40
17050	0.06	-95.70	0.97	-128.50	0.97	-128.50	0.06	-95.70
17100	0.04	-102.50	0.97	-129.50	0.97	-129.50	0.04	-102.50
17150	0.02	-109.40	0.97	-130.40	0.97	-130.40	0.02	-109.40
17200	0.02	0.20	0.97	-131.00	0.97	-131.00	0.02	0.20
17250	0.01	109.70	0.96	-131.60	0.96	-131.60	0.01	109.70
17300	0.04	107.20	0.97	-132.50	0.97	-132.50	0.04	107.20
17350	0.06	104.70	0.97	-133.40	0.97	-133.40	0.06	104.70
17400	0.07	96.50	0.96	-134.00	0.96	-134.00	0.07	96.50
17450	0.09	88.30	0.96	-134.50	0.96	-134.50	0.09	88.30
17500	0.10	88.70	0.96	-135.30	0.96	-135.30	0.10	88.70
17550	0.11	89.10	0.96	-136.10	0.96	-136.10	0.11	89.10
17600	0.13	86.30	0.96	-136.80	0.96	-136.80	0.13	86.30
17650	0.14	83.50	0.96	-137.50	0.96	-137.50	0.14	83.50
17700	0.15	83.70	0.96	-138.10	0.96	-138.10	0.15	83.70
17750	0.16	83.90	0.96	-138.70	0.96	-138.70	0.16	83.90
17800	0.16	84.50	0.96	-139.50	0.96	-139.50	0.16	84.50
17850	0.17	85.10	0.96	-140.20	0.96	-140.20	0.17	85.10
17900	0.16	84.40	0.95	-140.80	0.95	-140.80	0.16	84.40
17950	0.16	83.70	0.95	-141.50	0.95	-141.50	0.16	83.70
18000	0.16	84.80	0.95	-142.30	0.95	-142.30	0.16	84.80
18050	0.15	85.90	0.95	-143.10	0.95	-143.10	0.15	85.90
18100	0.14	84.60	0.95	-143.70	0.95	-143.70	0.14	84.60
18150	0.14	83.40	0.95	-144.30	0.95	-144.30	0.14	83.40
18200	0.13	82.80	0.95	-145.20	0.95	-145.20	0.13	82.80
18250	0.12	82.20	0.95	-146.10	0.95	-146.10	0.12	82.20
18300	0.11	78.70	0.95	-146.80	0.95	-146.80	0.11	78.70
18350	0.10	75.20	0.95	-147.40	0.95	-147.40	0.10	75.20
18400	0.10	73.00	0.95	-148.30	0.95	-148.30	0.10	73.00
18450	0.09	70.80	0.94	-149.20	0.94	-149.20	0.09	70.80
18500	0.10	67.00	0.94	-149.80	0.94	-149.80	0.10	67.00
18550	0.10	63.30	0.94	-150.50	0.94	-150.50	0.10	63.30
18600	0.09	66.10	0.93	-151.50	0.93	-151.50	0.09	66.10
