#	mhz	s	ma	r	50
50	0.34	64.90	0.91	-18.30	0.91	-18.30	0.34	64.90
100	0.54	52.10	0.77	-31.90	0.77	-31.90	0.54	52.10
150	0.74	39.40	0.64	-45.40	0.64	-45.40	0.74	39.40
200	0.81	32.10	0.53	-53.10	0.53	-53.10	0.81	32.10
250	0.89	24.70	0.43	-60.80	0.43	-60.80	0.89	24.70
300	0.92	20.10	0.35	-65.30	0.35	-65.30	0.92	20.10
350	0.94	15.50	0.28	-69.80	0.28	-69.80	0.94	15.50
400	0.96	11.90	0.23	-72.90	0.23	-72.90	0.96	11.90
450	0.98	8.30	0.17	-76.00	0.17	-76.00	0.98	8.30
500	1.00	8.50	0.13	-78.50	0.13	-78.50	1.00	8.50
550	1.00	8.80	0.08	-81.00	0.08	-81.00	1.00	8.80
600	1.00	6.90	0.05	-75.30	0.05	-75.30	1.00	6.90
650	1.00	5.10	0.02	-69.60	0.02	-69.60	1.00	5.10
700	1.00	3.90	0.03	4.30	0.03	4.30	1.00	3.90
750	1.00	2.80	0.04	78.30	0.04	78.30	1.00	2.80
800	1.00	0.90	0.06	79.50	0.06	79.50	1.00	0.90
850	0.99	-1.00	0.09	80.70	0.09	80.70	0.99	-1.00
900	1.00	-2.40	0.11	80.00	0.11	80.00	1.00	-2.40
950	1.00	-3.70	0.13	79.30	0.13	79.30	1.00	-3.70
1000	1.00	-5.00	0.15	78.40	0.15	78.40	1.00	-5.00
1050	0.99	-6.40	0.17	77.40	0.17	77.40	0.99	-6.40
1100	0.99	-7.60	0.19	76.10	0.19	76.10	0.99	-7.60
1150	0.99	-8.90	0.21	74.70	0.21	74.70	0.99	-8.90
1200	0.98	-9.90	0.23	73.90	0.23	73.90	0.98	-9.90
1250	0.98	-10.90	0.25	73.10	0.25	73.10	0.98	-10.90
1300	0.97	-12.50	0.27	71.70	0.27	71.70	0.97	-12.50
1350	0.96	-14.20	0.28	70.30	0.28	70.30	0.96	-14.20
1400	0.96	-15.10	0.30	69.50	0.30	69.50	0.96	-15.10
1450	0.95	-16.10	0.32	68.80	0.32	68.80	0.95	-16.10
1500	0.94	-17.60	0.34	67.50	0.34	67.50	0.94	-17.60
1550	0.94	-19.20	0.35	66.20	0.35	66.20	0.94	-19.20
1600	0.93	-20.60	0.37	65.10	0.37	65.10	0.93	-20.60
1650	0.92	-22.00	0.38	64.00	0.38	64.00	0.92	-22.00
1700	0.91	-23.10	0.40	63.00	0.40	63.00	0.91	-23.10
1750	0.90	-24.30	0.42	62.00	0.42	62.00	0.90	-24.30
1800	0.90	-25.90	0.43	60.60	0.43	60.60	0.90	-25.90
1850	0.89	-27.40	0.45	59.30	0.45	59.30	0.89	-27.40
1900	0.88	-28.70	0.46	58.30	0.46	58.30	0.88	-28.70
1950	0.86	-30.00	0.48	57.40	0.48	57.40	0.86	-30.00
2000	0.85	-31.50	0.50	56.20	0.50	56.20	0.85	-31.50
2050	0.84	-33.00	0.51	55.00	0.51	55.00	0.84	-33.00
2100	0.83	-34.20	0.53	53.80	0.53	53.80	0.83	-34.20
2150	0.82	-35.40	0.55	52.50	0.55	52.50	0.82	-35.40
2200	0.81	-37.10	0.56	51.10	0.56	51.10	0.81	-37.10
2250	0.79	-38.80	0.58	49.60	0.58	49.60	0.79	-38.80
2300	0.78	-40.20	0.60	48.10	0.60	48.10	0.78	-40.20
2350	0.76	-41.60	0.62	46.70	0.62	46.70	0.76	-41.60
2400	0.74	-43.60	0.63	44.30	0.63	44.30	0.74	-43.60
2450	0.71	-45.60	0.65	41.90	0.65	41.90	0.71	-45.60
2500	0.67	-47.40	0.68	38.60	0.68	38.60	0.67	-47.40
2550	0.63	-49.20	0.70	35.40	0.70	35.40	0.63	-49.20
2600	0.55	-48.40	0.71	28.70	0.71	28.70	0.55	-48.40
2650	0.47	-47.70	0.72	22.00	0.72	22.00	0.47	-47.70
2700	0.49	-27.80	0.60	10.40	0.60	10.40	0.49	-27.80
2750	0.52	-7.90	0.48	-1.20	0.48	-1.20	0.52	-7.90
2800	0.66	-14.90	0.40	19.90	0.40	19.90	0.66	-14.90
2850	0.81	-22.00	0.32	41.10	0.32	41.10	0.81	-22.00
2900	0.81	-27.50	0.39	45.60	0.39	45.60	0.81	-27.50
2950	0.82	-33.10	0.46	50.10	0.46	50.10	0.82	-33.10
3000	0.81	-36.00	0.50	49.40	0.50	49.40	0.81	-36.00
3050	0.80	-38.80	0.54	48.60	0.54	48.60	0.80	-38.80
3100	0.79	-40.80	0.56	47.60	0.56	47.60	0.79	-40.80
3150	0.78	-42.80	0.58	46.50	0.58	46.50	0.78	-42.80
3200	0.76	-44.00	0.60	45.50	0.60	45.50	0.76	-44.00
3250	0.75	-45.20	0.62	44.50	0.62	44.50	0.75	-45.20
3300	0.75	-46.20	0.63	43.50	0.63	43.50	0.75	-46.20
3350	0.74	-47.20	0.65	42.50	0.65	42.50	0.74	-47.20
3400	0.73	-48.30	0.66	41.80	0.66	41.80	0.73	-48.30
3450	0.72	-49.50	0.67	41.00	0.67	41.00	0.72	-49.50
3500	0.70	-50.50	0.68	40.20	0.68	40.20	0.70	-50.50
3550	0.69	-51.50	0.69	39.30	0.69	39.30	0.69	-51.50
3600	0.68	-52.10	0.70	38.60	0.70	38.60	0.68	-52.10
3650	0.67	-52.70	0.71	37.90	0.71	37.90	0.67	-52.70
3700	0.67	-53.90	0.72	37.10	0.72	37.10	0.67	-53.90
3750	0.66	-55.10	0.73	36.20	0.73	36.20	0.66	-55.10
3800	0.65	-55.70	0.74	35.70	0.74	35.70	0.65	-55.70
3850	0.64	-56.20	0.74	35.10	0.74	35.10	0.64	-56.20
3900	0.63	-57.30	0.75	34.10	0.75	34.10	0.63	-57.30
3950	0.62	-58.40	0.76	33.10	0.76	33.10	0.62	-58.40
4000	0.61	-59.10	0.76	32.50	0.76	32.50	0.61	-59.10
4050	0.60	-59.90	0.77	32.00	0.77	32.00	0.60	-59.90
4100	0.59	-60.50	0.78	31.20	0.78	31.20	0.59	-60.50
4150	0.58	-61.20	0.78	30.50	0.78	30.50	0.58	-61.20
4200	0.57	-62.30	0.79	29.80	0.79	29.80	0.57	-62.30
4250	0.57	-63.30	0.80	29.00	0.80	29.00	0.57	-63.30
4300	0.55	-64.20	0.80	28.30	0.80	28.30	0.55	-64.20
4350	0.54	-65.00	0.81	27.60	0.81	27.60	0.54	-65.00
4400	0.53	-66.00	0.81	26.50	0.81	26.50	0.53	-66.00
4450	0.51	-67.00	0.82	25.40	0.82	25.40	0.51	-67.00
4500	0.50	-67.40	0.82	24.30	0.82	24.30	0.50	-67.40
4550	0.48	-67.80	0.83	23.20	0.83	23.20	0.48	-67.80
4600	0.46	-68.80	0.83	21.40	0.83	21.40	0.46	-68.80
4650	0.44	-69.70	0.84	19.60	0.84	19.60	0.44	-69.70
4700	0.41	-68.70	0.84	17.40	0.84	17.40	0.41	-68.70
4750	0.37	-67.60	0.83	15.10	0.83	15.10	0.37	-67.60
4800	0.34	-60.10	0.80	11.60	0.80	11.60	0.34	-60.10
4850	0.31	-52.60	0.77	8.20	0.77	8.20	0.31	-52.60
4900	0.37	-41.90	0.68	7.60	0.68	7.60	0.37	-41.90
4950	0.44	-31.20	0.59	7.10	0.59	7.10	0.44	-31.20
5000	0.52	-37.60	0.57	15.90	0.57	15.90	0.52	-37.60
5050	0.60	-43.90	0.55	24.80	0.55	24.80	0.60	-43.90
5100	0.61	-49.40	0.60	27.70	0.60	27.70	0.61	-49.40
5150	0.61	-54.80	0.65	30.50	0.65	30.50	0.61	-54.80
5200	0.61	-57.70	0.68	30.50	0.68	30.50	0.61	-57.70
5250	0.60	-60.60	0.72	30.40	0.72	30.40	0.60	-60.60
5300	0.60	-63.10	0.74	29.20	0.74	29.20	0.60	-63.10
5350	0.59	-65.60	0.76	27.90	0.76	27.90	0.59	-65.60
5400	0.57	-66.80	0.77	27.10	0.77	27.10	0.57	-66.80
5450	0.56	-67.90	0.78	26.40	0.78	26.40	0.56	-67.90
5500	0.55	-68.90	0.79	25.60	0.79	25.60	0.55	-68.90
5550	0.55	-70.00	0.81	24.80	0.81	24.80	0.55	-70.00
5600	0.53	-70.70	0.81	24.10	0.81	24.10	0.53	-70.70
5650	0.52	-71.40	0.82	23.40	0.82	23.40	0.52	-71.40
5700	0.51	-72.10	0.82	22.80	0.82	22.80	0.51	-72.10
5750	0.51	-72.90	0.83	22.30	0.83	22.30	0.51	-72.90
5800	0.50	-72.80	0.83	21.70	0.83	21.70	0.50	-72.80
5850	0.49	-72.70	0.83	21.10	0.83	21.10	0.49	-72.70
5900	0.48	-73.00	0.84	20.60	0.84	20.60	0.48	-73.00
5950	0.48	-73.20	0.85	20.20	0.85	20.20	0.48	-73.20
6000	0.46	-74.20	0.85	19.10	0.85	19.10	0.46	-74.20
6050	0.45	-75.10	0.86	18.00	0.86	18.00	0.45	-75.10
6100	0.45	-75.30	0.87	17.70	0.87	17.70	0.45	-75.30
6150	0.44	-75.60	0.87	17.50	0.87	17.50	0.44	-75.60
6200	0.43	-75.20	0.87	16.70	0.87	16.70	0.43	-75.20
6250	0.42	-74.80	0.88	16.00	0.88	16.00	0.42	-74.80
6300	0.42	-75.10	0.88	15.40	0.88	15.40	0.42	-75.10
6350	0.41	-75.30	0.88	14.90	0.88	14.90	0.41	-75.30
6400	0.40	-74.90	0.88	14.20	0.88	14.20	0.40	-74.90
6450	0.39	-74.40	0.88	13.50	0.88	13.50	0.39	-74.40
6500	0.38	-74.20	0.88	12.80	0.88	12.80	0.38	-74.20
6550	0.38	-73.90	0.89	12.10	0.89	12.10	0.38	-73.90
6600	0.36	-73.40	0.89	11.20	0.89	11.20	0.36	-73.40
6650	0.35	-72.90	0.89	10.40	0.89	10.40	0.35	-72.90
6700	0.34	-71.80	0.89	9.60	0.89	9.60	0.34	-71.80
6750	0.33	-70.70	0.89	8.90	0.89	8.90	0.33	-70.70
6800	0.31	-68.90	0.89	7.60	0.89	7.60	0.31	-68.90
6850	0.29	-67.10	0.89	6.40	0.89	6.40	0.29	-67.10
6900	0.28	-62.50	0.87	4.80	0.87	4.80	0.28	-62.50
6950	0.25	-57.90	0.86	3.20	0.86	3.20	0.25	-57.90
7000	0.26	-48.00	0.82	1.70	0.82	1.70	0.26	-48.00
7050	0.26	-38.00	0.79	0.20	0.79	0.20	0.26	-38.00
7100	0.31	-33.50	0.74	1.70	0.74	1.70	0.31	-33.50
7150	0.36	-29.00	0.68	3.20	0.68	3.20	0.36	-29.00
7200	0.41	-33.70	0.68	8.20	0.68	8.20	0.41	-33.70
7250	0.46	-38.40	0.68	13.20	0.68	13.20	0.46	-38.40
7300	0.47	-43.70	0.72	14.90	0.72	14.90	0.47	-43.70
7350	0.48	-48.90	0.75	16.50	0.75	16.50	0.48	-48.90
7400	0.47	-52.10	0.78	16.30	0.78	16.30	0.47	-52.10
7450	0.45	-55.30	0.81	16.00	0.81	16.00	0.45	-55.30
7500	0.45	-57.70	0.82	15.40	0.82	15.40	0.45	-57.70
7550	0.44	-60.00	0.84	14.70	0.84	14.70	0.44	-60.00
7600	0.43	-61.50	0.85	14.00	0.85	14.00	0.43	-61.50
7650	0.41	-63.00	0.86	13.30	0.86	13.30	0.41	-63.00
7700	0.41	-64.30	0.87	12.70	0.87	12.70	0.41	-64.30
7750	0.40	-65.50	0.88	12.20	0.88	12.20	0.40	-65.50
7800	0.38	-66.50	0.88	11.60	0.88	11.60	0.38	-66.50
7850	0.38	-67.50	0.89	11.00	0.89	11.00	0.38	-67.50
7900	0.37	-68.90	0.89	10.40	0.89	10.40	0.37	-68.90
7950	0.36	-70.30	0.90	9.70	0.90	9.70	0.36	-70.30
8000	0.35	-71.00	0.90	9.10	0.90	9.10	0.35	-71.00
8050	0.34	-71.70	0.91	8.50	0.91	8.50	0.34	-71.70
8100	0.33	-72.60	0.91	8.20	0.91	8.20	0.33	-72.60
8150	0.32	-73.50	0.91	7.90	0.91	7.90	0.32	-73.50
8200	0.31	-74.00	0.91	7.30	0.91	7.30	0.31	-74.00
8250	0.30	-74.50	0.92	6.70	0.92	6.70	0.30	-74.50
8300	0.30	-74.90	0.92	6.30	0.92	6.30	0.30	-74.90
8350	0.29	-75.40	0.93	5.90	0.93	5.90	0.29	-75.40
8400	0.28	-75.70	0.93	5.20	0.93	5.20	0.28	-75.70
8450	0.28	-75.90	0.93	4.60	0.93	4.60	0.28	-75.90
8500	0.27	-75.80	0.93	4.10	0.93	4.10	0.27	-75.80
8550	0.26	-75.70	0.94	3.60	0.94	3.60	0.26	-75.70
8600	0.26	-75.10	0.94	2.90	0.94	2.90	0.26	-75.10
8650	0.25	-74.50	0.94	2.20	0.94	2.20	0.25	-74.50
8700	0.24	-73.70	0.94	1.60	0.94	1.60	0.24	-73.70
8750	0.23	-72.90	0.94	1.00	0.94	1.00	0.23	-72.90
8800	0.22	-71.50	0.94	0.60	0.94	0.60	0.22	-71.50
8850	0.22	-70.20	0.94	0.20	0.94	0.20	0.22	-70.20
8900	0.21	-67.80	0.94	-0.70	0.94	-0.70	0.21	-67.80
8950	0.20	-65.50	0.93	-1.60	0.93	-1.60	0.20	-65.50
9000	0.19	-62.00	0.93	-2.40	0.93	-2.40	0.19	-62.00
9050	0.18	-58.50	0.92	-3.20	0.92	-3.20	0.18	-58.50
9100	0.18	-53.30	0.91	-4.10	0.91	-4.10	0.18	-53.30
9150	0.18	-48.20	0.90	-4.90	0.90	-4.90	0.18	-48.20
9200	0.19	-43.70	0.88	-5.50	0.88	-5.50	0.19	-43.70
9250	0.20	-39.20	0.86	-6.00	0.86	-6.00	0.20	-39.20
9300	0.23	-38.30	0.83	-5.20	0.83	-5.20	0.23	-38.30
9350	0.26	-37.50	0.80	-4.30	0.80	-4.30	0.26	-37.50
9400	0.28	-42.80	0.80	-1.70	0.80	-1.70	0.28	-42.80
9450	0.31	-48.20	0.79	1.00	0.79	1.00	0.31	-48.20
9500	0.31	-53.10	0.81	2.10	0.81	2.10	0.31	-53.10
9550	0.30	-58.00	0.84	3.20	0.84	3.20	0.30	-58.00
9600	0.29	-60.90	0.86	3.00	0.86	3.00	0.29	-60.90
9650	0.28	-63.80	0.88	2.80	0.88	2.80	0.28	-63.80
9700	0.26	-66.10	0.90	2.40	0.90	2.40	0.26	-66.10
9750	0.25	-68.30	0.91	1.90	0.91	1.90	0.25	-68.30
9800	0.24	-68.50	0.92	1.30	0.92	1.30	0.24	-68.50
9850	0.23	-68.70	0.93	0.60	0.93	0.60	0.23	-68.70
9900	0.22	-68.70	0.93	0.20	0.93	0.20	0.22	-68.70
9950	0.21	-68.60	0.94	-0.20	0.94	-0.20	0.21	-68.60
10000	0.20	-69.20	0.94	-0.70	0.94	-0.70	0.20	-69.20
10050	0.19	-69.70	0.95	-1.20	0.95	-1.20	0.19	-69.70
10100	0.18	-69.10	0.95	-1.60	0.95	-1.60	0.18	-69.10
10150	0.18	-68.50	0.95	-2.00	0.95	-2.00	0.18	-68.50
10200	0.17	-68.70	0.95	-2.50	0.95	-2.50	0.17	-68.70
10250	0.16	-68.90	0.96	-3.00	0.96	-3.00	0.16	-68.90
10300	0.16	-69.30	0.96	-3.30	0.96	-3.30	0.16	-69.30
10350	0.15	-69.60	0.95	-3.70	0.95	-3.70	0.15	-69.60
10400	0.14	-70.30	0.96	-4.20	0.96	-4.20	0.14	-70.30
10450	0.13	-71.00	0.96	-4.60	0.96	-4.60	0.13	-71.00
10500	0.13	-70.70	0.97	-5.00	0.97	-5.00	0.13	-70.70
10550	0.13	-70.40	0.97	-5.30	0.97	-5.30	0.13	-70.40
10600	0.12	-70.20	0.97	-5.70	0.97	-5.70	0.12	-70.20
10650	0.11	-70.10	0.97	-6.10	0.97	-6.10	0.11	-70.10
10700	0.10	-71.10	0.97	-6.50	0.97	-6.50	0.10	-71.10
10750	0.10	-72.10	0.97	-6.80	0.97	-6.80	0.10	-72.10
10800	0.09	-73.00	0.97	-7.00	0.97	-7.00	0.09	-73.00
10850	0.09	-73.90	0.97	-7.10	0.97	-7.10	0.09	-73.90
10900	0.08	-76.40	0.97	-7.70	0.97	-7.70	0.08	-76.40
10950	0.08	-78.90	0.97	-8.30	0.97	-8.30	0.08	-78.90
11000	0.07	-81.40	0.97	-8.50	0.97	-8.50	0.07	-81.40
11050	0.07	-83.80	0.97	-8.80	0.97	-8.80	0.07	-83.80
11100	0.06	-86.10	0.97	-9.20	0.97	-9.20	0.06	-86.10
11150	0.06	-88.50	0.97	-9.60	0.97	-9.60	0.06	-88.50
11200	0.06	-87.90	0.97	-10.00	0.97	-10.00	0.06	-87.90
11250	0.06	-87.30	0.97	-10.30	0.97	-10.30	0.06	-87.30
11300	0.06	-86.90	0.97	-10.80	0.97	-10.80	0.06	-86.90
11350	0.06	-86.50	0.97	-11.20	0.97	-11.20	0.06	-86.50
11400	0.05	-80.90	0.97	-11.60	0.97	-11.60	0.05	-80.90
11450	0.05	-75.30	0.97	-11.90	0.97	-11.90	0.05	-75.30
11500	0.04	-68.80	0.96	-12.40	0.96	-12.40	0.04	-68.80
11550	0.04	-62.40	0.96	-12.90	0.96	-12.90	0.04	-62.40
11600	0.04	-52.40	0.96	-13.30	0.96	-13.30	0.04	-52.40
11650	0.04	-42.40	0.96	-13.80	0.96	-13.80	0.04	-42.40
11700	0.04	-31.20	0.95	-14.30	0.95	-14.30	0.04	-31.20
11750	0.04	-20.00	0.95	-14.80	0.95	-14.80	0.04	-20.00
11800	0.05	-15.30	0.94	-15.00	0.94	-15.00	0.05	-15.30
11850	0.05	-10.60	0.93	-15.20	0.93	-15.20	0.05	-10.60
11900	0.06	-13.50	0.92	-15.20	0.92	-15.20	0.06	-13.50
11950	0.06	-16.30	0.91	-15.20	0.91	-15.20	0.06	-16.30
12000	0.06	-28.50	0.90	-14.70	0.90	-14.70	0.06	-28.50
12050	0.07	-40.70	0.90	-14.30	0.90	-14.30	0.07	-40.70
12100	0.06	-54.70	0.90	-13.80	0.90	-13.80	0.06	-54.70
12150	0.06	-68.80	0.90	-13.40	0.90	-13.40	0.06	-68.80
12200	0.06	-81.30	0.91	-13.30	0.91	-13.30	0.06	-81.30
12250	0.06	-93.90	0.92	-13.20	0.92	-13.20	0.06	-93.90
12300	0.06	-104.00	0.92	-13.60	0.92	-13.60	0.06	-104.00
12350	0.05	-114.20	0.93	-13.90	0.93	-13.90	0.05	-114.20
12400	0.05	-120.00	0.93	-14.20	0.93	-14.20	0.05	-120.00
12450	0.05	-125.80	0.94	-14.60	0.94	-14.60	0.05	-125.80
12500	0.05	-130.30	0.94	-15.00	0.94	-15.00	0.05	-130.30
12550	0.04	-134.80	0.94	-15.40	0.94	-15.40	0.04	-134.80
12600	0.04	-137.20	0.94	-15.70	0.94	-15.70	0.04	-137.20
12650	0.04	-139.60	0.94	-16.00	0.94	-16.00	0.04	-139.60
12700	0.03	-135.10	0.94	-16.30	0.94	-16.30	0.03	-135.10
12750	0.03	-130.60	0.94	-16.60	0.94	-16.60	0.03	-130.60
12800	0.02	-127.50	0.94	-17.00	0.94	-17.00	0.02	-127.50
12850	0.01	-124.40	0.94	-17.40	0.94	-17.40	0.01	-124.40
12900	0.01	-94.70	0.94	-17.50	0.94	-17.50	0.01	-94.70
12950	0.01	-65.00	0.93	-17.70	0.93	-17.70	0.01	-65.00
13000	0.01	-53.50	0.94	-17.80	0.94	-17.80	0.01	-53.50
13050	0.01	-42.00	0.94	-18.00	0.94	-18.00	0.01	-42.00
13100	0.01	-23.80	0.94	-18.10	0.94	-18.10	0.01	-23.80
13150	0.02	-5.60	0.94	-18.20	0.94	-18.20	0.02	-5.60
13200	0.02	20.20	0.94	-18.30	0.94	-18.30	0.02	20.20
13250	0.03	45.90	0.94	-18.40	0.94	-18.40	0.03	45.90
13300	0.03	46.50	0.94	-19.10	0.94	-19.10	0.03	46.50
13350	0.04	47.00	0.94	-19.80	0.94	-19.80	0.04	47.00
13400	0.05	47.90	0.94	-20.20	0.94	-20.20	0.05	47.90
13450	0.06	48.90	0.94	-20.70	0.94	-20.70	0.06	48.90
13500	0.07	50.70	0.94	-21.20	0.94	-21.20	0.07	50.70
13550	0.07	52.40	0.94	-21.60	0.94	-21.60	0.07	52.40
13600	0.08	51.00	0.94	-22.10	0.94	-22.10	0.08	51.00
13650	0.09	49.50	0.94	-22.70	0.94	-22.70	0.09	49.50
13700	0.09	47.70	0.93	-23.20	0.93	-23.20	0.09	47.70
13750	0.10	45.90	0.93	-23.80	0.93	-23.80	0.10	45.90
13800	0.11	42.60	0.92	-24.10	0.92	-24.10	0.11	42.60
13850	0.12	39.40	0.92	-24.50	0.92	-24.50	0.12	39.40
13900	0.13	34.00	0.91	-24.80	0.91	-24.80	0.13	34.00
13950	0.14	28.60	0.91	-25.10	0.91	-25.10	0.14	28.60
14000	0.15	23.60	0.89	-25.40	0.89	-25.40	0.15	23.60
14050	0.16	18.70	0.88	-25.70	0.88	-25.70	0.16	18.70
14100	0.17	12.40	0.87	-25.30	0.87	-25.30	0.17	12.40
14150	0.17	6.10	0.86	-24.80	0.86	-24.80	0.17	6.10
14200	0.18	1.10	0.86	-24.10	0.86	-24.10	0.18	1.10
14250	0.18	-3.90	0.85	-23.40	0.85	-23.40	0.18	-3.90
14300	0.17	-6.50	0.86	-22.80	0.86	-22.80	0.17	-6.50
14350	0.16	-9.10	0.87	-22.20	0.87	-22.20	0.16	-9.10
14400	0.16	-8.30	0.88	-22.30	0.88	-22.30	0.16	-8.30
14450	0.16	-7.50	0.89	-22.40	0.89	-22.40	0.16	-7.50
14500	0.16	-3.60	0.90	-22.70	0.90	-22.70	0.16	-3.60
14550	0.15	0.40	0.91	-22.90	0.91	-22.90	0.15	0.40
14600	0.16	4.30	0.91	-23.50	0.91	-23.50	0.16	4.30
14650	0.16	8.20	0.92	-24.10	0.92	-24.10	0.16	8.20
14700	0.17	10.70	0.92	-24.80	0.92	-24.80	0.17	10.70
14750	0.17	13.10	0.92	-25.50	0.92	-25.50	0.17	13.10
14800	0.18	15.30	0.92	-26.20	0.92	-26.20	0.18	15.30
14850	0.19	17.40	0.92	-26.80	0.92	-26.80	0.19	17.40
14900	0.20	19.60	0.92	-27.20	0.92	-27.20	0.20	19.60
14950	0.21	21.70	0.92	-27.50	0.92	-27.50	0.21	21.70
15000	0.22	20.60	0.91	-28.00	0.91	-28.00	0.22	20.60
15050	0.23	19.50	0.91	-28.50	0.91	-28.50	0.23	19.50
15100	0.23	19.30	0.91	-28.40	0.91	-28.40	0.23	19.30
15150	0.24	19.10	0.91	-28.40	0.91	-28.40	0.24	19.10
15200	0.25	18.50	0.91	-28.70	0.91	-28.70	0.25	18.50
15250	0.25	17.90	0.91	-28.90	0.91	-28.90	0.25	17.90
15300	0.26	17.30	0.91	-29.60	0.91	-29.60	0.26	17.30
15350	0.26	16.60	0.91	-30.30	0.91	-30.30	0.26	16.60
15400	0.27	16.80	0.91	-30.80	0.91	-30.80	0.27	16.80
15450	0.27	17.00	0.90	-31.20	0.90	-31.20	0.27	17.00
15500	0.28	18.00	0.90	-31.80	0.90	-31.80	0.28	18.00
15550	0.29	19.00	0.90	-32.40	0.90	-32.40	0.29	19.00
15600	0.30	18.90	0.90	-32.90	0.90	-32.90	0.30	18.90
15650	0.31	18.80	0.89	-33.40	0.89	-33.40	0.31	18.80
15700	0.33	19.60	0.89	-34.10	0.89	-34.10	0.33	19.60
15750	0.35	20.40	0.88	-34.90	0.88	-34.90	0.35	20.40
15800	0.36	21.60	0.88	-35.30	0.88	-35.30	0.36	21.60
15850	0.37	22.90	0.87	-35.70	0.87	-35.70	0.37	22.90
15900	0.38	22.70	0.86	-36.40	0.86	-36.40	0.38	22.70
15950	0.40	22.60	0.85	-37.00	0.85	-37.00	0.40	22.60
16000	0.41	24.30	0.84	-37.10	0.84	-37.10	0.41	24.30
16050	0.42	26.00	0.83	-37.20	0.83	-37.20	0.42	26.00
16100	0.44	26.20	0.82	-37.70	0.82	-37.70	0.44	26.20
16150	0.45	26.30	0.81	-38.10	0.81	-38.10	0.45	26.30
16200	0.46	26.60	0.80	-38.10	0.80	-38.10	0.46	26.60
16250	0.46	26.80	0.79	-38.00	0.79	-38.00	0.46	26.80
16300	0.47	26.70	0.78	-38.10	0.78	-38.10	0.47	26.70
16350	0.47	26.60	0.78	-38.20	0.78	-38.20	0.47	26.60
16400	0.47	26.50	0.77	-38.70	0.77	-38.70	0.47	26.50
16450	0.48	26.50	0.76	-39.20	0.76	-39.20	0.48	26.50
16500	0.47	24.90	0.74	-39.10	0.74	-39.10	0.47	24.90
16550	0.47	23.40	0.72	-39.00	0.72	-39.00	0.47	23.40
16600	0.48	21.00	0.70	-38.80	0.70	-38.80	0.48	21.00
16650	0.49	18.70	0.68	-38.60	0.68	-38.60	0.49	18.70
16700	0.49	16.10	0.66	-37.40	0.66	-37.40	0.49	16.10
16750	0.49	13.40	0.64	-36.10	0.64	-36.10	0.49	13.40
16800	0.48	9.40	0.63	-33.30	0.63	-33.30	0.48	9.40
16850	0.48	5.30	0.61	-30.60	0.61	-30.60	0.48	5.30
16900	0.46	1.90	0.62	-27.30	0.62	-27.30	0.46	1.90
16950	0.44	-1.40	0.63	-24.10	0.63	-24.10	0.44	-1.40
17000	0.41	-3.70	0.66	-22.20	0.66	-22.20	0.41	-3.70
17050	0.38	-5.90	0.69	-20.40	0.69	-20.40	0.38	-5.90
17100	0.36	-5.60	0.72	-20.20	0.72	-20.20	0.36	-5.60
17150	0.33	-5.20	0.75	-20.00	0.75	-20.00	0.33	-5.20
17200	0.31	-1.80	0.77	-20.60	0.77	-20.60	0.31	-1.80
17250	0.29	1.50	0.80	-21.10	0.80	-21.10	0.29	1.50
17300	0.28	6.00	0.81	-22.20	0.81	-22.20	0.28	6.00
17350	0.26	10.50	0.83	-23.30	0.83	-23.30	0.26	10.50
17400	0.26	15.60	0.84	-24.30	0.84	-24.30	0.26	15.60
17450	0.26	20.70	0.85	-25.30	0.85	-25.30	0.26	20.70
17500	0.26	24.30	0.86	-26.40	0.86	-26.40	0.26	24.30
17550	0.27	27.90	0.86	-27.60	0.86	-27.60	0.27	27.90
17600	0.28	31.70	0.87	-28.70	0.87	-28.70	0.28	31.70
17650	0.29	35.60	0.87	-29.70	0.87	-29.70	0.29	35.60
17700	0.29	37.90	0.87	-30.50	0.87	-30.50	0.29	37.90
17750	0.30	40.20	0.87	-31.30	0.87	-31.30	0.30	40.20
17800	0.31	41.00	0.87	-32.40	0.87	-32.40	0.31	41.00
17850	0.31	41.90	0.87	-33.40	0.87	-33.40	0.31	41.90
17900	0.32	43.20	0.87	-34.30	0.87	-34.30	0.32	43.20
17950	0.32	44.50	0.86	-35.10	0.86	-35.10	0.32	44.50
18000	0.33	44.20	0.86	-36.00	0.86	-36.00	0.33	44.20
18050	0.33	44.00	0.85	-37.00	0.85	-37.00	0.33	44.00
18100	0.34	42.90	0.85	-37.70	0.85	-37.70	0.34	42.90
18150	0.34	41.80	0.84	-38.50	0.84	-38.50	0.34	41.80
18200	0.34	40.30	0.84	-39.30	0.84	-39.30	0.34	40.30
18250	0.35	38.80	0.83	-40.10	0.83	-40.10	0.35	38.80
18300	0.36	36.30	0.82	-40.50	0.82	-40.50	0.36	36.30
18350	0.37	33.80	0.81	-40.90	0.81	-40.90	0.37	33.80
18400	0.38	31.50	0.80	-41.40	0.80	-41.40	0.38	31.50
18450	0.39	29.10	0.79	-41.90	0.79	-41.90	0.39	29.10
18500	0.40	28.40	0.78	-41.70	0.78	-41.70	0.40	28.40
18550	0.42	27.60	0.78	-41.50	0.78	-41.50	0.42	27.60
18600	0.42	25.80	0.77	-41.80	0.77	-41.80	0.42	25.80
18650	0.43	24.10	0.76	-42.00	0.76	-42.00	0.43	24.10
18700	0.42	22.00	0.75	-41.90	0.75	-41.90	0.42	22.00
18750	0.42	19.90	0.73	-41.70	0.73	-41.70	0.42	19.90
18800	0.41	18.00	0.73	-40.60	0.73	-40.60	0.41	18.00
18850	0.41	16.20	0.72	-39.40	0.72	-39.40	0.41	16.20
18900	0.38	16.30	0.73	-38.50	0.73	-38.50	0.38	16.30
18950	0.36	16.50	0.73	-37.60	0.73	-37.60	0.36	16.50
19000	0.34	16.70	0.74	-36.90	0.74	-36.90	0.34	16.70
19050	0.31	16.80	0.76	-36.20	0.76	-36.20	0.31	16.80
19100	0.31	18.10	0.77	-36.60	0.77	-36.60	0.31	18.10
19150	0.30	19.30	0.79	-36.90	0.79	-36.90	0.30	19.30
19200	0.29	19.80	0.80	-37.70	0.80	-37.70	0.29	19.80
19250	0.29	20.20	0.81	-38.40	0.81	-38.40	0.29	20.20
19300	0.29	19.20	0.81	-39.30	0.81	-39.30	0.29	19.20
19350	0.31	18.20	0.82	-40.20	0.82	-40.20	0.31	18.20
19400	0.31	17.30	0.82	-41.60	0.82	-41.60	0.31	17.30
19450	0.32	16.40	0.83	-43.00	0.83	-43.00	0.32	16.40
