# MHZ S MA R 50

      50  0.08   78.70    0.99   -3.50    0.99   -3.50    0.08   78.70
     100  0.16   75.70    0.97   -7.90    0.97   -7.90    0.16   75.70
     150  0.24   72.70    0.96   -12.30   0.96   -12.30   0.24   72.70
     200  0.31   68.90    0.94   -16.70   0.94   -16.70   0.31   68.90
     250  0.38   65.20    0.91   -21.00   0.91   -21.00   0.38   65.20
     300  0.44   61.10    0.88   -25.10   0.88   -25.10   0.44   61.10
     350  0.50   57.10    0.85   -29.20   0.85   -29.20   0.50   57.10
     400  0.55   53.20    0.81   -32.90   0.81   -32.90   0.55   53.20
     450  0.61   49.20    0.78   -36.70   0.78   -36.70   0.61   49.20
     500  0.69   47.60    0.72   -42.00   0.72   -42.00   0.69   47.60
     550  0.76   46.00    0.67   -47.30   0.67   -47.30   0.76   46.00
     600  0.79   43.00    0.63   -50.30   0.63   -50.30   0.79   43.00
     650  0.81   40.00    0.59   -53.20   0.59   -53.20   0.81   40.00
     700  0.84   37.70    0.55   -56.20   0.55   -56.20   0.84   37.70
     750  0.88   35.50    0.51   -59.30   0.51   -59.30   0.88   35.50
     800  0.88   32.50    0.47   -61.60   0.47   -61.60   0.88   32.50
     850  0.89   29.50    0.43   -63.90   0.43   -63.90   0.89   29.50
     900  0.92   27.10    0.39   -66.10   0.39   -66.10   0.92   27.10
     950  0.95   24.80    0.36   -68.30   0.36   -68.30   0.95   24.80
    1000  0.95   22.50    0.32   -70.40   0.32   -70.40   0.95   22.50
    1050  0.96   20.30    0.29   -72.40   0.29   -72.40   0.96   20.30
    1100  0.97   18.20    0.25   -74.50   0.25   -74.50   0.97   18.20
    1150  0.98   16.20    0.22   -76.50   0.22   -76.50   0.98   16.20
    1200  0.99   14.50    0.19   -77.80   0.19   -77.80   0.99   14.50
    1250  1.00   12.90    0.16   -79.00   0.16   -79.00   1.00   12.90
    1300  1.00   10.60    0.13   -80.40   0.13   -80.40   1.00   10.60
    1350  1.00    8.30    0.10   -81.70   0.10   -81.70   1.00    8.30
    1400  1.00    6.90    0.08   -80.80   0.08   -80.80   1.00    6.90
    1450  1.00    5.40    0.05   -79.80   0.05   -79.80   1.00    5.40
    1500  1.00    3.30    0.03   -30.20   0.03   -30.20   1.00    3.30
    1550  1.00    1.30    0.01   19.50    0.01   19.50    1.00    1.30
    1600  1.00   -0.50    0.03   48.00    0.03   48.00    1.00   -0.50
    1650  1.00   -2.30    0.05   76.60    0.05   76.60    1.00   -2.30
    1700  0.99   -3.70    0.08   77.20    0.08   77.20    0.99   -3.70
    1750  0.99   -5.20    0.10   77.70    0.10   77.70    0.99   -5.20
    1800  0.99   -7.00    0.12   76.80    0.12   76.80    0.99   -7.00
    1850  0.99   -8.90    0.14   75.90    0.14   75.90    0.99   -8.90
    1900  0.98   -10.40   0.17   75.10    0.17   75.10    0.98   -10.40
    1950  0.97   -12.00   0.19   74.30    0.19   74.30    0.97   -12.00
    2000  0.97   -13.60   0.21   73.20    0.21   73.20    0.97   -13.60
    2050  0.96   -15.20   0.23   72.10    0.23   72.10    0.96   -15.20
    2100  0.96   -16.50   0.25   71.00    0.25   71.00    0.96   -16.50
    2150  0.96   -17.70   0.27   69.90    0.27   69.90    0.96   -17.70
    2200  0.95   -19.40   0.28   68.70    0.28   68.70    0.95   -19.40
    2250  0.94   -21.10   0.30   67.50    0.30   67.50    0.94   -21.10
    2300  0.94   -22.20   0.32   66.70    0.32   66.70    0.94   -22.20
    2350  0.93   -23.30   0.34   65.80    0.34   65.80    0.93   -23.30
    2400  0.92   -24.90   0.36   64.40    0.36   64.40    0.92   -24.90
    2450  0.92   -26.50   0.37   63.10    0.37   63.10    0.92   -26.50
    2500  0.91   -27.70   0.39   62.00    0.39   62.00    0.91   -27.70
    2550  0.90   -28.90   0.40   61.00    0.40   61.00    0.90   -28.90
    2600  0.90   -30.00   0.42   60.10    0.42   60.10    0.90   -30.00
    2650  0.89   -31.00   0.44   59.20    0.44   59.20    0.89   -31.00
    2700  0.88   -32.10   0.45   58.10    0.45   58.10    0.88   -32.10
    2750  0.87   -33.30   0.46   57.00    0.46   57.00    0.87   -33.30
    2800  0.87   -34.40   0.48   56.20    0.48   56.20    0.87   -34.40
    2850  0.86   -35.50   0.49   55.40    0.49   55.40    0.86   -35.50
    2900  0.85   -36.40   0.50   54.30    0.50   54.30    0.85   -36.40
    2950  0.85   -37.40   0.51   53.10    0.51   53.10    0.85   -37.40
    3000  0.84   -38.20   0.53   52.30    0.53   52.30    0.84   -38.20
    3050  0.83   -39.10   0.54   51.40    0.54   51.40    0.83   -39.10
    3100  0.82   -40.20   0.55   50.70    0.55   50.70    0.82   -40.20
    3150  0.81   -41.20   0.56   49.90    0.56   49.90    0.81   -41.20
    3200  0.80   -41.80   0.57   49.10    0.57   49.10    0.80   -41.80
    3250  0.80   -42.40   0.58   48.30    0.58   48.30    0.80   -42.40
    3300  0.79   -43.20   0.59   47.50    0.59   47.50    0.79   -43.20
    3350  0.78   -43.90   0.60   46.60    0.60   46.60    0.78   -43.90
    3400  0.77   -44.80   0.61   46.00    0.61   46.00    0.77   -44.80
    3450  0.77   -45.70   0.62   45.30    0.62   45.30    0.77   -45.70
    3500  0.76   -46.60   0.63   44.50    0.63   44.50    0.76   -46.60
    3550  0.75   -47.50   0.64   43.70    0.64   43.70    0.75   -47.50
    3600  0.74   -48.10   0.65   43.00    0.65   43.00    0.74   -48.10
    3650  0.73   -48.60   0.66   42.40    0.66   42.40    0.73   -48.60
    3700  0.72   -49.70   0.67   41.60    0.67   41.60    0.72   -49.70
    3750  0.72   -50.80   0.68   40.80    0.68   40.80    0.72   -50.80
    3800  0.71   -51.40   0.69   40.20    0.69   40.20    0.71   -51.40
    3850  0.70   -51.90   0.69   39.70    0.69   39.70    0.70   -51.90
    3900  0.69   -53.00   0.70   38.70    0.70   38.70    0.69   -53.00
    3950  0.68   -54.00   0.71   37.70    0.71   37.70    0.68   -54.00
    4000  0.68   -54.70   0.71   37.20    0.71   37.20    0.68   -54.70
    4050  0.67   -55.50   0.72   36.70    0.72   36.70    0.67   -55.50
    4100  0.66   -56.10   0.72   36.10    0.72   36.10    0.66   -56.10
    4150  0.65   -56.80   0.73   35.50    0.73   35.50    0.65   -56.80
    4200  0.65   -57.80   0.74   35.00    0.74   35.00    0.65   -57.80
    4250  0.65   -58.90   0.75   34.60    0.75   34.60    0.65   -58.90
    4300  0.63   -59.70   0.75   34.10    0.75   34.10    0.63   -59.70
    4350  0.62   -60.40   0.76   33.60    0.76   33.60    0.62   -60.40
    4400  0.62   -61.30   0.76   32.80    0.76   32.80    0.62   -61.30
    4450  0.61   -62.20   0.77   32.00    0.77   32.00    0.61   -62.20
    4500  0.60   -62.60   0.77   31.50    0.77   31.50    0.60   -62.60
    4550  0.60   -63.00   0.78   31.10    0.78   31.10    0.60   -63.00
    4600  0.59   -64.30   0.79   30.20    0.79   30.20    0.59   -64.30
    4650  0.59   -65.50   0.80   29.40    0.80   29.40    0.59   -65.50
    4700  0.58   -66.30   0.80   28.80    0.80   28.80    0.58   -66.30
    4750  0.56   -67.10   0.80   28.30    0.80   28.30    0.56   -67.10
    4800  0.56   -68.00   0.81   27.60    0.81   27.60    0.56   -68.00
    4850  0.55   -69.00   0.81   27.00    0.81   27.00    0.55   -69.00
    4900  0.54   -69.60   0.82   26.40    0.82   26.40    0.54   -69.60
    4950  0.54   -70.20   0.83   25.90    0.83   25.90    0.54   -70.20
    5000  0.53   -71.40   0.83   25.00    0.83   25.00    0.53   -71.40
    5050  0.52   -72.70   0.83   24.10    0.83   24.10    0.52   -72.70
    5100  0.51   -73.10   0.83   23.60    0.83   23.60    0.51   -73.10
    5150  0.50   -73.50   0.84   23.10    0.84   23.10    0.50   -73.50
    5200  0.49   -73.90   0.84   22.80    0.84   22.80    0.49   -73.90
    5250  0.48   -74.30   0.85   22.40    0.85   22.40    0.48   -74.30
    5300  0.48   -75.40   0.86   21.30    0.86   21.30    0.48   -75.40
    5350  0.47   -76.50   0.86   20.20    0.86   20.20    0.47   -76.50
    5400  0.46   -76.90   0.86   19.60    0.86   19.60    0.46   -76.90
    5450  0.45   -77.30   0.87   18.90    0.87   18.90    0.45   -77.30
    5500  0.44   -77.90   0.87   18.20    0.87   18.20    0.44   -77.90
    5550  0.43   -78.40   0.88   17.40    0.88   17.40    0.43   -78.40
    5600  0.42   -78.90   0.88   16.60    0.88   16.60    0.42   -78.90
    5650  0.40   -79.40   0.88   15.80    0.88   15.80    0.40   -79.40
    5700  0.40   -80.00   0.89   15.00    0.89   15.00    0.40   -80.00
    5750  0.39   -80.60   0.89   14.20    0.89   14.20    0.39   -80.60
    5800  0.37   -80.50   0.89   13.30    0.89   13.30    0.37   -80.50
    5850  0.36   -80.30   0.89   12.50    0.89   12.50    0.36   -80.30
    5900  0.34   -80.60   0.90   11.60    0.90   11.60    0.34   -80.60
    5950  0.33   -80.90   0.90   10.80    0.90   10.80    0.33   -80.90
    6000  0.31   -81.60   0.91    9.20    0.91    9.20    0.31   -81.60
    6050  0.29   -82.40   0.92    7.70    0.92    7.70    0.29   -82.40
    6100  0.27   -82.60   0.92    6.70    0.92    6.70    0.27   -82.60
    6150  0.25   -82.80   0.92    5.70    0.92    5.70    0.25   -82.80
    6200  0.23   -81.10   0.92    4.10    0.92    4.10    0.23   -81.10
    6250  0.21   -79.50   0.92    2.50    0.92    2.50    0.21   -79.50
    6300  0.18   -76.90   0.92    0.70    0.92    0.70    0.18   -76.90
    6350  0.15   -74.40   0.92   -1.00    0.92   -1.00    0.15   -74.40
    6400  0.13   -61.80   0.91   -3.40    0.91   -3.40    0.13   -61.80
    6450  0.10   -49.10   0.90   -5.70    0.90   -5.70    0.10   -49.10
    6500  0.11   -22.30   0.88   -8.70    0.88   -8.70    0.11   -22.30
    6550  0.12    4.50    0.86   -11.70   0.86   -11.70   0.12    4.50
    6600  0.18   14.50    0.82   -15.40   0.82   -15.40   0.18   14.50
    6650  0.24   24.50    0.78   -19.20   0.78   -19.20   0.24   24.50
    6700  0.33   21.60    0.70   -22.70   0.70   -22.70   0.33   21.60
    6750  0.42   18.80    0.63   -26.20   0.63   -26.20   0.42   18.80
    6800  0.51   11.80    0.52   -24.90   0.52   -24.90   0.51   11.80
    6850  0.60    4.70    0.42   -23.50   0.42   -23.50   0.60    4.70
    6900  0.65   -3.60    0.37   -9.10    0.37   -9.10    0.65   -3.60
    6950  0.70   -12.00   0.32    5.30    0.32    5.30    0.70   -12.00
    7000  0.70   -18.40   0.37   16.00    0.37   16.00    0.70   -18.40
    7050  0.71   -24.70   0.42   26.70    0.42   26.70    0.71   -24.70
    7100  0.70   -29.60   0.48   28.40    0.48   28.40    0.70   -29.60
    7150  0.68   -34.40   0.54   30.10    0.54   30.10    0.68   -34.40
    7200  0.66   -37.60   0.58   29.60    0.58   29.60    0.66   -37.60
    7250  0.65   -40.70   0.63   29.10    0.63   29.10    0.65   -40.70
    7300  0.63   -43.50   0.66   27.90    0.66   27.90    0.63   -43.50
    7350  0.62   -46.30   0.70   26.70    0.70   26.70    0.62   -46.30
    7400  0.60   -48.30   0.72   25.50    0.72   25.50    0.60   -48.30
    7450  0.58   -50.20   0.74   24.40    0.74   24.40    0.58   -50.20
    7500  0.57   -52.20   0.76   23.30    0.76   23.30    0.57   -52.20
    7550  0.56   -54.10   0.78   22.20    0.78   22.20    0.56   -54.10
    7600  0.54   -55.60   0.79   21.10    0.79   21.10    0.54   -55.60
    7650  0.52   -57.10   0.80   20.10    0.80   20.10    0.52   -57.10
    7700  0.51   -58.50   0.81   19.30    0.81   19.30    0.51   -58.50
    7750  0.50   -59.90   0.82   18.50    0.82   18.50    0.50   -59.90
    7800  0.48   -61.10   0.83   17.70    0.83   17.70    0.48   -61.10
    7850  0.47   -62.30   0.84   16.90    0.84   16.90    0.47   -62.30
    7900  0.46   -64.00   0.85   16.10    0.85   16.10    0.46   -64.00
    7950  0.45   -65.60   0.86   15.30    0.86   15.30    0.45   -65.60
    8000  0.44   -66.70   0.86   14.50    0.86   14.50    0.44   -66.70
    8050  0.42   -67.70   0.87   13.70    0.87   13.70    0.42   -67.70
    8100  0.41   -68.80   0.87   13.30    0.87   13.30    0.41   -68.80
    8150  0.40   -69.90   0.88   12.90    0.88   12.90    0.40   -69.90
    8200  0.39   -70.80   0.88   12.10    0.88   12.10    0.39   -70.80
    8250  0.38   -71.80   0.89   11.30    0.89   11.30    0.38   -71.80
    8300  0.38   -72.60   0.89   10.90    0.89   10.90    0.38   -72.60
    8350  0.37   -73.50   0.90   10.40    0.90   10.40    0.37   -73.50
    8400  0.36   -74.10   0.90    9.70    0.90    9.70    0.36   -74.10
    8450  0.35   -74.80   0.91    8.90    0.91    8.90    0.35   -74.80
    8500  0.34   -75.20   0.91    8.40    0.91    8.40    0.34   -75.20
    8550  0.34   -75.60   0.92    7.90    0.92    7.90    0.34   -75.60
    8600  0.33   -75.60   0.92    7.20    0.92    7.20    0.33   -75.60
    8650  0.32   -75.70   0.92    6.50    0.92    6.50    0.32   -75.70
    8700  0.31   -75.80   0.93    5.90    0.93    5.90    0.31   -75.80
    8750  0.30   -75.90   0.93    5.40    0.93    5.40    0.30   -75.90
    8800  0.30   -75.70   0.93    5.10    0.93    5.10    0.30   -75.70
    8850  0.29   -75.60   0.93    4.90    0.93    4.90    0.29   -75.60
    8900  0.28   -75.30   0.93    4.30    0.93    4.30    0.28   -75.30
    8950  0.27   -75.10   0.94    3.60    0.94    3.60    0.27   -75.10
    9000  0.26   -74.90   0.94    3.20    0.94    3.20    0.26   -74.90
    9050  0.26   -74.70   0.94    2.70    0.94    2.70    0.26   -74.70
    9100  0.25   -75.00   0.94    2.30    0.94    2.30    0.25   -75.00
    9150  0.24   -75.30   0.94    1.80    0.94    1.80    0.24   -75.30
    9200  0.23   -76.00   0.94    1.40    0.94    1.40    0.23   -76.00
    9250  0.23   -76.60   0.95    1.10    0.95    1.10    0.23   -76.60
    9300  0.22   -76.20   0.95    0.60    0.95    0.60    0.22   -76.20
    9350  0.21   -75.80   0.95    0.10    0.95    0.10    0.21   -75.80
    9400  0.20   -75.70   0.95   -0.20    0.95   -0.20    0.20   -75.70
    9450  0.20   -75.50   0.95   -0.50    0.95   -0.50    0.20   -75.50
    9500  0.19   -74.30   0.95   -1.00    0.95   -1.00    0.19   -74.30
    9550  0.18   -73.10   0.95   -1.50    0.95   -1.50    0.18   -73.10
    9600  0.17   -71.70   0.96   -2.00    0.96   -2.00    0.17   -71.70
    9650  0.17   -70.40   0.96   -2.50    0.96   -2.50    0.17   -70.40
    9700  0.16   -70.40   0.96   -2.90    0.96   -2.90    0.16   -70.40
    9750  0.16   -70.40   0.96   -3.30    0.96   -3.30    0.16   -70.40
    9800  0.15   -68.60   0.96   -3.70    0.96   -3.70    0.15   -68.60
    9850  0.15   -66.80   0.96   -4.20    0.96   -4.20    0.15   -66.80
    9900  0.14   -65.30   0.96   -4.60    0.96   -4.60    0.14   -65.30
    9950  0.14   -63.80   0.96   -4.90    0.96   -4.90    0.14   -63.80
   10000  0.13   -62.70   0.97   -5.40    0.97   -5.40    0.13   -62.70
   10050  0.12   -61.60   0.97   -5.80    0.97   -5.80    0.12   -61.60
   10100  0.12   -59.40   0.97   -6.10    0.97   -6.10    0.12   -59.40
   10150  0.11   -57.20   0.97   -6.50    0.97   -6.50    0.11   -57.20
   10200  0.10   -55.10   0.97   -7.00    0.97   -7.00    0.10   -55.10
   10250  0.10   -52.90   0.97   -7.40    0.97   -7.40    0.10   -52.90
   10300  0.09   -51.30   0.97   -7.80    0.97   -7.80    0.09   -51.30
   10350  0.09   -49.70   0.96   -8.30    0.96   -8.30    0.09   -49.70
   10400  0.08   -47.20   0.97   -8.70    0.97   -8.70    0.08   -47.20
   10450  0.07   -44.60   0.97   -9.20    0.97   -9.20    0.07   -44.60
   10500  0.07   -42.20   0.97   -9.60    0.97   -9.60    0.07   -42.20
   10550  0.07   -39.80   0.97   -10.10   0.97   -10.10   0.07   -39.80
   10600  0.06   -33.60   0.97   -10.50   0.97   -10.50   0.06   -33.60
   10650  0.06   -27.40   0.97   -10.90   0.97   -10.90   0.06   -27.40
   10700  0.05   -22.10   0.97   -11.40   0.97   -11.40   0.05   -22.10
   10750  0.05   -16.90   0.97   -11.90   0.97   -11.90   0.05   -16.90
   10800  0.05   -12.50   0.97   -12.10   0.97   -12.10   0.05   -12.50
   10850  0.04   -8.00    0.97   -12.40   0.97   -12.40   0.04   -8.00
   10900  0.04    2.90    0.97   -13.00   0.97   -13.00   0.04    2.90
   10950  0.04   13.70    0.97   -13.70   0.97   -13.70   0.04   13.70
   11000  0.04   21.10    0.97   -14.20   0.97   -14.20   0.04   21.10
   11050  0.04   28.40    0.97   -14.70   0.97   -14.70   0.04   28.40
   11100  0.05   32.50    0.97   -15.20   0.97   -15.20   0.05   32.50
   11150  0.05   36.60    0.96   -15.70   0.96   -15.70   0.05   36.60
   11200  0.05   38.50    0.96   -16.30   0.96   -16.30   0.05   38.50
   11250  0.06   40.30    0.96   -16.90   0.96   -16.90   0.06   40.30
   11300  0.06   41.20    0.96   -17.60   0.96   -17.60   0.06   41.20
   11350  0.07   42.00    0.96   -18.20   0.96   -18.20   0.07   42.00
   11400  0.08   42.80    0.95   -18.90   0.95   -18.90   0.08   42.80
   11450  0.09   43.50    0.95   -19.50   0.95   -19.50   0.09   43.50
   11500  0.11   44.20    0.95   -20.20   0.95   -20.20   0.11   44.20
   11550  0.12   44.90    0.94   -21.00   0.94   -21.00   0.12   44.90
   11600  0.13   44.90    0.94   -21.80   0.94   -21.80   0.13   44.90
   11650  0.14   45.00    0.94   -22.70   0.94   -22.70   0.14   45.00
   11700  0.16   44.50    0.93   -23.60   0.93   -23.60   0.16   44.50
   11750  0.18   44.00    0.92   -24.50   0.92   -24.50   0.18   44.00
   11800  0.19   43.60    0.91   -25.40   0.91   -25.40   0.19   43.60
   11850  0.21   43.30    0.90   -26.30   0.90   -26.30   0.21   43.30
   11900  0.23   42.10    0.88   -27.50   0.88   -27.50   0.23   42.10
   11950  0.24   40.90    0.86   -28.80   0.86   -28.80   0.24   40.90
   12000  0.26   37.80    0.85   -29.90   0.85   -29.90   0.26   37.80
   12050  0.29   34.70    0.82   -30.90   0.82   -30.90   0.29   34.70
   12100  0.31   30.30    0.79   -32.30   0.79   -32.30   0.31   30.30
   12150  0.33   25.80    0.75   -33.60   0.75   -33.60   0.33   25.80
   12200  0.35   19.60    0.71   -33.80   0.71   -33.80   0.35   19.60
   12250  0.38   13.40    0.66   -34.00   0.66   -34.00   0.38   13.40
   12300  0.40    6.00    0.61   -31.50   0.61   -31.50   0.40    6.00
   12350  0.41   -1.40    0.56   -29.00   0.56   -29.00   0.41   -1.40
   12400  0.42   -11.20   0.53   -22.80   0.53   -22.80   0.42   -11.20
   12450  0.43   -21.10   0.51   -16.60   0.51   -16.60   0.43   -21.10
   12500  0.42   -28.80   0.54   -10.40   0.54   -10.40   0.42   -28.80
   12550  0.41   -36.60   0.57   -4.20    0.57   -4.20    0.41   -36.60
   12600  0.39   -44.10   0.61   -2.10    0.61   -2.10    0.39   -44.10
   12650  0.37   -51.60   0.66    0.00    0.66    0.00    0.37   -51.60
   12700  0.35   -56.20   0.70   -0.30    0.70   -0.30    0.35   -56.20
   12750  0.32   -60.80   0.75   -0.60    0.75   -0.60    0.32   -60.80
   12800  0.30   -64.30   0.78   -1.40    0.78   -1.40    0.30   -64.30
   12850  0.28   -67.80   0.81   -2.30    0.81   -2.30    0.28   -67.80
   12900  0.26   -69.50   0.83   -3.40    0.83   -3.40    0.26   -69.50
   12950  0.23   -71.10   0.85   -4.60    0.85   -4.60    0.23   -71.10
   13000  0.22   -72.60   0.87   -5.50    0.87   -5.50    0.22   -72.60
   13050  0.20   -74.10   0.88   -6.40    0.88   -6.40    0.20   -74.10
   13100  0.19   -73.50   0.89   -7.40    0.89   -7.40    0.19   -73.50
   13150  0.17   -72.90   0.90   -8.40    0.90   -8.40    0.17   -72.90
   13200  0.15   -72.70   0.91   -9.00    0.91   -9.00    0.15   -72.70
   13250  0.14   -72.50   0.92   -9.70    0.92   -9.70    0.14   -72.50
   13300  0.12   -70.10   0.92   -10.70   0.92   -10.70   0.12   -70.10
   13350  0.11   -67.60   0.92   -11.70   0.92   -11.70   0.11   -67.60
   13400  0.10   -65.90   0.93   -12.50   0.93   -12.50   0.10   -65.90
   13450  0.09   -64.10   0.93   -13.30   0.93   -13.30   0.09   -64.10
   13500  0.08   -62.50   0.94   -13.90   0.94   -13.90   0.08   -62.50
   13550  0.07   -60.90   0.94   -14.50   0.94   -14.50   0.07   -60.90
   13600  0.06   -57.40   0.94   -15.20   0.94   -15.20   0.06   -57.40
   13650  0.06   -53.90   0.94   -15.80   0.94   -15.80   0.06   -53.90
   13700  0.05   -47.10   0.94   -16.40   0.94   -16.40   0.05   -47.10
   13750  0.05   -40.30   0.95   -17.10   0.95   -17.10   0.05   -40.30
   13800  0.05   -34.20   0.94   -17.50   0.94   -17.50   0.05   -34.20
   13850  0.05   -28.20   0.94   -17.90   0.94   -17.90   0.05   -28.20
   13900  0.05   -22.70   0.95   -18.40   0.95   -18.40   0.05   -22.70
