# MHZ S MA R 50

      50  0.46   57.80    0.86   -24.70   0.86   -24.70   0.46   57.80
     100  0.65   43.70    0.68   -39.80   0.68   -39.80   0.65   43.70
     150  0.84   29.60    0.50   -54.80   0.50   -54.80   0.84   29.60
     200  0.90   22.60    0.39   -62.00   0.39   -62.00   0.90   22.60
     250  0.95   15.70    0.28   -69.10   0.28   -69.10   0.95   15.70
     300  0.97   11.50    0.21   -72.60   0.21   -72.60   0.97   11.50
     350  0.98    7.30    0.14   -76.10   0.14   -76.10   0.98    7.30
     400  0.99    3.90    0.09   -75.20   0.09   -75.20   0.99    3.90
     450  1.00    0.50    0.04   -74.30   0.04   -74.30   1.00    0.50
     500  1.00    1.20    0.04    1.70    0.04    1.70    1.00    1.20
     550  1.00    1.90    0.04   77.70    0.04   77.70    1.00    1.90
     600  1.00    0.00    0.07   79.00    0.07   79.00    1.00    0.00
     650  1.00   -1.90    0.10   80.30    0.10   80.30    1.00   -1.90
     700  1.00   -3.10    0.13   78.90    0.13   78.90    1.00   -3.10
     750  1.00   -4.30    0.16   77.60    0.16   77.60    1.00   -4.30
     800  0.98   -6.40    0.19   76.50    0.19   76.50    0.98   -6.40
     850  0.96   -8.40    0.21   75.30    0.21   75.30    0.96   -8.40
     900  0.97   -9.90    0.24   74.00    0.24   74.00    0.97   -9.90
     950  0.98   -11.40   0.26   72.70    0.26   72.70    0.98   -11.40
    1000  0.97   -12.80   0.28   71.50    0.28   71.50    0.97   -12.80
    1050  0.96   -14.20   0.30   70.20    0.30   70.20    0.96   -14.20
    1100  0.95   -15.60   0.32   68.70    0.32   68.70    0.95   -15.60
    1150  0.94   -17.00   0.34   67.10    0.34   67.10    0.94   -17.00
    1200  0.94   -18.20   0.37   66.00    0.37   66.00    0.94   -18.20
    1250  0.93   -19.40   0.39   64.90    0.39   64.90    0.93   -19.40
    1300  0.92   -21.10   0.40   63.30    0.40   63.30    0.92   -21.10
    1350  0.91   -22.80   0.42   61.80    0.42   61.80    0.91   -22.80
    1400  0.90   -24.00   0.44   60.80    0.44   60.80    0.90   -24.00
    1450  0.89   -25.20   0.46   59.90    0.46   59.90    0.89   -25.20
    1500  0.88   -26.90   0.48   58.40    0.48   58.40    0.88   -26.90
    1550  0.86   -28.60   0.50   56.90    0.50   56.90    0.86   -28.60
    1600  0.85   -30.20   0.51   55.50    0.51   55.50    0.85   -30.20
    1650  0.84   -31.80   0.53   54.20    0.53   54.20    0.84   -31.80
    1700  0.82   -33.30   0.55   52.80    0.55   52.80    0.82   -33.30
    1750  0.81   -34.80   0.57   51.40    0.57   51.40    0.81   -34.80
    1800  0.79   -36.70   0.59   49.40    0.59   49.40    0.79   -36.70
    1850  0.78   -38.70   0.61   47.50    0.61   47.50    0.78   -38.70
    1900  0.75   -40.60   0.63   45.40    0.63   45.40    0.75   -40.60
    1950  0.72   -42.50   0.65   43.30    0.65   43.30    0.72   -42.50
    2000  0.67   -44.70   0.68   39.10    0.68   39.10    0.67   -44.70
    2050  0.62   -46.80   0.70   34.80    0.70   34.80    0.62   -46.80
    2100  0.53   -34.60   0.65   23.20    0.65   23.20    0.53   -34.60
    2150  0.45   -22.40   0.60   11.60    0.60   11.60    0.45   -22.40
    2200  0.62   -24.30   0.50   28.40    0.50   28.40    0.62   -24.30
    2250  0.79   -26.20   0.40   45.30    0.40   45.30    0.79   -26.20
    2300  0.79   -31.60   0.47   47.00    0.47   47.00    0.79   -31.60
    2350  0.79   -37.00   0.55   48.80    0.55   48.80    0.79   -37.00
    2400  0.77   -40.00   0.58   47.20    0.58   47.20    0.77   -40.00
    2450  0.76   -43.00   0.61   45.70    0.61   45.70    0.76   -43.00
    2500  0.74   -44.70   0.63   44.40    0.63   44.40    0.74   -44.70
    2550  0.73   -46.40   0.65   43.20    0.65   43.20    0.73   -46.40
    2600  0.72   -47.70   0.67   42.20    0.67   42.20    0.72   -47.70
    2650  0.71   -49.00   0.69   41.20    0.69   41.20    0.71   -49.00
    2700  0.69   -50.20   0.70   40.10    0.70   40.10    0.69   -50.20
    2750  0.68   -51.30   0.71   39.10    0.71   39.10    0.68   -51.30
    2800  0.67   -52.50   0.72   38.20    0.72   38.20    0.67   -52.50
    2850  0.66   -53.60   0.73   37.30    0.73   37.30    0.66   -53.60
    2900  0.65   -54.40   0.74   36.20    0.74   36.20    0.65   -54.40
    2950  0.64   -55.10   0.74   35.10    0.74   35.10    0.64   -55.10
    3000  0.63   -56.00   0.75   34.50    0.75   34.50    0.63   -56.00
    3050  0.62   -56.90   0.76   33.90    0.76   33.90    0.62   -56.90
    3100  0.61   -58.00   0.77   33.00    0.77   33.00    0.61   -58.00
    3150  0.60   -59.00   0.77   32.20    0.77   32.20    0.60   -59.00
    3200  0.59   -59.60   0.78   31.40    0.78   31.40    0.59   -59.60
    3250  0.57   -60.10   0.79   30.60    0.79   30.60    0.57   -60.10
    3300  0.56   -60.80   0.80   29.70    0.80   29.70    0.56   -60.80
    3350  0.55   -61.40   0.81   28.80    0.81   28.80    0.55   -61.40
    3400  0.54   -62.30   0.81   27.90    0.81   27.90    0.54   -62.30
    3450  0.53   -63.30   0.82   27.00    0.82   27.00    0.53   -63.30
    3500  0.50   -64.00   0.83   25.60    0.83   25.60    0.50   -64.00
    3550  0.48   -64.80   0.83   24.30    0.83   24.30    0.48   -64.80
    3600  0.46   -64.30   0.83   22.50    0.83   22.50    0.46   -64.30
    3650  0.43   -63.80   0.83   20.70    0.83   20.70    0.43   -63.80
    3700  0.40   -58.10   0.80   17.60    0.80   17.60    0.40   -58.10
    3750  0.38   -52.40   0.77   14.50    0.77   14.50    0.38   -52.40
    3800  0.45   -48.10   0.70   19.00    0.70   19.00    0.45   -48.10
    3850  0.53   -43.90   0.64   23.50    0.64   23.50    0.53   -43.90
    3900  0.55   -50.10   0.69   26.10    0.69   26.10    0.55   -50.10
    3950  0.57   -56.20   0.73   28.80    0.73   28.80    0.57   -56.20
    4000  0.56   -59.10   0.76   28.30    0.76   28.30    0.56   -59.10
    4050  0.55   -62.00   0.79   27.80    0.79   27.80    0.55   -62.00
    4100  0.54   -63.50   0.80   27.00    0.80   27.00    0.54   -63.50
    4150  0.52   -65.00   0.81   26.20    0.81   26.20    0.52   -65.00
    4200  0.52   -66.50   0.82   25.50    0.82   25.50    0.52   -66.50
    4250  0.51   -67.90   0.84   24.80    0.84   24.80    0.51   -67.90
    4300  0.50   -68.90   0.84   24.30    0.84   24.30    0.50   -68.90
    4350  0.49   -69.80   0.85   23.80    0.85   23.80    0.49   -69.80
    4400  0.48   -70.80   0.85   23.00    0.85   23.00    0.48   -70.80
    4450  0.47   -71.80   0.86   22.30    0.86   22.30    0.47   -71.80
    4500  0.47   -72.00   0.86   21.70    0.86   21.70    0.47   -72.00
    4550  0.46   -72.20   0.86   21.20    0.86   21.20    0.46   -72.20
    4600  0.46   -73.40   0.87   20.60    0.87   20.60    0.46   -73.40
    4650  0.45   -74.70   0.87   20.10    0.87   20.10    0.45   -74.70
    4700  0.44   -75.60   0.87   19.70    0.87   19.70    0.44   -75.60
    4750  0.43   -76.50   0.88   19.30    0.88   19.30    0.43   -76.50
    4800  0.43   -77.50   0.88   18.80    0.88   18.80    0.43   -77.50
    4850  0.42   -78.50   0.88   18.20    0.88   18.20    0.42   -78.50
    4900  0.41   -79.00   0.89   17.60    0.89   17.60    0.41   -79.00
    4950  0.40   -79.40   0.89   17.00    0.89   17.00    0.40   -79.40
    5000  0.39   -80.50   0.89   16.10    0.89   16.10    0.39   -80.50
    5050  0.38   -81.60   0.89   15.20    0.89   15.20    0.38   -81.60
    5100  0.37   -81.60   0.89   14.50    0.89   14.50    0.37   -81.60
    5150  0.35   -81.50   0.89   13.90    0.89   13.90    0.35   -81.50
    5200  0.34   -80.90   0.89   13.00    0.89   13.00    0.34   -80.90
    5250  0.33   -80.40   0.89   12.20    0.89   12.20    0.33   -80.40
    5300  0.31   -77.20   0.88   10.60    0.88   10.60    0.31   -77.20
    5350  0.30   -74.10   0.86    8.90    0.86    8.90    0.30   -74.10
    5400  0.32   -67.40   0.82    9.20    0.82    9.20    0.32   -67.40
    5450  0.34   -60.70   0.78    9.50    0.78    9.50    0.34   -60.70
    5500  0.38   -63.80   0.78   12.70    0.78   12.70    0.38   -63.80
    5550  0.42   -67.00   0.79   15.90    0.79   15.90    0.42   -67.00
    5600  0.42   -70.80   0.81   16.10    0.81   16.10    0.42   -70.80
    5650  0.42   -74.60   0.84   16.40    0.84   16.40    0.42   -74.60
    5700  0.41   -76.70   0.86   16.00    0.86   16.00    0.41   -76.70
    5750  0.41   -78.80   0.87   15.60    0.87   15.60    0.41   -78.80
    5800  0.40   -79.20   0.88   15.00    0.88   15.00    0.40   -79.20
    5850  0.39   -79.70   0.88   14.30    0.88   14.30    0.39   -79.70
    5900  0.38   -80.30   0.89   13.90    0.89   13.90    0.38   -80.30
    5950  0.38   -80.90   0.90   13.50    0.90   13.50    0.38   -80.90
    6000  0.37   -81.90   0.90   12.50    0.90   12.50    0.37   -81.90
    6050  0.35   -82.80   0.91   11.50    0.91   11.50    0.35   -82.80
    6100  0.35   -83.20   0.91   11.30    0.91   11.30    0.35   -83.20
    6150  0.35   -83.60   0.91   11.10    0.91   11.10    0.35   -83.60
    6200  0.34   -83.00   0.92   10.50    0.92   10.50    0.34   -83.00
    6250  0.33   -82.40   0.92    9.90    0.92    9.90    0.33   -82.40
    6300  0.33   -82.80   0.92    9.60    0.92    9.60    0.33   -82.80
    6350  0.33   -83.20   0.92    9.40    0.92    9.40    0.33   -83.20
    6400  0.32   -82.90   0.92    9.00    0.92    9.00    0.32   -82.90
    6450  0.32   -82.60   0.92    8.50    0.92    8.50    0.32   -82.60
    6500  0.31   -82.30   0.92    8.10    0.92    8.10    0.31   -82.30
    6550  0.31   -82.10   0.92    7.60    0.92    7.60    0.31   -82.10
    6600  0.30   -81.60   0.93    7.10    0.93    7.10    0.30   -81.60
    6650  0.29   -81.10   0.93    6.60    0.93    6.60    0.29   -81.10
    6700  0.29   -80.20   0.93    6.30    0.93    6.30    0.29   -80.20
    6750  0.28   -79.30   0.93    6.00    0.93    6.00    0.28   -79.30
    6800  0.28   -78.50   0.93    5.50    0.93    5.50    0.28   -78.50
    6850  0.27   -77.60   0.93    4.90    0.93    4.90    0.27   -77.60
    6900  0.26   -76.20   0.93    4.20    0.93    4.20    0.26   -76.20
    6950  0.25   -74.70   0.92    3.50    0.92    3.50    0.25   -74.70
    7000  0.24   -71.10   0.91    2.80    0.91    2.80    0.24   -71.10
    7050  0.23   -67.60   0.90    2.10    0.90    2.10    0.23   -67.60
    7100  0.24   -62.50   0.88    2.20    0.88    2.20    0.24   -62.50
    7150  0.24   -57.40   0.86    2.30    0.86    2.30    0.24   -57.40
    7200  0.27   -58.00   0.86    3.90    0.86    3.90    0.27   -58.00
    7250  0.29   -58.60   0.86    5.50    0.86    5.50    0.29   -58.60
    7300  0.30   -62.30   0.88    5.90    0.88    5.90    0.30   -62.30
    7350  0.30   -66.00   0.89    6.40    0.89    6.40    0.30   -66.00
    7400  0.29   -68.10   0.90    6.00    0.90    6.00    0.29   -68.10
    7450  0.29   -70.20   0.91    5.70    0.91    5.70    0.29   -70.20
    7500  0.28   -71.80   0.92    5.20    0.92    5.20    0.28   -71.80
    7550  0.28   -73.40   0.93    4.70    0.93    4.70    0.28   -73.40
    7600  0.27   -74.00   0.93    4.30    0.93    4.30    0.27   -74.00
    7650  0.26   -74.70   0.94    3.80    0.94    3.80    0.26   -74.70
    7700  0.26   -75.30   0.94    3.40    0.94    3.40    0.26   -75.30
    7750  0.25   -75.90   0.94    3.00    0.94    3.00    0.25   -75.90
    7800  0.24   -76.20   0.94    2.60    0.94    2.60    0.24   -76.20
    7850  0.24   -76.50   0.94    2.10    0.94    2.10    0.24   -76.50
    7900  0.23   -77.20   0.94    1.70    0.94    1.70    0.23   -77.20
    7950  0.23   -77.80   0.95    1.30    0.95    1.30    0.23   -77.80
    8000  0.22   -78.00   0.95    1.00    0.95    1.00    0.22   -78.00
    8050  0.22   -78.20   0.95    0.70    0.95    0.70    0.22   -78.20
    8100  0.21   -79.10   0.95    0.50    0.95    0.50    0.21   -79.10
    8150  0.20   -80.10   0.95    0.30    0.95    0.30    0.20   -80.10
    8200  0.20   -80.10   0.95   -0.20    0.95   -0.20    0.20   -80.10
    8250  0.19   -80.20   0.95   -0.60    0.95   -0.60    0.19   -80.20
    8300  0.18   -80.20   0.96   -1.00    0.96   -1.00    0.18   -80.20
    8350  0.18   -80.30   0.96   -1.30    0.96   -1.30    0.18   -80.30
    8400  0.17   -79.60   0.96   -1.90    0.96   -1.90    0.17   -79.60
    8450  0.17   -79.00   0.96   -2.40    0.96   -2.40    0.17   -79.00
    8500  0.16   -77.40   0.96   -2.80    0.96   -2.80    0.16   -77.40
    8550  0.16   -75.80   0.96   -3.30    0.96   -3.30    0.16   -75.80
    8600  0.15   -73.10   0.96   -3.90    0.96   -3.90    0.15   -73.10
    8650  0.15   -70.40   0.96   -4.50    0.96   -4.50    0.15   -70.40
    8700  0.14   -66.70   0.95   -5.00    0.95   -5.00    0.14   -66.70
    8750  0.14   -62.90   0.95   -5.60    0.95   -5.60    0.14   -62.90
    8800  0.14   -58.00   0.94   -5.90    0.94   -5.90    0.14   -58.00
    8850  0.14   -53.20   0.93   -6.20    0.93   -6.20    0.14   -53.20
    8900  0.16   -49.70   0.92   -6.30    0.92   -6.30    0.16   -49.70
    8950  0.17   -46.20   0.90   -6.40    0.90   -6.40    0.17   -46.20
    9000  0.18   -48.70   0.89   -5.50    0.89   -5.50    0.18   -48.70
    9050  0.19   -51.20   0.89   -4.60    0.89   -4.60    0.19   -51.20
    9100  0.19   -55.40   0.90   -4.00    0.90   -4.00    0.19   -55.40
    9150  0.19   -59.70   0.91   -3.50    0.91   -3.50    0.19   -59.70
    9200  0.18   -62.70   0.92   -3.60    0.92   -3.60    0.18   -62.70
    9250  0.17   -65.80   0.94   -3.70    0.94   -3.70    0.17   -65.80
    9300  0.16   -65.90   0.94   -4.10    0.94   -4.10    0.16   -65.90
    9350  0.15   -66.00   0.95   -4.60    0.95   -4.60    0.15   -66.00
    9400  0.14   -65.60   0.95   -4.90    0.95   -4.90    0.14   -65.60
    9450  0.14   -65.20   0.95   -5.20    0.95   -5.20    0.14   -65.20
    9500  0.13   -63.40   0.95   -5.80    0.95   -5.80    0.13   -63.40
    9550  0.13   -61.60   0.96   -6.40    0.96   -6.40    0.13   -61.60
    9600  0.12   -59.80   0.96   -6.70    0.96   -6.70    0.12   -59.80
    9650  0.12   -58.10   0.96   -7.10    0.96   -7.10    0.12   -58.10
    9700  0.12   -58.50   0.96   -7.30    0.96   -7.30    0.12   -58.50
    9750  0.11   -58.80   0.96   -7.40    0.96   -7.40    0.11   -58.80
    9800  0.10   -56.80   0.96   -7.70    0.96   -7.70    0.10   -56.80
    9850  0.10   -54.80   0.96   -8.00    0.96   -8.00    0.10   -54.80
    9900  0.09   -51.60   0.96   -8.30    0.96   -8.30    0.09   -51.60
    9950  0.09   -48.50   0.97   -8.60    0.97   -8.60    0.09   -48.50
   10000  0.09   -45.70   0.97   -9.00    0.97   -9.00    0.09   -45.70
   10050  0.08   -42.90   0.97   -9.40    0.97   -9.40    0.08   -42.90
   10100  0.08   -38.60   0.97   -9.70    0.97   -9.70    0.08   -38.60
   10150  0.07   -34.40   0.97   -10.00   0.97   -10.00   0.07   -34.40
   10200  0.07   -29.70   0.97   -10.40   0.97   -10.40   0.07   -29.70
   10250  0.07   -25.00   0.97   -10.80   0.97   -10.80   0.07   -25.00
   10300  0.07   -21.60   0.96   -11.20   0.96   -11.20   0.07   -21.60
   10350  0.07   -18.20   0.96   -11.60   0.96   -11.60   0.07   -18.20
   10400  0.07   -13.80   0.96   -12.00   0.96   -12.00   0.07   -13.80
   10450  0.07   -9.50    0.96   -12.40   0.96   -12.40   0.07   -9.50
   10500  0.07   -7.90    0.96   -12.80   0.96   -12.80   0.07   -7.90
   10550  0.08   -6.40    0.95   -13.20   0.95   -13.20   0.08   -6.40
   10600  0.08   -4.70    0.95   -13.30   0.95   -13.30   0.08   -4.70
   10650  0.09   -3.00    0.94   -13.50   0.94   -13.50   0.09   -3.00
   10700  0.09   -6.30    0.94   -13.30   0.94   -13.30   0.09   -6.30
   10750  0.09   -9.70    0.93   -13.10   0.93   -13.10   0.09   -9.70
   10800  0.08   -14.40   0.94   -12.60   0.94   -12.60   0.08   -14.40
   10850  0.07   -19.00   0.94   -12.20   0.94   -12.20   0.07   -19.00
   10900  0.06   -17.70   0.95   -12.50   0.95   -12.50   0.06   -17.70
   10950  0.05   -16.40   0.95   -12.90   0.95   -12.90   0.05   -16.40
   11000  0.04   -11.00   0.96   -13.30   0.96   -13.30   0.04   -11.00
   11050  0.04   -5.70    0.96   -13.70   0.96   -13.70   0.04   -5.70
   11100  0.03   -2.00    0.96   -14.10   0.96   -14.10   0.03   -2.00
   11150  0.03    1.70    0.96   -14.50   0.96   -14.50   0.03    1.70
   11200  0.03    7.30    0.96   -15.00   0.96   -15.00   0.03    7.30
   11250  0.03   12.80    0.96   -15.50   0.96   -15.50   0.03   12.80
   11300  0.04   14.60    0.96   -16.00   0.96   -16.00   0.04   14.60
   11350  0.04   16.40    0.96   -16.50   0.96   -16.50   0.04   16.40
   11400  0.05   19.60    0.96   -16.90   0.96   -16.90   0.05   19.60
   11450  0.05   22.70    0.96   -17.40   0.96   -17.40   0.05   22.70
   11500  0.06   24.40    0.96   -17.90   0.96   -17.90   0.06   24.40
   11550  0.07   26.10    0.95   -18.50   0.95   -18.50   0.07   26.10
   11600  0.07   26.20    0.95   -19.00   0.95   -19.00   0.07   26.20
   11650  0.08   26.30    0.95   -19.60   0.95   -19.60   0.08   26.30
   11700  0.09   24.60    0.94   -20.10   0.94   -20.10   0.09   24.60
   11750  0.09   23.00    0.93   -20.50   0.93   -20.50   0.09   23.00
   11800  0.09   22.10    0.92   -20.60   0.92   -20.60   0.09   22.10
   11850  0.09   21.20    0.91   -20.70   0.91   -20.70   0.09   21.20
   11900  0.09   21.70    0.91   -20.70   0.91   -20.70   0.09   21.70
   11950  0.08   22.20    0.90   -20.70   0.90   -20.70   0.08   22.20
   12000  0.08   25.60    0.90   -20.80   0.90   -20.80   0.08   25.60
   12050  0.08   28.90    0.90   -20.80   0.90   -20.80   0.08   28.90
   12100  0.08   33.50    0.90   -21.40   0.90   -21.40   0.08   33.50
   12150  0.08   38.00    0.90   -22.00   0.90   -22.00   0.08   38.00
   12200  0.09   36.20    0.89   -22.60   0.89   -22.60   0.09   36.20
   12250  0.09   34.40    0.89   -23.20   0.89   -23.20   0.09   34.40
   12300  0.10   30.90    0.87   -23.80   0.87   -23.80   0.10   30.90
   12350  0.11   27.50    0.86   -24.50   0.86   -24.50   0.11   27.50
   12400  0.12   18.70    0.84   -24.80   0.84   -24.80   0.12   18.70
   12450  0.13    9.90    0.82   -25.10   0.82   -25.10   0.13    9.90
   12500  0.14    2.10    0.80   -24.30   0.80   -24.30   0.14    2.10
   12550  0.15   -5.70    0.78   -23.50   0.78   -23.50   0.15   -5.70
   12600  0.15   -15.90   0.77   -22.10   0.77   -22.10   0.15   -15.90
   12650  0.16   -26.00   0.76   -20.60   0.76   -20.60   0.16   -26.00
   12700  0.16   -33.60   0.76   -19.10   0.76   -19.10   0.16   -33.60
   12750  0.16   -41.30   0.76   -17.60   0.76   -17.60   0.16   -41.30
   12800  0.15   -49.10   0.77   -16.30   0.77   -16.30   0.15   -49.10
   12850  0.14   -56.90   0.79   -14.90   0.79   -14.90   0.14   -56.90
   12900  0.13   -62.20   0.81   -14.50   0.81   -14.50   0.13   -62.20
   12950  0.11   -67.50   0.83   -14.00   0.83   -14.00   0.11   -67.50
   13000  0.10   -69.40   0.85   -14.40   0.85   -14.40   0.10   -69.40
   13050  0.08   -71.30   0.87   -14.80   0.87   -14.80   0.08   -71.30
   13100  0.07   -64.10   0.87   -15.50   0.87   -15.50   0.07   -64.10
   13150  0.06   -56.80   0.88   -16.30   0.88   -16.30   0.06   -56.80
   13200  0.05   -39.50   0.88   -16.90   0.88   -16.90   0.05   -39.50
   13250  0.05   -22.20   0.89   -17.50   0.89   -17.50   0.05   -22.20
   13300  0.05   -11.60   0.89   -18.50   0.89   -18.50   0.05   -11.60
   13350  0.06   -1.00    0.89   -19.60   0.89   -19.60   0.06   -1.00
   13400  0.07    4.10    0.88   -20.40   0.88   -20.40   0.07    4.10
   13450  0.09    9.30    0.88   -21.20   0.88   -21.20   0.09    9.30
   13500  0.10    8.40    0.86   -21.70   0.86   -21.70   0.10    8.40
   13550  0.11    7.50    0.85   -22.20   0.85   -22.20   0.11    7.50
   13600  0.13    1.60    0.83   -22.30   0.83   -22.30   0.13    1.60
   13650  0.14   -4.30    0.81   -22.40   0.81   -22.40   0.14   -4.30
   13700  0.15   -12.60   0.80   -21.20   0.80   -21.20   0.15   -12.60
   13750  0.15   -20.80   0.79   -20.00   0.79   -20.00   0.15   -20.80
   13800  0.15   -30.90   0.79   -18.20   0.79   -18.20   0.15   -30.90
   13850  0.14   -41.10   0.79   -16.30   0.79   -16.30   0.14   -41.10
   13900  0.14   -47.70   0.81   -15.50   0.81   -15.50   0.14   -47.70
