# MHZ S MA R 50

      50  0.01   55.60    1.00    0.20    1.00    0.20    0.01   55.60
     100  0.02   66.70    1.00   -0.30    1.00   -0.30    0.02   66.70
     150  0.04   77.70    1.00   -0.80    1.00   -0.80    0.04   77.70
     200  0.05   78.90    0.99   -1.60    0.99   -1.60    0.05   78.90
     250  0.06   80.00    0.99   -2.40    0.99   -2.40    0.06   80.00
     300  0.07   80.40    0.99   -3.20    0.99   -3.20    0.07   80.40
     350  0.08   80.80    0.99   -4.00    0.99   -4.00    0.08   80.80
     400  0.09   79.20    0.99   -4.60    0.99   -4.60    0.09   79.20
     450  0.10   77.50    0.99   -5.20    0.99   -5.20    0.10   77.50
     500  0.12   80.70    0.99   -6.40    0.99   -6.40    0.12   80.70
     550  0.14   83.90    0.99   -7.60    0.99   -7.60    0.14   83.90
     600  0.15   83.80    0.98   -8.40    0.98   -8.40    0.15   83.80
     650  0.16   83.70    0.98   -9.20    0.98   -9.20    0.16   83.70
     700  0.17   83.40    0.98   -9.90    0.98   -9.90    0.17   83.40
     750  0.18   83.20    0.98   -10.70   0.98   -10.70   0.18   83.20
     800  0.19   82.20    0.98   -11.50   0.98   -11.50   0.19   82.20
     850  0.20   81.20    0.97   -12.30   0.97   -12.30   0.20   81.20
     900  0.21   80.50    0.97   -13.00   0.97   -13.00   0.21   80.50
     950  0.23   79.70    0.97   -13.80   0.97   -13.80   0.23   79.70
    1000  0.24   79.00    0.96   -14.60   0.96   -14.60   0.24   79.00
    1050  0.25   78.30    0.96   -15.40   0.96   -15.40   0.25   78.30
    1100  0.26   77.50    0.96   -16.20   0.96   -16.20   0.26   77.50
    1150  0.27   76.80    0.96   -17.00   0.96   -17.00   0.27   76.80
    1200  0.28   76.10    0.95   -17.70   0.95   -17.70   0.28   76.10
    1250  0.30   75.30    0.95   -18.50   0.95   -18.50   0.30   75.30
    1300  0.31   74.50    0.94   -19.30   0.94   -19.30   0.31   74.50
    1350  0.32   73.80    0.94   -20.10   0.94   -20.10   0.32   73.80
    1400  0.33   72.90    0.94   -20.80   0.94   -20.80   0.33   72.90
    1450  0.34   71.90    0.93   -21.50   0.93   -21.50   0.34   71.90
    1500  0.35   71.00    0.93   -22.30   0.93   -22.30   0.35   71.00
    1550  0.36   70.00    0.92   -23.20   0.92   -23.20   0.36   70.00
    1600  0.37   68.70    0.92   -23.90   0.92   -23.90   0.37   68.70
    1650  0.38   67.40    0.92   -24.70   0.92   -24.70   0.38   67.40
    1700  0.39   66.60    0.91   -25.50   0.91   -25.50   0.39   66.60
    1750  0.40   65.80    0.91   -26.30   0.91   -26.30   0.40   65.80
    1800  0.42   64.70    0.90   -26.90   0.90   -26.90   0.42   64.70
    1850  0.43   63.70    0.90   -27.60   0.90   -27.60   0.43   63.70
    1900  0.44   62.50    0.89   -28.30   0.89   -28.30   0.44   62.50
    1950  0.44   61.30    0.89   -29.00   0.89   -29.00   0.44   61.30
    2000  0.45   60.20    0.88   -29.80   0.88   -29.80   0.45   60.20
    2050  0.46   59.00    0.88   -30.70   0.88   -30.70   0.46   59.00
    2100  0.47   58.20    0.87   -31.30   0.87   -31.30   0.47   58.20
    2150  0.48   57.40    0.87   -31.90   0.87   -31.90   0.48   57.40
    2200  0.49   56.20    0.86   -32.80   0.86   -32.80   0.49   56.20
    2250  0.50   55.00    0.85   -33.60   0.85   -33.60   0.50   55.00
    2300  0.51   54.10    0.85   -34.20   0.85   -34.20   0.51   54.10
    2350  0.52   53.20    0.84   -34.70   0.84   -34.70   0.52   53.20
    2400  0.53   52.40    0.83   -35.60   0.83   -35.60   0.53   52.40
    2450  0.54   51.50    0.83   -36.40   0.83   -36.40   0.54   51.50
    2500  0.55   50.40    0.82   -37.30   0.82   -37.30   0.55   50.40
    2550  0.56   49.40    0.81   -38.20   0.81   -38.20   0.56   49.40
    2600  0.57   48.70    0.81   -38.80   0.81   -38.80   0.57   48.70
    2650  0.58   48.10    0.80   -39.50   0.80   -39.50   0.58   48.10
    2700  0.59   47.30    0.79   -40.30   0.79   -40.30   0.59   47.30
    2750  0.60   46.60    0.79   -41.10   0.79   -41.10   0.60   46.60
    2800  0.61   45.50    0.78   -41.90   0.78   -41.90   0.61   45.50
    2850  0.62   44.50    0.77   -42.60   0.77   -42.60   0.62   44.50
    2900  0.63   43.90    0.76   -43.60   0.76   -43.60   0.63   43.90
    2950  0.64   43.20    0.76   -44.70   0.76   -44.70   0.64   43.20
    3000  0.65   42.20    0.75   -45.50   0.75   -45.50   0.65   42.20
    3050  0.66   41.30    0.74   -46.30   0.74   -46.30   0.66   41.30
    3100  0.67   40.20    0.73   -47.30   0.73   -47.30   0.67   40.20
    3150  0.68   39.10    0.71   -48.40   0.71   -48.40   0.68   39.10
    3200  0.69   38.50    0.71   -48.90   0.71   -48.90   0.69   38.50
    3250  0.70   38.00    0.70   -49.50   0.70   -49.50   0.70   38.00
    3300  0.71   37.10    0.69   -50.60   0.69   -50.60   0.71   37.10
    3350  0.73   36.30    0.68   -51.70   0.68   -51.70   0.73   36.30
    3400  0.74   35.30    0.67   -52.40   0.67   -52.40   0.74   35.30
    3450  0.75   34.40    0.65   -53.00   0.65   -53.00   0.75   34.40
    3500  0.75   33.60    0.64   -53.80   0.64   -53.80   0.75   33.60
    3550  0.76   32.70    0.63   -54.50   0.63   -54.50   0.76   32.70
    3600  0.77   32.00    0.62   -55.50   0.62   -55.50   0.77   32.00
    3650  0.78   31.20    0.61   -56.50   0.61   -56.50   0.78   31.20
    3700  0.79   30.00    0.60   -57.30   0.60   -57.30   0.79   30.00
    3750  0.80   28.80    0.59   -58.10   0.59   -58.10   0.80   28.80
    3800  0.81   28.00    0.57   -58.90   0.57   -58.90   0.81   28.00
    3850  0.81   27.10    0.56   -59.70   0.56   -59.70   0.81   27.10
    3900  0.82   26.00    0.55   -60.70   0.55   -60.70   0.82   26.00
    3950  0.83   24.90    0.54   -61.80   0.54   -61.80   0.83   24.90
    4000  0.84   23.80    0.53   -62.60   0.53   -62.60   0.84   23.80
    4050  0.85   22.70    0.51   -63.40   0.51   -63.40   0.85   22.70
    4100  0.86   21.50    0.50   -64.40   0.50   -64.40   0.86   21.50
    4150  0.86   20.40    0.49   -65.40   0.49   -65.40   0.86   20.40
    4200  0.87   19.20    0.47   -66.00   0.47   -66.00   0.87   19.20
    4250  0.88   18.10    0.46   -66.60   0.46   -66.60   0.88   18.10
    4300  0.89   16.90    0.44   -67.50   0.44   -67.50   0.89   16.90
    4350  0.89   15.70    0.43   -68.40   0.43   -68.40   0.89   15.70
    4400  0.90   14.50    0.42   -69.30   0.42   -69.30   0.90   14.50
    4450  0.91   13.40    0.41   -70.20   0.41   -70.20   0.91   13.40
    4500  0.91   12.20    0.39   -71.20   0.39   -71.20   0.91   12.20
    4550  0.91   11.10    0.37   -72.30   0.37   -72.30   0.91   11.10
    4600  0.92    9.90    0.36   -73.00   0.36   -73.00   0.92    9.90
    4650  0.94    8.60    0.35   -73.70   0.35   -73.70   0.94    8.60
    4700  0.94    7.40    0.34   -74.60   0.34   -74.60   0.94    7.40
    4750  0.94    6.20    0.32   -75.60   0.32   -75.60   0.94    6.20
    4800  0.94    4.80    0.31   -76.60   0.31   -76.60   0.94    4.80
    4850  0.94    3.40    0.29   -77.70   0.29   -77.70   0.94    3.40
    4900  0.95    2.70    0.28   -78.20   0.28   -78.20   0.95    2.70
    4950  0.96    1.90    0.26   -78.80   0.26   -78.80   0.96    1.90
    5000  0.97    0.40    0.25   -80.00   0.25   -80.00   0.97    0.40
    5050  0.97   -1.20    0.23   -81.30   0.23   -81.30   0.97   -1.20
    5100  0.97   -2.20    0.22   -82.10   0.22   -82.10   0.97   -2.20
    5150  0.96   -3.20    0.20   -83.00   0.20   -83.00   0.96   -3.20
    5200  0.96   -3.40    0.19   -83.30   0.19   -83.30   0.96   -3.40
    5250  0.96   -3.70    0.17   -83.50   0.17   -83.50   0.96   -3.70
    5300  0.98   -4.90    0.16   -84.20   0.16   -84.20   0.98   -4.90
    5350  1.00   -6.10    0.15   -84.80   0.15   -84.80   1.00   -6.10
    5400  0.99   -7.00    0.13   -85.40   0.13   -85.40   0.99   -7.00
    5450  0.98   -8.00    0.12   -86.00   0.12   -86.00   0.98   -8.00
    5500  0.99   -8.60    0.10   -85.80   0.10   -85.80   0.99   -8.60
    5550  1.00   -9.20    0.09   -85.60   0.09   -85.60   1.00   -9.20
    5600  0.99   -10.20   0.07   -84.60   0.07   -84.60   0.99   -10.20
    5650  0.99   -11.20   0.06   -83.60   0.06   -83.60   0.99   -11.20
    5700  0.99   -11.90   0.05   -78.70   0.05   -78.70   0.99   -11.90
    5750  0.98   -12.60   0.03   -73.70   0.03   -73.70   0.98   -12.60
    5800  0.99   -13.20   0.02   -41.30   0.02   -41.30   0.99   -13.20
    5850  0.99   -13.80   0.01   -8.90    0.01   -8.90    0.99   -13.80
    5900  0.98   -14.00   0.02   22.60    0.02   22.60    0.98   -14.00
    5950  0.98   -14.20   0.03   54.00    0.03   54.00    0.98   -14.20
    6000  0.98   -15.80   0.05   58.30    0.05   58.30    0.98   -15.80
    6050  0.99   -17.40   0.06   62.60    0.06   62.60    0.99   -17.40
    6100  0.98   -17.70   0.07   64.10    0.07   64.10    0.98   -17.70
    6150  0.98   -18.00   0.09   65.60    0.09   65.60    0.98   -18.00
    6200  0.98   -18.10   0.10   65.70    0.10   65.70    0.98   -18.10
    6250  0.98   -18.10   0.11   65.70    0.11   65.70    0.98   -18.10
    6300  0.98   -18.60   0.13   65.50    0.13   65.50    0.98   -18.60
    6350  0.98   -19.10   0.14   65.40    0.14   65.40    0.98   -19.10
    6400  0.98   -19.10   0.15   64.90    0.15   64.90    0.98   -19.10
    6450  0.97   -19.10   0.17   64.40    0.17   64.40    0.97   -19.10
    6500  0.97   -19.30   0.18   63.80    0.18   63.80    0.97   -19.30
    6550  0.97   -19.60   0.19   63.30    0.19   63.30    0.97   -19.60
    6600  0.97   -19.70   0.20   62.60    0.20   62.60    0.97   -19.70
    6650  0.96   -19.70   0.22   62.00    0.22   62.00    0.96   -19.70
    6700  0.96   -19.80   0.23   61.50    0.23   61.50    0.96   -19.80
    6750  0.95   -19.80   0.24   61.10    0.24   61.10    0.95   -19.80
    6800  0.96   -19.80   0.25   60.60    0.25   60.60    0.96   -19.80
    6850  0.96   -19.80   0.27   60.10    0.27   60.10    0.96   -19.80
    6900  0.95   -20.40   0.28   59.30    0.28   59.30    0.95   -20.40
    6950  0.94   -21.10   0.29   58.50    0.29   58.50    0.94   -21.10
    7000  0.94   -21.10   0.30   57.90    0.30   57.90    0.94   -21.10
    7050  0.93   -21.20   0.31   57.30    0.31   57.30    0.93   -21.20
    7100  0.93   -21.70   0.32   56.60    0.32   56.60    0.93   -21.70
    7150  0.92   -22.20   0.33   55.90    0.33   55.90    0.92   -22.20
    7200  0.91   -22.60   0.34   55.50    0.34   55.50    0.91   -22.60
    7250  0.90   -22.90   0.35   55.00    0.35   55.00    0.90   -22.90
    7300  0.91   -23.70   0.37   54.40    0.37   54.40    0.91   -23.70
    7350  0.92   -24.40   0.38   53.70    0.38   53.70    0.92   -24.40
    7400  0.90   -25.50   0.39   52.90    0.39   52.90    0.90   -25.50
    7450  0.89   -26.60   0.40   52.10    0.40   52.10    0.89   -26.60
    7500  0.89   -27.40   0.41   51.50    0.41   51.50    0.89   -27.40
    7550  0.89   -28.20   0.43   50.90    0.43   50.90    0.89   -28.20
    7600  0.88   -29.60   0.44   50.00    0.44   50.00    0.88   -29.60
    7650  0.88   -31.00   0.44   49.10    0.44   49.10    0.88   -31.00
    7700  0.87   -32.00   0.46   48.60    0.46   48.60    0.87   -32.00
    7750  0.86   -33.00   0.46   48.00    0.46   48.00    0.86   -33.00
    7800  0.85   -33.80   0.48   47.40    0.48   47.40    0.85   -33.80
    7850  0.85   -34.60   0.49   46.80    0.49   46.80    0.85   -34.60
    7900  0.84   -36.40   0.50   46.00    0.50   46.00    0.84   -36.40
    7950  0.84   -38.20   0.51   45.10    0.51   45.10    0.84   -38.20
    8000  0.83   -39.30   0.52   44.20    0.52   44.20    0.83   -39.30
    8050  0.82   -40.40   0.53   43.30    0.53   43.30    0.82   -40.40
    8100  0.81   -41.50   0.54   43.00    0.54   43.00    0.81   -41.50
    8150  0.80   -42.60   0.55   42.60    0.55   42.60    0.80   -42.60
    8200  0.79   -43.80   0.56   41.60    0.56   41.60    0.79   -43.80
    8250  0.78   -45.00   0.57   40.60    0.57   40.60    0.78   -45.00
    8300  0.77   -45.90   0.58   40.10    0.58   40.10    0.77   -45.90
    8350  0.76   -46.80   0.60   39.50    0.60   39.50    0.76   -46.80
    8400  0.75   -48.00   0.61   38.40    0.61   38.40    0.75   -48.00
    8450  0.75   -49.30   0.62   37.30    0.62   37.30    0.75   -49.30
    8500  0.74   -50.10   0.63   36.60    0.63   36.60    0.74   -50.10
    8550  0.73   -50.80   0.64   35.90    0.64   35.90    0.73   -50.80
    8600  0.72   -51.70   0.65   34.70    0.65   34.70    0.72   -51.70
    8650  0.71   -52.60   0.66   33.50    0.66   33.50    0.71   -52.60
    8700  0.71   -53.40   0.67   32.50    0.67   32.50    0.71   -53.40
    8750  0.70   -54.10   0.67   31.60    0.67   31.60    0.70   -54.10
    8800  0.69   -54.60   0.68   31.00    0.68   31.00    0.69   -54.60
    8850  0.68   -55.20   0.68   30.40    0.68   30.40    0.68   -55.20
    8900  0.67   -55.30   0.69   29.60    0.69   29.60    0.67   -55.30
    8950  0.67   -55.50   0.69   28.80    0.69   28.80    0.67   -55.50
    9000  0.66   -56.10   0.70   28.20    0.70   28.20    0.66   -56.10
    9050  0.66   -56.80   0.70   27.60    0.70   27.60    0.66   -56.80
    9100  0.65   -57.30   0.71   27.10    0.71   27.10    0.65   -57.30
    9150  0.64   -57.80   0.71   26.50    0.71   26.50    0.64   -57.80
    9200  0.64   -58.70   0.72   26.30    0.72   26.30    0.64   -58.70
    9250  0.63   -59.60   0.73   26.00    0.73   26.00    0.63   -59.60
    9300  0.62   -59.90   0.74   25.30    0.74   25.30    0.62   -59.90
    9350  0.61   -60.10   0.75   24.50    0.75   24.50    0.61   -60.10
    9400  0.61   -60.50   0.75   24.20    0.75   24.20    0.61   -60.50
    9450  0.60   -60.90   0.75   23.90    0.75   23.90    0.60   -60.90
    9500  0.59   -61.50   0.76   23.10    0.76   23.10    0.59   -61.50
    9550  0.58   -62.00   0.77   22.30    0.77   22.30    0.58   -62.00
    9600  0.57   -62.30   0.78   21.60    0.78   21.60    0.57   -62.30
    9650  0.56   -62.60   0.79   21.00    0.79   21.00    0.56   -62.60
    9700  0.56   -63.20   0.80   20.50    0.80   20.50    0.56   -63.20
    9750  0.55   -63.80   0.81   20.00    0.81   20.00    0.55   -63.80
    9800  0.54   -64.40   0.81   19.30    0.81   19.30    0.54   -64.40
    9850  0.52   -65.00   0.82   18.50    0.82   18.50    0.52   -65.00
    9900  0.51   -64.80   0.82   18.00    0.82   18.00    0.51   -64.80
    9950  0.50   -64.60   0.82   17.50    0.82   17.50    0.50   -64.60
   10000  0.49   -66.20   0.83   17.00    0.83   17.00    0.49   -66.20
   10050  0.48   -67.70   0.84   16.40    0.84   16.40    0.48   -67.70
   10100  0.46   -67.30   0.85   15.80    0.85   15.80    0.46   -67.30
   10150  0.44   -66.90   0.85   15.10    0.85   15.10    0.44   -66.90
   10200  0.44   -67.90   0.86   14.50    0.86   14.50    0.44   -67.90
   10250  0.44   -68.90   0.87   14.00    0.87   14.00    0.44   -68.90
   10300  0.42   -69.90   0.87   13.40    0.87   13.40    0.42   -69.90
   10350  0.41   -70.90   0.87   12.90    0.87   12.90    0.41   -70.90
   10400  0.40   -71.10   0.88   12.00    0.88   12.00    0.40   -71.10
   10450  0.39   -71.30   0.89   11.00    0.89   11.00    0.39   -71.30
   10500  0.38   -72.40   0.90   10.60    0.90   10.60    0.38   -72.40
   10550  0.38   -73.50   0.90   10.10    0.90   10.10    0.38   -73.50
   10600  0.36   -73.20   0.90    9.20    0.90    9.20    0.36   -73.20
   10650  0.34   -73.00   0.91    8.30    0.91    8.30    0.34   -73.00
   10700  0.34   -73.80   0.91    7.80    0.91    7.80    0.34   -73.80
   10750  0.34   -74.60   0.92    7.30    0.92    7.30    0.34   -74.60
   10800  0.33   -75.00   0.92    6.80    0.92    6.80    0.33   -75.00
   10850  0.31   -75.30   0.92    6.30    0.92    6.30    0.31   -75.30
   10900  0.31   -75.90   0.92    5.40    0.92    5.40    0.31   -75.90
   10950  0.31   -76.40   0.93    4.50    0.93    4.50    0.31   -76.40
   11000  0.29   -77.50   0.93    4.10    0.93    4.10    0.29   -77.50
   11050  0.28   -78.70   0.92    3.60    0.92    3.60    0.28   -78.70
   11100  0.28   -78.20   0.93    3.00    0.93    3.00    0.28   -78.20
   11150  0.28   -77.70   0.94    2.40    0.94    2.40    0.28   -77.70
   11200  0.28   -78.40   0.93    1.90    0.93    1.90    0.28   -78.40
   11250  0.27   -79.10   0.93    1.40    0.93    1.40    0.27   -79.10
   11300  0.26   -79.00   0.94    0.70    0.94    0.70    0.26   -79.00
   11350  0.26   -78.90   0.94    0.00    0.94    0.00    0.26   -78.90
   11400  0.25   -78.70   0.94   -0.30    0.94   -0.30    0.25   -78.70
   11450  0.25   -78.40   0.94   -0.60    0.94   -0.60    0.25   -78.40
   11500  0.24   -78.80   0.94   -1.30    0.94   -1.30    0.24   -78.80
   11550  0.23   -79.10   0.94   -2.00    0.94   -2.00    0.23   -79.10
   11600  0.22   -79.60   0.95   -2.50    0.95   -2.50    0.22   -79.60
   11650  0.22   -80.20   0.95   -3.00    0.95   -3.00    0.22   -80.20
   11700  0.21   -80.20   0.95   -3.60    0.95   -3.60    0.21   -80.20
   11750  0.20   -80.20   0.95   -4.20    0.95   -4.20    0.20   -80.20
   11800  0.19   -81.20   0.95   -4.60    0.95   -4.60    0.19   -81.20
   11850  0.19   -82.10   0.95   -5.10    0.95   -5.10    0.19   -82.10
   11900  0.17   -83.00   0.95   -5.60    0.95   -5.60    0.17   -83.00
   11950  0.17   -83.90   0.95   -6.20    0.95   -6.20    0.17   -83.90
   12000  0.16   -86.00   0.96   -6.90    0.96   -6.90    0.16   -86.00
   12050  0.16   -88.10   0.96   -7.60    0.96   -7.60    0.16   -88.10
   12100  0.15   -89.00   0.95   -8.10    0.95   -8.10    0.15   -89.00
   12150  0.15   -89.90   0.95   -8.60    0.95   -8.60    0.15   -89.90
   12200  0.14   -90.40   0.95   -9.10    0.95   -9.10    0.14   -90.40
   12250  0.14   -90.90   0.95   -9.60    0.95   -9.60    0.14   -90.90
   12300  0.14   -91.90   0.95   -10.20   0.95   -10.20   0.14   -91.90
   12350  0.13   -92.80   0.95   -10.70   0.95   -10.70   0.13   -92.80
   12400  0.13   -91.90   0.95   -11.10   0.95   -11.10   0.13   -91.90
   12450  0.12   -91.00   0.95   -11.50   0.95   -11.50   0.12   -91.00
   12500  0.12   -91.00   0.95   -12.00   0.95   -12.00   0.12   -91.00
   12550  0.11   -91.00   0.95   -12.40   0.95   -12.40   0.11   -91.00
   12600  0.11   -90.30   0.95   -12.80   0.95   -12.80   0.11   -90.30
   12650  0.10   -89.60   0.95   -13.10   0.95   -13.10   0.10   -89.60
   12700  0.10   -85.70   0.95   -13.50   0.95   -13.50   0.10   -85.70
   12750  0.10   -81.80   0.95   -13.90   0.95   -13.90   0.10   -81.80
   12800  0.09   -78.90   0.95   -14.40   0.95   -14.40   0.09   -78.90
   12850  0.08   -76.10   0.95   -14.80   0.95   -14.80   0.08   -76.10
   12900  0.08   -71.00   0.95   -15.20   0.95   -15.20   0.08   -71.00
   12950  0.08   -65.90   0.95   -15.60   0.95   -15.60   0.08   -65.90
   13000  0.07   -62.70   0.95   -16.00   0.95   -16.00   0.07   -62.70
   13050  0.07   -59.60   0.96   -16.50   0.96   -16.50   0.07   -59.60
   13100  0.07   -55.30   0.96   -16.90   0.96   -16.90   0.07   -55.30
   13150  0.07   -51.10   0.95   -17.40   0.95   -17.40   0.07   -51.10
   13200  0.06   -41.70   0.96   -17.70   0.96   -17.70   0.06   -41.70
   13250  0.06   -32.30   0.96   -18.00   0.96   -18.00   0.06   -32.30
   13300  0.05   -28.40   0.96   -18.70   0.96   -18.70   0.05   -28.40
   13350  0.05   -24.50   0.95   -19.50   0.95   -19.50   0.05   -24.50
   13400  0.05   -11.00   0.96   -20.10   0.96   -20.10   0.05   -11.00
   13450  0.05    2.60    0.96   -20.70   0.96   -20.70   0.05    2.60
   13500  0.06    6.60    0.96   -21.10   0.96   -21.10   0.06    6.60
   13550  0.06   10.60    0.96   -21.60   0.96   -21.60   0.06   10.60
   13600  0.06   20.00    0.96   -22.30   0.96   -22.30   0.06   20.00
   13650  0.06   29.50    0.95   -23.00   0.95   -23.00   0.06   29.50
   13700  0.08   29.60    0.95   -23.50   0.95   -23.50   0.08   29.60
   13750  0.09   29.60    0.95   -24.10   0.95   -24.10   0.09   29.60
   13800  0.09   31.50    0.95   -24.50   0.95   -24.50   0.09   31.50
   13850  0.10   33.30    0.95   -24.90   0.95   -24.90   0.10   33.30
   13900  0.12   31.50    0.95   -25.40   0.95   -25.40   0.12   31.50
   13950  0.13   29.60    0.95   -25.90   0.95   -25.90   0.13   29.60
