#	mhz	s	ma	r	50

50	0.53	127.10	0.79	34.10	0.79	34.10	0.53	127.10
100	0.37	114.70	0.88	23.40	0.88	23.40	0.37	114.70
150	0.21	102.30	0.96	12.80	0.96	12.80	0.21	102.30
200	0.17	98.40	0.98	9.60	0.98	9.60	0.17	98.40
250	0.12	94.40	0.99	6.50	0.99	6.50	0.12	94.40
300	0.09	92.20	0.99	4.60	0.99	4.60	0.09	92.20
350	0.06	89.90	1.00	2.70	1.00	2.70	0.06	89.90
400	0.05	82.70	1.00	1.50	1.00	1.50	0.05	82.70
450	0.03	75.40	1.00	0.30	1.00	0.30	0.03	75.40
500	0.02	67.00	1.00	-0.80	1.00	-0.80	0.02	67.00
550	0.01	58.70	1.00	-1.90	1.00	-1.90	0.01	58.70
600	0.01	-3.10	1.00	-2.90	1.00	-2.90	0.01	-3.10
650	0.01	-64.80	1.00	-3.80	1.00	-3.80	0.01	-64.80
700	0.02	-75.60	1.00	-4.60	1.00	-4.60	0.02	-75.60
750	0.02	-86.40	1.00	-5.40	1.00	-5.40	0.02	-86.40
800	0.03	-89.80	1.00	-6.20	1.00	-6.20	0.03	-89.80
850	0.04	-93.30	1.00	-7.00	1.00	-7.00	0.04	-93.30
900	0.04	-95.20	1.00	-7.70	1.00	-7.70	0.04	-95.20
950	0.05	-97.10	1.00	-8.50	1.00	-8.50	0.05	-97.10
1000	0.06	-98.60	1.00	-9.20	1.00	-9.20	0.06	-98.60
1050	0.06	-100.20	1.00	-9.90	1.00	-9.90	0.06	-100.20
1100	0.07	-100.80	1.00	-10.70	1.00	-10.70	0.07	-100.80
1150	0.07	-101.40	1.00	-11.40	1.00	-11.40	0.07	-101.40
1200	0.08	-102.30	1.00	-12.20	1.00	-12.20	0.08	-102.30
1250	0.08	-103.20	1.00	-12.90	1.00	-12.90	0.08	-103.20
1300	0.09	-105.20	1.00	-13.60	1.00	-13.60	0.09	-105.20
1350	0.09	-107.20	1.00	-14.30	1.00	-14.30	0.09	-107.20
1400	0.10	-108.00	1.00	-15.00	1.00	-15.00	0.10	-108.00
1450	0.10	-108.80	0.99	-15.70	0.99	-15.70	0.10	-108.80
1500	0.11	-110.10	0.99	-16.50	0.99	-16.50	0.11	-110.10
1550	0.12	-111.50	0.99	-17.20	0.99	-17.20	0.12	-111.50
1600	0.12	-112.00	0.99	-18.00	0.99	-18.00	0.12	-112.00
1650	0.13	-112.60	0.99	-18.70	0.99	-18.70	0.13	-112.60
1700	0.13	-113.40	0.99	-19.40	0.99	-19.40	0.13	-113.40
1750	0.14	-114.30	0.99	-20.10	0.99	-20.10	0.14	-114.30
1800	0.15	-114.80	0.99	-20.90	0.99	-20.90	0.15	-114.80
1850	0.15	-115.20	0.99	-21.70	0.99	-21.70	0.15	-115.20
1900	0.16	-116.50	0.99	-22.40	0.99	-22.40	0.16	-116.50
1950	0.17	-117.80	0.99	-23.10	0.99	-23.10	0.17	-117.80
2000	0.17	-118.40	0.98	-24.00	0.98	-24.00	0.17	-118.40
2050	0.18	-119.10	0.98	-24.90	0.98	-24.90	0.18	-119.10
2100	0.19	-120.00	0.98	-25.80	0.98	-25.80	0.19	-120.00
2150	0.19	-120.90	0.98	-26.60	0.98	-26.60	0.19	-120.90
2200	0.20	-122.20	0.98	-27.50	0.98	-27.50	0.20	-122.20
2250	0.21	-123.60	0.97	-28.40	0.97	-28.40	0.21	-123.60
2300	0.22	-124.60	0.97	-29.30	0.97	-29.30	0.22	-124.60
2350	0.23	-125.60	0.97	-30.30	0.97	-30.30	0.23	-125.60
2400	0.24	-128.00	0.96	-31.50	0.96	-31.50	0.24	-128.00
2450	0.26	-130.40	0.95	-32.80	0.95	-32.80	0.26	-130.40
2500	0.28	-133.50	0.94	-34.30	0.94	-34.30	0.28	-133.50
2550	0.29	-136.60	0.93	-35.80	0.93	-35.80	0.29	-136.60
2600	0.32	-145.80	0.88	-37.60	0.88	-37.60	0.32	-145.80
2650	0.35	-154.90	0.83	-39.40	0.83	-39.40	0.35	-154.90
2700	0.26	2.40	0.80	-31.20	0.80	-31.20	0.26	2.40
2750	0.18	159.70	0.78	-23.10	0.78	-23.10	0.18	159.70
2800	0.15	15.30	0.86	-25.20	0.86	-25.20	0.15	15.30
2850	0.12	-129.20	0.94	-27.20	0.94	-27.20	0.12	-129.20
2900	0.15	-126.30	0.95	-29.50	0.95	-29.50	0.15	-126.30
2950	0.18	-123.50	0.96	-31.80	0.96	-31.80	0.18	-123.50
3000	0.20	-123.80	0.96	-33.10	0.96	-33.10	0.20	-123.80
3050	0.22	-124.10	0.96	-34.40	0.96	-34.40	0.22	-124.10
3100	0.23	-125.70	0.96	-35.60	0.96	-35.60	0.23	-125.70
3150	0.24	-127.30	0.96	-36.80	0.96	-36.80	0.24	-127.30
3200	0.25	-127.50	0.96	-37.60	0.96	-37.60	0.25	-127.50
3250	0.25	-127.70	0.96	-38.50	0.96	-38.50	0.25	-127.70
3300	0.26	-128.80	0.95	-39.40	0.95	-39.40	0.26	-128.80
3350	0.27	-129.80	0.95	-40.40	0.95	-40.40	0.27	-129.80
3400	0.28	-130.50	0.95	-41.20	0.95	-41.20	0.28	-130.50
3450	0.29	-131.20	0.95	-42.00	0.95	-42.00	0.29	-131.20
3500	0.29	-131.80	0.95	-42.90	0.95	-42.90	0.29	-131.80
3550	0.29	-132.40	0.94	-43.70	0.94	-43.70	0.29	-132.40
3600	0.30	-132.60	0.94	-44.40	0.94	-44.40	0.30	-132.60
3650	0.31	-132.90	0.94	-45.20	0.94	-45.20	0.31	-132.90
3700	0.32	-133.40	0.94	-46.20	0.94	-46.20	0.32	-133.40
3750	0.32	-134.00	0.94	-47.10	0.94	-47.10	0.32	-134.00
3800	0.33	-134.20	0.94	-47.80	0.94	-47.80	0.33	-134.20
3850	0.33	-134.40	0.93	-48.50	0.93	-48.50	0.33	-134.40
3900	0.34	-135.00	0.93	-49.60	0.93	-49.60	0.34	-135.00
3950	0.34	-135.70	0.93	-50.60	0.93	-50.60	0.34	-135.70
4000	0.35	-135.90	0.92	-51.40	0.92	-51.40	0.35	-135.90
4050	0.36	-136.20	0.92	-52.10	0.92	-52.10	0.36	-136.20
4100	0.36	-136.80	0.92	-53.00	0.92	-53.00	0.36	-136.80
4150	0.37	-137.50	0.91	-53.90	0.91	-53.90	0.37	-137.50
4200	0.38	-138.60	0.91	-55.00	0.91	-55.00	0.38	-138.60
4250	0.39	-139.70	0.90	-56.00	0.90	-56.00	0.39	-139.70
4300	0.40	-140.70	0.90	-56.80	0.90	-56.80	0.40	-140.70
4350	0.41	-141.70	0.89	-57.70	0.89	-57.70	0.41	-141.70
4400	0.42	-143.30	0.88	-58.90	0.88	-58.90	0.42	-143.30
4450	0.43	-144.90	0.87	-60.10	0.87	-60.10	0.43	-144.90
4500	0.44	-146.70	0.86	-61.30	0.86	-61.30	0.44	-146.70
4550	0.46	-148.50	0.85	-62.50	0.85	-62.50	0.46	-148.50
4600	0.47	-152.10	0.83	-64.10	0.83	-64.10	0.47	-152.10
4650	0.48	-155.70	0.81	-65.60	0.81	-65.60	0.48	-155.70
4700	0.49	-160.70	0.77	-66.30	0.77	-66.30	0.49	-160.70
4750	0.50	-165.70	0.73	-67.10	0.73	-67.10	0.50	-165.70
4800	0.48	5.50	0.68	-63.70	0.68	-63.70	0.48	5.50
4850	0.45	176.60	0.62	-60.30	0.62	-60.30	0.45	176.60
4900	0.35	174.10	0.68	-54.40	0.68	-54.40	0.35	174.10
4950	0.26	171.60	0.73	-48.40	0.73	-48.40	0.26	171.60
5000	0.25	7.80	0.79	-50.60	0.79	-50.60	0.25	7.80
5050	0.24	-156.10	0.84	-52.80	0.84	-52.80	0.24	-156.10
5100	0.27	-152.60	0.86	-55.30	0.86	-55.30	0.27	-152.60
5150	0.31	-149.00	0.88	-57.70	0.88	-57.70	0.31	-149.00
5200	0.34	-149.60	0.88	-59.50	0.88	-59.50	0.34	-149.60
5250	0.36	-150.20	0.88	-61.30	0.88	-61.30	0.36	-150.20
5300	0.38	-151.90	0.88	-62.90	0.88	-62.90	0.38	-151.90
5350	0.40	-153.60	0.88	-64.50	0.88	-64.50	0.40	-153.60
5400	0.41	-154.80	0.87	-65.70	0.87	-65.70	0.41	-154.80
5450	0.43	-155.90	0.87	-66.80	0.87	-66.80	0.43	-155.90
5500	0.44	-157.50	0.86	-67.90	0.86	-67.90	0.44	-157.50
5550	0.45	-159.10	0.86	-69.00	0.86	-69.00	0.45	-159.10
5600	0.46	-160.30	0.86	-70.00	0.86	-70.00	0.46	-160.30
5650	0.47	-161.40	0.85	-71.00	0.85	-71.00	0.47	-161.40
5700	0.49	-162.80	0.85	-72.00	0.85	-72.00	0.49	-162.80
5750	0.50	-164.10	0.84	-73.00	0.84	-73.00	0.50	-164.10
5800	0.50	-165.30	0.83	-73.80	0.83	-73.80	0.50	-165.30
5850	0.51	-166.40	0.83	-74.70	0.83	-74.70	0.51	-166.40
5900	0.52	-167.50	0.82	-75.60	0.82	-75.60	0.52	-167.50
5950	0.54	-168.70	0.82	-76.50	0.82	-76.50	0.54	-168.70
6000	0.55	-169.70	0.81	-77.50	0.81	-77.50	0.55	-169.70
6050	0.57	-170.60	0.79	-78.50	0.79	-78.50	0.57	-170.60
6100	0.58	-171.80	0.79	-79.20	0.79	-79.20	0.58	-171.80
6150	0.59	-172.90	0.78	-80.00	0.78	-80.00	0.59	-172.90
6200	0.60	-174.30	0.77	-81.00	0.77	-81.00	0.60	-174.30
6250	0.60	-175.80	0.77	-81.90	0.77	-81.90	0.60	-175.80
6300	0.61	-176.90	0.76	-82.80	0.76	-82.80	0.61	-176.90
6350	0.62	-178.00	0.75	-83.70	0.75	-83.70	0.62	-178.00
6400	0.63	0.80	0.74	-84.60	0.74	-84.60	0.63	0.80
6450	0.64	179.70	0.73	-85.60	0.73	-85.60	0.64	179.70
6500	0.64	178.10	0.71	-86.60	0.71	-86.60	0.64	178.10
6550	0.65	176.60	0.70	-87.60	0.70	-87.60	0.65	176.60
6600	0.66	174.60	0.69	-88.60	0.69	-88.60	0.66	174.60
6650	0.67	172.70	0.67	-89.50	0.67	-89.50	0.67	172.70
6700	0.67	170.40	0.65	-90.10	0.65	-90.10	0.67	170.40
6750	0.68	168.00	0.63	-90.80	0.63	-90.80	0.68	168.00
6800	0.68	164.30	0.59	-90.90	0.59	-90.90	0.68	164.30
6850	0.68	160.50	0.56	-91.00	0.56	-91.00	0.68	160.50
6900	0.66	156.00	0.52	-87.70	0.52	-87.70	0.66	156.00
6950	0.64	151.60	0.49	-84.40	0.49	-84.40	0.64	151.60
7000	0.59	147.10	0.50	-77.20	0.50	-77.20	0.59	147.10
7050	0.53	142.70	0.51	-70.00	0.51	-70.00	0.53	142.70
7100	0.46	145.60	0.58	-68.60	0.58	-68.60	0.46	145.60
7150	0.39	148.60	0.65	-67.20	0.65	-67.20	0.39	148.60
7200	0.40	156.30	0.70	-70.60	0.70	-70.60	0.40	156.30
7250	0.40	164.10	0.75	-74.00	0.75	-74.00	0.40	164.10
7300	0.43	166.60	0.76	-77.20	0.76	-77.20	0.43	166.60
7350	0.45	169.20	0.77	-80.50	0.77	-80.50	0.45	169.20
7400	0.48	169.70	0.78	-83.00	0.78	-83.00	0.48	169.70
7450	0.50	170.20	0.78	-85.50	0.78	-85.50	0.50	170.20
7500	0.53	169.00	0.77	-87.80	0.77	-87.80	0.53	169.00
7550	0.55	167.80	0.76	-90.10	0.76	-90.10	0.55	167.80
7600	0.56	167.00	0.76	-91.80	0.76	-91.80	0.56	167.00
7650	0.57	166.20	0.75	-93.40	0.75	-93.40	0.57	166.20
7700	0.59	164.70	0.74	-95.20	0.74	-95.20	0.59	164.70
7750	0.60	163.20	0.74	-96.90	0.74	-96.90	0.60	163.20
7800	0.61	161.30	0.73	-98.70	0.73	-98.70	0.61	161.30
7850	0.62	159.40	0.71	-100.40	0.71	-100.40	0.62	159.40
7900	0.64	157.90	0.70	-101.90	0.70	-101.90	0.64	157.90
7950	0.65	156.40	0.69	-103.40	0.69	-103.40	0.65	156.40
8000	0.66	154.30	0.68	-105.00	0.68	-105.00	0.66	154.30
8050	0.68	152.20	0.66	-106.50	0.66	-106.50	0.68	152.20
8100	0.69	150.10	0.65	-108.20	0.65	-108.20	0.69	150.10
8150	0.69	148.00	0.64	-109.90	0.64	-109.90	0.69	148.00
8200	0.70	146.00	0.62	-111.10	0.62	-111.10	0.70	146.00
8250	0.71	144.10	0.60	-112.30	0.60	-112.30	0.71	144.10
8300	0.72	142.10	0.59	-113.90	0.59	-113.90	0.72	142.10
8350	0.73	140.20	0.57	-115.60	0.57	-115.60	0.73	140.20
8400	0.74	138.30	0.55	-117.00	0.55	-117.00	0.74	138.30
8450	0.75	136.40	0.53	-118.50	0.53	-118.50	0.75	136.40
8500	0.76	134.20	0.51	-120.10	0.51	-120.10	0.76	134.20
8550	0.76	132.00	0.48	-121.80	0.48	-121.80	0.76	132.00
8600	0.77	129.70	0.46	-122.70	0.46	-122.70	0.77	129.70
8650	0.78	127.40	0.43	-123.70	0.43	-123.70	0.78	127.40
8700	0.79	125.20	0.40	-124.20	0.40	-124.20	0.79	125.20
8750	0.80	123.10	0.37	-124.70	0.37	-124.70	0.80	123.10
8800	0.80	120.10	0.34	-123.70	0.34	-123.70	0.80	120.10
8850	0.81	117.10	0.31	-122.70	0.31	-122.70	0.81	117.10
8900	0.80	114.50	0.28	-119.10	0.28	-119.10	0.80	114.50
8950	0.79	112.00	0.25	-115.50	0.25	-115.50	0.79	112.00
9000	0.78	109.00	0.24	-106.90	0.24	-106.90	0.78	109.00
9050	0.77	106.10	0.22	-98.30	0.22	-98.30	0.77	106.10
9100	0.74	103.10	0.24	-88.70	0.24	-88.70	0.74	103.10
9150	0.72	100.00	0.26	-79.10	0.26	-79.10	0.72	100.00
9200	0.65	97.90	0.31	-77.00	0.31	-77.00	0.65	97.90
9250	0.59	95.70	0.36	-74.90	0.36	-74.90	0.59	95.70
9300	0.54	99.60	0.41	-78.10	0.41	-78.10	0.54	99.60
9350	0.48	103.50	0.46	-81.30	0.46	-81.30	0.48	103.50
9400	0.48	110.20	0.49	-87.60	0.49	-87.60	0.48	110.20
9450	0.47	117.00	0.51	-93.90	0.51	-93.90	0.47	117.00
9500	0.51	121.10	0.50	-99.70	0.50	-99.70	0.51	121.10
9550	0.54	125.30	0.50	-105.50	0.50	-105.50	0.54	125.30
9600	0.59	125.50	0.47	-110.00	0.47	-110.00	0.59	125.50
9650	0.64	125.80	0.45	-114.40	0.45	-114.40	0.64	125.80
9700	0.67	124.60	0.42	-117.40	0.42	-117.40	0.67	124.60
9750	0.70	123.50	0.39	-120.30	0.39	-120.30	0.70	123.50
9800	0.72	122.80	0.36	-121.80	0.36	-121.80	0.72	122.80
9850	0.74	122.10	0.34	-123.30	0.34	-123.30	0.74	122.10
9900	0.77	120.50	0.31	-124.20	0.31	-124.20	0.77	120.50
9950	0.80	119.00	0.29	-125.00	0.29	-125.00	0.80	119.00
10000	0.80	117.30	0.26	-124.80	0.26	-124.80	0.80	117.30
10050	0.80	115.60	0.23	-124.70	0.23	-124.70	0.80	115.60
10100	0.82	114.90	0.21	-122.50	0.21	-122.50	0.82	114.90
10150	0.84	114.10	0.19	-120.40	0.19	-120.40	0.84	114.10
10200	0.85	112.20	0.17	-116.80	0.17	-116.80	0.85	112.20
10250	0.85	110.30	0.16	-113.20	0.16	-113.20	0.85	110.30
10300	0.86	108.50	0.14	-106.40	0.14	-106.40	0.86	108.50
10350	0.87	106.70	0.13	-99.60	0.13	-99.60	0.87	106.70
10400	0.85	105.20	0.13	-90.20	0.13	-90.20	0.85	105.20
10450	0.84	103.70	0.13	-80.90	0.13	-80.90	0.84	103.70
10500	0.84	101.80	0.13	-74.60	0.13	-74.60	0.84	101.80
10550	0.84	99.90	0.14	-68.30	0.14	-68.30	0.84	99.90
10600	0.83	98.50	0.15	-63.80	0.15	-63.80	0.83	98.50
10650	0.83	97.00	0.16	-59.40	0.16	-59.40	0.83	97.00
10700	0.83	96.10	0.16	-57.70	0.16	-57.70	0.83	96.10
10750	0.83	95.20	0.17	-56.00	0.17	-56.00	0.83	95.20
10800	0.84	94.20	0.17	-50.10	0.17	-50.10	0.84	94.20
10850	0.85	93.10	0.17	-44.20	0.17	-44.20	0.85	93.10
10900	0.86	90.50	0.19	-38.60	0.19	-38.60	0.86	90.50
10950	0.86	87.90	0.20	-33.00	0.20	-33.00	0.86	87.90
11000	0.86	85.60	0.23	-31.50	0.23	-31.50	0.86	85.60
11050	0.86	83.40	0.26	-30.10	0.26	-30.10	0.86	83.40
11100	0.85	80.80	0.28	-29.60	0.28	-29.60	0.85	80.80
11150	0.85	78.20	0.31	-29.20	0.31	-29.20	0.85	78.20
11200	0.83	75.70	0.34	-30.70	0.34	-30.70	0.83	75.70
11250	0.82	73.20	0.37	-32.10	0.37	-32.10	0.82	73.20
11300	0.81	70.90	0.40	-33.50	0.40	-33.50	0.81	70.90
11350	0.80	68.70	0.42	-34.90	0.42	-34.90	0.80	68.70
11400	0.78	66.40	0.44	-37.00	0.44	-37.00	0.78	66.40
11450	0.76	64.00	0.46	-39.20	0.46	-39.20	0.76	64.00
11500	0.74	62.20	0.49	-41.00	0.49	-41.00	0.74	62.20
11550	0.73	60.40	0.51	-42.80	0.51	-42.80	0.73	60.40
11600	0.70	58.90	0.53	-45.10	0.53	-45.10	0.70	58.90
11650	0.68	57.30	0.55	-47.40	0.55	-47.40	0.68	57.30
11700	0.66	56.00	0.56	-49.80	0.56	-49.80	0.66	56.00
11750	0.63	54.70	0.58	-52.30	0.58	-52.30	0.63	54.70
11800	0.61	55.10	0.59	-54.60	0.59	-54.60	0.61	55.10
11850	0.59	55.50	0.59	-57.00	0.59	-57.00	0.59	55.50
11900	0.56	57.30	0.59	-59.80	0.59	-59.80	0.56	57.30
11950	0.53	59.00	0.58	-62.60	0.58	-62.60	0.53	59.00
12000	0.54	61.30	0.57	-63.60	0.57	-63.60	0.54	61.30
12050	0.54	63.50	0.56	-64.60	0.56	-64.60	0.54	63.50
12100	0.56	64.00	0.55	-64.20	0.55	-64.20	0.56	64.00
12150	0.57	64.50	0.53	-63.90	0.53	-63.90	0.57	64.50
12200	0.59	63.00	0.54	-61.90	0.54	-61.90	0.59	63.00
12250	0.61	61.50	0.54	-59.90	0.54	-59.90	0.61	61.50
12300	0.61	59.60	0.56	-58.80	0.56	-58.80	0.61	59.60
12350	0.61	57.70	0.58	-57.70	0.58	-57.70	0.61	57.70
12400	0.61	54.30	0.61	-58.40	0.61	-58.40	0.61	54.30
12450	0.61	50.80	0.63	-59.10	0.63	-59.10	0.61	50.80
12500	0.60	49.10	0.65	-59.90	0.65	-59.90	0.60	49.10
12550	0.58	47.40	0.68	-60.60	0.68	-60.60	0.58	47.40
12600	0.57	45.60	0.69	-62.10	0.69	-62.10	0.57	45.60
12650	0.56	43.70	0.71	-63.60	0.71	-63.60	0.56	43.70
12700	0.55	41.80	0.73	-65.00	0.73	-65.00	0.55	41.80
12750	0.54	39.90	0.75	-66.40	0.75	-66.40	0.54	39.90
12800	0.52	38.60	0.76	-68.00	0.76	-68.00	0.52	38.60
12850	0.51	37.40	0.77	-69.60	0.77	-69.60	0.51	37.40
12900	0.50	36.20	0.78	-71.10	0.78	-71.10	0.50	36.20
12950	0.49	35.00	0.79	-72.50	0.79	-72.50	0.49	35.00
13000	0.47	34.10	0.79	-73.80	0.79	-73.80	0.47	34.10
13050	0.46	33.20	0.80	-75.10	0.80	-75.10	0.46	33.20
13100	0.44	31.80	0.81	-76.30	0.81	-76.30	0.44	31.80
13150	0.43	30.50	0.81	-77.60	0.81	-77.60	0.43	30.50
13200	0.43	29.60	0.82	-78.60	0.82	-78.60	0.43	29.60
13250	0.42	28.80	0.83	-79.60	0.83	-79.60	0.42	28.80
13300	0.40	29.40	0.83	-81.20	0.83	-81.20	0.40	29.40
13350	0.38	29.90	0.83	-82.90	0.83	-82.90	0.38	29.90
13400	0.38	27.60	0.84	-84.10	0.84	-84.10	0.38	27.60
13450	0.39	25.30	0.85	-85.30	0.85	-85.30	0.39	25.30
13500	0.38	24.00	0.85	-86.50	0.85	-86.50	0.38	24.00
13550	0.37	22.70	0.85	-87.70	0.85	-87.70	0.37	22.70
13600	0.36	21.50	0.85	-89.10	0.85	-89.10	0.36	21.50
13650	0.36	20.20	0.85	-90.40	0.85	-90.40	0.36	20.20
13700	0.35	18.30	0.86	-91.40	0.86	-91.40	0.35	18.30
13750	0.35	16.30	0.86	-92.40	0.86	-92.40	0.35	16.30
13800	0.34	14.00	0.86	-93.50	0.86	-93.50	0.34	14.00
13850	0.33	11.60	0.86	-94.60	0.86	-94.60	0.33	11.60
13900	0.33	9.30	0.86	-95.60	0.86	-95.60	0.33	9.30
13950	0.33	7.00	0.87	-96.60	0.87	-96.60	0.33	7.00
14000	0.32	4.90	0.86	-97.60	0.86	-97.60	0.32	4.90
14050	0.31	2.80	0.86	-98.70	0.86	-98.70	0.31	2.80
14100	0.31	1.40	0.86	-99.50	0.86	-99.50	0.31	1.40
14150	0.30	0.10	0.86	-100.40	0.86	-100.40	0.30	0.10
14200	0.31	-1.40	0.85	-101.10	0.85	-101.10	0.31	-1.40
14250	0.31	-2.90	0.85	-101.90	0.85	-101.90	0.31	-2.90
14300	0.31	-4.10	0.85	-102.30	0.85	-102.30	0.31	-4.10
14350	0.31	-5.30	0.85	-102.70	0.85	-102.70	0.31	-5.30
14400	0.31	-7.90	0.86	-103.40	0.86	-103.40	0.31	-7.90
14450	0.31	-10.50	0.86	-104.20	0.86	-104.20	0.31	-10.50
14500	0.30	-11.70	0.86	-104.90	0.86	-104.90	0.30	-11.70
14550	0.29	-13.00	0.87	-105.50	0.87	-105.50	0.29	-13.00
14600	0.28	-13.90	0.87	-106.70	0.87	-106.70	0.28	-13.90
14650	0.27	-14.80	0.88	-107.90	0.88	-107.90	0.27	-14.80
14700	0.25	-15.40	0.88	-109.20	0.88	-109.20	0.25	-15.40
14750	0.24	-15.90	0.88	-110.50	0.88	-110.50	0.24	-15.90
14800	0.23	-13.40	0.87	-111.90	0.87	-111.90	0.23	-13.40
14850	0.22	-10.80	0.87	-113.30	0.87	-113.30	0.22	-10.80
14900	0.21	-6.30	0.86	-114.40	0.86	-114.40	0.21	-6.30
14950	0.20	-1.80	0.85	-115.50	0.85	-115.50	0.20	-1.80
15000	0.21	1.70	0.83	-116.40	0.83	-116.40	0.21	1.70
15050	0.22	5.20	0.81	-117.40	0.81	-117.40	0.22	5.20
15100	0.23	6.30	0.80	-117.00	0.80	-117.00	0.23	6.30
15150	0.25	7.40	0.78	-116.60	0.78	-116.60	0.25	7.40
15200	0.26	5.60	0.78	-115.80	0.78	-115.80	0.26	5.60
15250	0.28	3.80	0.78	-115.00	0.78	-115.00	0.28	3.80
15300	0.28	0.10	0.79	-115.00	0.79	-115.00	0.28	0.10
15350	0.28	-3.60	0.80	-115.10	0.80	-115.10	0.28	-3.60
15400	0.28	-4.80	0.81	-115.40	0.81	-115.40	0.28	-4.80
15450	0.27	-6.00	0.81	-115.80	0.81	-115.80	0.27	-6.00
15500	0.27	-7.00	0.82	-116.50	0.82	-116.50	0.27	-7.00
15550	0.27	-8.10	0.83	-117.20	0.83	-117.20	0.27	-8.10
15600	0.26	-9.00	0.83	-117.90	0.83	-117.90	0.26	-9.00
15650	0.26	-10.00	0.84	-118.60	0.84	-118.60	0.26	-10.00
15700	0.26	-10.10	0.84	-119.60	0.84	-119.60	0.26	-10.10
15750	0.25	-10.30	0.85	-120.60	0.85	-120.60	0.25	-10.30
15800	0.23	-10.80	0.85	-121.50	0.85	-121.50	0.23	-10.80
15850	0.21	-11.30	0.85	-122.40	0.85	-122.40	0.21	-11.30
15900	0.21	-8.10	0.85	-123.60	0.85	-123.60	0.21	-8.10
15950	0.20	-4.80	0.84	-124.90	0.84	-124.90	0.20	-4.80
16000	0.18	0.50	0.84	-126.00	0.84	-126.00	0.18	0.50
16050	0.16	5.70	0.83	-127.00	0.83	-127.00	0.16	5.70
16100	0.16	14.40	0.82	-128.20	0.82	-128.20	0.16	14.40
16150	0.16	23.20	0.80	-129.30	0.80	-129.30	0.16	23.20
16200	0.17	26.20	0.79	-129.50	0.79	-129.50	0.17	26.20
16250	0.17	29.20	0.77	-129.60	0.77	-129.60	0.17	29.20
16300	0.17	30.90	0.77	-129.20	0.77	-129.20	0.17	30.90
16350	0.16	32.70	0.76	-128.80	0.76	-128.80	0.16	32.70
16400	0.15	32.20	0.77	-128.80	0.77	-128.80	0.15	32.20
16450	0.14	31.70	0.77	-128.80	0.77	-128.80	0.14	31.70
16500	0.12	36.10	0.78	-129.30	0.78	-129.30	0.12	36.10
16550	0.10	40.50	0.78	-129.80	0.78	-129.80	0.10	40.50
16600	0.09	55.90	0.79	-131.10	0.79	-131.10	0.09	55.90
16650	0.09	71.30	0.80	-132.40	0.80	-132.40	0.09	71.30
16700	0.11	84.50	0.80	-134.00	0.80	-134.00	0.11	84.50
16750	0.12	97.80	0.80	-135.50	0.80	-135.50	0.12	97.80
16800	0.15	99.80	0.79	-137.20	0.79	-137.20	0.15	99.80
16850	0.18	101.90	0.78	-138.90	0.78	-138.90	0.18	101.90
16900	0.22	97.80	0.76	-140.50	0.76	-140.50	0.22	97.80
16950	0.25	93.60	0.74	-142.10	0.74	-142.10	0.25	93.60
17000	0.28	90.40	0.72	-143.20	0.72	-143.20	0.28	90.40
17050	0.32	87.20	0.69	-144.40	0.69	-144.40	0.32	87.20
17100	0.35	81.90	0.66	-145.00	0.66	-145.00	0.35	81.90
17150	0.38	76.60	0.63	-145.60	0.63	-145.60	0.38	76.60
17200	0.41	71.10	0.60	-144.30	0.60	-144.30	0.41	71.10
17250	0.44	65.70	0.57	-143.00	0.57	-143.00	0.44	65.70
17300	0.46	61.00	0.54	-140.10	0.54	-140.10	0.46	61.00
17350	0.48	56.40	0.52	-137.10	0.52	-137.10	0.48	56.40
17400	0.48	50.70	0.52	-132.50	0.52	-132.50	0.48	50.70
17450	0.48	45.00	0.52	-127.80	0.52	-127.80	0.48	45.00
17500	0.47	40.60	0.55	-124.60	0.55	-124.60	0.47	40.60
17550	0.46	36.20	0.58	-121.50	0.58	-121.50	0.46	36.20
17600	0.44	33.40	0.61	-120.70	0.61	-120.70	0.44	33.40
17650	0.42	30.50	0.65	-120.00	0.65	-120.00	0.42	30.50
17700	0.39	28.50	0.69	-120.50	0.69	-120.50	0.39	28.50
17750	0.36	26.50	0.73	-121.10	0.73	-121.10	0.36	26.50
17800	0.34	26.30	0.75	-122.70	0.75	-122.70	0.34	26.30
17850	0.31	26.10	0.78	-124.40	0.78	-124.40	0.31	26.10
17900	0.29	26.60	0.80	-126.00	0.80	-126.00	0.29	26.60
17950	0.27	27.10	0.81	-127.50	0.81	-127.50	0.27	27.10
18000	0.25	28.20	0.82	-129.30	0.82	-129.30	0.25	28.20
18050	0.23	29.20	0.83	-131.00	0.83	-131.00	0.23	29.20
18100	0.22	29.60	0.83	-132.50	0.83	-132.50	0.22	29.60
18150	0.21	30.00	0.84	-134.10	0.84	-134.10	0.21	30.00
18200	0.21	30.10	0.84	-135.60	0.84	-135.60	0.21	30.10
18250	0.20	30.20	0.84	-137.10	0.84	-137.10	0.20	30.20
18300	0.21	29.20	0.83	-138.20	0.83	-138.20	0.21	29.20
18350	0.21	28.30	0.83	-139.30	0.83	-139.30	0.21	28.30
18400	0.22	26.40	0.82	-140.00	0.82	-140.00	0.22	26.40
18450	0.22	24.50	0.81	-140.80	0.81	-140.80	0.22	24.50
18500	0.24	22.40	0.81	-140.70	0.81	-140.70	0.24	22.40
18550	0.25	20.30	0.80	-140.70	0.80	-140.70	0.25	20.30
18600	0.25	16.80	0.80	-140.80	0.80	-140.80	0.25	16.80
18650	0.25	13.30	0.80	-140.90	0.80	-140.90	0.25	13.30
