#	mhz	s	ma	r	50

50	0.95	173.20	0.10	79.00	0.10	79.00	0.95	173.20
100	0.95	167.10	0.20	74.40	0.20	74.40	0.95	167.10
150	0.95	161.10	0.30	69.70	0.30	69.70	0.95	161.10
200	0.91	156.00	0.38	65.10	0.38	65.10	0.91	156.00
250	0.87	150.90	0.46	60.40	0.46	60.40	0.87	150.90
300	0.84	146.00	0.52	55.70	0.52	55.70	0.84	146.00
350	0.80	141.20	0.58	51.00	0.58	51.00	0.80	141.20
400	0.75	137.30	0.63	47.40	0.63	47.40	0.75	137.30
450	0.71	133.40	0.68	43.90	0.68	43.90	0.71	133.40
500	0.66	127.70	0.73	39.40	0.73	39.40	0.66	127.70
550	0.61	121.90	0.79	34.90	0.79	34.90	0.61	121.90
600	0.58	119.40	0.81	32.20	0.81	32.20	0.58	119.40
650	0.55	116.80	0.83	29.50	0.83	29.50	0.55	116.80
700	0.52	113.80	0.85	27.30	0.85	27.30	0.52	113.80
750	0.49	110.70	0.87	25.10	0.87	25.10	0.49	110.70
800	0.46	109.00	0.88	23.00	0.88	23.00	0.46	109.00
850	0.44	107.20	0.89	20.90	0.89	20.90	0.44	107.20
900	0.42	105.00	0.90	19.20	0.90	19.20	0.42	105.00
950	0.39	102.90	0.91	17.50	0.91	17.50	0.39	102.90
1000	0.37	101.20	0.92	15.90	0.92	15.90	0.37	101.20
1050	0.35	99.60	0.93	14.30	0.93	14.30	0.35	99.60
1100	0.34	97.40	0.94	12.80	0.94	12.80	0.34	97.40
1150	0.32	95.20	0.94	11.40	0.94	11.40	0.32	95.20
1200	0.31	93.70	0.95	10.20	0.95	10.20	0.31	93.70
1250	0.29	92.20	0.95	8.90	0.95	8.90	0.29	92.20
1300	0.28	90.30	0.96	7.70	0.96	7.70	0.28	90.30
1350	0.27	88.40	0.96	6.50	0.96	6.50	0.27	88.40
1400	0.25	87.10	0.96	5.40	0.96	5.40	0.25	87.10
1450	0.24	85.80	0.96	4.30	0.96	4.30	0.24	85.80
1500	0.23	84.30	0.97	3.20	0.97	3.20	0.23	84.30
1550	0.22	82.70	0.97	2.20	0.97	2.20	0.22	82.70
1600	0.21	80.90	0.97	1.10	0.97	1.10	0.21	80.90
1650	0.20	79.20	0.98	0.10	0.98	0.10	0.20	79.20
1700	0.19	77.80	0.98	-0.80	0.98	-0.80	0.19	77.80
1750	0.18	76.50	0.98	-1.80	0.98	-1.80	0.18	76.50
1800	0.17	74.50	0.98	-2.60	0.98	-2.60	0.17	74.50
1850	0.17	72.50	0.98	-3.50	0.98	-3.50	0.17	72.50
1900	0.16	70.80	0.99	-4.30	0.99	-4.30	0.16	70.80
1950	0.15	69.10	0.99	-5.10	0.99	-5.10	0.15	69.10
2000	0.14	67.20	0.99	-6.10	0.99	-6.10	0.14	67.20
2050	0.14	65.20	0.99	-7.00	0.99	-7.00	0.14	65.20
2100	0.13	63.50	0.99	-7.80	0.99	-7.80	0.13	63.50
2150	0.12	61.70	0.99	-8.50	0.99	-8.50	0.12	61.70
2200	0.12	59.70	0.99	-9.40	0.99	-9.40	0.12	59.70
2250	0.11	57.70	0.99	-10.20	0.99	-10.20	0.11	57.70
2300	0.10	54.90	0.99	-10.90	0.99	-10.90	0.10	54.90
2350	0.09	52.00	0.99	-11.60	0.99	-11.60	0.09	52.00
2400	0.09	50.40	0.99	-12.40	0.99	-12.40	0.09	50.40
2450	0.08	48.80	0.99	-13.30	0.99	-13.30	0.08	48.80
2500	0.08	44.80	0.99	-14.10	0.99	-14.10	0.08	44.80
2550	0.07	40.80	0.99	-14.90	0.99	-14.90	0.07	40.80
2600	0.06	38.30	0.99	-15.60	0.99	-15.60	0.06	38.30
2650	0.06	35.70	0.99	-16.30	0.99	-16.30	0.06	35.70
2700	0.05	31.70	0.99	-17.00	0.99	-17.00	0.05	31.70
2750	0.05	27.70	0.99	-17.70	0.99	-17.70	0.05	27.70
2800	0.04	19.20	1.00	-18.30	1.00	-18.30	0.04	19.20
2850	0.04	10.70	1.00	-19.00	1.00	-19.00	0.04	10.70
2900	0.03	6.30	1.00	-19.90	1.00	-19.90	0.03	6.30
2950	0.03	2.00	1.00	-20.80	1.00	-20.80	0.03	2.00
3000	0.03	-11.90	1.00	-21.40	1.00	-21.40	0.03	-11.90
3050	0.03	-25.70	1.00	-22.10	1.00	-22.10	0.03	-25.70
3100	0.03	-36.80	0.99	-22.90	0.99	-22.90	0.03	-36.80
3150	0.03	-48.00	0.99	-23.70	0.99	-23.70	0.03	-48.00
3200	0.03	-53.50	0.99	-24.20	0.99	-24.20	0.03	-53.50
3250	0.03	-59.10	0.99	-24.70	0.99	-24.70	0.03	-59.10
3300	0.03	-70.10	0.99	-25.50	0.99	-25.50	0.03	-70.10
3350	0.04	-81.10	1.00	-26.30	1.00	-26.30	0.04	-81.10
3400	0.04	-84.20	1.00	-26.90	1.00	-26.90	0.04	-84.20
3450	0.04	-87.20	0.99	-27.50	0.99	-27.50	0.04	-87.20
3500	0.04	-90.50	0.99	-28.10	0.99	-28.10	0.04	-90.50
3550	0.05	-93.90	0.99	-28.80	0.99	-28.80	0.05	-93.90
3600	0.05	-96.80	0.99	-29.40	0.99	-29.40	0.05	-96.80
3650	0.05	-99.80	1.00	-30.00	1.00	-30.00	0.05	-99.80
3700	0.06	-99.50	1.00	-30.80	1.00	-30.80	0.06	-99.50
3750	0.06	-99.30	0.99	-31.50	0.99	-31.50	0.06	-99.30
3800	0.06	-100.20	0.99	-32.10	0.99	-32.10	0.06	-100.20
3850	0.07	-101.10	0.99	-32.60	0.99	-32.60	0.07	-101.10
3900	0.07	-101.60	0.99	-33.40	0.99	-33.40	0.07	-101.60
3950	0.07	-102.20	0.99	-34.30	0.99	-34.30	0.07	-102.20
4000	0.08	-102.00	0.99	-34.80	0.99	-34.80	0.08	-102.00
4050	0.08	-101.80	0.99	-35.40	0.99	-35.40	0.08	-101.80
4100	0.08	-101.40	0.99	-36.00	0.99	-36.00	0.08	-101.40
4150	0.09	-101.00	0.99	-36.70	0.99	-36.70	0.09	-101.00
4200	0.09	-101.70	0.99	-37.40	0.99	-37.40	0.09	-101.70
4250	0.09	-102.40	0.99	-38.10	0.99	-38.10	0.09	-102.40
4300	0.10	-102.50	0.99	-38.60	0.99	-38.60	0.10	-102.50
4350	0.10	-102.60	0.99	-39.00	0.99	-39.00	0.10	-102.60
4400	0.11	-104.30	0.99	-39.80	0.99	-39.80	0.11	-104.30
4450	0.11	-106.00	0.99	-40.50	0.99	-40.50	0.11	-106.00
4500	0.12	-105.70	0.99	-41.20	0.99	-41.20	0.12	-105.70
4550	0.12	-105.40	0.99	-41.90	0.99	-41.90	0.12	-105.40
4600	0.13	-107.70	0.99	-42.70	0.99	-42.70	0.13	-107.70
4650	0.13	-109.90	0.99	-43.50	0.99	-43.50	0.13	-109.90
4700	0.14	-110.70	0.99	-44.10	0.99	-44.10	0.14	-110.70
4750	0.14	-111.40	0.98	-44.70	0.98	-44.70	0.14	-111.40
4800	0.15	-113.00	0.98	-45.40	0.98	-45.40	0.15	-113.00
4850	0.15	-114.60	0.98	-46.00	0.98	-46.00	0.15	-114.60
4900	0.16	-116.20	0.98	-46.70	0.98	-46.70	0.16	-116.20
4950	0.16	-117.70	0.98	-47.30	0.98	-47.30	0.16	-117.70
5000	0.17	-119.50	0.98	-48.00	0.98	-48.00	0.17	-119.50
5050	0.17	-121.30	0.97	-48.70	0.97	-48.70	0.17	-121.30
5100	0.18	-122.40	0.97	-49.20	0.97	-49.20	0.18	-122.40
5150	0.18	-123.50	0.97	-49.80	0.97	-49.80	0.18	-123.50
5200	0.19	-125.50	0.97	-50.20	0.97	-50.20	0.19	-125.50
5250	0.19	-127.40	0.97	-50.70	0.97	-50.70	0.19	-127.40
5300	0.20	-129.30	0.97	-51.50	0.97	-51.50	0.20	-129.30
5350	0.20	-131.10	0.97	-52.40	0.97	-52.40	0.20	-131.10
5400	0.21	-132.30	0.97	-53.00	0.97	-53.00	0.21	-132.30
5450	0.21	-133.40	0.97	-53.60	0.97	-53.60	0.21	-133.40
5500	0.22	-135.20	0.96	-54.20	0.96	-54.20	0.22	-135.20
5550	0.22	-137.10	0.96	-54.80	0.96	-54.80	0.22	-137.10
5600	0.23	-137.90	0.96	-55.40	0.96	-55.40	0.23	-137.90
5650	0.23	-138.80	0.96	-56.00	0.96	-56.00	0.23	-138.80
5700	0.24	-140.60	0.96	-56.50	0.96	-56.50	0.24	-140.60
5750	0.25	-142.40	0.96	-57.10	0.96	-57.10	0.25	-142.40
5800	0.25	-142.80	0.96	-57.70	0.96	-57.70	0.25	-142.80
5850	0.25	-143.10	0.95	-58.40	0.95	-58.40	0.25	-143.10
5900	0.25	-144.60	0.95	-58.90	0.95	-58.90	0.25	-144.60
5950	0.26	-146.10	0.95	-59.40	0.95	-59.40	0.26	-146.10
6000	0.28	-146.50	0.95	-60.20	0.95	-60.20	0.28	-146.50
6050	0.29	-146.80	0.95	-61.00	0.95	-61.00	0.29	-146.80
6100	0.29	-148.00	0.95	-61.40	0.95	-61.40	0.29	-148.00
6150	0.30	-149.10	0.94	-61.80	0.94	-61.80	0.30	-149.10
6200	0.31	-150.60	0.94	-62.50	0.94	-62.50	0.31	-150.60
6250	0.31	-152.10	0.94	-63.10	0.94	-63.10	0.31	-152.10
6300	0.31	-152.80	0.94	-63.60	0.94	-63.60	0.31	-152.80
6350	0.32	-153.40	0.94	-64.10	0.94	-64.10	0.32	-153.40
6400	0.32	-154.20	0.94	-64.70	0.94	-64.70	0.32	-154.20
6450	0.33	-155.10	0.93	-65.30	0.93	-65.30	0.33	-155.10
6500	0.33	-155.80	0.93	-65.80	0.93	-65.80	0.33	-155.80
6550	0.33	-156.60	0.93	-66.40	0.93	-66.40	0.33	-156.60
6600	0.33	-157.60	0.93	-66.90	0.93	-66.90	0.33	-157.60
6650	0.34	-158.50	0.93	-67.50	0.93	-67.50	0.34	-158.50
6700	0.34	-159.00	0.93	-67.80	0.93	-67.80	0.34	-159.00
6750	0.34	-159.50	0.93	-68.20	0.93	-68.20	0.34	-159.50
6800	0.34	-161.00	0.93	-68.90	0.93	-68.90	0.34	-161.00
6850	0.34	-162.50	0.93	-69.60	0.93	-69.60	0.34	-162.50
6900	0.34	-163.00	0.93	-70.10	0.93	-70.10	0.34	-163.00
6950	0.34	-163.50	0.93	-70.60	0.93	-70.60	0.34	-163.50
7000	0.34	-165.10	0.93	-71.30	0.93	-71.30	0.34	-165.10
7050	0.35	-166.60	0.93	-72.00	0.93	-72.00	0.35	-166.60
7100	0.34	-167.50	0.93	-72.50	0.93	-72.50	0.34	-167.50
7150	0.34	-168.40	0.93	-72.90	0.93	-72.90	0.34	-168.40
7200	0.35	-169.40	0.93	-73.70	0.93	-73.70	0.35	-169.40
7250	0.36	-170.30	0.93	-74.40	0.93	-74.40	0.36	-170.30
7300	0.35	-171.70	0.93	-75.10	0.93	-75.10	0.35	-171.70
7350	0.35	-173.00	0.93	-75.80	0.93	-75.80	0.35	-173.00
7400	0.36	-173.30	0.93	-76.40	0.93	-76.40	0.36	-173.30
7450	0.36	-173.50	0.92	-77.00	0.92	-77.00	0.36	-173.50
7500	0.36	-174.90	0.92	-77.80	0.92	-77.80	0.36	-174.90
7550	0.37	-176.40	0.92	-78.70	0.92	-78.70	0.37	-176.40
7600	0.36	-176.30	0.92	-79.20	0.92	-79.20	0.36	-176.30
7650	0.36	-176.20	0.92	-79.80	0.92	-79.80	0.36	-176.20
7700	0.36	-176.90	0.92	-80.60	0.92	-80.60	0.36	-176.90
7750	0.36	-177.60	0.92	-81.30	0.92	-81.30	0.36	-177.60
7800	0.36	1.10	0.92	-82.20	0.92	-82.20	0.36	1.10
7850	0.36	179.90	0.92	-83.00	0.92	-83.00	0.36	179.90
7900	0.37	179.80	0.92	-83.70	0.92	-83.70	0.37	179.80
7950	0.37	179.60	0.91	-84.50	0.91	-84.50	0.37	179.60
8000	0.37	178.30	0.91	-85.30	0.91	-85.30	0.37	178.30
8050	0.37	176.90	0.91	-86.10	0.91	-86.10	0.37	176.90
8100	0.38	176.50	0.91	-87.00	0.91	-87.00	0.38	176.50
8150	0.38	176.20	0.91	-87.80	0.91	-87.80	0.38	176.20
8200	0.38	175.10	0.91	-88.70	0.91	-88.70	0.38	175.10
8250	0.39	174.10	0.90	-89.60	0.90	-89.60	0.39	174.10
8300	0.39	173.80	0.90	-90.50	0.90	-90.50	0.39	173.80
8350	0.40	173.50	0.90	-91.50	0.90	-91.50	0.40	173.50
8400	0.41	172.50	0.90	-92.50	0.90	-92.50	0.41	172.50
8450	0.41	171.60	0.89	-93.40	0.89	-93.40	0.41	171.60
8500	0.42	171.20	0.89	-94.50	0.89	-94.50	0.42	171.20
8550	0.42	170.90	0.88	-95.60	0.88	-95.60	0.42	170.90
8600	0.43	169.60	0.88	-96.50	0.88	-96.50	0.43	169.60
8650	0.44	168.40	0.87	-97.50	0.87	-97.50	0.44	168.40
8700	0.44	168.00	0.87	-98.60	0.87	-98.60	0.44	168.00
8750	0.45	167.50	0.86	-99.70	0.86	-99.70	0.45	167.50
8800	0.46	166.10	0.86	-100.40	0.86	-100.40	0.46	166.10
8850	0.46	164.70	0.85	-101.10	0.85	-101.10	0.46	164.70
8900	0.47	163.70	0.84	-102.40	0.84	-102.40	0.47	163.70
8950	0.48	162.80	0.83	-103.80	0.83	-103.80	0.48	162.80
9000	0.49	162.10	0.83	-104.80	0.83	-104.80	0.49	162.10
9050	0.50	161.30	0.82	-105.80	0.82	-105.80	0.50	161.30
9100	0.52	160.20	0.81	-106.90	0.81	-106.90	0.52	160.20
9150	0.53	159.00	0.81	-108.00	0.81	-108.00	0.53	159.00
9200	0.54	157.50	0.80	-109.50	0.80	-109.50	0.54	157.50
9250	0.54	155.90	0.79	-111.10	0.79	-111.10	0.54	155.90
9300	0.55	156.00	0.78	-111.90	0.78	-111.90	0.55	156.00
9350	0.55	156.00	0.76	-112.60	0.76	-112.60	0.55	156.00
9400	0.57	155.40	0.75	-113.80	0.75	-113.80	0.57	155.40
9450	0.58	154.70	0.75	-114.90	0.75	-114.90	0.58	154.70
9500	0.59	153.80	0.73	-116.20	0.73	-116.20	0.59	153.80
9550	0.59	153.00	0.72	-117.50	0.72	-117.50	0.59	153.00
9600	0.61	152.00	0.71	-118.60	0.71	-118.60	0.61	152.00
9650	0.63	151.00	0.70	-119.70	0.70	-119.70	0.63	151.00
9700	0.63	150.00	0.68	-120.90	0.68	-120.90	0.63	150.00
9750	0.64	149.00	0.66	-122.10	0.66	-122.10	0.64	149.00
9800	0.65	148.70	0.65	-123.00	0.65	-123.00	0.65	148.70
9850	0.66	148.30	0.63	-123.90	0.63	-123.90	0.66	148.30
9900	0.68	147.20	0.62	-125.00	0.62	-125.00	0.68	147.20
9950	0.69	146.10	0.61	-126.00	0.61	-126.00	0.69	146.10
10000	0.70	144.80	0.59	-127.30	0.59	-127.30	0.70	144.80
10050	0.71	143.50	0.57	-128.60	0.57	-128.60	0.71	143.50
10100	0.73	142.90	0.55	-129.30	0.55	-129.30	0.73	142.90
10150	0.74	142.40	0.54	-130.00	0.54	-130.00	0.74	142.40
10200	0.75	140.80	0.52	-131.50	0.52	-131.50	0.75	140.80
10250	0.76	139.20	0.50	-132.90	0.50	-132.90	0.76	139.20
10300	0.78	137.30	0.47	-134.10	0.47	-134.10	0.78	137.30
10350	0.80	135.40	0.45	-135.20	0.45	-135.20	0.80	135.40
10400	0.79	133.70	0.43	-135.60	0.43	-135.60	0.79	133.70
10450	0.78	132.10	0.41	-136.00	0.41	-136.00	0.78	132.10
10500	0.80	130.30	0.39	-136.70	0.39	-136.70	0.80	130.30
10550	0.82	128.50	0.37	-137.50	0.37	-137.50	0.82	128.50
10600	0.81	126.20	0.35	-136.70	0.35	-136.70	0.81	126.20
10650	0.81	123.90	0.33	-136.00	0.33	-136.00	0.81	123.90
10700	0.82	122.90	0.32	-136.60	0.32	-136.60	0.82	122.90
10750	0.83	122.00	0.31	-137.20	0.31	-137.20	0.83	122.00
10800	0.85	120.70	0.29	-137.80	0.29	-137.80	0.85	120.70
10850	0.86	119.40	0.27	-138.40	0.27	-138.40	0.86	119.40
10900	0.86	116.80	0.24	-139.10	0.24	-139.10	0.86	116.80
10950	0.86	114.30	0.22	-139.90	0.22	-139.90	0.86	114.30
11000	0.88	112.40	0.19	-139.20	0.19	-139.20	0.88	112.40
11050	0.90	110.40	0.17	-138.50	0.17	-138.50	0.90	110.40
11100	0.90	107.40	0.14	-132.80	0.14	-132.80	0.90	107.40
11150	0.90	104.40	0.11	-127.10	0.11	-127.10	0.90	104.40
11200	0.91	101.80	0.09	-111.50	0.09	-111.50	0.91	101.80
11250	0.91	99.30	0.08	-95.90	0.08	-95.90	0.91	99.30
11300	0.91	96.60	0.09	-76.00	0.09	-76.00	0.91	96.60
11350	0.91	93.90	0.10	-56.10	0.10	-56.10	0.91	93.90
11400	0.90	90.80	0.12	-48.00	0.12	-48.00	0.90	90.80
11450	0.89	87.80	0.15	-39.90	0.15	-39.90	0.89	87.80
11500	0.89	85.30	0.18	-37.00	0.18	-37.00	0.89	85.30
11550	0.89	82.80	0.21	-34.00	0.21	-34.00	0.89	82.80
11600	0.88	80.30	0.24	-33.90	0.24	-33.90	0.88	80.30
11650	0.87	77.70	0.27	-33.70	0.27	-33.70	0.87	77.70
11700	0.86	75.20	0.30	-34.40	0.30	-34.40	0.86	75.20
11750	0.86	72.70	0.34	-35.00	0.34	-35.00	0.86	72.70
11800	0.85	71.10	0.36	-35.80	0.36	-35.80	0.85	71.10
11850	0.84	69.40	0.39	-36.50	0.39	-36.50	0.84	69.40
11900	0.82	67.50	0.42	-38.40	0.42	-38.40	0.82	67.50
11950	0.80	65.50	0.45	-40.20	0.45	-40.20	0.80	65.50
12000	0.78	63.70	0.48	-41.20	0.48	-41.20	0.78	63.70
12050	0.77	61.90	0.51	-42.30	0.51	-42.30	0.77	61.90
12100	0.75	59.60	0.54	-44.50	0.54	-44.50	0.75	59.60
12150	0.74	57.40	0.57	-46.70	0.57	-46.70	0.74	57.40
12200	0.71	55.30	0.59	-48.30	0.59	-48.30	0.71	55.30
12250	0.69	53.20	0.62	-50.00	0.62	-50.00	0.69	53.20
12300	0.67	52.00	0.64	-51.60	0.64	-51.60	0.67	52.00
12350	0.65	50.80	0.66	-53.30	0.66	-53.30	0.65	50.80
12400	0.63	47.90	0.69	-55.60	0.69	-55.60	0.63	47.90
12450	0.61	45.00	0.71	-57.90	0.71	-57.90	0.61	45.00
12500	0.59	43.80	0.73	-59.50	0.73	-59.50	0.59	43.80
12550	0.56	42.60	0.75	-61.20	0.75	-61.20	0.56	42.60
12600	0.55	40.90	0.76	-63.10	0.76	-63.10	0.55	40.90
12650	0.53	39.20	0.77	-65.00	0.77	-65.00	0.53	39.20
12700	0.51	37.60	0.79	-66.70	0.79	-66.70	0.51	37.60
12750	0.50	36.10	0.81	-68.40	0.81	-68.40	0.50	36.10
12800	0.48	34.90	0.81	-70.10	0.81	-70.10	0.48	34.90
12850	0.46	33.70	0.82	-71.90	0.82	-71.90	0.46	33.70
12900	0.45	32.60	0.83	-73.50	0.83	-73.50	0.45	32.60
12950	0.44	31.60	0.85	-75.10	0.85	-75.10	0.44	31.60
13000	0.42	30.50	0.85	-76.50	0.85	-76.50	0.42	30.50
13050	0.41	29.40	0.86	-77.90	0.86	-77.90	0.41	29.40
13100	0.40	28.20	0.86	-79.30	0.86	-79.30	0.40	28.20
13150	0.38	27.00	0.87	-80.70	0.87	-80.70	0.38	27.00
13200	0.38	26.60	0.88	-81.80	0.88	-81.80	0.38	26.60
13250	0.38	26.20	0.88	-82.90	0.88	-82.90	0.38	26.20
13300	0.36	26.50	0.88	-84.50	0.88	-84.50	0.36	26.50
13350	0.34	26.90	0.88	-86.20	0.88	-86.20	0.34	26.90
13400	0.34	25.00	0.89	-87.40	0.89	-87.40	0.34	25.00
13450	0.34	23.10	0.89	-88.60	0.89	-88.60	0.34	23.10
13500	0.33	21.40	0.90	-89.70	0.90	-89.70	0.33	21.40
13550	0.32	19.80	0.90	-90.90	0.90	-90.90	0.32	19.80
13600	0.32	18.20	0.90	-92.20	0.90	-92.20	0.32	18.20
13650	0.31	16.70	0.90	-93.40	0.90	-93.40	0.31	16.70
13700	0.31	14.30	0.90	-94.30	0.90	-94.30	0.31	14.30
13750	0.31	12.00	0.91	-95.30	0.91	-95.30	0.31	12.00
13800	0.29	8.90	0.91	-96.30	0.91	-96.30	0.29	8.90
13850	0.28	5.70	0.91	-97.30	0.91	-97.30	0.28	5.70
13900	0.28	2.80	0.91	-98.10	0.91	-98.10	0.28	2.80
13950	0.29	-0.10	0.92	-99.00	0.92	-99.00	0.29	-0.10
14000	0.28	-3.60	0.92	-99.90	0.92	-99.90	0.28	-3.60
14050	0.28	-7.00	0.92	-100.80	0.92	-100.80	0.28	-7.00
14100	0.28	-9.50	0.92	-101.70	0.92	-101.70	0.28	-9.50
14150	0.27	-12.00	0.92	-102.50	0.92	-102.50	0.27	-12.00
14200	0.27	-14.90	0.92	-103.40	0.92	-103.40	0.27	-14.90
14250	0.28	-17.70	0.92	-104.40	0.92	-104.40	0.28	-17.70
14300	0.27	-19.50	0.93	-105.10	0.93	-105.10	0.27	-19.50
14350	0.26	-21.30	0.93	-105.80	0.93	-105.80	0.26	-21.30
14400	0.26	-23.40	0.93	-106.80	0.93	-106.80	0.26	-23.40
14450	0.26	-25.60	0.93	-107.80	0.93	-107.80	0.26	-25.60
14500	0.25	-26.70	0.93	-108.40	0.93	-108.40	0.25	-26.70
14550	0.24	-27.90	0.93	-108.90	0.93	-108.90	0.24	-27.90
14600	0.24	-28.70	0.94	-109.80	0.94	-109.80	0.24	-28.70
14650	0.23	-29.40	0.94	-110.70	0.94	-110.70	0.23	-29.40
14700	0.22	-31.50	0.94	-111.50	0.94	-111.50	0.22	-31.50
14750	0.21	-33.60	0.94	-112.30	0.94	-112.30	0.21	-33.60
14800	0.20	-33.30	0.94	-113.20	0.94	-113.20	0.20	-33.30
14850	0.20	-33.00	0.94	-114.10	0.94	-114.10	0.20	-33.00
14900	0.18	-34.10	0.95	-114.90	0.95	-114.90	0.18	-34.10
14950	0.17	-35.30	0.95	-115.70	0.95	-115.70	0.17	-35.30
15000	0.16	-36.80	0.95	-116.60	0.95	-116.60	0.16	-36.80
15050	0.16	-38.40	0.95	-117.60	0.95	-117.60	0.16	-38.40
15100	0.15	-39.80	0.95	-118.30	0.95	-118.30	0.15	-39.80
15150	0.14	-41.30	0.95	-119.00	0.95	-119.00	0.14	-41.30
15200	0.14	-40.60	0.96	-119.80	0.96	-119.80	0.14	-40.60
15250	0.13	-40.00	0.96	-120.60	0.96	-120.60	0.13	-40.00
15300	0.13	-44.10	0.96	-121.60	0.96	-121.60	0.13	-44.10
15350	0.12	-48.30	0.96	-122.70	0.96	-122.70	0.12	-48.30
15400	0.11	-47.10	0.96	-123.50	0.96	-123.50	0.11	-47.10
15450	0.11	-45.90	0.95	-124.30	0.95	-124.30	0.11	-45.90
15500	0.11	-47.80	0.95	-125.20	0.95	-125.20	0.11	-47.80
15550	0.11	-49.70	0.96	-126.10	0.96	-126.10	0.11	-49.70
15600	0.10	-52.70	0.96	-127.00	0.96	-127.00	0.10	-52.70
15650	0.09	-55.60	0.96	-127.90	0.96	-127.90	0.09	-55.60
15700	0.08	-52.10	0.95	-129.00	0.95	-129.00	0.08	-52.10
15750	0.08	-48.70	0.95	-130.00	0.95	-130.00	0.08	-48.70
15800	0.06	-63.00	0.95	-130.90	0.95	-130.90	0.06	-63.00
15850	0.05	-77.40	0.95	-131.80	0.95	-131.80	0.05	-77.40
15900	0.03	-73.40	0.95	-133.00	0.95	-133.00	0.03	-73.40
15950	0.02	-69.40	0.94	-134.20	0.94	-134.20	0.02	-69.40
16000	0.03	47.80	0.94	-135.20	0.94	-135.20	0.03	47.80
16050	0.04	164.90	0.94	-136.30	0.94	-136.30	0.04	164.90
16100	0.07	153.30	0.93	-137.70	0.93	-137.70	0.07	153.30
16150	0.10	141.60	0.93	-139.10	0.93	-139.10	0.10	141.60
16200	0.13	140.10	0.92	-140.50	0.92	-140.50	0.13	140.10
16250	0.15	138.60	0.91	-141.90	0.91	-141.90	0.15	138.60
16300	0.19	137.30	0.90	-143.30	0.90	-143.30	0.19	137.30
16350	0.22	136.00	0.88	-144.60	0.88	-144.60	0.22	136.00
16400	0.25	134.50	0.87	-145.80	0.87	-145.80	0.25	134.50
16450	0.27	133.10	0.86	-146.90	0.86	-146.90	0.27	133.10
16500	0.30	131.70	0.84	-148.10	0.84	-148.10	0.30	131.70
16550	0.32	130.30	0.83	-149.40	0.83	-149.40	0.32	130.30
16600	0.35	127.40	0.81	-150.70	0.81	-150.70	0.35	127.40
16650	0.38	124.40	0.81	-152.10	0.81	-152.10	0.38	124.40
16700	0.40	122.80	0.79	-153.50	0.79	-153.50	0.40	122.80
16750	0.43	121.10	0.77	-154.80	0.77	-154.80	0.43	121.10
16800	0.45	117.50	0.75	-156.30	0.75	-156.30	0.45	117.50
16850	0.48	113.90	0.73	-157.90	0.73	-157.90	0.48	113.90
16900	0.50	109.10	0.71	-159.50	0.71	-159.50	0.50	109.10
16950	0.52	104.30	0.68	-161.00	0.68	-161.00	0.52	104.30
17000	0.55	100.50	0.65	-162.30	0.65	-162.30	0.55	100.50
17050	0.57	96.70	0.62	-163.50	0.62	-163.50	0.57	96.70
17100	0.59	92.00	0.59	-164.70	0.59	-164.70	0.59	92.00
17150	0.62	87.40	0.55	-165.90	0.55	-165.90	0.62	87.40
17200	0.64	82.90	0.51	-165.80	0.51	-165.80	0.64	82.90
17250	0.66	78.40	0.47	-165.60	0.47	-165.60	0.66	78.40
17300	0.68	74.70	0.43	-164.40	0.43	-164.40	0.68	74.70
17350	0.71	71.00	0.39	-163.20	0.39	-163.20	0.71	71.00
17400	0.72	66.30	0.35	-157.70	0.35	-157.70	0.72	66.30
17450	0.74	61.70	0.31	-152.30	0.31	-152.30	0.74	61.70
17500	0.74	57.70	0.29	-141.90	0.29	-141.90	0.74	57.70
17550	0.74	53.70	0.28	-131.40	0.28	-131.40	0.74	53.70
17600	0.74	49.50	0.31	-121.60	0.31	-121.60	0.74	49.50
17650	0.74	45.40	0.33	-111.80	0.33	-111.80	0.74	45.40
17700	0.71	41.20	0.39	-107.80	0.39	-107.80	0.71	41.20
17750	0.69	37.00	0.45	-103.80	0.45	-103.80	0.69	37.00
17800	0.65	33.40	0.51	-104.40	0.51	-104.40	0.65	33.40
17850	0.62	29.90	0.56	-105.00	0.56	-105.00	0.62	29.90
17900	0.58	27.00	0.61	-106.90	0.61	-106.90	0.58	27.00
17950	0.55	24.10	0.66	-108.70	0.66	-108.70	0.55	24.10
18000	0.51	21.60	0.69	-111.00	0.69	-111.00	0.51	21.60
18050	0.47	19.00	0.73	-113.30	0.73	-113.30	0.47	19.00
18100	0.44	16.40	0.76	-115.50	0.76	-115.50	0.44	16.40
18150	0.42	13.80	0.78	-117.60	0.78	-117.60	0.42	13.80
18200	0.39	11.00	0.80	-119.70	0.80	-119.70	0.39	11.00
18250	0.37	8.20	0.82	-121.80	0.82	-121.80	0.37	8.20
18300	0.36	5.30	0.84	-123.50	0.84	-123.50	0.36	5.30
18350	0.35	2.40	0.85	-125.10	0.85	-125.10	0.35	2.40
18400	0.34	0.10	0.86	-126.70	0.86	-126.70	0.34	0.10
18450	0.32	-2.20	0.86	-128.20	0.86	-128.20	0.32	-2.20
18500	0.33	-3.10	0.88	-129.40	0.88	-129.40	0.33	-3.10
18550	0.33	-3.90	0.89	-130.60	0.89	-130.60	0.33	-3.90
18600	0.31	-6.50	0.89	-132.00	0.89	-132.00	0.31	-6.50
18650	0.30	-9.10	0.90	-133.50	0.90	-133.50	0.30	-9.10
