#	mhz	s	ma	r	50

50	0.70	140.50	0.63	46.60	0.63	46.60	0.70	140.50
100	0.52	126.20	0.77	33.40	0.77	33.40	0.52	126.20
150	0.34	111.90	0.92	20.30	0.92	20.30	0.34	111.90
200	0.27	107.30	0.95	15.80	0.95	15.80	0.27	107.30
250	0.20	102.70	0.97	11.40	0.97	11.40	0.20	102.70
300	0.17	100.70	0.98	8.90	0.98	8.90	0.17	100.70
350	0.13	98.60	0.99	6.40	0.99	6.40	0.13	98.60
400	0.10	95.90	0.99	4.80	0.99	4.80	0.10	95.90
450	0.08	93.10	0.99	3.20	0.99	3.20	0.08	93.10
500	0.06	91.70	1.00	1.70	1.00	1.70	0.06	91.70
550	0.05	90.30	1.00	0.20	1.00	0.20	0.05	90.30
600	0.04	93.00	1.00	-0.90	1.00	-0.90	0.04	93.00
650	0.03	95.60	1.00	-1.90	1.00	-1.90	0.03	95.60
700	0.02	104.40	1.00	-2.90	1.00	-2.90	0.02	104.40
750	0.01	113.20	1.00	-3.80	1.00	-3.80	0.01	113.20
800	0.01	-3.00	1.00	-4.70	1.00	-4.70	0.01	-3.00
850	0.01	-119.20	1.00	-5.50	1.00	-5.50	0.01	-119.20
900	0.02	-113.40	1.00	-6.40	1.00	-6.40	0.02	-113.40
950	0.03	-107.60	1.00	-7.20	1.00	-7.20	0.03	-107.60
1000	0.03	-107.50	1.00	-8.00	1.00	-8.00	0.03	-107.50
1050	0.04	-107.30	1.00	-8.70	1.00	-8.70	0.04	-107.30
1100	0.05	-107.00	1.00	-9.50	1.00	-9.50	0.05	-107.00
1150	0.05	-106.60	1.00	-10.30	1.00	-10.30	0.05	-106.60
1200	0.06	-107.30	1.00	-11.10	1.00	-11.10	0.06	-107.30
1250	0.06	-107.90	1.00	-11.80	1.00	-11.80	0.06	-107.90
1300	0.07	-109.70	1.00	-12.50	1.00	-12.50	0.07	-109.70
1350	0.07	-111.40	1.00	-13.20	1.00	-13.20	0.07	-111.40
1400	0.08	-111.50	1.00	-14.00	1.00	-14.00	0.08	-111.50
1450	0.09	-111.60	1.00	-14.70	1.00	-14.70	0.09	-111.60
1500	0.09	-112.40	0.99	-15.50	0.99	-15.50	0.09	-112.40
1550	0.10	-113.20	0.99	-16.20	0.99	-16.20	0.10	-113.20
1600	0.10	-113.30	0.99	-17.00	0.99	-17.00	0.10	-113.30
1650	0.11	-113.50	0.99	-17.70	0.99	-17.70	0.11	-113.50
1700	0.11	-114.90	0.99	-18.50	0.99	-18.50	0.11	-114.90
1750	0.12	-116.30	0.99	-19.20	0.99	-19.20	0.12	-116.30
1800	0.13	-116.50	0.99	-20.00	0.99	-20.00	0.13	-116.50
1850	0.13	-116.60	0.99	-20.70	0.99	-20.70	0.13	-116.60
1900	0.14	-117.40	0.99	-21.40	0.99	-21.40	0.14	-117.40
1950	0.14	-118.30	0.99	-22.10	0.99	-22.10	0.14	-118.30
2000	0.15	-118.50	0.99	-22.90	0.99	-22.90	0.15	-118.50
2050	0.16	-118.80	0.99	-23.80	0.99	-23.80	0.16	-118.80
2100	0.16	-119.40	0.99	-24.60	0.99	-24.60	0.16	-119.40
2150	0.17	-120.00	0.99	-25.30	0.99	-25.30	0.17	-120.00
2200	0.17	-119.80	0.98	-25.90	0.98	-25.90	0.17	-119.80
2250	0.17	-119.50	0.98	-26.50	0.98	-26.50	0.17	-119.50
2300	0.18	-120.20	0.98	-27.30	0.98	-27.30	0.18	-120.20
2350	0.19	-121.00	0.98	-28.10	0.98	-28.10	0.19	-121.00
2400	0.20	-122.30	0.98	-29.00	0.98	-29.00	0.20	-122.30
2450	0.21	-123.60	0.97	-29.90	0.97	-29.90	0.21	-123.60
2500	0.21	-124.00	0.97	-30.60	0.97	-30.60	0.21	-124.00
2550	0.22	-124.40	0.97	-31.40	0.97	-31.40	0.22	-124.40
2600	0.23	-125.30	0.97	-32.20	0.97	-32.20	0.23	-125.30
2650	0.24	-126.20	0.97	-33.00	0.97	-33.00	0.24	-126.20
2700	0.24	-126.80	0.96	-33.70	0.96	-33.70	0.24	-126.80
2750	0.25	-127.30	0.96	-34.50	0.96	-34.50	0.25	-127.30
2800	0.26	-128.10	0.96	-35.30	0.96	-35.30	0.26	-128.10
2850	0.27	-128.90	0.96	-36.10	0.96	-36.10	0.27	-128.90
2900	0.28	-129.80	0.96	-37.10	0.96	-37.10	0.28	-129.80
2950	0.28	-130.70	0.95	-38.20	0.95	-38.20	0.28	-130.70
3000	0.29	-131.20	0.95	-39.00	0.95	-39.00	0.29	-131.20
3050	0.30	-131.80	0.94	-39.80	0.94	-39.80	0.30	-131.80
3100	0.31	-133.30	0.94	-40.90	0.94	-40.90	0.31	-133.30
3150	0.32	-134.80	0.93	-42.00	0.93	-42.00	0.32	-134.80
3200	0.33	-135.50	0.93	-43.10	0.93	-43.10	0.33	-135.50
3250	0.34	-136.20	0.92	-44.10	0.92	-44.10	0.34	-136.20
3300	0.36	-138.00	0.91	-45.60	0.91	-45.60	0.36	-138.00
3350	0.38	-139.90	0.90	-47.00	0.90	-47.00	0.38	-139.90
3400	0.40	-142.90	0.88	-48.90	0.88	-48.90	0.40	-142.90
3450	0.43	-146.00	0.86	-50.80	0.86	-50.80	0.43	-146.00
3500	0.46	-152.70	0.80	-53.20	0.80	-53.20	0.46	-152.70
3550	0.49	-159.50	0.74	-55.60	0.74	-55.60	0.49	-159.50
3600	0.48	1.40	0.64	-44.20	0.64	-44.20	0.48	1.40
3650	0.46	162.40	0.55	-32.90	0.55	-32.90	0.46	162.40
3700	0.30	159.60	0.71	-30.90	0.71	-30.90	0.30	159.60
3750	0.13	156.90	0.87	-28.90	0.87	-28.90	0.13	156.90
3800	0.14	7.70	0.90	-32.90	0.90	-32.90	0.14	7.70
3850	0.14	-141.60	0.94	-36.90	0.94	-36.90	0.14	-141.60
3900	0.17	-137.50	0.95	-39.50	0.95	-39.50	0.17	-137.50
3950	0.19	-133.40	0.95	-42.00	0.95	-42.00	0.19	-133.40
4000	0.22	-132.40	0.95	-43.50	0.95	-43.50	0.22	-132.40
4050	0.23	-131.40	0.95	-45.00	0.95	-45.00	0.23	-131.40
4100	0.25	-131.50	0.95	-46.30	0.95	-46.30	0.25	-131.50
4150	0.26	-131.60	0.95	-47.50	0.95	-47.50	0.26	-131.60
4200	0.27	-132.20	0.95	-48.70	0.95	-48.70	0.27	-132.20
4250	0.29	-132.80	0.95	-49.90	0.95	-49.90	0.29	-132.80
4300	0.29	-133.20	0.94	-50.70	0.94	-50.70	0.29	-133.20
4350	0.30	-133.60	0.94	-51.50	0.94	-51.50	0.30	-133.60
4400	0.31	-134.50	0.94	-52.60	0.94	-52.60	0.31	-134.50
4450	0.32	-135.40	0.93	-53.70	0.93	-53.70	0.32	-135.40
4500	0.33	-135.80	0.93	-54.60	0.93	-54.60	0.33	-135.80
4550	0.34	-136.30	0.93	-55.60	0.93	-55.60	0.34	-136.30
4600	0.35	-137.90	0.93	-56.70	0.93	-56.70	0.35	-137.90
4650	0.36	-139.40	0.92	-57.80	0.92	-57.80	0.36	-139.40
4700	0.37	-140.30	0.92	-58.60	0.92	-58.60	0.37	-140.30
4750	0.37	-141.20	0.91	-59.30	0.91	-59.30	0.37	-141.20
4800	0.38	-142.30	0.91	-60.10	0.91	-60.10	0.38	-142.30
4850	0.38	-143.50	0.90	-60.90	0.90	-60.90	0.38	-143.50
4900	0.40	-144.90	0.90	-61.90	0.90	-61.90	0.40	-144.90
4950	0.41	-146.30	0.90	-62.90	0.90	-62.90	0.41	-146.30
5000	0.41	-147.60	0.89	-63.70	0.89	-63.70	0.41	-147.60
5050	0.42	-148.90	0.88	-64.50	0.88	-64.50	0.42	-148.90
5100	0.42	-149.80	0.88	-65.10	0.88	-65.10	0.42	-149.80
5150	0.43	-150.80	0.88	-65.80	0.88	-65.80	0.43	-150.80
5200	0.44	-152.10	0.88	-66.50	0.88	-66.50	0.44	-152.10
5250	0.45	-153.40	0.87	-67.30	0.87	-67.30	0.45	-153.40
5300	0.46	-155.20	0.87	-68.30	0.87	-68.30	0.46	-155.20
5350	0.47	-156.90	0.86	-69.30	0.86	-69.30	0.47	-156.90
5400	0.48	-157.90	0.86	-70.10	0.86	-70.10	0.48	-157.90
5450	0.48	-159.00	0.85	-70.90	0.85	-70.90	0.48	-159.00
5500	0.49	-160.50	0.85	-71.70	0.85	-71.70	0.49	-160.50
5550	0.50	-162.00	0.84	-72.60	0.84	-72.60	0.50	-162.00
5600	0.51	-163.10	0.84	-73.40	0.84	-73.40	0.51	-163.10
5650	0.51	-164.20	0.83	-74.30	0.83	-74.30	0.51	-164.20
5700	0.53	-165.60	0.83	-75.20	0.83	-75.20	0.53	-165.60
5750	0.54	-166.90	0.82	-76.10	0.82	-76.10	0.54	-166.90
5800	0.54	-168.20	0.81	-77.00	0.81	-77.00	0.54	-168.20
5850	0.55	-169.50	0.80	-77.90	0.80	-77.90	0.55	-169.50
5900	0.56	-170.90	0.80	-78.90	0.80	-78.90	0.56	-170.90
5950	0.57	-172.20	0.79	-79.90	0.79	-79.90	0.57	-172.20
6000	0.59	-173.50	0.77	-81.10	0.77	-81.10	0.59	-173.50
6050	0.61	-174.70	0.75	-82.30	0.75	-82.30	0.61	-174.70
6100	0.63	-176.50	0.74	-83.30	0.74	-83.30	0.63	-176.50
6150	0.64	-178.30	0.72	-84.30	0.72	-84.30	0.64	-178.30
6200	0.65	-1.00	0.70	-85.50	0.70	-85.50	0.65	-1.00
6250	0.66	176.40	0.67	-86.80	0.67	-86.80	0.66	176.40
6300	0.68	173.10	0.63	-87.50	0.63	-87.50	0.68	173.10
6350	0.69	169.80	0.60	-88.20	0.60	-88.20	0.69	169.80
6400	0.69	164.30	0.54	-85.90	0.54	-85.90	0.69	164.30
6450	0.68	158.80	0.48	-83.60	0.48	-83.60	0.68	158.80
6500	0.62	151.00	0.47	-71.30	0.47	-71.30	0.62	151.00
6550	0.56	143.20	0.47	-59.00	0.47	-59.00	0.56	143.20
6600	0.44	144.30	0.58	-56.90	0.58	-56.90	0.44	144.30
6650	0.33	145.50	0.70	-54.90	0.70	-54.90	0.33	145.50
6700	0.32	159.00	0.75	-59.40	0.75	-59.40	0.32	159.00
6750	0.31	172.60	0.81	-63.90	0.81	-63.90	0.31	172.60
6800	0.34	-3.30	0.83	-67.60	0.83	-67.60	0.34	-3.30
6850	0.38	-179.10	0.84	-71.30	0.84	-71.30	0.38	-179.10
6900	0.40	-178.40	0.84	-73.70	0.84	-73.70	0.40	-178.40
6950	0.43	-177.70	0.84	-76.10	0.84	-76.10	0.43	-177.70
7000	0.45	-178.90	0.84	-78.10	0.84	-78.10	0.45	-178.90
7050	0.47	-180.00	0.84	-80.10	0.84	-80.10	0.47	-180.00
7100	0.48	-0.90	0.83	-81.50	0.83	-81.50	0.48	-0.90
7150	0.49	178.20	0.83	-82.90	0.83	-82.90	0.49	178.20
7200	0.51	177.20	0.83	-84.50	0.83	-84.50	0.51	177.20
7250	0.53	176.10	0.82	-86.00	0.82	-86.00	0.53	176.10
7300	0.54	174.80	0.82	-87.30	0.82	-87.30	0.54	174.80
7350	0.54	173.50	0.81	-88.60	0.81	-88.60	0.54	173.50
7400	0.55	172.70	0.81	-89.80	0.81	-89.80	0.55	172.70
7450	0.56	171.90	0.80	-90.90	0.80	-90.90	0.56	171.90
7500	0.57	170.40	0.80	-92.30	0.80	-92.30	0.57	170.40
7550	0.58	168.90	0.79	-93.70	0.79	-93.70	0.58	168.90
7600	0.58	168.10	0.78	-94.70	0.78	-94.70	0.58	168.10
7650	0.59	167.40	0.77	-95.70	0.77	-95.70	0.59	167.40
7700	0.59	166.20	0.77	-97.00	0.77	-97.00	0.59	166.20
7750	0.60	165.00	0.77	-98.30	0.77	-98.30	0.60	165.00
7800	0.61	163.20	0.76	-99.70	0.76	-99.70	0.61	163.20
7850	0.61	161.40	0.75	-101.20	0.75	-101.20	0.61	161.40
7900	0.62	160.40	0.74	-102.40	0.74	-102.40	0.62	160.40
7950	0.63	159.40	0.73	-103.60	0.73	-103.60	0.63	159.40
8000	0.64	157.80	0.72	-104.90	0.72	-104.90	0.64	157.80
8050	0.65	156.20	0.71	-106.20	0.71	-106.20	0.65	156.20
8100	0.66	154.50	0.70	-107.60	0.70	-107.60	0.66	154.50
8150	0.67	152.80	0.69	-109.00	0.69	-109.00	0.67	152.80
8200	0.68	151.00	0.68	-110.30	0.68	-110.30	0.68	151.00
8250	0.69	149.30	0.66	-111.60	0.66	-111.60	0.69	149.30
8300	0.70	147.50	0.65	-113.20	0.65	-113.20	0.70	147.50
8350	0.71	145.70	0.64	-114.80	0.64	-114.80	0.71	145.70
8400	0.72	144.00	0.62	-116.20	0.62	-116.20	0.72	144.00
8450	0.73	142.30	0.60	-117.50	0.60	-117.50	0.73	142.30
8500	0.73	140.40	0.58	-119.20	0.58	-119.20	0.73	140.40
8550	0.74	138.50	0.56	-120.80	0.56	-120.80	0.74	138.50
8600	0.75	136.50	0.54	-122.10	0.54	-122.10	0.75	136.50
8650	0.76	134.50	0.52	-123.30	0.52	-123.30	0.76	134.50
8700	0.77	132.70	0.49	-124.60	0.49	-124.60	0.77	132.70
8750	0.78	130.80	0.47	-125.80	0.47	-125.80	0.78	130.80
8800	0.79	128.20	0.44	-126.40	0.44	-126.40	0.79	128.20
8850	0.80	125.50	0.41	-127.10	0.41	-127.10	0.80	125.50
8900	0.80	123.30	0.38	-127.20	0.38	-127.20	0.80	123.30
8950	0.81	121.10	0.34	-127.30	0.34	-127.30	0.81	121.10
9000	0.81	118.40	0.31	-125.10	0.31	-125.10	0.81	118.40
9050	0.82	115.70	0.27	-122.80	0.27	-122.80	0.82	115.70
9100	0.82	112.30	0.24	-115.00	0.24	-115.00	0.82	112.30
9150	0.82	109.00	0.22	-107.30	0.22	-107.30	0.82	109.00
9200	0.79	104.40	0.22	-93.40	0.22	-93.40	0.79	104.40
9250	0.75	99.80	0.22	-79.50	0.22	-79.50	0.75	99.80
9300	0.70	96.90	0.28	-71.50	0.28	-71.50	0.70	96.90
9350	0.65	94.10	0.34	-63.50	0.34	-63.50	0.65	94.10
9400	0.58	91.50	0.41	-65.50	0.41	-65.50	0.58	91.50
9450	0.50	89.00	0.49	-67.40	0.49	-67.40	0.50	89.00
9500	0.43	94.10	0.55	-73.20	0.55	-73.20	0.43	94.10
9550	0.35	99.20	0.61	-78.90	0.61	-78.90	0.35	99.20
9600	0.35	111.60	0.64	-85.70	0.64	-85.70	0.35	111.60
9650	0.34	124.10	0.67	-92.40	0.67	-92.40	0.34	124.10
9700	0.39	130.60	0.67	-98.10	0.67	-98.10	0.39	130.60
9750	0.43	137.10	0.66	-103.90	0.66	-103.90	0.43	137.10
9800	0.48	138.80	0.64	-108.30	0.64	-108.30	0.48	138.80
9850	0.53	140.40	0.62	-112.70	0.62	-112.70	0.53	140.40
9900	0.57	139.60	0.60	-116.10	0.60	-116.10	0.57	139.60
9950	0.62	138.80	0.58	-119.50	0.58	-119.50	0.62	138.80
10000	0.65	137.00	0.55	-122.40	0.55	-122.40	0.65	137.00
10050	0.67	135.30	0.52	-125.40	0.52	-125.40	0.67	135.30
10100	0.70	134.60	0.49	-127.10	0.49	-127.10	0.70	134.60
10150	0.74	133.80	0.47	-128.80	0.47	-128.80	0.74	133.80
10200	0.75	131.90	0.44	-130.80	0.44	-130.80	0.75	131.90
10250	0.77	130.00	0.42	-132.80	0.42	-132.80	0.77	130.00
10300	0.79	128.10	0.39	-134.20	0.39	-134.20	0.79	128.10
10350	0.81	126.10	0.37	-135.60	0.37	-135.60	0.81	126.10
10400	0.81	124.50	0.34	-135.90	0.34	-135.90	0.81	124.50
10450	0.81	122.80	0.32	-136.30	0.32	-136.30	0.81	122.80
10500	0.82	120.80	0.30	-136.50	0.30	-136.50	0.82	120.80
10550	0.83	118.90	0.28	-136.70	0.28	-136.70	0.83	118.90
10600	0.83	117.10	0.26	-135.40	0.26	-135.40	0.83	117.10
10650	0.82	115.20	0.24	-134.00	0.24	-134.00	0.82	115.20
10700	0.83	114.20	0.23	-134.30	0.23	-134.30	0.83	114.20
10750	0.84	113.20	0.22	-134.50	0.22	-134.50	0.84	113.20
10800	0.85	112.30	0.20	-135.20	0.20	-135.20	0.85	112.30
10850	0.86	111.40	0.18	-135.90	0.18	-135.90	0.86	111.40
10900	0.86	109.10	0.16	-134.20	0.16	-134.20	0.86	109.10
10950	0.87	106.80	0.13	-132.50	0.13	-132.50	0.87	106.80
11000	0.88	104.90	0.11	-125.20	0.11	-125.20	0.88	104.90
11050	0.90	103.10	0.09	-117.90	0.09	-117.90	0.90	103.10
11100	0.90	100.40	0.09	-100.90	0.09	-100.90	0.90	100.40
11150	0.90	97.80	0.08	-83.80	0.08	-83.80	0.90	97.80
11200	0.90	95.40	0.09	-69.00	0.09	-69.00	0.90	95.40
11250	0.90	92.90	0.10	-54.30	0.10	-54.30	0.90	92.90
11300	0.90	90.70	0.13	-47.80	0.13	-47.80	0.90	90.70
11350	0.90	88.50	0.15	-41.20	0.15	-41.20	0.90	88.50
11400	0.89	85.80	0.17	-39.70	0.17	-39.70	0.89	85.80
11450	0.87	83.20	0.20	-38.10	0.20	-38.10	0.87	83.20
11500	0.87	81.00	0.23	-37.70	0.23	-37.70	0.87	81.00
11550	0.86	78.70	0.26	-37.30	0.26	-37.30	0.86	78.70
11600	0.85	76.50	0.29	-38.50	0.29	-38.50	0.85	76.50
11650	0.83	74.20	0.32	-39.70	0.32	-39.70	0.83	74.20
11700	0.82	71.90	0.35	-41.50	0.35	-41.50	0.82	71.90
11750	0.80	69.50	0.38	-43.20	0.38	-43.20	0.80	69.50
11800	0.78	68.00	0.41	-45.10	0.41	-45.10	0.78	68.00
11850	0.76	66.40	0.44	-47.00	0.44	-47.00	0.76	66.40
11900	0.73	64.70	0.48	-50.20	0.48	-50.20	0.73	64.70
11950	0.69	63.10	0.51	-53.50	0.51	-53.50	0.69	63.10
12000	0.66	61.80	0.54	-56.40	0.54	-56.40	0.66	61.80
12050	0.62	60.50	0.57	-59.40	0.57	-59.40	0.62	60.50
12100	0.58	59.80	0.60	-63.80	0.60	-63.80	0.58	59.80
12150	0.53	59.20	0.63	-68.30	0.63	-68.30	0.53	59.20
12200	0.49	61.20	0.64	-72.90	0.64	-72.90	0.49	61.20
12250	0.44	63.20	0.66	-77.50	0.66	-77.50	0.44	63.20
12300	0.41	69.90	0.66	-82.80	0.66	-82.80	0.41	69.90
12350	0.38	76.60	0.66	-88.10	0.66	-88.10	0.38	76.60
12400	0.40	83.30	0.65	-93.80	0.65	-93.80	0.40	83.30
12450	0.41	90.00	0.63	-99.40	0.63	-99.40	0.41	90.00
12500	0.46	93.50	0.59	-104.50	0.59	-104.50	0.46	93.50
12550	0.51	97.10	0.55	-109.70	0.55	-109.70	0.51	97.10
12600	0.56	96.50	0.50	-113.30	0.50	-113.30	0.56	96.50
12650	0.62	96.00	0.45	-116.90	0.45	-116.90	0.62	96.00
12700	0.66	93.10	0.39	-117.10	0.39	-117.10	0.66	93.10
12750	0.71	90.30	0.34	-117.30	0.34	-117.30	0.71	90.30
12800	0.73	86.40	0.29	-112.80	0.29	-112.80	0.73	86.40
12850	0.76	82.60	0.25	-108.30	0.25	-108.30	0.76	82.60
12900	0.78	79.40	0.23	-97.90	0.23	-97.90	0.78	79.40
12950	0.80	76.20	0.22	-87.60	0.22	-87.60	0.80	76.20
13000	0.80	72.90	0.24	-79.50	0.24	-79.50	0.80	72.90
13050	0.79	69.60	0.25	-71.50	0.25	-71.50	0.79	69.60
13100	0.79	66.70	0.28	-67.60	0.28	-67.60	0.79	66.70
13150	0.79	63.90	0.31	-63.80	0.31	-63.80	0.79	63.90
13200	0.78	61.20	0.34	-62.60	0.34	-62.60	0.78	61.20
13250	0.78	58.50	0.36	-61.40	0.36	-61.40	0.78	58.50
13300	0.75	57.40	0.39	-62.30	0.39	-62.30	0.75	57.40
13350	0.72	56.30	0.41	-63.30	0.41	-63.30	0.72	56.30
13400	0.73	52.60	0.44	-64.10	0.44	-64.10	0.73	52.60
13450	0.74	48.80	0.46	-64.90	0.46	-64.90	0.74	48.80
13500	0.72	46.40	0.48	-66.10	0.48	-66.10	0.72	46.40
13550	0.70	44.00	0.49	-67.30	0.49	-67.30	0.70	44.00
13600	0.69	41.90	0.51	-68.60	0.51	-68.60	0.69	41.90
13650	0.68	39.80	0.52	-69.80	0.52	-69.80	0.68	39.80
13700	0.67	38.00	0.54	-70.40	0.54	-70.40	0.67	38.00
13750	0.65	36.10	0.55	-71.00	0.55	-71.00	0.65	36.10
13800	0.64	34.20	0.57	-72.10	0.57	-72.10	0.64	34.20
13850	0.63	32.30	0.58	-73.20	0.58	-73.20	0.63	32.30
13900	0.64	29.80	0.60	-74.50	0.60	-74.50	0.64	29.80
13950	0.64	27.40	0.62	-75.70	0.62	-75.70	0.64	27.40
14000	0.63	24.80	0.63	-76.90	0.63	-76.90	0.63	24.80
14050	0.63	22.30	0.64	-78.20	0.64	-78.20	0.63	22.30
14100	0.63	19.80	0.65	-79.30	0.65	-79.30	0.63	19.80
14150	0.63	17.30	0.66	-80.40	0.66	-80.40	0.63	17.30
14200	0.62	14.80	0.67	-81.60	0.67	-81.60	0.62	14.80
14250	0.62	12.30	0.68	-82.80	0.68	-82.80	0.62	12.30
14300	0.61	10.10	0.69	-84.00	0.69	-84.00	0.61	10.10
14350	0.60	7.90	0.70	-85.10	0.70	-85.10	0.60	7.90
14400	0.60	5.90	0.71	-86.20	0.71	-86.20	0.60	5.90
14450	0.60	3.90	0.71	-87.30	0.71	-87.30	0.60	3.90
14500	0.58	2.40	0.72	-88.10	0.72	-88.10	0.58	2.40
14550	0.57	0.90	0.73	-89.00	0.73	-89.00	0.57	0.90
14600	0.56	-0.50	0.74	-90.10	0.74	-90.10	0.56	-0.50
14650	0.56	-1.90	0.74	-91.20	0.74	-91.20	0.56	-1.90
14700	0.54	-3.50	0.75	-92.40	0.75	-92.40	0.54	-3.50
14750	0.53	-5.20	0.76	-93.60	0.76	-93.60	0.53	-5.20
14800	0.52	-6.20	0.76	-94.90	0.76	-94.90	0.52	-6.20
14850	0.52	-7.10	0.77	-96.20	0.77	-96.20	0.52	-7.10
14900	0.50	-7.30	0.78	-97.20	0.78	-97.20	0.50	-7.30
14950	0.49	-7.40	0.79	-98.30	0.79	-98.30	0.49	-7.40
15000	0.48	-8.80	0.79	-100.00	0.79	-100.00	0.48	-8.80
15050	0.46	-10.20	0.79	-101.70	0.79	-101.70	0.46	-10.20
15100	0.45	-9.80	0.80	-102.90	0.80	-102.90	0.45	-9.80
15150	0.44	-9.50	0.80	-104.00	0.80	-104.00	0.44	-9.50
15200	0.42	-9.20	0.80	-105.70	0.80	-105.70	0.42	-9.20
15250	0.41	-8.90	0.80	-107.30	0.80	-107.30	0.41	-8.90
15300	0.40	-8.40	0.80	-109.50	0.80	-109.50	0.40	-8.40
15350	0.39	-7.90	0.79	-111.70	0.79	-111.70	0.39	-7.90
15400	0.38	-5.00	0.77	-113.50	0.77	-113.50	0.38	-5.00
15450	0.37	-2.00	0.76	-115.30	0.76	-115.30	0.37	-2.00
15500	0.38	1.80	0.73	-117.10	0.73	-117.10	0.38	1.80
15550	0.40	5.70	0.71	-118.90	0.71	-118.90	0.40	5.70
15600	0.42	7.80	0.67	-118.90	0.67	-118.90	0.42	7.80
15650	0.44	9.90	0.63	-118.80	0.63	-118.80	0.44	9.90
15700	0.48	8.70	0.61	-116.70	0.61	-116.70	0.48	8.70
15750	0.52	7.50	0.58	-114.60	0.58	-114.60	0.52	7.50
15800	0.53	5.10	0.58	-111.70	0.58	-111.70	0.53	5.10
15850	0.54	2.70	0.59	-108.80	0.59	-108.80	0.54	2.70
15900	0.55	0.10	0.60	-107.50	0.60	-107.50	0.55	0.10
15950	0.56	-2.50	0.61	-106.20	0.61	-106.20	0.56	-2.50
16000	0.54	-4.70	0.63	-105.80	0.63	-105.80	0.54	-4.70
16050	0.52	-6.80	0.65	-105.50	0.65	-105.50	0.52	-6.80
16100	0.50	-8.80	0.66	-106.30	0.66	-106.30	0.50	-8.80
16150	0.48	-10.80	0.67	-107.10	0.67	-107.10	0.48	-10.80
16200	0.44	-12.50	0.68	-107.70	0.68	-107.70	0.44	-12.50
16250	0.41	-14.10	0.68	-108.30	0.68	-108.30	0.41	-14.10
16300	0.36	-12.80	0.68	-108.70	0.68	-108.70	0.36	-12.80
16350	0.31	-11.40	0.68	-109.20	0.68	-109.20	0.31	-11.40
16400	0.30	-4.30	0.67	-108.80	0.67	-108.80	0.30	-4.30
16450	0.29	2.80	0.67	-108.40	0.67	-108.40	0.29	2.80
16500	0.30	5.40	0.67	-107.10	0.67	-107.10	0.30	5.40
16550	0.32	8.00	0.67	-105.70	0.67	-105.70	0.32	8.00
16600	0.34	6.20	0.70	-104.90	0.70	-104.90	0.34	6.20
16650	0.37	4.50	0.72	-104.00	0.72	-104.00	0.37	4.50
16700	0.37	0.10	0.75	-104.60	0.75	-104.60	0.37	0.10
16750	0.37	-4.20	0.78	-105.10	0.78	-105.10	0.37	-4.20
16800	0.36	-7.90	0.80	-106.30	0.80	-106.30	0.36	-7.90
16850	0.34	-11.50	0.82	-107.50	0.82	-107.50	0.34	-11.50
16900	0.34	-14.20	0.84	-108.90	0.84	-108.90	0.34	-14.20
16950	0.33	-16.80	0.86	-110.40	0.86	-110.40	0.33	-16.80
17000	0.31	-18.70	0.87	-111.80	0.87	-111.80	0.31	-18.70
17050	0.28	-20.60	0.88	-113.20	0.88	-113.20	0.28	-20.60
17100	0.27	-20.50	0.89	-114.60	0.89	-114.60	0.27	-20.50
17150	0.26	-20.30	0.90	-116.10	0.90	-116.10	0.26	-20.30
17200	0.25	-19.00	0.90	-117.20	0.90	-117.20	0.25	-19.00
17250	0.23	-17.70	0.91	-118.40	0.91	-118.40	0.23	-17.70
17300	0.21	-14.90	0.91	-119.70	0.91	-119.70	0.21	-14.90
17350	0.19	-12.20	0.92	-121.00	0.92	-121.00	0.19	-12.20
17400	0.19	-10.10	0.92	-122.10	0.92	-122.10	0.19	-10.10
17450	0.19	-8.10	0.92	-123.10	0.92	-123.10	0.19	-8.10
17500	0.18	-4.10	0.93	-124.50	0.93	-124.50	0.18	-4.10
17550	0.17	-0.10	0.93	-125.80	0.93	-125.80	0.17	-0.10
17600	0.17	4.20	0.93	-127.10	0.93	-127.10	0.17	4.20
17650	0.17	8.50	0.93	-128.30	0.93	-128.30	0.17	8.50
17700	0.17	10.40	0.93	-129.40	0.93	-129.40	0.17	10.40
17750	0.17	12.40	0.93	-130.50	0.93	-130.50	0.17	12.40
17800	0.16	13.20	0.93	-131.80	0.93	-131.80	0.16	13.20
17850	0.16	14.00	0.93	-133.10	0.93	-133.10	0.16	14.00
17900	0.16	13.70	0.92	-134.20	0.92	-134.20	0.16	13.70
17950	0.16	13.50	0.92	-135.30	0.92	-135.30	0.16	13.50
18000	0.15	10.60	0.91	-136.60	0.91	-136.60	0.15	10.60
18050	0.15	7.70	0.91	-137.90	0.91	-137.90	0.15	7.70
18100	0.15	2.90	0.90	-139.00	0.90	-139.00	0.15	2.90
18150	0.15	-1.90	0.89	-140.10	0.89	-140.10	0.15	-1.90
18200	0.15	-9.40	0.88	-141.30	0.88	-141.30	0.15	-9.40
18250	0.15	-16.80	0.87	-142.50	0.87	-142.50	0.15	-16.80
18300	0.15	-25.40	0.85	-143.20	0.85	-143.20	0.15	-25.40
18350	0.16	-34.00	0.84	-143.90	0.84	-143.90	0.16	-34.00
18400	0.15	-43.40	0.82	-143.70	0.82	-143.70	0.15	-43.40
18450	0.14	-52.80	0.80	-143.60	0.80	-143.60	0.14	-52.80
18500	0.13	-61.30	0.80	-143.20	0.80	-143.20	0.13	-61.30
18550	0.11	-69.80	0.79	-142.80	0.79	-142.80	0.11	-69.80
18600	0.07	-82.30	0.79	-142.80	0.79	-142.80	0.07	-82.30
