# MHZ S MA R 50

      50  0.52   54.60    0.82   -28.80   0.82   -28.80   0.52   54.60
     100  0.70   39.90    0.62   -44.30   0.62   -44.30   0.70   39.90
     150  0.88   25.20    0.43   -59.80   0.43   -59.80   0.88   25.20
     200  0.93   18.50    0.32   -66.50   0.32   -66.50   0.93   18.50
     250  0.98   11.80    0.22   -73.10   0.22   -73.10   0.98   11.80
     300  0.98    7.90    0.15   -75.70   0.15   -75.70   0.98    7.90
     350  0.99    4.00    0.08   -78.30   0.08   -78.30   0.99    4.00
     400  1.00    0.70    0.05   -5.00    0.05   -5.00    1.00    0.70
     450  1.00   -2.60    0.02   68.30    0.02   68.30    1.00   -2.60
     500  1.00   -1.70    0.05   74.60    0.05   74.60    1.00   -1.70
     550  1.00   -0.80    0.09   80.90    0.09   80.90    1.00   -0.80
     600  1.00   -2.80    0.12   79.80    0.12   79.80    1.00   -2.80
     650  1.00   -4.70    0.15   78.70    0.15   78.70    1.00   -4.70
     700  0.99   -6.00    0.18   76.90    0.18   76.90    0.99   -6.00
     750  0.99   -7.20    0.21   75.10    0.21   75.10    0.99   -7.20
     800  0.97   -9.40    0.24   73.60    0.24   73.60    0.97   -9.40
     850  0.95   -11.60   0.27   72.10    0.27   72.10    0.95   -11.60
     900  0.95   -13.40   0.30   70.20    0.30   70.20    0.95   -13.40
     950  0.96   -15.20   0.33   68.40    0.33   68.40    0.96   -15.20
    1000  0.93   -17.40   0.36   65.10    0.36   65.10    0.93   -17.40
    1050  0.91   -19.60   0.40   61.80    0.40   61.80    0.91   -19.60
    1100  0.90   -15.40   0.33   56.10    0.33   56.10    0.90   -15.40
    1150  0.89   -11.20   0.26   50.50    0.26   50.50    0.89   -11.20
    1200  0.90   -15.50   0.32   57.00    0.32   57.00    0.90   -15.50
    1250  0.93   -19.70   0.39   63.50    0.39   63.50    0.93   -19.70
    1300  0.91   -22.10   0.42   61.60    0.42   61.60    0.91   -22.10
    1350  0.89   -24.50   0.45   59.80    0.45   59.80    0.89   -24.50
    1400  0.88   -26.10   0.47   58.40    0.47   58.40    0.88   -26.10
    1450  0.87   -27.60   0.50   57.00    0.50   57.00    0.87   -27.60
    1500  0.85   -29.70   0.52   55.00    0.52   55.00    0.85   -29.70
    1550  0.83   -31.80   0.54   53.10    0.54   53.10    0.83   -31.80
    1600  0.81   -33.90   0.57   50.90    0.57   50.90    0.81   -33.90
    1650  0.79   -36.00   0.59   48.80    0.59   48.80    0.79   -36.00
    1700  0.75   -38.20   0.62   45.80    0.62   45.80    0.75   -38.20
    1750  0.71   -40.40   0.65   42.80    0.65   42.80    0.71   -40.40
    1800  0.64   -42.30   0.68   36.20    0.68   36.20    0.64   -42.30
    1850  0.56   -44.20   0.70   29.60    0.70   29.60    0.56   -44.20
    1900  0.56   -25.10   0.58   16.20    0.58   16.20    0.56   -25.10
    1950  0.56   -6.00    0.45    2.80    0.45    2.80    0.56   -6.00
    2000  0.69   -15.00   0.41   26.30    0.41   26.30    0.69   -15.00
    2050  0.82   -24.00   0.38   49.70    0.38   49.70    0.82   -24.00
    2100  0.82   -28.90   0.45   50.30    0.45   50.30    0.82   -28.90
    2150  0.81   -33.70   0.52   50.80    0.52   50.80    0.81   -33.70
    2200  0.79   -36.70   0.55   49.30    0.55   49.30    0.79   -36.70
    2250  0.78   -39.70   0.58   47.80    0.58   47.80    0.78   -39.70
    2300  0.76   -41.40   0.61   46.50    0.61   46.50    0.76   -41.40
    2350  0.75   -43.20   0.64   45.20    0.64   45.20    0.75   -43.20
    2400  0.73   -45.00   0.65   43.60    0.65   43.60    0.73   -45.00
    2450  0.72   -46.90   0.67   42.00    0.67   42.00    0.72   -46.90
    2500  0.70   -48.10   0.68   40.50    0.68   40.50    0.70   -48.10
    2550  0.69   -49.30   0.69   39.00    0.69   39.00    0.69   -49.30
    2600  0.67   -49.00   0.69   37.70    0.69   37.70    0.67   -49.00
    2650  0.66   -48.80   0.69   36.50    0.69   36.50    0.66   -48.80
    2700  0.66   -50.50   0.70   36.80    0.70   36.80    0.66   -50.50
    2750  0.66   -52.20   0.71   37.10    0.71   37.10    0.66   -52.20
    2800  0.65   -53.60   0.73   36.20    0.73   36.20    0.65   -53.60
    2850  0.63   -55.10   0.75   35.30    0.75   35.30    0.63   -55.10
    2900  0.62   -56.10   0.76   34.10    0.76   34.10    0.62   -56.10
    2950  0.61   -57.10   0.77   32.80    0.77   32.80    0.61   -57.10
    3000  0.59   -58.00   0.77   31.70    0.77   31.70    0.59   -58.00
    3050  0.58   -58.90   0.78   30.60    0.78   30.60    0.58   -58.90
    3100  0.56   -59.90   0.79   29.20    0.79   29.20    0.56   -59.90
    3150  0.54   -60.80   0.80   27.80    0.80   27.80    0.54   -60.80
    3200  0.51   -60.70   0.80   25.80    0.80   25.80    0.51   -60.70
    3250  0.48   -60.60   0.81   23.80    0.81   23.80    0.48   -60.60
    3300  0.45   -55.30   0.78   20.60    0.78   20.60    0.45   -55.30
    3350  0.42   -50.00   0.75   17.30    0.75   17.30    0.42   -50.00
    3400  0.49   -46.30   0.69   21.70    0.69   21.70    0.49   -46.30
    3450  0.56   -42.50   0.63   26.10    0.63   26.10    0.56   -42.50
    3500  0.58   -47.90   0.67   28.80    0.67   28.80    0.58   -47.90
    3550  0.60   -53.30   0.72   31.40    0.72   31.40    0.60   -53.30
    3600  0.59   -55.70   0.74   30.80    0.74   30.80    0.59   -55.70
    3650  0.58   -58.10   0.77   30.20    0.77   30.20    0.58   -58.10
    3700  0.57   -60.00   0.79   29.30    0.79   29.30    0.57   -60.00
    3750  0.56   -61.90   0.80   28.30    0.80   28.30    0.56   -61.90
    3800  0.55   -62.80   0.81   27.70    0.81   27.70    0.55   -62.80
    3850  0.54   -63.60   0.82   27.00    0.82   27.00    0.54   -63.60
    3900  0.52   -64.70   0.82   26.00    0.82   26.00    0.52   -64.70
    3950  0.51   -65.80   0.83   25.00    0.83   25.00    0.51   -65.80
    4000  0.50   -66.30   0.83   24.40    0.83   24.40    0.50   -66.30
    4050  0.50   -66.80   0.84   23.80    0.84   23.80    0.50   -66.80
    4100  0.49   -67.40   0.84   23.50    0.84   23.50    0.49   -67.40
    4150  0.48   -67.90   0.84   23.20    0.84   23.20    0.48   -67.90
    4200  0.48   -69.20   0.85   22.70    0.85   22.70    0.48   -69.20
    4250  0.47   -70.40   0.86   22.20    0.86   22.20    0.47   -70.40
    4300  0.46   -71.20   0.86   21.70    0.86   21.70    0.46   -71.20
    4350  0.45   -72.00   0.86   21.30    0.86   21.30    0.45   -72.00
    4400  0.44   -72.90   0.87   20.50    0.87   20.50    0.44   -72.90
    4450  0.44   -73.70   0.88   19.60    0.88   19.60    0.44   -73.70
    4500  0.42   -73.90   0.88   18.90    0.88   18.90    0.42   -73.90
    4550  0.41   -74.00   0.88   18.20    0.88   18.20    0.41   -74.00
    4600  0.40   -74.60   0.88   17.00    0.88   17.00    0.40   -74.60
    4650  0.39   -75.20   0.88   15.80    0.88   15.80    0.39   -75.20
    4700  0.37   -73.30   0.87   14.60    0.87   14.60    0.37   -73.30
    4750  0.35   -71.40   0.86   13.50    0.86   13.50    0.35   -71.40
    4800  0.36   -66.60   0.82   13.50    0.82   13.50    0.36   -66.60
    4850  0.37   -61.80   0.78   13.50    0.78   13.50    0.37   -61.80
    4900  0.41   -63.90   0.79   16.20    0.79   16.20    0.41   -63.90
    4950  0.45   -65.90   0.80   18.90    0.80   18.90    0.45   -65.90
    5000  0.45   -69.80   0.82   18.90    0.82   18.90    0.45   -69.80
    5050  0.45   -73.70   0.84   18.80    0.84   18.80    0.45   -73.70
    5100  0.44   -75.20   0.85   18.40    0.85   18.40    0.44   -75.20
    5150  0.43   -76.70   0.86   18.00    0.86   18.00    0.43   -76.70
    5200  0.42   -77.60   0.87   17.70    0.87   17.70    0.42   -77.60
    5250  0.41   -78.50   0.88   17.40    0.88   17.40    0.41   -78.50
    5300  0.41   -79.60   0.88   16.50    0.88   16.50    0.41   -79.60
    5350  0.41   -80.70   0.89   15.50    0.89   15.50    0.41   -80.70
    5400  0.40   -81.00   0.89   15.00    0.89   15.00    0.40   -81.00
    5450  0.39   -81.20   0.89   14.50    0.89   14.50    0.39   -81.20
    5500  0.39   -81.50   0.89   14.10    0.89   14.10    0.39   -81.50
    5550  0.38   -81.80   0.90   13.70    0.90   13.70    0.38   -81.80
    5600  0.38   -82.30   0.90   13.30    0.90   13.30    0.38   -82.30
    5650  0.37   -82.80   0.90   13.00    0.90   13.00    0.37   -82.80
    5700  0.37   -83.50   0.90   12.50    0.90   12.50    0.37   -83.50
    5750  0.36   -84.10   0.91   12.10    0.91   12.10    0.36   -84.10
    5800  0.35   -83.60   0.91   11.60    0.91   11.60    0.35   -83.60
    5850  0.34   -83.00   0.91   11.10    0.91   11.10    0.34   -83.00
    5900  0.34   -83.10   0.91   10.70    0.91   10.70    0.34   -83.10
    5950  0.33   -83.20   0.91   10.30    0.91   10.30    0.33   -83.20
    6000  0.32   -83.30   0.92    9.30    0.92    9.30    0.32   -83.30
    6050  0.31   -83.40   0.92    8.20    0.92    8.20    0.31   -83.40
    6100  0.30   -82.40   0.91    7.80    0.91    7.80    0.30   -82.40
    6150  0.29   -81.50   0.91    7.30    0.91    7.30    0.29   -81.50
    6200  0.29   -77.30   0.89    6.70    0.89    6.70    0.29   -77.30
    6250  0.28   -73.20   0.88    6.20    0.88    6.20    0.28   -73.20
    6300  0.30   -71.60   0.87    7.20    0.87    7.20    0.30   -71.60
    6350  0.32   -70.00   0.85    8.30    0.85    8.30    0.32   -70.00
    6400  0.33   -71.70   0.86    8.90    0.86    8.90    0.33   -71.70
    6450  0.34   -73.40   0.88    9.60    0.88    9.60    0.34   -73.40
    6500  0.34   -74.80   0.89    9.40    0.89    9.40    0.34   -74.80
    6550  0.34   -76.10   0.90    9.10    0.90    9.10    0.34   -76.10
    6600  0.34   -76.50   0.90    8.70    0.90    8.70    0.34   -76.50
    6650  0.33   -76.90   0.91    8.20    0.91    8.20    0.33   -76.90
    6700  0.32   -76.60   0.91    8.00    0.91    8.00    0.32   -76.60
    6750  0.32   -76.30   0.92    7.80    0.92    7.80    0.32   -76.30
    6800  0.32   -76.10   0.92    7.40    0.92    7.40    0.32   -76.10
    6850  0.31   -75.80   0.93    7.00    0.93    7.00    0.31   -75.80
    6900  0.31   -75.50   0.93    6.60    0.93    6.60    0.31   -75.50
    6950  0.30   -75.30   0.93    6.20    0.93    6.20    0.30   -75.30
    7000  0.30   -74.90   0.93    5.90    0.93    5.90    0.30   -74.90
    7050  0.29   -74.60   0.93    5.60    0.93    5.60    0.29   -74.60
    7100  0.29   -74.80   0.93    5.40    0.93    5.40    0.29   -74.80
    7150  0.28   -74.90   0.93    5.10    0.93    5.10    0.28   -74.90
    7200  0.28   -74.70   0.94    4.80    0.94    4.80    0.28   -74.70
    7250  0.27   -74.40   0.94    4.50    0.94    4.50    0.27   -74.40
    7300  0.26   -74.70   0.94    4.00    0.94    4.00    0.26   -74.70
    7350  0.26   -75.00   0.94    3.60    0.94    3.60    0.26   -75.00
    7400  0.25   -74.80   0.94    3.20    0.94    3.20    0.25   -74.80
    7450  0.25   -74.60   0.94    2.70    0.94    2.70    0.25   -74.60
    7500  0.24   -74.40   0.94    2.20    0.94    2.20    0.24   -74.40
    7550  0.24   -74.20   0.94    1.70    0.94    1.70    0.24   -74.20
    7600  0.23   -72.40   0.94    1.30    0.94    1.30    0.23   -72.40
    7650  0.22   -70.60   0.93    0.80    0.93    0.80    0.22   -70.60
    7700  0.22   -68.20   0.92    0.80    0.92    0.80    0.22   -68.20
    7750  0.23   -65.80   0.91    0.80    0.91    0.80    0.23   -65.80
    7800  0.24   -66.10   0.91    1.40    0.91    1.40    0.24   -66.10
    7850  0.25   -66.30   0.90    2.00    0.90    2.00    0.25   -66.30
    7900  0.25   -69.20   0.91    2.10    0.91    2.10    0.25   -69.20
    7950  0.25   -72.00   0.92    2.20    0.92    2.20    0.25   -72.00
    8000  0.25   -73.30   0.93    1.90    0.93    1.90    0.25   -73.30
    8050  0.24   -74.70   0.94    1.60    0.94    1.60    0.24   -74.70
    8100  0.23   -75.90   0.94    1.30    0.94    1.30    0.23   -75.90
    8150  0.23   -77.20   0.95    1.10    0.95    1.10    0.23   -77.20
    8200  0.22   -77.50   0.95    0.60    0.95    0.60    0.22   -77.50
    8250  0.22   -77.80   0.95    0.20    0.95    0.20    0.22   -77.80
    8300  0.21   -78.20   0.95   -0.10    0.95   -0.10    0.21   -78.20
    8350  0.21   -78.60   0.95   -0.30    0.95   -0.30    0.21   -78.60
    8400  0.20   -78.70   0.96   -0.80    0.96   -0.80    0.20   -78.70
    8450  0.20   -78.80   0.96   -1.20    0.96   -1.20    0.20   -78.80
    8500  0.20   -78.50   0.96   -1.50    0.96   -1.50    0.20   -78.50
    8550  0.19   -78.30   0.96   -1.70    0.96   -1.70    0.19   -78.30
    8600  0.19   -77.40   0.96   -2.20    0.96   -2.20    0.19   -77.40
    8650  0.18   -76.60   0.96   -2.60    0.96   -2.60    0.18   -76.60
    8700  0.18   -75.60   0.96   -3.00    0.96   -3.00    0.18   -75.60
    8750  0.17   -74.70   0.96   -3.40    0.96   -3.40    0.17   -74.70
    8800  0.17   -73.30   0.96   -3.50    0.96   -3.50    0.17   -73.30
    8850  0.17   -71.90   0.96   -3.70    0.96   -3.70    0.17   -71.90
    8900  0.16   -70.00   0.96   -4.20    0.96   -4.20    0.16   -70.00
    8950  0.15   -68.00   0.96   -4.70    0.96   -4.70    0.15   -68.00
    9000  0.15   -65.60   0.96   -5.10    0.96   -5.10    0.15   -65.60
    9050  0.15   -63.30   0.95   -5.50    0.95   -5.50    0.15   -63.30
    9100  0.14   -60.80   0.95   -5.80    0.95   -5.80    0.14   -60.80
    9150  0.14   -58.40   0.95   -6.10    0.95   -6.10    0.14   -58.40
    9200  0.15   -58.10   0.94   -6.00    0.94   -6.00    0.15   -58.10
    9250  0.15   -57.70   0.94   -5.90    0.94   -5.90    0.15   -57.70
    9300  0.15   -58.80   0.94   -5.60    0.94   -5.60    0.15   -58.80
    9350  0.16   -59.80   0.94   -5.30    0.94   -5.30    0.16   -59.80
    9400  0.16   -61.70   0.95   -5.20    0.95   -5.20    0.16   -61.70
    9450  0.15   -63.50   0.95   -5.20    0.95   -5.20    0.15   -63.50
    9500  0.15   -63.30   0.95   -5.60    0.95   -5.60    0.15   -63.30
    9550  0.14   -63.10   0.96   -6.00    0.96   -6.00    0.14   -63.10
    9600  0.14   -61.90   0.96   -6.40    0.96   -6.40    0.14   -61.90
    9650  0.13   -60.80   0.97   -6.80    0.97   -6.80    0.13   -60.80
    9700  0.13   -60.60   0.97   -7.10    0.97   -7.10    0.13   -60.60
    9750  0.12   -60.30   0.97   -7.40    0.97   -7.40    0.12   -60.30
    9800  0.12   -58.70   0.97   -7.70    0.97   -7.70    0.12   -58.70
    9850  0.12   -57.00   0.97   -8.00    0.97   -8.00    0.12   -57.00
    9900  0.11   -55.40   0.97   -8.20    0.97   -8.20    0.11   -55.40
    9950  0.11   -53.80   0.97   -8.40    0.97   -8.40    0.11   -53.80
   10000  0.10   -53.00   0.97   -8.60    0.97   -8.60    0.10   -53.00
   10050  0.10   -52.20   0.97   -8.90    0.97   -8.90    0.10   -52.20
   10100  0.09   -49.70   0.97   -9.10    0.97   -9.10    0.09   -49.70
   10150  0.09   -47.10   0.97   -9.30    0.97   -9.30    0.09   -47.10
   10200  0.09   -45.00   0.98   -9.60    0.98   -9.60    0.09   -45.00
   10250  0.08   -42.80   0.98   -10.00   0.98   -10.00   0.08   -42.80
   10300  0.08   -41.10   0.97   -10.30   0.97   -10.30   0.08   -41.10
   10350  0.08   -39.30   0.96   -10.60   0.96   -10.60   0.08   -39.30
   10400  0.08   -37.00   0.97   -10.90   0.97   -10.90   0.08   -37.00
   10450  0.07   -34.70   0.97   -11.20   0.97   -11.20   0.07   -34.70
   10500  0.08   -33.10   0.97   -11.50   0.97   -11.50   0.08   -33.10
   10550  0.08   -31.40   0.96   -11.70   0.96   -11.70   0.08   -31.40
   10600  0.08   -29.50   0.96   -11.80   0.96   -11.80   0.08   -29.50
   10650  0.08   -27.60   0.96   -11.90   0.96   -11.90   0.08   -27.60
   10700  0.08   -30.60   0.96   -11.80   0.96   -11.80   0.08   -30.60
   10750  0.07   -33.60   0.96   -11.70   0.96   -11.70   0.07   -33.60
   10800  0.07   -37.70   0.96   -11.50   0.96   -11.50   0.07   -37.70
   10850  0.07   -41.70   0.96   -11.30   0.96   -11.30   0.07   -41.70
   10900  0.06   -44.10   0.97   -11.70   0.97   -11.70   0.06   -44.10
   10950  0.05   -46.50   0.97   -12.10   0.97   -12.10   0.05   -46.50
   11000  0.04   -49.40   0.97   -12.40   0.97   -12.40   0.04   -49.40
   11050  0.04   -52.40   0.97   -12.70   0.97   -12.70   0.04   -52.40
   11100  0.04   -58.50   0.98   -13.00   0.98   -13.00   0.04   -58.50
   11150  0.04   -64.50   0.98   -13.20   0.98   -13.20   0.04   -64.50
   11200  0.03   -66.40   0.97   -13.50   0.97   -13.50   0.03   -66.40
   11250  0.03   -68.30   0.97   -13.80   0.97   -13.80   0.03   -68.30
   11300  0.03   -71.70   0.97   -14.00   0.97   -14.00   0.03   -71.70
   11350  0.03   -75.10   0.97   -14.30   0.97   -14.30   0.03   -75.10
   11400  0.03   -70.60   0.98   -14.50   0.98   -14.50   0.03   -70.60
   11450  0.03   -66.20   0.98   -14.60   0.98   -14.60   0.03   -66.20
   11500  0.02   -57.60   0.98   -14.90   0.98   -14.90   0.02   -57.60
   11550  0.02   -49.00   0.98   -15.30   0.98   -15.30   0.02   -49.00
   11600  0.02   -34.20   0.98   -15.60   0.98   -15.60   0.02   -34.20
   11650  0.01   -19.40   0.98   -15.90   0.98   -15.90   0.01   -19.40
   11700  0.02   -0.60    0.98   -16.30   0.98   -16.30   0.02   -0.60
   11750  0.02   18.20    0.98   -16.60   0.98   -16.60   0.02   18.20
   11800  0.02   34.30    0.98   -16.80   0.98   -16.80   0.02   34.30
   11850  0.02   50.30    0.97   -17.00   0.97   -17.00   0.02   50.30
   11900  0.03   56.70    0.97   -17.40   0.97   -17.40   0.03   56.70
   11950  0.03   63.10    0.97   -17.70   0.97   -17.70   0.03   63.10
   12000  0.03   64.70    0.97   -18.00   0.97   -18.00   0.03   64.70
   12050  0.03   66.30    0.96   -18.30   0.96   -18.30   0.03   66.30
   12100  0.03   68.00    0.96   -18.50   0.96   -18.50   0.03   68.00
   12150  0.03   69.60    0.95   -18.80   0.95   -18.80   0.03   69.60
   12200  0.02   70.40    0.95   -18.70   0.95   -18.70   0.02   70.40
   12250  0.02   71.10    0.95   -18.70   0.95   -18.70   0.02   71.10
   12300  0.02   85.70    0.95   -18.90   0.95   -18.90   0.02   85.70
   12350  0.02   100.30   0.95   -19.10   0.95   -19.10   0.02   100.30
   12400  0.01   112.00   0.95   -19.40   0.95   -19.40   0.01   112.00
   12450  0.01   123.80   0.95   -19.60   0.95   -19.60   0.01   123.80
   12500  0.01   110.60   0.95   -19.90   0.95   -19.90   0.01   110.60
   12550  0.02   97.40    0.95   -20.10   0.95   -20.10   0.02   97.40
   12600  0.01   102.90   0.94   -20.20   0.94   -20.20   0.01   102.90
   12650  0.01   108.40   0.94   -20.30   0.94   -20.30   0.01   108.40
   12700  0.01   80.10    0.94   -20.30   0.94   -20.30   0.01   80.10
   12750  0.01   51.70    0.94   -20.20   0.94   -20.20   0.01   51.70
   12800  0.01   57.20    0.94   -20.30   0.94   -20.30   0.01   57.20
   12850  0.02   62.70    0.94   -20.50   0.94   -20.50   0.02   62.70
   12900  0.02   57.10    0.94   -20.60   0.94   -20.60   0.02   57.10
   12950  0.03   51.60    0.94   -20.70   0.94   -20.70   0.03   51.60
   13000  0.03   50.10    0.95   -21.00   0.95   -21.00   0.03   50.10
   13050  0.04   48.60    0.95   -21.20   0.95   -21.20   0.04   48.60
   13100  0.04   41.60    0.95   -21.50   0.95   -21.50   0.04   41.60
   13150  0.05   34.50    0.95   -21.80   0.95   -21.80   0.05   34.50
   13200  0.06   37.90    0.95   -21.90   0.95   -21.90   0.06   37.90
   13250  0.07   41.40    0.95   -22.10   0.95   -22.10   0.07   41.40
   13300  0.07   39.50    0.95   -22.70   0.95   -22.70   0.07   39.50
   13350  0.07   37.60    0.94   -23.30   0.94   -23.30   0.07   37.60
   13400  0.09   36.40    0.94   -23.80   0.94   -23.80   0.09   36.40
   13450  0.10   35.20    0.94   -24.20   0.94   -24.20   0.10   35.20
   13500  0.10   34.70    0.94   -24.50   0.94   -24.50   0.10   34.70
   13550  0.11   34.20    0.93   -24.90   0.93   -24.90   0.11   34.20
   13600  0.11   31.40    0.93   -25.40   0.93   -25.40   0.11   31.40
   13650  0.12   28.60    0.92   -25.90   0.92   -25.90   0.12   28.60
   13700  0.13   25.40    0.92   -26.20   0.92   -26.20   0.13   25.40
   13750  0.13   22.20    0.91   -26.60   0.91   -26.60   0.13   22.20
   13800  0.13   17.10    0.90   -26.60   0.90   -26.60   0.13   17.10
   13850  0.14   12.10    0.89   -26.70   0.89   -26.70   0.14   12.10
   13900  0.14    5.80    0.88   -26.30   0.88   -26.30   0.14    5.80
