#	mhz	s	ma	r	50
									

50	0.95	172.10	0.13	77.60		0.13	77.60		0.95	172.10	
100	0.94	165.20	0.24	71.90		0.24	71.90		0.94	165.20	
150	0.92	158.30	0.35	66.20		0.35	66.20		0.92	158.30	
200	0.88	152.70	0.44	60.90		0.44	60.90		0.88	152.70	
250	0.83	147.00	0.52	55.70		0.52	55.70		0.83	147.00	
300	0.78	142.00	0.59	50.70		0.59	50.70		0.78	142.00	
350	0.74	137.00	0.65	45.70		0.65	45.70		0.74	137.00	
400	0.69	133.20	0.70	42.10		0.70	42.10		0.69	133.20	
450	0.64	129.40	0.74	38.50		0.74	38.50		0.64	129.40	
500	0.59	124.00	0.79	34.00		0.79	34.00		0.59	124.00	
550	0.53	118.50	0.84	29.60		0.84	29.60		0.53	118.50	
600	0.50	116.20	0.86	27.00		0.86	27.00		0.50	116.20	
650	0.47	114.00	0.88	24.50		0.88	24.50		0.47	114.00	
700	0.44	111.30	0.89	22.40		0.89	22.40		0.44	111.30	
750	0.41	108.70	0.91	20.40		0.91	20.40		0.41	108.70
800	0.39	107.20	0.92	18.50		0.92	18.50		0.39	107.20
850	0.37	105.70	0.92	16.60		0.92	16.60		0.37	105.70
900	0.35	104.00	0.93	15.00		0.93	15.00		0.35	104.00
950	0.33	102.30	0.94	13.40		0.94	13.40		0.33	102.30
1000	0.31	100.90	0.94	12.00		0.94	12.00		0.31	100.90
1050	0.29	99.60		0.95	10.50		0.95	10.50		0.29	99.60
1100	0.28	97.70		0.96	9.20		0.96	9.20		0.28	97.70
1150	0.26	95.80		0.96	7.90		0.96	7.90		0.26	95.80
1200	0.25	94.60		0.96	6.70		0.96	6.70		0.25	94.60
1250	0.24	93.40		0.97	5.60		0.97	5.60		0.24	93.40
1300	0.23	91.90		0.97	4.50		0.97	4.50		0.23	91.90
1350	0.22	90.40		0.98	3.40		0.98	3.40		0.22	90.40
1400	0.20	89.60		0.98	2.40		0.98	2.40		0.20	89.60
1450	0.19	88.80		0.98	1.40		0.98	1.40		0.19	88.80
1500	0.18	87.50		0.98	0.40		0.98	0.40		0.18	87.50
1550	0.17	86.30		0.98	-0.60		0.98	-0.60		0.17	86.30
1600	0.17	84.70		0.98	-1.50		0.98	-1.50		0.17	84.70
1650	0.16	83.20		0.98	-2.40		0.98	-2.40		0.16	83.20
1700	0.15	82.40		0.99	-3.40		0.99	-3.40		0.15	82.40
1750	0.14	81.60		0.99	-4.30		0.99	-4.30		0.14	81.60
1800	0.13	79.80		0.99	-5.10		0.99	-5.10		0.13	79.80
1850	0.13	78.00		0.99	-5.80		0.99	-5.80		0.13	78.00
1900	0.12	76.80		0.99	-6.60		0.99	-6.60		0.12	76.80
1950	0.11	75.70		0.99	-7.40		0.99	-7.40		0.11	75.70
2000	0.11	74.10		0.99	-8.20		0.99	-8.20		0.11	74.10
2050	0.10	72.50		0.99	-9.10		0.99	-9.10		0.10	72.50
2100	0.09	70.90		0.99	-9.80		0.99	-9.80		0.09	70.90
2150	0.09	69.30		1.00	-10.50	1.00	-10.50	0.09	69.30
2200	0.08	67.90		1.00	-11.30	1.00	-11.30	0.08	67.90
2250	0.08	66.40		0.99	-12.10	0.99	-12.10	0.08	66.40
2300	0.07	64.00		1.00	-12.80	1.00	-12.80	0.07	64.00
2350	0.06	61.50		1.00	-13.40	1.00	-13.40	0.06	61.50
2400	0.06	60.40		1.00	-14.20	1.00	-14.20	0.06	60.40
2450	0.05	59.30		0.99	-15.00	0.99	-15.00	0.05	59.30
2500	0.05	56.20		1.00	-15.80	1.00	-15.80	0.05	56.20
2550	0.04	53.00		1.00	-16.50	1.00	-16.50	0.04	53.00
2600	0.03	50.60		1.00	-17.20	1.00	-17.20	0.03	50.60
2650	0.03	48.20		1.00	-17.90	1.00	-17.90	0.03	48.20
2700	0.02	42.70		1.00	-18.50	1.00	-18.50	0.02	42.70
2750	0.02	37.20		1.00	-19.20	1.00	-19.20	0.02	37.20
2800	0.01	7.50		1.00	-19.80	1.00	-19.80	0.01	7.50
2850	0.01	-22.20	1.00	-20.40	1.00	-20.40	0.01	-22.20
2900	0.01	-51.40	1.00	-21.30	1.00	-21.30	0.01	-51.40
2950	0.01	-80.60	1.00	-22.20	1.00	-22.20	0.01	-80.60
3000	0.01	-89.60	1.00	-22.70	1.00	-22.70	0.01	-89.60
3050	0.02	-98.70	1.00	-23.30	1.00	-23.30	0.02	-98.70
3100	0.02	-107.40	0.99	-24.10	0.99	-24.10	0.02	-107.40
3150	0.03	-116.10	0.99	-24.90	0.99	-24.90	0.03	-116.10
3200	0.03	-114.40	0.99	-25.40	0.99	-25.40	0.03	-114.40
3250	0.03	-112.60	0.99	-25.90	0.99	-25.90	0.03	-112.60
3300	0.04	-117.20	0.99	-26.60	0.99	-26.60	0.04	-117.20
3350	0.04	-121.90	1.00	-27.40	1.00	-27.40	0.04	-121.90
3400	0.05	-121.90	0.99	-27.90	0.99	-27.90	0.05	-121.90
3450	0.05	-121.80	0.99	-28.50	0.99	-28.50	0.05	-121.80
3500	0.05	-122.80	0.99	-29.10	0.99	-29.10	0.05	-122.80
3550	0.05	-123.80	0.99	-29.70	0.99	-29.70	0.05	-123.80
3600	0.06	-124.30	0.99	-30.30	0.99	-30.30	0.06	-124.30
3650	0.06	-124.80	1.00	-30.90	1.00	-30.90	0.06	-124.80
3700	0.06	-123.70	0.99	-31.60	0.99	-31.60	0.06	-123.70
3750	0.06	-122.50	0.99	-32.40	0.99	-32.40	0.06	-122.50
3800	0.07	-122.10	0.99	-32.80	0.99	-32.80	0.07	-122.10
3850	0.07	-121.70	0.99	-33.30	0.99	-33.30	0.07	-121.70
3900	0.07	-121.60	0.99	-34.20	0.99	-34.20	0.07	-121.60
3950	0.07	-121.40	0.99	-35.00	0.99	-35.00	0.07	-121.40
4000	0.08	-120.30	0.99	-35.50	0.99	-35.50	0.08	-120.30
4050	0.08	-119.30	0.99	-36.00	0.99	-36.00	0.08	-119.30
4100	0.08	-118.60	0.99	-36.60	0.99	-36.60	0.08	-118.60
4150	0.09	-117.90	0.99	-37.30	0.99	-37.30	0.09	-117.90
4200	0.09	-117.80	0.99	-37.90	0.99	-37.90	0.09	-117.80
4250	0.09	-117.60	0.99	-38.60	0.99	-38.60	0.09	-117.60
4300	0.10	-117.30	0.99	-39.10	0.99	-39.10	0.10	-117.30
4350	0.10	-116.90	0.99	-39.50	0.99	-39.50	0.10	-116.90
4400	0.10	-117.60	0.99	-40.30	0.99	-40.30	0.10	-117.60
4450	0.11	-118.30	0.99	-41.00	0.99	-41.00	0.11	-118.30
4500	0.11	-117.70	0.99	-41.70	0.99	-41.70	0.11	-117.70
4550	0.12	-117.00	0.99	-42.40	0.99	-42.40	0.12	-117.00
4600	0.12	-118.50	0.99	-43.20	0.99	-43.20	0.12	-118.50
4650	0.13	-120.00	0.99	-43.90	0.99	-43.90	0.13	-120.00
4700	0.13	-120.50	0.99	-44.50	0.99	-44.50	0.13	-120.50
4750	0.14	-121.10	0.98	-45.10	0.98	-45.10	0.14	-121.10
4800	0.14	-122.20	0.98	-45.70	0.98	-45.70	0.14	-122.20
4850	0.15	-123.20	0.98	-46.30	0.98	-46.30	0.15	-123.20
4900	0.15	-124.50	0.98	-47.00	0.98	-47.00	0.15	-124.50
4950	0.16	-125.90	0.98	-47.60	0.98	-47.60	0.16	-125.90
5000	0.16	-127.30	0.98	-48.30	0.98	-48.30	0.16	-127.30
5050	0.17	-128.80	0.97	-49.00	0.97	-49.00	0.17	-128.80
5100	0.17	-129.90	0.97	-49.50	0.97	-49.50	0.17	-129.90
5150	0.17	-131.00	0.97	-50.00	0.97	-50.00	0.17	-131.00
5200	0.18	-132.70	0.97	-50.50	0.97	-50.50	0.18	-132.70
5250	0.19	-134.40	0.97	-51.00	0.97	-51.00	0.19	-134.40
5300	0.19	-136.00	0.97	-51.80	0.97	-51.80	0.19	-136.00
5350	0.20	-137.60	0.97	-52.50	0.97	-52.50	0.20	-137.60
5400	0.20	-138.70	0.97	-53.10	0.97	-53.10	0.20	-138.70
5450	0.21	-139.80	0.97	-53.80	0.97	-53.80	0.21	-139.80
5500	0.21	-141.30	0.97	-54.40	0.97	-54.40	0.21	-141.30
5550	0.22	-142.90	0.97	-55.00	0.97	-55.00	0.22	-142.90
5600	0.22	-143.90	0.97	-55.60	0.97	-55.60	0.22	-143.90
5650	0.22	-144.90	0.97	-56.20	0.97	-56.20	0.22	-144.90
5700	0.23	-146.50	0.97	-56.80	0.97	-56.80	0.23	-146.50
5750	0.24	-148.00	0.97	-57.50	0.97	-57.50	0.24	-148.00
5800	0.24	-148.60	0.96	-58.00	0.96	-58.00	0.24	-148.60
5850	0.24	-149.20	0.96	-58.50	0.96	-58.50	0.24	-149.20
5900	0.25	-150.40	0.96	-59.00	0.96	-59.00	0.25	-150.40
5950	0.25	-151.50	0.96	-59.50	0.96	-59.50	0.25	-151.50
6000	0.27	-151.50	0.95	-60.30	0.95	-60.30	0.27	-151.50
6050	0.28	-151.50	0.95	-61.10	0.95	-61.10	0.28	-151.50
6100	0.29	-152.70	0.95	-61.50	0.95	-61.50	0.29	-152.70
6150	0.29	-153.90	0.95	-62.00	0.95	-62.00	0.29	-153.90
6200	0.30	-155.20	0.95	-62.60	0.95	-62.60	0.30	-155.20
6250	0.30	-156.50	0.94	-63.20	0.94	-63.20	0.30	-156.50
6300	0.31	-157.30	0.94	-63.70	0.94	-63.70	0.31	-157.30
6350	0.31	-158.10	0.94	-64.30	0.94	-64.30	0.31	-158.10
6400	0.32	-158.70	0.94	-64.80	0.94	-64.80	0.32	-158.70
6450	0.32	-159.30	0.94	-65.40	0.94	-65.40	0.32	-159.30
6500	0.32	-160.10	0.93	-66.00	0.93	-66.00	0.32	-160.10
6550	0.32	-160.90	0.93	-66.50	0.93	-66.50	0.32	-160.90
6600	0.32	-161.90	0.93	-67.10	0.93	-67.10	0.32	-161.90
6650	0.33	-162.80	0.93	-67.70	0.93	-67.70	0.33	-162.80
6700	0.33	-163.50	0.93	-68.00	0.93	-68.00	0.33	-163.50
6750	0.33	-164.30	0.93	-68.40	0.93	-68.40	0.33	-164.30
6800	0.33	-165.60	0.93	-69.10	0.93	-69.10	0.33	-165.60
6850	0.34	-167.00	0.93	-69.80	0.93	-69.80	0.34	-167.00
6900	0.34	-167.60	0.93	-70.30	0.93	-70.30	0.34	-167.60
6950	0.33	-168.30	0.93	-70.80	0.93	-70.80	0.33	-168.30
7000	0.34	-169.90	0.93	-71.50	0.93	-71.50	0.34	-169.90
7050	0.34	-171.40	0.93	-72.20	0.93	-72.20	0.34	-171.40
7100	0.34	-172.30	0.93	-72.70	0.93	-72.70	0.34	-172.30
7150	0.34	-173.20	0.93	-73.20	0.93	-73.20	0.34	-173.20
7200	0.35	-174.10	0.93	-74.00	0.93	-74.00	0.35	-174.10
7250	0.35	-175.10	0.93	-74.70	0.93	-74.70	0.35	-175.10
7300	0.35	-176.30	0.93	-75.40	0.93	-75.40	0.35	-176.30
7350	0.35	-177.60	0.93	-76.10	0.93	-76.10	0.35	-177.60
7400	0.35	-177.90	0.93	-76.70	0.93	-76.70	0.35	-177.90
7450	0.36	-178.20	0.93	-77.30	0.93	-77.30	0.36	-178.20
7500	0.36	0.60		0.92	-78.10	0.92	-78.10	0.36	0.60
7550	0.36	179.40	0.92	-79.00	0.92	-79.00	0.36	179.40
7600	0.36	179.30	0.92	-79.60	0.92	-79.60	0.36	179.30
7650	0.36	179.20	0.92	-80.20	0.92	-80.20	0.36	179.20
7700	0.36	178.50	0.92	-80.90	0.92	-80.90	0.36	178.50
7750	0.36	177.80	0.92	-81.70	0.92	-81.70	0.36	177.80
7800	0.36	176.60	0.92	-82.50	0.92	-82.50	0.36	176.60
7850	0.36	175.50	0.92	-83.40	0.92	-83.40	0.36	175.50
7900	0.36	175.20	0.92	-84.20	0.92	-84.20	0.36	175.20
7950	0.37	175.00	0.92	-84.90	0.92	-84.90	0.37	175.00
8000	0.37	173.80	0.91	-85.80	0.91	-85.80	0.37	173.80
8050	0.37	172.60	0.91	-86.60	0.91	-86.60	0.37	172.60
8100	0.37	172.00	0.91	-87.50	0.91	-87.50	0.37	172.00
8150	0.38	171.50	0.91	-88.40	0.91	-88.40	0.38	171.50
8200	0.38	170.60	0.91	-89.30	0.91	-89.30	0.38	170.60
8250	0.39	169.70	0.90	-90.30	0.90	-90.30	0.39	169.70
8300	0.39	169.20	0.90	-91.30	0.90	-91.30	0.39	169.20
8350	0.40	168.60	0.90	-92.30	0.90	-92.30	0.40	168.60
8400	0.41	167.70	0.89	-93.30	0.89	-93.30	0.41	167.70
8450	0.41	166.80	0.89	-94.30	0.89	-94.30	0.41	166.80
8500	0.42	166.30	0.88	-95.50	0.88	-95.50	0.42	166.30
8550	0.42	165.70	0.88	-96.60	0.88	-96.60	0.42	165.70
8600	0.43	164.50	0.87	-97.70	0.87	-97.70	0.43	164.50
8650	0.44	163.20	0.86	-98.80	0.86	-98.80	0.44	163.20
8700	0.45	162.50	0.85	-100.00	0.85	-100.00	0.45	162.50
8750	0.46	161.70	0.84	-101.10	0.84	-101.10	0.46	161.70
8800	0.47	159.90	0.84	-101.80	0.84	-101.80	0.47	159.90
8850	0.48	158.20	0.83	-102.50	0.83	-102.50	0.48	158.20
8900	0.48	157.00	0.82	-103.10	0.82	-103.10	0.48	157.00
8950	0.48	155.80	0.81	-103.80	0.81	-103.80	0.48	155.80
9000	0.49	156.00	0.81	-104.80	0.81	-104.80	0.49	156.00
9050	0.50	156.20	0.81	-105.90	0.81	-105.90	0.50	156.20
9100	0.52	155.40	0.80	-107.30	0.80	-107.30	0.52	155.40
9150	0.53	154.60	0.80	-108.70	0.80	-108.70	0.53	154.60
9200	0.55	153.10	0.79	-110.50	0.79	-110.50	0.55	153.10
9250	0.56	151.60	0.78	-112.30	0.78	-112.30	0.56	151.60
9300	0.57	151.20	0.77	-113.40	0.77	-113.40	0.57	151.20
9350	0.58	150.80	0.75	-114.50	0.75	-114.50	0.58	150.80
9400	0.59	149.50	0.74	-115.90	0.74	-115.90	0.59	149.50
9450	0.61	148.30	0.73	-117.40	0.73	-117.40	0.61	148.30
9500	0.61	147.20	0.70	-118.80	0.70	-118.80	0.61	147.20
9550	0.62	146.00	0.69	-120.20	0.69	-120.20	0.62	146.00
9600	0.64	144.90	0.67	-121.60	0.67	-121.60	0.64	144.90
9650	0.65	143.80	0.65	-122.90	0.65	-122.90	0.65	143.80
9700	0.67	142.50	0.63	-124.20	0.63	-124.20	0.67	142.50
9750	0.68	141.20	0.61	-125.50	0.61	-125.50	0.68	141.20
9800	0.68	140.70	0.59	-126.50	0.59	-126.50	0.68	140.70
9850	0.69	140.10	0.57	-127.60	0.57	-127.60	0.69	140.10
9900	0.71	138.80	0.55	-128.70	0.55	-128.70	0.71	138.80
9950	0.73	137.60	0.53	-129.80	0.53	-129.80	0.73	137.60
10000	0.74	135.80	0.51	-131.20	0.51	-131.20	0.74	135.80
10050	0.75	134.00	0.48	-132.60	0.48	-132.60	0.75	134.00
10100	0.77	133.20	0.46	-133.20	0.46	-133.20	0.77	133.20
10150	0.79	132.40	0.44	-133.80	0.44	-133.80	0.79	132.40
10200	0.80	130.30	0.41	-134.90	0.41	-134.90	0.80	130.30
10250	0.81	128.10	0.38	-136.00	0.38	-136.00	0.81	128.10
10300	0.82	125.90	0.35	-136.60	0.35	-136.60	0.82	125.90
10350	0.84	123.70	0.32	-137.20	0.32	-137.20	0.84	123.70
10400	0.83	121.60	0.29	-136.10	0.29	-136.10	0.83	121.60
10450	0.82	119.60	0.26	-135.00	0.26	-135.00	0.82	119.60
10500	0.83	117.10	0.24	-133.00	0.24	-133.00	0.83	117.10
10550	0.84	114.60	0.22	-131.00	0.22	-131.00	0.84	114.60
10600	0.84	112.30	0.20	-125.80	0.20	-125.80	0.84	112.30
10650	0.83	109.90	0.18	-120.60	0.18	-120.60	0.83	109.90
10700	0.84	108.20	0.17	-115.80	0.17	-115.80	0.84	108.20
10750	0.84	106.40	0.15	-111.00	0.15	-111.00	0.84	106.40
10800	0.85	104.70	0.14	-102.10	0.14	-102.10	0.85	104.70
10850	0.86	103.00	0.12	-93.20	0.12	-93.20	0.86	103.00
10900	0.86	99.70		0.12	-76.50	0.12	-76.50	0.86	99.70
10950	0.86	96.40		0.12	-59.80	0.12	-59.80	0.86	96.40
11000	0.87	93.50		0.15	-49.80	0.15	-49.80	0.87	93.50
11050	0.87	90.60		0.18	-39.80	0.18	-39.80	0.87	90.60
11100	0.87	87.20		0.21	-36.40	0.21	-36.40	0.87	87.20
11150	0.86	83.90		0.25	-33.10	0.25	-33.10	0.86	83.90
11200	0.85	80.60		0.29	-33.50	0.29	-33.50	0.85	80.60
11250	0.83	77.30		0.33	-33.90	0.33	-33.90	0.83	77.30
11300	0.82	74.30		0.37	-35.00	0.37	-35.00	0.82	74.30
11350	0.81	71.30		0.41	-36.00	0.41	-36.00	0.81	71.30
11400	0.79	68.20		0.44	-38.10	0.44	-38.10	0.79	68.20
11450	0.76	65.10		0.47	-40.10	0.47	-40.10	0.76	65.10
11500	0.75	62.60		0.51	-41.80	0.51	-41.80	0.75	62.60
11550	0.73	60.10		0.54	-43.50	0.54	-43.50	0.73	60.10
11600	0.71	57.70		0.57	-45.60	0.57	-45.60	0.71	57.70
11650	0.69	55.40		0.60	-47.70	0.60	-47.70	0.69	55.40
11700	0.67	53.10		0.63	-49.70	0.63	-49.70	0.67	53.10
11750	0.64	50.70		0.65	-51.70	0.65	-51.70	0.64	50.70
11800	0.63	49.40		0.68	-53.30	0.68	-53.30	0.63	49.40
11850	0.61	48.00		0.70	-55.00	0.70	-55.00	0.61	48.00
11900	0.58	46.60		0.72	-57.10	0.72	-57.10	0.58	46.60
11950	0.55	45.10		0.74	-59.30	0.74	-59.30	0.55	45.10
12000	0.53	43.60		0.76	-60.80	0.76	-60.80	0.53	43.60
12050	0.52	42.00		0.78	-62.30	0.78	-62.30	0.52	42.00
12100	0.49	40.40		0.80	-64.30	0.80	-64.30	0.49	40.40
12150	0.47	38.80		0.81	-66.40	0.81	-66.40	0.47	38.80
12200	0.44	37.50		0.82	-68.00	0.82	-68.00	0.44	37.50
12250	0.42	36.10		0.84	-69.50	0.84	-69.50	0.42	36.10
12300	0.40	35.60		0.85	-71.10	0.85	-71.10	0.40	35.60
12350	0.38	35.10		0.86	-72.60	0.86	-72.60	0.38	35.10
12400	0.37	33.20		0.87	-74.40	0.87	-74.40	0.37	33.20
12450	0.35	31.30		0.88	-76.20	0.88	-76.20	0.35	31.30
12500	0.34	31.30		0.89	-77.60	0.89	-77.60	0.34	31.30
12550	0.32	31.30		0.90	-78.90	0.90	-78.90	0.32	31.30
12600	0.31	30.80		0.90	-80.40	0.90	-80.40	0.31	30.80
12650	0.29	30.40		0.91	-81.80	0.91	-81.80	0.29	30.40
12700	0.28	29.50		0.91	-83.20	0.91	-83.20	0.28	29.50
12750	0.27	28.70		0.92	-84.50	0.92	-84.50	0.27	28.70
12800	0.26	28.90		0.92	-85.80	0.92	-85.80	0.26	28.90
12850	0.25	29.10		0.92	-87.10	0.92	-87.10	0.25	29.10
12900	0.25	28.90		0.93	-88.30	0.93	-88.30	0.25	28.90
12950	0.24	28.80		0.93	-89.50	0.93	-89.50	0.24	28.80
13000	0.23	28.70		0.93	-90.60	0.93	-90.60	0.23	28.70
13050	0.22	28.60		0.94	-91.70	0.94	-91.70	0.22	28.60
13100	0.21	28.50		0.94	-92.80	0.94	-92.80	0.21	28.50
13150	0.20	28.40		0.94	-93.90	0.94	-93.90	0.20	28.40
13200	0.20	28.30		0.94	-94.70	0.94	-94.70	0.20	28.30
13250	0.20	28.10		0.94	-95.50	0.94	-95.50	0.20	28.10
13300	0.19	29.90		0.94	-96.90	0.94	-96.90	0.19	29.90
13350	0.18	31.70		0.94	-98.20	0.94	-98.20	0.18	31.70
13400	0.18	30.10		0.94	-99.30	0.94	-99.30	0.18	30.10
13450	0.19	28.50		0.94	-100.30	0.94	-100.30	0.19	28.50
13500	0.18	27.20		0.95	-101.20	0.95	-101.20	0.18	27.20
13550	0.17	26.00		0.95	-102.20	0.95	-102.20	0.17	26.00
13600	0.17	24.50		0.95	-103.20	0.95	-103.20	0.17	24.50
13650	0.17	23.00		0.95	-104.20	0.95	-104.20	0.17	23.00
13700	0.17	20.00		0.95	-105.10	0.95	-105.10	0.17	20.00
13750	0.17	16.90		0.95	-106.00	0.95	-106.00	0.17	16.90
13800	0.16	13.60		0.95	-106.90	0.95	-106.90	0.16	13.60
13850	0.15	10.20		0.95	-107.70	0.95	-107.70	0.15	10.20
13900	0.15	6.30		0.95	-108.50	0.95	-108.50	0.15	6.30
13950	0.15	2.40		0.95	-109.30	0.95	-109.30	0.15	2.40
14000	0.15	-1.30		0.95	-110.20	0.95	-110.20	0.15	-1.30
14050	0.14	-5.00		0.95	-111.10	0.95	-111.10	0.14	-5.00
14100	0.14	-8.30		0.95	-111.90	0.95	-111.90	0.14	-8.30
14150	0.13	-11.50	0.96	-112.80	0.96	-112.80	0.13	-11.50
14200	0.13	-14.90	0.96	-113.70	0.96	-113.70	0.13	-14.90
14250	0.13	-18.30	0.95	-114.60	0.95	-114.60	0.13	-18.30
14300	0.12	-19.70	0.96	-115.30	0.96	-115.30	0.12	-19.70
14350	0.11	-21.10	0.96	-116.10	0.96	-116.10	0.11	-21.10
14400	0.11	-24.20	0.96	-117.10	0.96	-117.10	0.11	-24.20
14450	0.11	-27.30	0.95	-118.10	0.95	-118.10	0.11	-27.30
14500	0.10	-26.30	0.95	-118.80	0.95	-118.80	0.10	-26.30
14550	0.09	-25.30	0.95	-119.40	0.95	-119.40	0.09	-25.30
14600	0.08	-24.50	0.95	-120.40	0.95	-120.40	0.08	-24.50
14650	0.07	-23.60	0.95	-121.30	0.95	-121.30	0.07	-23.60
14700	0.06	-23.30	0.95	-122.30	0.95	-122.30	0.06	-23.30
14750	0.05	-23.10	0.96	-123.20	0.96	-123.20	0.05	-23.10
14800	0.05	-11.50	0.95	-124.20	0.95	-124.20	0.05	-11.50
14850	0.05	0.10		0.95	-125.20	0.95	-125.20	0.05	0.10
14900	0.04	18.20		0.95	-126.20	0.95	-126.20	0.04	18.20
14950	0.03	36.30		0.95	-127.10	0.95	-127.10	0.03	36.30
15000	0.04	52.30		0.95	-128.20	0.95	-128.20	0.04	52.30
15050	0.04	68.40		0.95	-129.30	0.95	-129.30	0.04	68.40
15100	0.04	75.70		0.95	-130.20	0.95	-130.20	0.04	75.70
15150	0.05	83.10		0.94	-131.10	0.94	-131.10	0.05	83.10
15200	0.06	87.10		0.94	-132.10	0.94	-132.10	0.06	87.10
15250	0.07	91.00		0.94	-133.10	0.94	-133.10	0.07	91.00
15300	0.08	94.40		0.94	-134.40	0.94	-134.40	0.08	94.40
15350	0.09	97.70		0.94	-135.60	0.94	-135.60	0.09	97.70
15400	0.10	97.00		0.93	-136.90	0.93	-136.90	0.10	97.00
15450	0.11	96.30		0.92	-138.20	0.92	-138.20	0.11	96.30
15500	0.12	97.20		0.92	-139.30	0.92	-139.30	0.12	97.20
15550	0.13	98.10		0.91	-140.40	0.91	-140.40	0.13	98.10
15600	0.15	99.50		0.90	-141.80	0.90	-141.80	0.15	99.50
15650	0.17	100.80	0.90	-143.20	0.90	-143.20	0.17	100.80
15700	0.19	98.70		0.89	-144.80	0.89	-144.80	0.19	98.70
15750	0.20	96.60		0.88	-146.40	0.88	-146.40	0.20	96.60
15800	0.23	98.90		0.86	-147.90	0.86	-147.90	0.23	98.90
15850	0.25	101.20	0.85	-149.30	0.85	-149.30	0.25	101.20
15900	0.29	97.30		0.83	-151.30	0.83	-151.30	0.29	97.30
15950	0.32	93.40		0.81	-153.30	0.81	-153.30	0.32	93.40
16000	0.35	93.60		0.78	-154.70	0.78	-154.70	0.35	93.60
16050	0.38	93.80		0.75	-156.20	0.75	-156.20	0.38	93.80
16100	0.42	91.60		0.72	-157.80	0.72	-157.80	0.42	91.60
16150	0.46	89.40		0.68	-159.50	0.68	-159.50	0.46	89.40
16200	0.48	86.20		0.64	-160.20	0.64	-160.20	0.48	86.20
16250	0.50	83.10		0.60	-160.90	0.60	-160.90	0.50	83.10
16300	0.51	81.20		0.57	-159.80	0.57	-159.80	0.51	81.20
16350	0.52	79.40		0.53	-158.80	0.53	-158.80	0.52	79.40
16400	0.53	77.50		0.52	-157.60	0.52	-157.60	0.53	77.50
16450	0.54	75.70		0.50	-156.30	0.50	-156.30	0.54	75.70
16500	0.55	74.90		0.48	-156.50	0.48	-156.50	0.55	74.90
16550	0.56	74.00		0.45	-156.70	0.45	-156.70	0.56	74.00
16600	0.59	71.10		0.42	-156.10	0.42	-156.10	0.59	71.10
16650	0.63	68.30		0.38	-155.40	0.38	-155.40	0.63	68.30
16700	0.65	64.10		0.34	-150.20	0.34	-150.20	0.65	64.10
16750	0.67	59.90		0.31	-145.10	0.31	-145.10	0.67	59.90
16800	0.67	54.40		0.30	-135.00	0.30	-135.00	0.67	54.40
16850	0.68	49.00		0.29	-124.90	0.29	-124.90	0.68	49.00
16900	0.68	43.20		0.31	-116.50	0.31	-116.50	0.68	43.20
16950	0.67	37.40		0.34	-108.10	0.34	-108.10	0.67	37.40
17000	0.65	32.60		0.39	-104.90	0.39	-104.90	0.65	32.60
17050	0.63	27.90		0.44	-101.70	0.44	-101.70	0.63	27.90
17100	0.61	23.80		0.49	-101.60	0.49	-101.60	0.61	23.80
17150	0.58	19.60		0.54	-101.60	0.54	-101.60	0.58	19.60
17200	0.55	16.30		0.58	-102.60	0.58	-102.60	0.55	16.30
17250	0.52	13.00		0.63	-103.50	0.63	-103.50	0.52	13.00
17300	0.49	11.20		0.67	-105.30	0.67	-105.30	0.49	11.20
17350	0.46	9.40		0.71	-107.10	0.71	-107.10	0.46	9.40
17400	0.44	7.60		0.74	-108.80	0.74	-108.80	0.44	7.60
17450	0.41	5.80		0.77	-110.50	0.77	-110.50	0.41	5.80
17500	0.38	5.50		0.80	-112.60	0.80	-112.60	0.38	5.50
17550	0.35	5.20		0.82	-114.80	0.82	-114.80	0.35	5.20
17600	0.33	6.60		0.84	-116.80	0.84	-116.80	0.33	6.60
17650	0.31	7.90		0.86	-118.90	0.86	-118.90	0.31	7.90
17700	0.29	8.90		0.87	-120.60	0.87	-120.60	0.29	8.90
17750	0.28	9.90		0.89	-122.20	0.89	-122.20	0.28	9.90
17800	0.26	11.40		0.89	-124.10	0.89	-124.10	0.26	11.40
17850	0.24	12.90		0.90	-125.90	0.90	-125.90	0.24	12.90
17900	0.23	14.00		0.91	-127.30	0.91	-127.30	0.23	14.00
17950	0.22	15.10		0.91	-128.60	0.91	-128.60	0.22	15.10
18000	0.21	15.10		0.92	-130.00	0.92	-130.00	0.21	15.10
18050	0.20	15.10		0.92	-131.40	0.92	-131.40	0.20	15.10
18100	0.19	13.80		0.92	-132.60	0.92	-132.60	0.19	13.80
18150	0.18	12.50		0.93	-133.80	0.93	-133.80	0.18	12.50
18200	0.18	10.30		0.93	-134.90	0.93	-134.90	0.18	10.30
18250	0.17	8.00		0.93	-136.10	0.93	-136.10	0.17	8.00
18300	0.17	5.10		0.94	-137.10	0.94	-137.10	0.17	5.10
18350	0.17	2.20		0.94	-138.10	0.94	-138.10	0.17	2.20
18400	0.17	-0.30		0.94	-139.00	0.94	-139.00	0.17	-0.30
18450	0.17	-2.90		0.94	-139.90	0.94	-139.90	0.17	-2.90
