#	mhz	s	ma	r	50

50	0.68	138.70	0.65	44.70	0.65	44.70	0.68	138.70
100	0.50	124.70	0.79	31.90	0.79	31.90	0.50	124.70
150	0.32	110.60	0.93	19.00	0.93	19.00	0.32	110.60
200	0.25	106.20	0.95	14.80	0.95	14.80	0.25	106.20
250	0.19	101.90	0.98	10.50	0.98	10.50	0.19	101.90
300	0.15	100.10	0.98	8.10	0.98	8.10	0.15	100.10
350	0.12	98.30	0.99	5.70	0.99	5.70	0.12	98.30
400	0.09	95.70	0.99	4.10	0.99	4.10	0.09	95.70
450	0.07	93.10	0.99	2.60	0.99	2.60	0.07	93.10
500	0.05	92.10	1.00	1.20	1.00	1.20	0.05	92.10
550	0.04	91.10	1.00	-0.30	1.00	-0.30	0.04	91.10
600	0.03	95.20	1.00	-1.40	1.00	-1.40	0.03	95.20
650	0.02	99.30	1.00	-2.40	1.00	-2.40	0.02	99.30
700	0.01	-25.40	1.00	-3.30	1.00	-3.30	0.01	-25.40
750	0.00	-150.10	1.00	-4.20	1.00	-4.20	0.00	-150.10
800	0.01	-130.10	1.00	-5.10	1.00	-5.10	0.01	-130.10
850	0.02	-110.10	1.00	-6.00	1.00	-6.00	0.02	-110.10
900	0.03	-108.60	1.00	-6.80	1.00	-6.80	0.03	-108.60
950	0.03	-107.10	1.00	-7.60	1.00	-7.60	0.03	-107.10
1000	0.04	-107.20	1.00	-8.40	1.00	-8.40	0.04	-107.20
1050	0.05	-107.30	1.00	-9.20	1.00	-9.20	0.05	-107.30
1100	0.06	-107.00	1.00	-10.00	1.00	-10.00	0.06	-107.00
1150	0.06	-106.70	1.00	-10.80	1.00	-10.80	0.06	-106.70
1200	0.07	-107.10	1.00	-11.50	1.00	-11.50	0.07	-107.10
1250	0.07	-107.40	1.00	-12.30	1.00	-12.30	0.07	-107.40
1300	0.08	-109.10	1.00	-13.00	1.00	-13.00	0.08	-109.10
1350	0.08	-110.80	1.00	-13.80	1.00	-13.80	0.08	-110.80
1400	0.09	-111.30	1.00	-14.50	1.00	-14.50	0.09	-111.30
1450	0.10	-111.70	1.00	-15.20	1.00	-15.20	0.10	-111.70
1500	0.10	-112.80	0.99	-16.00	0.99	-16.00	0.10	-112.80
1550	0.11	-113.80	0.99	-16.80	0.99	-16.80	0.11	-113.80
1600	0.11	-114.00	0.99	-17.50	0.99	-17.50	0.11	-114.00
1650	0.12	-114.10	0.99	-18.30	0.99	-18.30	0.12	-114.10
1700	0.13	-115.40	0.99	-19.10	0.99	-19.10	0.13	-115.40
1750	0.13	-116.70	0.99	-19.80	0.99	-19.80	0.13	-116.70
1800	0.14	-116.70	0.99	-20.60	0.99	-20.60	0.14	-116.70
1850	0.14	-116.70	0.99	-21.40	0.99	-21.40	0.14	-116.70
1900	0.15	-117.80	0.99	-22.10	0.99	-22.10	0.15	-117.80
1950	0.16	-118.90	0.99	-22.80	0.99	-22.80	0.16	-118.90
2000	0.16	-119.80	0.99	-23.70	0.99	-23.70	0.16	-119.80
2050	0.17	-120.60	0.98	-24.60	0.98	-24.60	0.17	-120.60
2100	0.17	-119.40	0.98	-25.10	0.98	-25.10	0.17	-119.40
2150	0.18	-118.30	0.98	-25.70	0.98	-25.70	0.18	-118.30
2200	0.19	-119.70	0.98	-26.50	0.98	-26.50	0.19	-119.70
2250	0.19	-121.00	0.98	-27.30	0.98	-27.30	0.19	-121.00
2300	0.20	-121.40	0.98	-28.10	0.98	-28.10	0.20	-121.40
2350	0.21	-121.80	0.98	-28.90	0.98	-28.90	0.21	-121.80
2400	0.22	-123.00	0.97	-29.80	0.97	-29.80	0.22	-123.00
2450	0.22	-124.30	0.97	-30.70	0.97	-30.70	0.22	-124.30
2500	0.23	-124.70	0.97	-31.50	0.97	-31.50	0.23	-124.70
2550	0.24	-125.10	0.97	-32.30	0.97	-32.30	0.24	-125.10
2600	0.25	-126.10	0.96	-33.10	0.96	-33.10	0.25	-126.10
2650	0.26	-127.10	0.96	-33.90	0.96	-33.90	0.26	-127.10
2700	0.26	-127.80	0.96	-34.80	0.96	-34.80	0.26	-127.80
2750	0.27	-128.40	0.95	-35.60	0.95	-35.60	0.27	-128.40
2800	0.28	-129.30	0.95	-36.50	0.95	-36.50	0.28	-129.30
2850	0.29	-130.20	0.95	-37.30	0.95	-37.30	0.29	-130.20
2900	0.30	-131.30	0.95	-38.50	0.95	-38.50	0.30	-131.30
2950	0.31	-132.30	0.94	-39.70	0.94	-39.70	0.31	-132.30
3000	0.32	-133.40	0.93	-40.80	0.93	-40.80	0.32	-133.40
3050	0.34	-134.40	0.93	-41.90	0.93	-41.90	0.34	-134.40
3100	0.36	-137.10	0.91	-43.50	0.91	-43.50	0.36	-137.10
3150	0.37	-139.80	0.90	-45.10	0.90	-45.10	0.37	-139.80
3200	0.40	-144.10	0.86	-47.20	0.86	-47.20	0.40	-144.10
3250	0.43	-148.40	0.83	-49.30	0.83	-49.30	0.43	-148.40
3300	0.45	14.80	0.71	-45.30	0.71	-45.30	0.45	14.80
3350	0.46	178.00	0.60	-41.40	0.60	-41.40	0.46	178.00
3400	0.30	177.70	0.74	-35.00	0.74	-35.00	0.30	177.70
3450	0.13	177.40	0.88	-28.70	0.88	-28.70	0.13	177.40
3500	0.16	20.40	0.91	-32.60	0.91	-32.60	0.16	20.40
3550	0.18	-136.60	0.94	-36.50	0.94	-36.50	0.18	-136.60
3600	0.20	-134.50	0.95	-38.50	0.95	-38.50	0.20	-134.50
3650	0.23	-132.30	0.95	-40.50	0.95	-40.50	0.23	-132.30
3700	0.25	-132.20	0.95	-42.10	0.95	-42.10	0.25	-132.20
3750	0.26	-132.00	0.95	-43.70	0.95	-43.70	0.26	-132.00
3800	0.27	-132.10	0.95	-44.70	0.95	-44.70	0.27	-132.10
3850	0.28	-132.10	0.95	-45.70	0.95	-45.70	0.28	-132.10
3900	0.29	-132.60	0.94	-46.90	0.94	-46.90	0.29	-132.60
3950	0.30	-133.10	0.94	-48.10	0.94	-48.10	0.30	-133.10
4000	0.31	-133.00	0.94	-48.90	0.94	-48.90	0.31	-133.00
4050	0.32	-133.00	0.94	-49.70	0.94	-49.70	0.32	-133.00
4100	0.32	-133.40	0.94	-50.60	0.94	-50.60	0.32	-133.40
4150	0.33	-133.70	0.93	-51.50	0.93	-51.50	0.33	-133.70
4200	0.34	-134.40	0.93	-52.50	0.93	-52.50	0.34	-134.40
4250	0.35	-135.10	0.93	-53.50	0.93	-53.50	0.35	-135.10
4300	0.35	-135.50	0.92	-54.10	0.92	-54.10	0.35	-135.50
4350	0.36	-136.00	0.92	-54.80	0.92	-54.80	0.36	-136.00
4400	0.37	-136.80	0.92	-55.80	0.92	-55.80	0.37	-136.80
4450	0.37	-137.70	0.92	-56.70	0.92	-56.70	0.37	-137.70
4500	0.38	-138.20	0.91	-57.60	0.91	-57.60	0.38	-138.20
4550	0.39	-138.60	0.91	-58.50	0.91	-58.50	0.39	-138.60
4600	0.40	-139.90	0.90	-59.50	0.90	-59.50	0.40	-139.90
4650	0.41	-141.10	0.90	-60.50	0.90	-60.50	0.41	-141.10
4700	0.41	-142.10	0.89	-61.20	0.89	-61.20	0.41	-142.10
4750	0.42	-143.10	0.89	-61.90	0.89	-61.90	0.42	-143.10
4800	0.43	-144.30	0.89	-62.70	0.89	-62.70	0.43	-144.30
4850	0.43	-145.50	0.88	-63.50	0.88	-63.50	0.43	-145.50
4900	0.44	-147.00	0.88	-64.50	0.88	-64.50	0.44	-147.00
4950	0.45	-148.40	0.88	-65.40	0.88	-65.40	0.45	-148.40
5000	0.46	-149.70	0.87	-66.20	0.87	-66.20	0.46	-149.70
5050	0.47	-151.00	0.86	-67.00	0.86	-67.00	0.47	-151.00
5100	0.47	-152.30	0.86	-67.80	0.86	-67.80	0.47	-152.30
5150	0.48	-153.60	0.85	-68.50	0.85	-68.50	0.48	-153.60
5200	0.49	-155.00	0.85	-69.40	0.85	-69.40	0.49	-155.00
5250	0.50	-156.40	0.84	-70.20	0.84	-70.20	0.50	-156.40
5300	0.51	-158.40	0.83	-71.40	0.83	-71.40	0.51	-158.40
5350	0.52	-160.40	0.82	-72.50	0.82	-72.50	0.52	-160.40
5400	0.53	-161.90	0.81	-73.50	0.81	-73.50	0.53	-161.90
5450	0.54	-163.40	0.80	-74.40	0.80	-74.40	0.54	-163.40
5500	0.55	-165.60	0.79	-75.50	0.79	-75.50	0.55	-165.60
5550	0.56	-167.80	0.77	-76.60	0.77	-76.60	0.56	-167.80
5600	0.58	-170.60	0.75	-77.70	0.75	-77.70	0.58	-170.60
5650	0.59	-173.40	0.73	-78.90	0.73	-78.90	0.59	-173.40
5700	0.60	1.60	0.68	-78.90	0.68	-78.90	0.60	1.60
5750	0.61	176.50	0.64	-78.90	0.64	-78.90	0.61	176.50
5800	0.55	168.50	0.60	-71.30	0.60	-71.30	0.55	168.50
5850	0.50	160.50	0.57	-63.60	0.57	-63.60	0.50	160.50
5900	0.41	167.60	0.67	-61.50	0.67	-61.50	0.41	167.60
5950	0.33	174.80	0.77	-59.40	0.77	-59.40	0.33	174.80
6000	0.36	3.50	0.80	-63.20	0.80	-63.20	0.36	3.50
6050	0.40	-167.80	0.83	-67.10	0.83	-67.10	0.40	-167.80
6100	0.43	-167.30	0.84	-69.40	0.84	-69.40	0.43	-167.30
6150	0.46	-166.80	0.84	-71.70	0.84	-71.70	0.46	-166.80
6200	0.48	-167.70	0.84	-73.40	0.84	-73.40	0.48	-167.70
6250	0.50	-168.70	0.83	-75.10	0.83	-75.10	0.50	-168.70
6300	0.51	-169.40	0.83	-76.30	0.83	-76.30	0.51	-169.40
6350	0.53	-170.10	0.82	-77.50	0.82	-77.50	0.53	-170.10
6400	0.54	-170.80	0.82	-78.60	0.82	-78.60	0.54	-170.80
6450	0.55	-171.40	0.81	-79.70	0.81	-79.70	0.55	-171.40
6500	0.55	-172.30	0.81	-80.60	0.81	-80.60	0.55	-172.30
6550	0.56	-173.10	0.80	-81.60	0.80	-81.60	0.56	-173.10
6600	0.57	-174.00	0.80	-82.50	0.80	-82.50	0.57	-174.00
6650	0.57	-175.00	0.80	-83.40	0.80	-83.40	0.57	-175.00
6700	0.58	-175.70	0.79	-84.00	0.79	-84.00	0.58	-175.70
6750	0.58	-176.40	0.79	-84.70	0.79	-84.70	0.58	-176.40
6800	0.59	-177.80	0.78	-85.80	0.78	-85.80	0.59	-177.80
6850	0.60	-179.10	0.78	-86.80	0.78	-86.80	0.60	-179.10
6900	0.60	0.20	0.78	-87.60	0.78	-87.60	0.60	0.20
6950	0.60	179.50	0.77	-88.40	0.77	-88.40	0.60	179.50
7000	0.61	178.20	0.77	-89.50	0.77	-89.50	0.61	178.20
7050	0.61	176.90	0.76	-90.60	0.76	-90.60	0.61	176.90
7100	0.62	176.10	0.76	-91.20	0.76	-91.20	0.62	176.10
7150	0.62	175.30	0.75	-91.90	0.75	-91.90	0.62	175.30
7200	0.63	174.10	0.75	-93.00	0.75	-93.00	0.63	174.10
7250	0.64	172.90	0.75	-94.00	0.75	-94.00	0.64	172.90
7300	0.65	171.50	0.74	-95.00	0.74	-95.00	0.65	171.50
7350	0.65	170.10	0.73	-96.00	0.73	-96.00	0.65	170.10
7400	0.66	169.30	0.73	-97.00	0.73	-97.00	0.66	169.30
7450	0.66	168.40	0.72	-97.90	0.72	-97.90	0.66	168.40
7500	0.67	166.80	0.71	-99.20	0.71	-99.20	0.67	166.80
7550	0.68	165.20	0.70	-100.50	0.70	-100.50	0.68	165.20
7600	0.68	164.20	0.70	-101.40	0.70	-101.40	0.68	164.20
7650	0.68	163.30	0.69	-102.40	0.69	-102.40	0.68	163.30
7700	0.69	161.60	0.68	-103.70	0.68	-103.70	0.69	161.60
7750	0.70	160.00	0.67	-105.00	0.67	-105.00	0.70	160.00
7800	0.70	157.80	0.65	-106.40	0.65	-106.40	0.70	157.80
7850	0.71	155.60	0.64	-107.80	0.64	-107.80	0.71	155.60
7900	0.72	153.60	0.62	-109.00	0.62	-109.00	0.72	153.60
7950	0.73	151.60	0.60	-110.10	0.60	-110.10	0.73	151.60
8000	0.74	148.60	0.57	-111.00	0.57	-111.00	0.74	148.60
8050	0.75	145.60	0.54	-112.00	0.54	-112.00	0.75	145.60
8100	0.74	141.70	0.51	-111.90	0.51	-111.90	0.74	141.70
8150	0.74	137.80	0.47	-111.90	0.47	-111.90	0.74	137.80
8200	0.72	133.00	0.43	-106.50	0.43	-106.50	0.72	133.00
8250	0.70	128.30	0.39	-101.10	0.39	-101.10	0.70	128.30
8300	0.63	123.80	0.42	-91.50	0.42	-91.50	0.63	123.80
8350	0.56	119.40	0.45	-82.00	0.45	-82.00	0.56	119.40
8400	0.49	124.00	0.53	-82.60	0.53	-82.60	0.49	124.00
8450	0.42	128.50	0.62	-83.30	0.62	-83.30	0.42	128.50
8500	0.43	136.80	0.66	-88.60	0.66	-88.60	0.43	136.80
8550	0.44	145.10	0.70	-94.00	0.70	-94.00	0.44	145.10
8600	0.48	147.00	0.70	-98.40	0.70	-98.40	0.48	147.00
8650	0.52	148.80	0.71	-102.70	0.71	-102.70	0.52	148.80
8700	0.55	148.50	0.70	-106.00	0.70	-106.00	0.55	148.50
8750	0.59	148.30	0.68	-109.30	0.68	-109.30	0.59	148.30
8800	0.61	146.80	0.67	-111.50	0.67	-111.50	0.61	146.80
8850	0.64	145.20	0.66	-113.70	0.66	-113.70	0.64	145.20
8900	0.65	144.00	0.64	-116.00	0.64	-116.00	0.65	144.00
8950	0.67	142.80	0.62	-118.30	0.62	-118.30	0.67	142.80
9000	0.69	141.60	0.61	-120.00	0.61	-120.00	0.69	141.60
9050	0.71	140.50	0.59	-121.80	0.59	-121.80	0.71	140.50
9100	0.73	139.20	0.58	-123.40	0.58	-123.40	0.73	139.20
9150	0.75	137.90	0.56	-125.00	0.56	-125.00	0.75	137.90
9200	0.76	135.90	0.55	-127.10	0.55	-127.10	0.76	135.90
9250	0.77	133.90	0.53	-129.10	0.53	-129.10	0.77	133.90
9300	0.77	133.50	0.51	-130.10	0.51	-130.10	0.77	133.50
9350	0.77	133.10	0.49	-131.10	0.49	-131.10	0.77	133.10
9400	0.79	131.70	0.47	-132.60	0.47	-132.60	0.79	131.70
9450	0.80	130.30	0.46	-134.10	0.46	-134.10	0.80	130.30
9500	0.79	129.60	0.43	-135.00	0.43	-135.00	0.79	129.60
9550	0.79	128.90	0.41	-136.00	0.41	-136.00	0.79	128.90
9600	0.80	128.10	0.39	-136.40	0.39	-136.40	0.80	128.10
9650	0.82	127.30	0.38	-136.90	0.38	-136.90	0.82	127.30
9700	0.82	126.30	0.36	-137.10	0.36	-137.10	0.82	126.30
9750	0.82	125.20	0.34	-137.40	0.34	-137.40	0.82	125.20
9800	0.82	125.20	0.32	-137.40	0.32	-137.40	0.82	125.20
9850	0.82	125.10	0.31	-137.30	0.31	-137.30	0.82	125.10
9900	0.84	124.10	0.29	-137.40	0.29	-137.40	0.84	124.10
9950	0.86	123.10	0.28	-137.50	0.28	-137.50	0.86	123.10
10000	0.85	121.80	0.26	-137.30	0.26	-137.30	0.85	121.80
10050	0.85	120.60	0.24	-137.20	0.24	-137.20	0.85	120.60
10100	0.86	120.20	0.23	-135.80	0.23	-135.80	0.86	120.20
10150	0.88	119.90	0.21	-134.30	0.21	-134.30	0.88	119.90
10200	0.87	118.20	0.19	-132.10	0.19	-132.10	0.87	118.20
10250	0.87	116.50	0.17	-129.90	0.17	-129.90	0.87	116.50
10300	0.88	114.70	0.16	-124.40	0.16	-124.40	0.88	114.70
10350	0.88	112.80	0.14	-118.90	0.14	-118.90	0.88	112.80
10400	0.86	111.20	0.13	-108.20	0.13	-108.20	0.86	111.20
10450	0.84	109.60	0.13	-97.50	0.13	-97.50	0.84	109.60
10500	0.83	107.10	0.14	-87.60	0.14	-87.60	0.83	107.10
10550	0.83	104.70	0.15	-77.70	0.15	-77.70	0.83	104.70
10600	0.80	102.40	0.18	-71.90	0.18	-71.90	0.80	102.40
10650	0.77	100.10	0.21	-66.10	0.21	-66.10	0.77	100.10
10700	0.74	98.60	0.25	-66.70	0.25	-66.70	0.74	98.60
10750	0.70	97.10	0.29	-67.40	0.29	-67.40	0.70	97.10
10800	0.65	97.60	0.34	-71.40	0.34	-71.40	0.65	97.60
10850	0.60	98.20	0.38	-75.40	0.38	-75.40	0.60	98.20
10900	0.56	102.90	0.41	-83.50	0.41	-83.50	0.56	102.90
10950	0.53	107.60	0.44	-91.70	0.44	-91.70	0.53	107.60
11000	0.57	113.30	0.44	-100.50	0.44	-100.50	0.57	113.30
11050	0.61	118.90	0.44	-109.30	0.44	-109.30	0.61	118.90
11100	0.66	118.40	0.41	-115.70	0.41	-115.70	0.66	118.40
11150	0.71	117.90	0.37	-122.10	0.37	-122.10	0.71	117.90
11200	0.75	116.10	0.34	-126.30	0.34	-126.30	0.75	116.10
11250	0.80	114.20	0.31	-130.50	0.31	-130.50	0.80	114.20
11300	0.82	111.90	0.27	-132.40	0.27	-132.40	0.82	111.90
11350	0.85	109.70	0.24	-134.30	0.24	-134.30	0.85	109.70
11400	0.86	106.80	0.21	-134.80	0.21	-134.80	0.86	106.80
11450	0.87	104.00	0.18	-135.30	0.18	-135.30	0.87	104.00
11500	0.89	102.00	0.16	-132.00	0.16	-132.00	0.89	102.00
11550	0.90	100.00	0.13	-128.70	0.13	-128.70	0.90	100.00
11600	0.90	97.80	0.12	-121.70	0.12	-121.70	0.90	97.80
11650	0.91	95.60	0.10	-114.70	0.10	-114.70	0.91	95.60
11700	0.92	93.70	0.09	-101.60	0.09	-101.60	0.92	93.70
11750	0.92	91.90	0.08	-88.50	0.08	-88.50	0.92	91.90
11800	0.92	90.50	0.09	-75.10	0.09	-75.10	0.92	90.50
11850	0.92	89.20	0.09	-61.80	0.09	-61.80	0.92	89.20
11900	0.92	87.60	0.11	-54.40	0.11	-54.40	0.92	87.60
11950	0.91	86.10	0.12	-47.00	0.12	-47.00	0.91	86.10
12000	0.91	85.10	0.14	-42.10	0.14	-42.10	0.91	85.10
12050	0.91	84.10	0.16	-37.20	0.16	-37.20	0.91	84.10
12100	0.91	82.10	0.19	-36.70	0.19	-36.70	0.91	82.10
12150	0.91	80.10	0.21	-36.20	0.21	-36.20	0.91	80.10
12200	0.90	78.70	0.23	-36.10	0.23	-36.10	0.90	78.70
12250	0.89	77.40	0.25	-36.10	0.25	-36.10	0.89	77.40
12300	0.88	76.30	0.27	-36.70	0.27	-36.70	0.88	76.30
12350	0.87	75.20	0.29	-37.40	0.29	-37.40	0.87	75.20
12400	0.87	72.80	0.32	-38.90	0.32	-38.90	0.87	72.80
12450	0.86	70.40	0.34	-40.50	0.34	-40.50	0.86	70.40
12500	0.85	69.10	0.36	-41.80	0.36	-41.80	0.85	69.10
12550	0.83	67.80	0.38	-43.10	0.38	-43.10	0.83	67.80
12600	0.82	66.30	0.41	-44.90	0.41	-44.90	0.82	66.30
12650	0.81	64.70	0.43	-46.80	0.43	-46.80	0.81	64.70
12700	0.80	63.00	0.45	-48.50	0.45	-48.50	0.80	63.00
12750	0.79	61.20	0.47	-50.20	0.47	-50.20	0.79	61.20
12800	0.77	59.60	0.49	-52.60	0.49	-52.60	0.77	59.60
12850	0.75	57.90	0.51	-55.00	0.51	-55.00	0.75	57.90
12900	0.73	56.50	0.53	-57.20	0.53	-57.20	0.73	56.50
12950	0.72	55.10	0.55	-59.40	0.55	-59.40	0.72	55.10
13000	0.69	53.90	0.56	-62.10	0.56	-62.10	0.69	53.90
13050	0.66	52.60	0.58	-64.70	0.58	-64.70	0.66	52.60
13100	0.64	51.60	0.59	-67.60	0.59	-67.60	0.64	51.60
13150	0.61	50.60	0.61	-70.50	0.61	-70.50	0.61	50.60
13200	0.59	50.50	0.61	-73.70	0.61	-73.70	0.59	50.50
13250	0.57	50.50	0.62	-76.90	0.62	-76.90	0.57	50.50
13300	0.53	53.60	0.62	-81.40	0.62	-81.40	0.53	53.60
13350	0.50	56.70	0.61	-85.90	0.61	-85.90	0.50	56.70
13400	0.51	58.30	0.58	-89.70	0.58	-89.70	0.51	58.30
13450	0.53	59.90	0.55	-93.40	0.55	-93.40	0.53	59.90
13500	0.56	61.10	0.51	-94.70	0.51	-94.70	0.56	61.10
13550	0.58	62.20	0.46	-95.90	0.46	-95.90	0.58	62.20
13600	0.62	60.20	0.43	-92.70	0.43	-92.70	0.62	60.20
13650	0.66	58.20	0.40	-89.40	0.40	-89.40	0.66	58.20
13700	0.68	54.70	0.41	-85.10	0.41	-85.10	0.68	54.70
13750	0.70	51.20	0.41	-80.80	0.41	-80.80	0.70	51.20
13800	0.70	47.70	0.43	-78.80	0.43	-78.80	0.70	47.70
13850	0.70	44.20	0.44	-76.90	0.44	-76.90	0.70	44.20
13900	0.71	40.60	0.46	-76.40	0.46	-76.40	0.71	40.60
13950	0.71	37.10	0.48	-75.90	0.48	-75.90	0.71	37.10
14000	0.70	33.80	0.50	-76.30	0.50	-76.30	0.70	33.80
14050	0.70	30.60	0.51	-76.60	0.51	-76.60	0.70	30.60
14100	0.70	27.60	0.52	-77.00	0.52	-77.00	0.70	27.60
14150	0.70	24.60	0.54	-77.50	0.54	-77.50	0.70	24.60
14200	0.69	21.40	0.55	-78.10	0.55	-78.10	0.69	21.40
14250	0.69	18.20	0.55	-78.70	0.55	-78.70	0.69	18.20
14300	0.68	15.60	0.56	-78.80	0.56	-78.80	0.68	15.60
14350	0.66	12.90	0.57	-78.90	0.57	-78.90	0.66	12.90
14400	0.65	10.90	0.59	-78.80	0.59	-78.80	0.65	10.90
14450	0.64	8.80	0.61	-78.70	0.61	-78.70	0.64	8.80
14500	0.63	7.80	0.62	-79.40	0.62	-79.40	0.63	7.80
14550	0.61	6.70	0.64	-80.10	0.64	-80.10	0.61	6.70
14600	0.61	5.60	0.66	-81.50	0.66	-81.50	0.61	5.60
14650	0.61	4.50	0.68	-82.90	0.68	-82.90	0.61	4.50
14700	0.60	3.00	0.69	-84.40	0.69	-84.40	0.60	3.00
14750	0.59	1.50	0.70	-85.80	0.70	-85.80	0.59	1.50
14800	0.59	0.40	0.70	-87.20	0.70	-87.20	0.59	0.40
14850	0.59	-0.70	0.71	-88.60	0.71	-88.60	0.59	-0.70
14900	0.58	-0.90	0.72	-89.60	0.72	-89.60	0.58	-0.90
14950	0.57	-1.00	0.73	-90.70	0.73	-90.70	0.57	-1.00
15000	0.56	-2.80	0.74	-92.30	0.74	-92.30	0.56	-2.80
15050	0.55	-4.50	0.74	-94.00	0.74	-94.00	0.55	-4.50
15100	0.54	-4.70	0.75	-94.90	0.75	-94.90	0.54	-4.70
15150	0.53	-4.80	0.75	-95.90	0.75	-95.90	0.53	-4.80
15200	0.52	-5.20	0.76	-97.20	0.76	-97.20	0.52	-5.20
15250	0.52	-5.60	0.76	-98.60	0.76	-98.60	0.52	-5.60
15300	0.51	-6.60	0.76	-100.30	0.76	-100.30	0.51	-6.60
15350	0.50	-7.60	0.76	-102.10	0.76	-102.10	0.50	-7.60
15400	0.50	-6.80	0.75	-103.20	0.75	-103.20	0.50	-6.80
15450	0.49	-6.00	0.74	-104.30	0.74	-104.30	0.49	-6.00
15500	0.49	-5.40	0.74	-105.50	0.74	-105.50	0.49	-5.40
15550	0.50	-4.90	0.74	-106.70	0.74	-106.70	0.50	-4.90
15600	0.50	-4.80	0.73	-107.40	0.73	-107.40	0.50	-4.80
15650	0.50	-4.70	0.72	-108.10	0.72	-108.10	0.50	-4.70
15700	0.52	-5.00	0.71	-109.10	0.71	-109.10	0.52	-5.00
15750	0.53	-5.30	0.70	-110.10	0.70	-110.10	0.53	-5.30
15800	0.53	-6.20	0.69	-110.50	0.69	-110.50	0.53	-6.20
15850	0.52	-7.10	0.68	-110.80	0.68	-110.80	0.52	-7.10
15900	0.53	-8.40	0.66	-110.40	0.66	-110.40	0.53	-8.40
15950	0.55	-9.70	0.65	-110.00	0.65	-110.00	0.55	-9.70
16000	0.53	-12.00	0.65	-108.90	0.65	-108.90	0.53	-12.00
16050	0.51	-14.30	0.66	-107.80	0.66	-107.80	0.51	-14.30
16100	0.49	-16.90	0.67	-108.20	0.67	-108.20	0.49	-16.90
16150	0.46	-19.50	0.68	-108.60	0.68	-108.60	0.46	-19.50
16200	0.42	-22.60	0.68	-109.80	0.68	-109.80	0.42	-22.60
16250	0.39	-25.80	0.69	-110.90	0.69	-110.90	0.39	-25.80
16300	0.33	-28.90	0.68	-112.70	0.68	-112.70	0.33	-28.90
16350	0.28	-32.10	0.68	-114.40	0.68	-114.40	0.28	-32.10
16400	0.22	-29.50	0.65	-115.20	0.65	-115.20	0.22	-29.50
16450	0.17	-26.80	0.62	-116.10	0.62	-116.10	0.17	-26.80
16500	0.13	-2.60	0.59	-114.20	0.59	-114.20	0.13	-2.60
16550	0.10	21.70	0.56	-112.30	0.56	-112.30	0.10	21.70
16600	0.16	32.80	0.56	-108.30	0.56	-108.30	0.16	32.80
16650	0.22	43.90	0.57	-104.20	0.57	-104.20	0.22	43.90
16700	0.26	38.90	0.60	-101.80	0.60	-101.80	0.26	38.90
16750	0.30	33.90	0.64	-99.40	0.64	-99.40	0.30	33.90
16800	0.31	27.60	0.68	-99.70	0.68	-99.70	0.31	27.60
16850	0.33	21.30	0.71	-100.00	0.71	-100.00	0.33	21.30
16900	0.34	16.40	0.74	-101.30	0.74	-101.30	0.34	16.40
16950	0.34	11.50	0.77	-102.70	0.77	-102.70	0.34	11.50
17000	0.33	8.40	0.79	-104.30	0.79	-104.30	0.33	8.40
17050	0.32	5.40	0.82	-105.90	0.82	-105.90	0.32	5.40
17100	0.31	3.90	0.83	-107.70	0.83	-107.70	0.31	3.90
17150	0.31	2.40	0.84	-109.50	0.84	-109.50	0.31	2.40
17200	0.30	2.20	0.85	-110.80	0.85	-110.80	0.30	2.20
17250	0.29	2.00	0.86	-112.20	0.86	-112.20	0.29	2.00
17300	0.28	3.20	0.87	-113.80	0.87	-113.80	0.28	3.20
17350	0.26	4.50	0.88	-115.30	0.88	-115.30	0.26	4.50
17400	0.26	4.70	0.88	-116.50	0.88	-116.50	0.26	4.70
17450	0.26	5.00	0.88	-117.70	0.88	-117.70	0.26	5.00
17500	0.25	6.10	0.89	-119.30	0.89	-119.30	0.25	6.10
17550	0.25	7.10	0.89	-120.80	0.89	-120.80	0.25	7.10
17600	0.25	8.80	0.89	-122.30	0.89	-122.30	0.25	8.80
17650	0.24	10.50	0.89	-123.80	0.89	-123.80	0.24	10.50
17700	0.24	9.80	0.89	-125.10	0.89	-125.10	0.24	9.80
17750	0.24	9.00	0.89	-126.40	0.89	-126.40	0.24	9.00
17800	0.23	7.60	0.88	-128.00	0.88	-128.00	0.23	7.60
17850	0.22	6.20	0.88	-129.50	0.88	-129.50	0.22	6.20
17900	0.21	2.40	0.86	-130.70	0.86	-130.70	0.21	2.40
17950	0.20	-1.50	0.85	-131.80	0.85	-131.80	0.20	-1.50
18000	0.19	-8.60	0.83	-132.80	0.83	-132.80	0.19	-8.60
18050	0.17	-15.80	0.81	-133.80	0.81	-133.80	0.17	-15.80
18100	0.15	-26.70	0.79	-133.50	0.79	-133.50	0.15	-26.70
18150	0.13	-37.60	0.77	-133.20	0.77	-133.20	0.13	-37.60
18200	0.10	-50.30	0.77	-131.80	0.77	-131.80	0.10	-50.30
18250	0.07	-62.90	0.77	-130.50	0.77	-130.50	0.07	-62.90
18300	0.04	-54.50	0.78	-129.80	0.78	-129.80	0.04	-54.50
18350	0.01	-46.00	0.80	-129.20	0.80	-129.20	0.01	-46.00
18400	0.03	0.30	0.82	-129.80	0.82	-129.80	0.03	0.30
18450	0.04	46.60	0.84	-130.50	0.84	-130.50	0.04	46.60
18500	0.07	44.40	0.85	-131.50	0.85	-131.50	0.07	44.40
18550	0.09	42.30	0.85	-132.50	0.85	-132.50	0.09	42.30
18600	0.10	41.10	0.85	-133.40	0.85	-133.40	0.10	41.10
