# MHZ S MA R 50

      50  0.22   71.00    0.95   -11.30   0.95   -11.30   0.22   71.00
     100  0.39   61.80    0.88   -21.70   0.88   -21.70   0.39   61.80
     150  0.55   52.70    0.80   -32.10   0.80   -32.10   0.55   52.70
     200  0.65   45.50    0.72   -39.80   0.72   -39.80   0.65   45.50
     250  0.76   38.20    0.63   -47.40   0.63   -47.40   0.76   38.20
     300  0.81   32.90    0.56   -52.80   0.56   -52.80   0.81   32.90
     350  0.85   27.50    0.48   -58.20   0.48   -58.20   0.85   27.50
     400  0.89   23.10    0.41   -62.30   0.41   -62.30   0.89   23.10
     450  0.93   18.70    0.35   -66.40   0.35   -66.40   0.93   18.70
     500  0.97   18.00    0.29   -70.80   0.29   -70.80   0.97   18.00
     550  1.00   17.20    0.23   -75.10   0.23   -75.10   1.00   17.20
     600  1.00   14.90    0.19   -77.00   0.19   -77.00   1.00   14.90
     650  0.99   12.60    0.15   -78.80   0.15   -78.80   0.99   12.60
     700  1.00   11.00    0.12   -80.20   0.12   -80.20   1.00   11.00
     750  1.00    9.40    0.08   -81.60   0.08   -81.60   1.00    9.40
     800  1.00    7.20    0.05   -77.80   0.05   -77.80   1.00    7.20
     850  0.99    5.00    0.02   -73.90   0.02   -73.90   0.99    5.00
     900  1.00    3.40    0.03    1.00    0.03    1.00    1.00    3.40
     950  1.00    1.90    0.03   76.00    0.03   76.00    1.00    1.90
    1000  1.00    0.30    0.05   78.10    0.05   78.10    1.00    0.30
    1050  1.00   -1.20    0.08   80.20    0.08   80.20    1.00   -1.20
    1100  1.00   -2.60    0.10   79.40    0.10   79.40    1.00   -2.60
    1150  1.00   -4.10    0.12   78.50    0.12   78.50    1.00   -4.10
    1200  1.00   -5.20    0.14   77.80    0.14   77.80    1.00   -5.20
    1250  1.00   -6.40    0.17   77.20    0.17   77.20    1.00   -6.40
    1300  0.99   -8.10    0.19   75.80    0.19   75.80    0.99   -8.10
    1350  0.98   -9.90    0.20   74.40    0.20   74.40    0.98   -9.90
    1400  0.98   -10.90   0.22   73.70    0.22   73.70    0.98   -10.90
    1450  0.98   -12.00   0.24   72.90    0.24   72.90    0.98   -12.00
    1500  0.97   -13.60   0.26   71.60    0.26   71.60    0.97   -13.60
    1550  0.96   -15.20   0.28   70.30    0.28   70.30    0.96   -15.20
    1600  0.96   -16.70   0.29   69.30    0.29   69.30    0.96   -16.70
    1650  0.95   -18.10   0.31   68.20    0.31   68.20    0.95   -18.10
    1700  0.94   -19.30   0.33   67.20    0.33   67.20    0.94   -19.30
    1750  0.93   -20.40   0.35   66.20    0.35   66.20    0.93   -20.40
    1800  0.93   -22.00   0.36   65.00    0.36   65.00    0.93   -22.00
    1850  0.93   -23.60   0.38   63.70    0.38   63.70    0.93   -23.60
    1900  0.91   -25.00   0.40   62.80    0.40   62.80    0.91   -25.00
    1950  0.90   -26.30   0.41   62.00    0.41   62.00    0.90   -26.30
    2000  0.89   -27.60   0.43   60.90    0.43   60.90    0.89   -27.60
    2050  0.89   -28.90   0.44   59.90    0.44   59.90    0.89   -28.90
    2100  0.88   -30.10   0.46   58.80    0.46   58.80    0.88   -30.10
    2150  0.87   -31.30   0.47   57.80    0.47   57.80    0.87   -31.30
    2200  0.86   -32.40   0.48   56.80    0.48   56.80    0.86   -32.40
    2250  0.85   -33.50   0.50   55.80    0.50   55.80    0.85   -33.50
    2300  0.84   -34.60   0.51   54.90    0.51   54.90    0.84   -34.60
    2350  0.84   -35.70   0.53   54.10    0.53   54.10    0.84   -35.70
    2400  0.83   -37.20   0.54   52.80    0.54   52.80    0.83   -37.20
    2450  0.82   -38.60   0.55   51.50    0.55   51.50    0.82   -38.60
    2500  0.81   -39.70   0.57   50.50    0.57   50.50    0.81   -39.70
    2550  0.80   -40.80   0.58   49.50    0.58   49.50    0.80   -40.80
    2600  0.79   -41.80   0.59   48.50    0.59   48.50    0.79   -41.80
    2650  0.78   -42.80   0.60   47.60    0.60   47.60    0.78   -42.80
    2700  0.77   -43.80   0.62   46.50    0.62   46.50    0.77   -43.80
    2750  0.76   -44.80   0.63   45.40    0.63   45.40    0.76   -44.80
    2800  0.75   -46.10   0.64   44.50    0.64   44.50    0.75   -46.10
    2850  0.74   -47.30   0.65   43.60    0.65   43.60    0.74   -47.30
    2900  0.73   -48.20   0.66   42.30    0.66   42.30    0.73   -48.20
    2950  0.72   -49.10   0.67   41.00    0.67   41.00    0.72   -49.10
    3000  0.71   -50.20   0.68   39.90    0.68   39.90    0.71   -50.20
    3050  0.69   -51.30   0.69   38.80    0.69   38.80    0.69   -51.30
    3100  0.68   -52.70   0.70   37.50    0.70   37.50    0.68   -52.70
    3150  0.66   -54.20   0.72   36.30    0.72   36.30    0.66   -54.20
    3200  0.64   -55.10   0.73   34.90    0.73   34.90    0.64   -55.10
    3250  0.62   -56.00   0.75   33.40    0.75   33.40    0.62   -56.00
    3300  0.60   -57.50   0.76   31.50    0.76   31.50    0.60   -57.50
    3350  0.57   -59.10   0.77   29.50    0.77   29.50    0.57   -59.10
    3400  0.53   -60.60   0.79   26.80    0.79   26.80    0.53   -60.60
    3450  0.49   -62.00   0.81   24.10    0.81   24.10    0.49   -62.00
    3500  0.42   -62.00   0.82   19.40    0.82   19.40    0.42   -62.00
    3550  0.35   -62.00   0.83   14.60    0.83   14.60    0.35   -62.00
    3600  0.29   -37.80   0.79    5.80    0.79    5.80    0.29   -37.80
    3650  0.24   -13.50   0.75   -3.10    0.75   -3.10    0.24   -13.50
    3700  0.44   -8.10    0.56   -8.90    0.56   -8.90    0.44   -8.10
    3750  0.64   -2.80    0.36   -14.70   0.36   -14.70   0.64   -2.80
    3800  0.72   -14.00   0.34   12.90    0.34   12.90    0.72   -14.00
    3850  0.80   -25.20   0.32   40.50    0.32   40.50    0.80   -25.20
    3900  0.80   -31.70   0.40   43.40    0.40   43.40    0.80   -31.70
    3950  0.79   -38.10   0.48   46.30    0.48   46.30    0.79   -38.10
    4000  0.78   -41.60   0.53   45.40    0.53   45.40    0.78   -41.60
    4050  0.76   -45.10   0.57   44.40    0.57   44.40    0.76   -45.10
    4100  0.75   -47.30   0.60   43.20    0.60   43.20    0.75   -47.30
    4150  0.73   -49.50   0.63   42.00    0.63   42.00    0.73   -49.50
    4200  0.72   -51.40   0.65   40.90    0.65   40.90    0.72   -51.40
    4250  0.71   -53.30   0.67   39.90    0.67   39.90    0.71   -53.30
    4300  0.70   -54.70   0.68   39.00    0.68   39.00    0.70   -54.70
    4350  0.68   -56.20   0.69   38.20    0.69   38.20    0.68   -56.20
    4400  0.67   -57.50   0.71   37.20    0.71   37.20    0.67   -57.50
    4450  0.66   -58.90   0.72   36.20    0.72   36.20    0.66   -58.90
    4500  0.65   -59.60   0.73   35.50    0.73   35.50    0.65   -59.60
    4550  0.64   -60.30   0.73   34.80    0.73   34.80    0.64   -60.30
    4600  0.64   -61.70   0.75   33.90    0.75   33.90    0.64   -61.70
    4650  0.63   -63.20   0.76   32.90    0.76   32.90    0.63   -63.20
    4700  0.62   -64.00   0.76   32.20    0.76   32.20    0.62   -64.00
    4750  0.61   -64.90   0.77   31.50    0.77   31.50    0.61   -64.90
    4800  0.60   -65.80   0.77   30.80    0.77   30.80    0.60   -65.80
    4850  0.59   -66.80   0.78   30.10    0.78   30.10    0.59   -66.80
    4900  0.59   -67.40   0.79   29.50    0.79   29.50    0.59   -67.40
    4950  0.59   -68.00   0.79   29.00    0.79   29.00    0.59   -68.00
    5000  0.58   -69.20   0.80   28.00    0.80   28.00    0.58   -69.20
    5050  0.57   -70.40   0.80   27.10    0.80   27.10    0.57   -70.40
    5100  0.55   -70.60   0.80   26.80    0.80   26.80    0.55   -70.60
    5150  0.54   -70.70   0.80   26.40    0.80   26.40    0.54   -70.70
    5200  0.54   -70.80   0.81   26.20    0.81   26.20    0.54   -70.80
    5250  0.54   -70.90   0.82   25.90    0.82   25.90    0.54   -70.90
    5300  0.53   -71.90   0.82   24.90    0.82   24.90    0.53   -71.90
    5350  0.53   -72.90   0.83   23.80    0.83   23.80    0.53   -72.90
    5400  0.52   -73.20   0.83   23.20    0.83   23.20    0.52   -73.20
    5450  0.51   -73.60   0.83   22.70    0.83   22.70    0.51   -73.60
    5500  0.50   -74.10   0.84   22.10    0.84   22.10    0.50   -74.10
    5550  0.50   -74.70   0.85   21.40    0.85   21.40    0.50   -74.70
    5600  0.49   -75.20   0.85   20.80    0.85   20.80    0.49   -75.20
    5650  0.48   -75.70   0.85   20.10    0.85   20.10    0.48   -75.70
    5700  0.47   -76.40   0.86   19.50    0.86   19.50    0.47   -76.40
    5750  0.47   -77.10   0.86   18.90    0.86   18.90    0.47   -77.10
    5800  0.46   -76.80   0.86   18.20    0.86   18.20    0.46   -76.80
    5850  0.45   -76.60   0.86   17.60    0.86   17.60    0.45   -76.60
    5900  0.44   -77.10   0.87   17.00    0.87   17.00    0.44   -77.10
    5950  0.43   -77.60   0.87   16.40    0.87   16.40    0.43   -77.60
    6000  0.41   -78.60   0.88   15.00    0.88   15.00    0.41   -78.60
    6050  0.40   -79.60   0.88   13.70    0.88   13.70    0.40   -79.60
    6100  0.39   -79.90   0.88   12.90    0.88   12.90    0.39   -79.90
    6150  0.38   -80.30   0.89   12.20    0.89   12.20    0.38   -80.30
    6200  0.36   -79.80   0.89   10.90    0.89   10.90    0.36   -79.80
    6250  0.34   -79.30   0.89    9.50    0.89    9.50    0.34   -79.30
    6300  0.31   -78.50   0.89    7.90    0.89    7.90    0.31   -78.50
    6350  0.29   -77.80   0.89    6.30    0.89    6.30    0.29   -77.80
    6400  0.26   -72.80   0.88    3.90    0.88    3.90    0.26   -72.80
    6450  0.22   -67.70   0.87    1.40    0.87    1.40    0.22   -67.70
    6500  0.21   -49.60   0.83   -2.10    0.83   -2.10    0.21   -49.60
    6550  0.20   -31.50   0.79   -5.60    0.79   -5.60    0.20   -31.50
    6600  0.30   -22.70   0.69   -6.50    0.69   -6.50    0.30   -22.70
    6650  0.40   -13.90   0.58   -7.50    0.58   -7.50    0.40   -13.90
    6700  0.49   -22.40   0.55    3.80    0.55    3.80    0.49   -22.40
    6750  0.58   -30.90   0.51   15.10    0.51   15.10    0.58   -30.90
    6800  0.59   -37.80   0.57   19.50    0.57   19.50    0.59   -37.80
    6850  0.60   -44.60   0.64   23.90    0.64   23.90    0.60   -44.60
    6900  0.59   -48.70   0.68   23.50    0.68   23.50    0.59   -48.70
    6950  0.57   -52.80   0.72   23.10    0.72   23.10    0.57   -52.80
    7000  0.56   -55.00   0.75   22.10    0.75   22.10    0.56   -55.00
    7050  0.54   -57.20   0.77   21.20    0.77   21.20    0.54   -57.20
    7100  0.52   -58.30   0.79   20.40    0.79   20.40    0.52   -58.30
    7150  0.51   -59.50   0.80   19.60    0.80   19.60    0.51   -59.50
    7200  0.50   -61.00   0.82   18.90    0.82   18.90    0.50   -61.00
    7250  0.48   -62.50   0.83   18.20    0.83   18.20    0.48   -62.50
    7300  0.47   -63.50   0.84   17.40    0.84   17.40    0.47   -63.50
    7350  0.47   -64.50   0.85   16.60    0.85   16.60    0.47   -64.50
    7400  0.46   -65.70   0.86   16.00    0.86   16.00    0.46   -65.70
    7450  0.45   -66.90   0.86   15.40    0.86   15.40    0.45   -66.90
    7500  0.44   -68.10   0.87   14.70    0.87   14.70    0.44   -68.10
    7550  0.43   -69.20   0.88   14.00    0.88   14.00    0.43   -69.20
    7600  0.42   -69.90   0.88   13.50    0.88   13.50    0.42   -69.90
    7650  0.42   -70.60   0.88   12.90    0.88   12.90    0.42   -70.60
    7700  0.41   -71.70   0.88   12.50    0.88   12.50    0.41   -71.70
    7750  0.39   -72.80   0.89   12.00    0.89   12.00    0.39   -72.80
    7800  0.38   -73.10   0.89   11.50    0.89   11.50    0.38   -73.10
    7850  0.38   -73.40   0.90   11.00    0.90   11.00    0.38   -73.40
    7900  0.37   -74.90   0.90   10.40    0.90   10.40    0.37   -74.90
    7950  0.36   -76.50   0.90    9.80    0.90    9.80    0.36   -76.50
    8000  0.35   -76.40   0.91    9.40    0.91    9.40    0.35   -76.40
    8050  0.33   -76.40   0.91    8.90    0.91    8.90    0.33   -76.40
    8100  0.33   -76.90   0.91    8.60    0.91    8.60    0.33   -76.90
    8150  0.32   -77.50   0.92    8.30    0.92    8.30    0.32   -77.50
    8200  0.31   -77.70   0.92    7.60    0.92    7.60    0.31   -77.70
    8250  0.30   -77.90   0.92    7.00    0.92    7.00    0.30   -77.90
    8300  0.30   -78.00   0.93    6.50    0.93    6.50    0.30   -78.00
    8350  0.29   -78.20   0.93    6.10    0.93    6.10    0.29   -78.20
    8400  0.28   -78.50   0.93    5.40    0.93    5.40    0.28   -78.50
    8450  0.28   -78.80   0.94    4.70    0.94    4.70    0.28   -78.80
    8500  0.27   -78.50   0.94    4.10    0.94    4.10    0.27   -78.50
    8550  0.26   -78.10   0.94    3.60    0.94    3.60    0.26   -78.10
    8600  0.25   -77.60   0.94    2.90    0.94    2.90    0.25   -77.60
    8650  0.25   -77.20   0.94    2.20    0.94    2.20    0.25   -77.20
    8700  0.24   -76.60   0.94    1.50    0.94    1.50    0.24   -76.60
    8750  0.23   -76.00   0.94    0.80    0.94    0.80    0.23   -76.00
    8800  0.22   -75.10   0.94    0.40    0.94    0.40    0.22   -75.10
    8850  0.22   -74.10   0.94    0.00    0.94    0.00    0.22   -74.10
    8900  0.21   -72.70   0.94   -0.90    0.94   -0.90    0.21   -72.70
    8950  0.20   -71.20   0.94   -1.80    0.94   -1.80    0.20   -71.20
    9000  0.19   -69.70   0.94   -2.60    0.94   -2.60    0.19   -69.70
    9050  0.18   -68.10   0.94   -3.40    0.94   -3.40    0.18   -68.10
    9100  0.17   -64.50   0.93   -4.40    0.93   -4.40    0.17   -64.50
    9150  0.16   -60.90   0.93   -5.40    0.93   -5.40    0.16   -60.90
    9200  0.15   -55.70   0.92   -6.60    0.92   -6.60    0.15   -55.70
    9250  0.15   -50.60   0.92   -7.80    0.92   -7.80    0.15   -50.60
    9300  0.15   -39.90   0.90   -9.30    0.90   -9.30    0.15   -39.90
    9350  0.16   -29.10   0.88   -10.70   0.88   -10.70   0.16   -29.10
    9400  0.20   -23.60   0.83   -11.90   0.83   -11.90   0.20   -23.60
    9450  0.24   -18.20   0.79   -13.10   0.79   -13.10   0.24   -18.20
    9500  0.29   -21.80   0.73   -11.30   0.73   -11.30   0.29   -21.80
    9550  0.35   -25.40   0.67   -9.40    0.67   -9.40    0.35   -25.40
    9600  0.38   -34.20   0.67   -3.40    0.67   -3.40    0.38   -34.20
    9650  0.41   -43.00   0.67    2.70    0.67    2.70    0.41   -43.00
    9700  0.41   -50.80   0.71    5.20    0.71    5.20    0.41   -50.80
    9750  0.40   -58.50   0.76    7.70    0.76    7.70    0.40   -58.50
    9800  0.37   -63.30   0.80    7.30    0.80    7.30    0.37   -63.30
    9850  0.35   -68.10   0.83    6.80    0.83    6.80    0.35   -68.10
    9900  0.33   -70.20   0.85    6.10    0.85    6.10    0.33   -70.20
    9950  0.31   -72.40   0.87    5.40    0.87    5.40    0.31   -72.40
   10000  0.29   -76.00   0.89    4.60    0.89    4.60    0.29   -76.00
   10050  0.28   -79.50   0.90    3.80    0.90    3.80    0.28   -79.50
   10100  0.25   -80.10   0.91    3.10    0.91    3.10    0.25   -80.10
   10150  0.23   -80.70   0.92    2.50    0.92    2.50    0.23   -80.70
   10200  0.22   -82.30   0.93    1.80    0.93    1.80    0.22   -82.30
   10250  0.22   -83.80   0.94    1.10    0.94    1.10    0.22   -83.80
   10300  0.20   -86.40   0.94    0.50    0.94    0.50    0.20   -86.40
   10350  0.18   -89.00   0.94   -0.10    0.94   -0.10    0.18   -89.00
   10400  0.17   -88.50   0.95   -0.80    0.95   -0.80    0.17   -88.50
   10450  0.17   -88.00   0.95   -1.60    0.95   -1.60    0.17   -88.00
   10500  0.16   -90.70   0.96   -2.10    0.96   -2.10    0.16   -90.70
   10550  0.16   -93.30   0.96   -2.60    0.96   -2.60    0.16   -93.30
   10600  0.14   -92.40   0.96   -3.20    0.96   -3.20    0.14   -92.40
   10650  0.12   -91.60   0.96   -3.80    0.96   -3.80    0.12   -91.60
   10700  0.12   -93.00   0.96   -4.30    0.96   -4.30    0.12   -93.00
   10750  0.12   -94.50   0.96   -4.80    0.96   -4.80    0.12   -94.50
   10800  0.11   -94.60   0.96   -5.00    0.96   -5.00    0.11   -94.60
   10850  0.09   -94.70   0.96   -5.20    0.96   -5.20    0.09   -94.70
   10900  0.09   -91.70   0.96   -5.70    0.96   -5.70    0.09   -91.70
   10950  0.09   -88.60   0.96   -6.20    0.96   -6.20    0.09   -88.60
   11000  0.09   -93.30   0.96   -6.50    0.96   -6.50    0.09   -93.30
   11050  0.08   -97.90   0.96   -6.80    0.96   -6.80    0.08   -97.90
   11100  0.08   -95.20   0.96   -7.30    0.96   -7.30    0.08   -95.20
   11150  0.08   -92.50   0.97   -7.80    0.97   -7.80    0.08   -92.50
   11200  0.08   -94.30   0.97   -8.30    0.97   -8.30    0.08   -94.30
   11250  0.08   -96.20   0.97   -8.70    0.97   -8.70    0.08   -96.20
   11300  0.08   -95.00   0.97   -9.30    0.97   -9.30    0.08   -95.00
   11350  0.07   -93.90   0.97   -9.90    0.97   -9.90    0.07   -93.90
   11400  0.07   -92.40   0.97   -10.30   0.97   -10.30   0.07   -92.40
   11450  0.06   -91.00   0.97   -10.60   0.97   -10.60   0.06   -91.00
   11500  0.05   -90.10   0.97   -11.20   0.97   -11.20   0.05   -90.10
   11550  0.04   -89.20   0.96   -11.90   0.96   -11.90   0.04   -89.20
   11600  0.04   -88.80   0.96   -12.40   0.96   -12.40   0.04   -88.80
   11650  0.03   -88.30   0.96   -13.00   0.96   -13.00   0.03   -88.30
   11700  0.02   -71.90   0.96   -13.70   0.96   -13.70   0.02   -71.90
   11750  0.02   -55.50   0.96   -14.30   0.96   -14.30   0.02   -55.50
   11800  0.02   -8.80    0.96   -14.90   0.96   -14.90   0.02   -8.80
   11850  0.02   38.00    0.95   -15.50   0.95   -15.50   0.02   38.00
   11900  0.03   46.90    0.94   -16.40   0.94   -16.40   0.03   46.90
   11950  0.04   55.80    0.94   -17.20   0.94   -17.20   0.04   55.80
   12000  0.05   49.60    0.93   -18.10   0.93   -18.10   0.05   49.60
   12050  0.06   43.40    0.92   -19.10   0.92   -19.10   0.06   43.40
   12100  0.07   38.20    0.90   -20.10   0.90   -20.10   0.07   38.20
   12150  0.09   33.00    0.88   -21.20   0.88   -21.20   0.09   33.00
   12200  0.11   22.50    0.85   -21.90   0.85   -21.90   0.11   22.50
   12250  0.14   12.00    0.82   -22.60   0.82   -22.60   0.14   12.00
   12300  0.16    0.70    0.78   -21.60   0.78   -21.60   0.16    0.70
   12350  0.19   -10.70   0.74   -20.60   0.74   -20.60   0.19   -10.70
   12400  0.21   -25.30   0.71   -16.80   0.71   -16.80   0.21   -25.30
   12450  0.24   -39.90   0.70   -13.00   0.70   -13.00   0.24   -39.90
   12500  0.24   -52.00   0.73   -9.90    0.73   -9.90    0.24   -52.00
   12550  0.24   -64.00   0.75   -6.80    0.75   -6.80    0.24   -64.00
   12600  0.23   -72.30   0.79   -6.40    0.79   -6.40    0.23   -72.30
   12650  0.22   -80.70   0.82   -6.00    0.82   -6.00    0.22   -80.70
   12700  0.21   -85.20   0.84   -6.50    0.84   -6.50    0.21   -85.20
   12750  0.20   -89.80   0.87   -7.10    0.87   -7.10    0.20   -89.80
   12800  0.18   -93.30   0.88   -7.80    0.88   -7.80    0.18   -93.30
   12850  0.17   -96.90   0.90   -8.50    0.90   -8.50    0.17   -96.90
   12900  0.16   -98.10   0.90   -9.20    0.90   -9.20    0.16   -98.10
   12950  0.15   -99.30   0.91   -9.90    0.91   -9.90    0.15   -99.30
   13000  0.14  -101.50   0.92   -10.50   0.92   -10.50   0.14  -101.50
   13050  0.13  -103.70   0.93   -11.20   0.93   -11.20   0.13  -103.70
   13100  0.12  -104.70   0.93   -11.80   0.93   -11.80   0.12  -104.70
   13150  0.11  -105.70   0.93   -12.40   0.93   -12.40   0.11  -105.70
   13200  0.10  -108.40   0.94   -12.80   0.94   -12.80   0.10  -108.40
   13250  0.09  -111.20   0.94   -13.20   0.94   -13.20   0.09  -111.20
   13300  0.08  -112.60   0.94   -14.00   0.94   -14.00   0.08  -112.60
   13350  0.07  -114.10   0.94   -14.80   0.94   -14.80   0.07  -114.10
   13400  0.06  -125.10   0.94   -15.50   0.94   -15.50   0.06  -125.10
   13450  0.04  -136.10   0.93   -16.20   0.93   -16.20   0.04  -136.10
   13500  0.03  -140.90   0.93   -16.60   0.93   -16.60   0.03  -140.90
   13550  0.02  -145.70   0.93   -17.10   0.93   -17.10   0.02  -145.70
   13600  0.02   -6.30    0.92   -17.40   0.92   -17.40   0.02   -6.30
   13650  0.01   133.20   0.91   -17.70   0.91   -17.70   0.01   133.20
   13700  0.02   67.10    0.91   -17.40   0.91   -17.40   0.02   67.10
   13750  0.02    1.10    0.91   -17.20   0.91   -17.20   0.02    1.10
   13800  0.02   -13.80   0.92   -17.00   0.92   -17.00   0.02   -13.80
   13850  0.02   -28.80   0.92   -16.90   0.92   -16.90   0.02   -28.80
   13900  0.02   -18.30   0.93   -17.20   0.93   -17.20   0.02   -18.30
