#	mhz	s	ma	r	50
50	0.05	77.00	0.99	-1.50	0.99	-1.50	0.05	77.00
100	0.09	77.40	0.99	-4.00	0.99	-4.00	0.09	77.40
150	0.14	77.80	0.98	-6.60	0.98	-6.60	0.14	77.80
200	0.18	76.00	0.98	-9.10	0.98	-9.10	0.18	76.00
250	0.22	74.10	0.97	-11.70	0.97	-11.70	0.22	74.10
300	0.26	71.80	0.95	-14.30	0.95	-14.30	0.26	71.80
350	0.30	69.40	0.94	-16.90	0.94	-16.90	0.30	69.40
400	0.34	66.60	0.93	-19.30	0.93	-19.30	0.34	66.60
450	0.38	63.90	0.91	-21.70	0.91	-21.70	0.38	63.90
500	0.44	63.90	0.89	-25.60	0.89	-25.60	0.44	63.90
550	0.51	63.90	0.86	-29.40	0.86	-29.40	0.51	63.90
600	0.54	61.70	0.84	-31.80	0.84	-31.80	0.54	61.70
650	0.56	59.50	0.82	-34.10	0.82	-34.10	0.56	59.50
700	0.60	57.60	0.80	-36.60	0.80	-36.60	0.60	57.60
750	0.63	55.80	0.78	-39.10	0.78	-39.10	0.63	55.80
800	0.65	53.10	0.75	-41.20	0.75	-41.20	0.65	53.10
850	0.67	50.40	0.73	-43.40	0.73	-43.40	0.67	50.40
900	0.71	48.30	0.70	-45.50	0.70	-45.50	0.71	48.30
950	0.74	46.10	0.67	-47.60	0.67	-47.60	0.74	46.10
1000	0.76	43.90	0.64	-49.70	0.64	-49.70	0.76	43.90
1050	0.78	41.70	0.62	-51.80	0.62	-51.80	0.78	41.70
1100	0.81	39.70	0.59	-54.00	0.59	-54.00	0.81	39.70
1150	0.83	37.70	0.56	-56.10	0.56	-56.10	0.83	37.70
1200	0.85	35.90	0.54	-57.80	0.54	-57.80	0.85	35.90
1250	0.86	34.10	0.51	-59.40	0.51	-59.40	0.86	34.10
1300	0.88	31.90	0.48	-61.50	0.48	-61.50	0.88	31.90
1350	0.89	29.60	0.46	-63.60	0.46	-63.60	0.89	29.60
1400	0.90	27.90	0.43	-65.00	0.43	-65.00	0.90	27.90
1450	0.91	26.20	0.40	-66.40	0.40	-66.40	0.91	26.20
1500	0.93	24.10	0.38	-68.30	0.38	-68.30	0.93	24.10
1550	0.94	21.90	0.35	-70.20	0.35	-70.20	0.94	21.90
1600	0.94	20.00	0.32	-71.70	0.32	-71.70	0.94	20.00
1650	0.95	18.00	0.30	-73.20	0.30	-73.20	0.95	18.00
1700	0.96	16.30	0.27	-74.60	0.27	-74.60	0.96	16.30
1750	0.96	14.70	0.25	-76.00	0.25	-76.00	0.96	14.70
1800	0.97	12.80	0.22	-77.30	0.22	-77.30	0.97	12.80
1850	0.98	10.80	0.20	-78.70	0.20	-78.70	0.98	10.80
1900	0.98	9.00	0.18	-79.70	0.18	-79.70	0.98	9.00
1950	0.98	7.20	0.15	-80.70	0.15	-80.70	0.98	7.20
2000	0.98	5.40	0.13	-81.40	0.13	-81.40	0.98	5.40
2050	0.98	3.70	0.10	-82.20	0.10	-82.20	0.98	3.70
2100	0.99	2.30	0.08	-81.70	0.08	-81.70	0.99	2.30
2150	0.99	0.90	0.06	-81.20	0.06	-81.20	0.99	0.90
2200	0.99	-1.00	0.04	-71.00	0.04	-71.00	0.99	-1.00
2250	0.99	-2.90	0.02	-60.80	0.02	-60.80	0.99	-2.90
2300	0.99	-4.10	0.02	4.10	0.02	4.10	0.99	-4.10
2350	0.99	-5.40	0.03	69.10	0.03	69.10	0.99	-5.40
2400	0.99	-7.10	0.05	72.10	0.05	72.10	0.99	-7.10
2450	0.99	-8.80	0.07	75.20	0.07	75.20	0.99	-8.80
2500	0.99	-10.20	0.09	75.10	0.09	75.10	0.99	-10.20
2550	0.99	-11.70	0.11	74.90	0.11	74.90	0.99	-11.70
2600	0.98	-12.90	0.13	74.30	0.13	74.30	0.98	-12.90
2650	0.98	-14.10	0.15	73.70	0.15	73.70	0.98	-14.10
2700	0.97	-15.30	0.17	72.70	0.17	72.70	0.97	-15.30
2750	0.97	-16.60	0.19	71.70	0.19	71.70	0.97	-16.60
2800	0.97	-18.00	0.21	70.80	0.21	70.80	0.97	-18.00
2850	0.96	-19.40	0.23	69.90	0.23	69.90	0.96	-19.40
2900	0.96	-20.50	0.25	68.70	0.25	68.70	0.96	-20.50
2950	0.95	-21.50	0.26	67.40	0.26	67.40	0.95	-21.50
3000	0.95	-22.70	0.28	66.40	0.28	66.40	0.95	-22.70
3050	0.95	-23.90	0.30	65.40	0.30	65.40	0.95	-23.90
3100	0.94	-25.10	0.31	64.50	0.31	64.50	0.94	-25.10
3150	0.93	-26.40	0.32	63.60	0.32	63.60	0.93	-26.40
3200	0.93	-27.10	0.34	62.80	0.34	62.80	0.93	-27.10
3250	0.92	-27.80	0.36	62.00	0.36	62.00	0.92	-27.80
3300	0.92	-28.90	0.37	61.00	0.37	61.00	0.92	-28.90
3350	0.91	-29.90	0.38	59.90	0.38	59.90	0.91	-29.90
3400	0.91	-30.80	0.40	59.30	0.40	59.30	0.91	-30.80
3450	0.90	-31.80	0.41	58.60	0.41	58.60	0.90	-31.80
3500	0.89	-32.90	0.43	57.70	0.43	57.70	0.89	-32.90
3550	0.88	-34.00	0.44	56.80	0.44	56.80	0.88	-34.00
3600	0.88	-34.70	0.45	56.10	0.45	56.10	0.88	-34.70
3650	0.87	-35.30	0.46	55.40	0.46	55.40	0.87	-35.30
3700	0.87	-36.50	0.48	54.60	0.48	54.60	0.87	-36.50
3750	0.86	-37.60	0.49	53.80	0.49	53.80	0.86	-37.60
3800	0.85	-38.40	0.50	53.20	0.50	53.20	0.85	-38.40
3850	0.84	-39.20	0.51	52.60	0.51	52.60	0.84	-39.20
3900	0.83	-40.40	0.52	51.60	0.52	51.60	0.83	-40.40
3950	0.83	-41.50	0.53	50.50	0.53	50.50	0.83	-41.50
4000	0.82	-42.40	0.54	49.90	0.54	49.90	0.82	-42.40
4050	0.81	-43.30	0.55	49.40	0.55	49.40	0.81	-43.30
4100	0.80	-44.10	0.56	48.70	0.56	48.70	0.80	-44.10
4150	0.79	-44.90	0.57	48.00	0.57	48.00	0.79	-44.90
4200	0.79	-46.00	0.58	47.30	0.58	47.30	0.79	-46.00
4250	0.79	-47.10	0.60	46.70	0.60	46.70	0.79	-47.10
4300	0.78	-48.00	0.60	46.10	0.60	46.10	0.78	-48.00
4350	0.77	-48.90	0.61	45.60	0.61	45.60	0.77	-48.90
4400	0.76	-50.00	0.62	44.70	0.62	44.70	0.76	-50.00
4450	0.76	-51.00	0.63	43.90	0.63	43.90	0.76	-51.00
4500	0.75	-51.50	0.64	43.30	0.64	43.30	0.75	-51.50
4550	0.74	-52.00	0.64	42.70	0.64	42.70	0.74	-52.00
4600	0.74	-53.30	0.65	41.80	0.65	41.80	0.74	-53.30
4650	0.74	-54.60	0.67	40.90	0.67	40.90	0.74	-54.60
4700	0.73	-55.40	0.67	40.20	0.67	40.20	0.73	-55.40
4750	0.71	-56.20	0.68	39.60	0.68	39.60	0.71	-56.20
4800	0.71	-57.10	0.68	38.90	0.68	38.90	0.71	-57.10
4850	0.70	-58.10	0.69	38.10	0.69	38.10	0.70	-58.10
4900	0.70	-58.60	0.70	37.60	0.70	37.60	0.70	-58.60
4950	0.69	-59.10	0.71	37.10	0.71	37.10	0.69	-59.10
5000	0.69	-60.30	0.71	36.00	0.71	36.00	0.69	-60.30
5050	0.68	-61.50	0.71	35.00	0.71	35.00	0.68	-61.50
5100	0.67	-61.80	0.72	34.60	0.72	34.60	0.67	-61.80
5150	0.65	-62.10	0.72	34.10	0.72	34.10	0.65	-62.10
5200	0.65	-62.30	0.73	33.90	0.73	33.90	0.65	-62.30
5250	0.64	-62.50	0.74	33.70	0.74	33.70	0.64	-62.50
5300	0.65	-63.50	0.75	32.50	0.75	32.50	0.65	-63.50
5350	0.65	-64.60	0.75	31.40	0.75	31.40	0.65	-64.60
5400	0.63	-64.90	0.76	30.90	0.76	30.90	0.63	-64.90
5450	0.62	-65.20	0.76	30.40	0.76	30.40	0.62	-65.20
5500	0.62	-65.80	0.76	29.70	0.76	29.70	0.62	-65.80
5550	0.61	-66.30	0.77	29.10	0.77	29.10	0.61	-66.30
5600	0.60	-66.80	0.77	28.50	0.77	28.50	0.60	-66.80
5650	0.60	-67.40	0.78	27.80	0.78	27.80	0.60	-67.40
5700	0.59	-67.90	0.78	27.40	0.78	27.40	0.59	-67.90
5750	0.58	-68.50	0.79	26.90	0.79	26.90	0.58	-68.50
5800	0.58	-68.40	0.79	26.30	0.79	26.30	0.58	-68.40
5850	0.57	-68.30	0.79	25.60	0.79	25.60	0.57	-68.30
5900	0.56	-68.70	0.80	25.20	0.80	25.20	0.56	-68.70
5950	0.56	-69.00	0.80	24.80	0.80	24.80	0.56	-69.00
6000	0.54	-70.30	0.81	23.60	0.81	23.60	0.54	-70.30
6050	0.53	-71.50	0.81	22.50	0.81	22.50	0.53	-71.50
6100	0.52	-70.90	0.81	22.50	0.81	22.50	0.52	-70.90
6150	0.52	-70.40	0.82	22.50	0.82	22.50	0.52	-70.40
6200	0.52	-70.10	0.82	21.80	0.82	21.80	0.52	-70.10
6250	0.51	-69.80	0.83	21.20	0.83	21.20	0.51	-69.80
6300	0.51	-70.10	0.83	20.70	0.83	20.70	0.51	-70.10
6350	0.51	-70.30	0.84	20.20	0.84	20.20	0.51	-70.30
6400	0.50	-70.00	0.84	19.60	0.84	19.60	0.50	-70.00
6450	0.49	-69.70	0.84	19.10	0.84	19.10	0.49	-69.70
6500	0.49	-69.50	0.85	18.50	0.85	18.50	0.49	-69.50
6550	0.48	-69.40	0.85	18.00	0.85	18.00	0.48	-69.40
6600	0.48	-69.10	0.85	17.40	0.85	17.40	0.48	-69.10
6650	0.47	-68.80	0.86	16.90	0.86	16.90	0.47	-68.80
6700	0.46	-68.40	0.86	16.60	0.86	16.60	0.46	-68.40
6750	0.46	-68.10	0.86	16.30	0.86	16.30	0.46	-68.10
6800	0.45	-67.90	0.87	15.80	0.87	15.80	0.45	-67.90
6850	0.44	-67.70	0.88	15.30	0.88	15.30	0.44	-67.70
6900	0.44	-67.80	0.88	14.70	0.88	14.70	0.44	-67.80
6950	0.43	-67.90	0.88	14.20	0.88	14.20	0.43	-67.90
7000	0.42	-68.20	0.88	13.60	0.88	13.60	0.42	-68.20
7050	0.41	-68.40	0.89	13.10	0.89	13.10	0.41	-68.40
7100	0.40	-68.10	0.89	12.60	0.89	12.60	0.40	-68.10
7150	0.39	-67.80	0.89	12.20	0.89	12.20	0.39	-67.80
7200	0.38	-68.80	0.90	11.70	0.90	11.70	0.38	-68.80
7250	0.37	-69.80	0.90	11.20	0.90	11.20	0.37	-69.80
7300	0.37	-70.10	0.90	10.60	0.90	10.60	0.37	-70.10
7350	0.36	-70.40	0.91	10.00	0.91	10.00	0.36	-70.40
7400	0.35	-71.30	0.91	9.40	0.91	9.40	0.35	-71.30
7450	0.34	-72.20	0.91	8.90	0.91	8.90	0.34	-72.20
7500	0.33	-73.10	0.92	8.20	0.92	8.20	0.33	-73.10
7550	0.32	-74.00	0.92	7.60	0.92	7.60	0.32	-74.00
7600	0.32	-74.20	0.92	7.00	0.92	7.00	0.32	-74.20
7650	0.31	-74.40	0.93	6.40	0.93	6.40	0.31	-74.40
7700	0.30	-75.30	0.93	5.90	0.93	5.90	0.30	-75.30
7750	0.28	-76.30	0.93	5.30	0.93	5.30	0.28	-76.30
7800	0.27	-75.90	0.93	4.70	0.93	4.70	0.27	-75.90
7850	0.26	-75.60	0.94	4.10	0.94	4.10	0.26	-75.60
7900	0.25	-76.70	0.94	3.40	0.94	3.40	0.25	-76.70
7950	0.25	-77.90	0.94	2.80	0.94	2.80	0.25	-77.90
8000	0.23	-77.20	0.94	2.10	0.94	2.10	0.23	-77.20
8050	0.22	-76.50	0.95	1.30	0.95	1.30	0.22	-76.50
8100	0.21	-76.70	0.95	0.80	0.95	0.80	0.21	-76.70
8150	0.20	-76.90	0.95	0.20	0.95	0.20	0.20	-76.90
8200	0.19	-75.60	0.95	-0.50	0.95	-0.50	0.19	-75.60
8250	0.17	-74.40	0.95	-1.20	0.95	-1.20	0.17	-74.40
8300	0.17	-72.80	0.95	-1.90	0.95	-1.90	0.17	-72.80
8350	0.16	-71.10	0.96	-2.60	0.96	-2.60	0.16	-71.10
8400	0.15	-69.40	0.96	-3.50	0.96	-3.50	0.15	-69.40
8450	0.14	-67.60	0.96	-4.30	0.96	-4.30	0.14	-67.60
8500	0.13	-63.80	0.96	-5.10	0.96	-5.10	0.13	-63.80
8550	0.13	-60.10	0.96	-5.80	0.96	-5.80	0.13	-60.10
8600	0.12	-55.30	0.96	-6.70	0.96	-6.70	0.12	-55.30
8650	0.11	-50.50	0.96	-7.60	0.96	-7.60	0.11	-50.50
8700	0.11	-44.90	0.96	-8.50	0.96	-8.50	0.11	-44.90
8750	0.11	-39.20	0.96	-9.30	0.96	-9.30	0.11	-39.20
8800	0.10	-32.60	0.96	-10.00	0.96	-10.00	0.10	-32.60
8850	0.10	-25.90	0.96	-10.70	0.96	-10.70	0.10	-25.90
8900	0.11	-18.20	0.96	-11.80	0.96	-11.80	0.11	-18.20
8950	0.11	-10.50	0.95	-12.80	0.95	-12.80	0.11	-10.50
9000	0.11	-4.60	0.95	-13.90	0.95	-13.90	0.11	-4.60
9050	0.12	1.30	0.95	-14.90	0.95	-14.90	0.12	1.30
9100	0.13	7.20	0.94	-16.00	0.94	-16.00	0.13	7.20
9150	0.14	13.10	0.94	-17.10	0.94	-17.10	0.14	13.10
9200	0.15	15.80	0.94	-18.30	0.94	-18.30	0.15	15.80
9250	0.16	18.60	0.93	-19.50	0.93	-19.50	0.16	18.60
9300	0.18	22.20	0.92	-20.70	0.92	-20.70	0.18	22.20
9350	0.20	25.80	0.92	-21.80	0.92	-21.80	0.20	25.80
9400	0.22	26.50	0.91	-23.20	0.91	-23.20	0.22	26.50
9450	0.24	27.20	0.89	-24.70	0.89	-24.70	0.24	27.20
9500	0.27	28.00	0.88	-26.20	0.88	-26.20	0.27	28.00
9550	0.29	28.90	0.87	-27.80	0.87	-27.80	0.29	28.90
9600	0.32	29.00	0.85	-29.60	0.85	-29.60	0.32	29.00
9650	0.35	29.20	0.84	-31.50	0.84	-31.50	0.35	29.20
9700	0.38	27.60	0.81	-33.20	0.81	-33.20	0.38	27.60
9750	0.42	25.90	0.79	-34.90	0.79	-34.90	0.42	25.90
9800	0.45	25.00	0.76	-36.70	0.76	-36.70	0.45	25.00
9850	0.48	24.00	0.73	-38.60	0.73	-38.60	0.48	24.00
9900	0.52	21.30	0.69	-40.70	0.69	-40.70	0.52	21.30
9950	0.56	18.60	0.65	-42.90	0.65	-42.90	0.56	18.60
10000	0.59	14.90	0.60	-44.00	0.60	-44.00	0.59	14.90
10050	0.62	11.30	0.55	-45.10	0.55	-45.10	0.62	11.30
10100	0.65	8.20	0.49	-45.30	0.49	-45.30	0.65	8.20
10150	0.68	5.10	0.44	-45.60	0.44	-45.60	0.68	5.10
10200	0.71	-0.10	0.38	-42.00	0.38	-42.00	0.71	-0.10
10250	0.73	-5.20	0.32	-38.30	0.32	-38.30	0.73	-5.20
10300	0.73	-9.60	0.28	-27.50	0.28	-27.50	0.73	-9.60
10350	0.74	-13.90	0.25	-16.70	0.25	-16.70	0.74	-13.90
10400	0.74	-19.00	0.26	-3.30	0.26	-3.30	0.74	-19.00
10450	0.75	-24.00	0.28	10.00	0.28	10.00	0.75	-24.00
10500	0.74	-28.60	0.32	16.80	0.32	16.80	0.74	-28.60
10550	0.72	-33.30	0.37	23.50	0.37	23.50	0.72	-33.30
10600	0.70	-37.30	0.42	24.60	0.42	24.60	0.70	-37.30
10650	0.68	-41.40	0.48	25.80	0.48	25.80	0.68	-41.40
10700	0.66	-45.10	0.52	25.40	0.52	25.40	0.66	-45.10
10750	0.64	-48.80	0.57	25.10	0.57	25.10	0.64	-48.80
10800	0.61	-51.60	0.61	23.90	0.61	23.90	0.61	-51.60
10850	0.58	-54.50	0.65	22.80	0.65	22.80	0.58	-54.50
10900	0.56	-57.70	0.68	20.90	0.68	20.90	0.56	-57.70
10950	0.54	-61.00	0.71	19.10	0.71	19.10	0.54	-61.00
11000	0.51	-63.40	0.73	17.80	0.73	17.80	0.51	-63.40
11050	0.48	-65.80	0.75	16.60	0.75	16.60	0.48	-65.80
11100	0.47	-67.60	0.77	15.10	0.77	15.10	0.47	-67.60
11150	0.46	-69.30	0.80	13.70	0.80	13.70	0.46	-69.30
11200	0.44	-71.00	0.81	12.50	0.81	12.50	0.44	-71.00
11250	0.42	-72.70	0.82	11.30	0.82	11.30	0.42	-72.70
11300	0.41	-74.10	0.83	10.00	0.83	10.00	0.41	-74.10
11350	0.39	-75.50	0.85	8.70	0.85	8.70	0.39	-75.50
11400	0.38	-75.90	0.86	8.00	0.86	8.00	0.38	-75.90
11450	0.37	-76.30	0.86	7.30	0.86	7.30	0.37	-76.30
11500	0.35	-77.80	0.87	6.10	0.87	6.10	0.35	-77.80
11550	0.33	-79.30	0.88	4.90	0.88	4.90	0.33	-79.30
11600	0.32	-80.30	0.89	4.10	0.89	4.10	0.32	-80.30
11650	0.31	-81.40	0.90	3.30	0.90	3.30	0.31	-81.40
11700	0.30	-82.20	0.90	2.40	0.90	2.40	0.30	-82.20
11750	0.29	-83.10	0.91	1.60	0.91	1.60	0.29	-83.10
11800	0.27	-84.60	0.91	0.80	0.91	0.80	0.27	-84.60
11850	0.26	-86.00	0.91	0.10	0.91	0.10	0.26	-86.00
11900	0.25	-87.50	0.92	-0.60	0.92	-0.60	0.25	-87.50
11950	0.23	-89.00	0.92	-1.30	0.92	-1.30	0.23	-89.00
12000	0.23	-91.20	0.93	-2.20	0.93	-2.20	0.23	-91.20
12050	0.23	-93.50	0.93	-3.20	0.93	-3.20	0.23	-93.50
12100	0.22	-94.90	0.93	-3.80	0.93	-3.80	0.22	-94.90
12150	0.20	-96.20	0.93	-4.40	0.93	-4.40	0.20	-96.20
12200	0.20	-97.30	0.93	-5.00	0.93	-5.00	0.20	-97.30
12250	0.20	-98.40	0.93	-5.60	0.93	-5.60	0.20	-98.40
12300	0.19	-99.60	0.93	-6.30	0.93	-6.30	0.19	-99.60
12350	0.18	-100.90	0.93	-6.90	0.93	-6.90	0.18	-100.90
12400	0.18	-101.00	0.93	-7.30	0.93	-7.30	0.18	-101.00
12450	0.18	-101.20	0.93	-7.80	0.93	-7.80	0.18	-101.20
12500	0.17	-101.50	0.94	-8.30	0.94	-8.30	0.17	-101.50
12550	0.17	-101.80	0.94	-8.80	0.94	-8.80	0.17	-101.80
12600	0.16	-101.70	0.94	-9.10	0.94	-9.10	0.16	-101.70
12650	0.15	-101.70	0.94	-9.50	0.94	-9.50	0.15	-101.70
12700	0.15	-100.00	0.94	-9.90	0.94	-9.90	0.15	-100.00
12750	0.15	-98.20	0.94	-10.40	0.94	-10.40	0.15	-98.20
12800	0.14	-97.80	0.94	-10.80	0.94	-10.80	0.14	-97.80
12850	0.13	-97.40	0.94	-11.20	0.94	-11.20	0.13	-97.40
12900	0.13	-95.20	0.94	-11.60	0.94	-11.60	0.13	-95.20
12950	0.12	-92.90	0.94	-12.00	0.94	-12.00	0.12	-92.90
13000	0.12	-92.70	0.95	-12.40	0.95	-12.40	0.12	-92.70
13050	0.11	-92.40	0.95	-12.80	0.95	-12.80	0.11	-92.40
13100	0.11	-90.50	0.95	-13.30	0.95	-13.30	0.11	-90.50
13150	0.10	-88.60	0.95	-13.70	0.95	-13.70	0.10	-88.60
13200	0.09	-87.40	0.95	-14.00	0.95	-14.00	0.09	-87.40
13250	0.08	-86.30	0.95	-14.20	0.95	-14.20	0.08	-86.30
13300	0.08	-84.80	0.95	-14.90	0.95	-14.90	0.08	-84.80
13350	0.07	-83.40	0.95	-15.60	0.95	-15.60	0.07	-83.40
13400	0.06	-83.40	0.95	-16.20	0.95	-16.20	0.06	-83.40
13450	0.05	-83.50	0.95	-16.80	0.95	-16.80	0.05	-83.50
13500	0.05	-79.10	0.95	-17.20	0.95	-17.20	0.05	-79.10
13550	0.04	-74.70	0.95	-17.70	0.95	-17.70	0.04	-74.70
13600	0.03	-77.70	0.95	-18.20	0.95	-18.20	0.03	-77.70
13650	0.02	-80.60	0.95	-18.80	0.95	-18.80	0.02	-80.60
13700	0.02	-55.50	0.95	-19.40	0.95	-19.40	0.02	-55.50
13750	0.03	-30.30	0.95	-19.90	0.95	-19.90	0.03	-30.30
13800	0.02	-21.90	0.95	-20.20	0.95	-20.20	0.02	-21.90
13850	0.02	-13.60	0.94	-20.60	0.94	-20.60	0.02	-13.60
13900	0.03	-4.70	0.94	-20.80	0.94	-20.80	0.03	-4.70
13950	0.04	4.10	0.94	-21.00	0.94	-21.00	0.04	4.10
14000	0.05	7.50	0.94	-21.30	0.94	-21.30	0.05	7.50
14050	0.05	10.90	0.94	-21.50	0.94	-21.50	0.05	10.90
14100	0.06	15.90	0.95	-21.70	0.95	-21.70	0.06	15.90
14150	0.08	20.90	0.95	-21.90	0.95	-21.90	0.08	20.90
14200	0.09	19.00	0.95	-22.50	0.95	-22.50	0.09	19.00
14250	0.11	17.10	0.95	-23.00	0.95	-23.00	0.11	17.10
14300	0.12	18.20	0.95	-23.40	0.95	-23.40	0.12	18.20
14350	0.13	19.30	0.95	-23.90	0.95	-23.90	0.13	19.30
14400	0.15	17.30	0.95	-24.40	0.95	-24.40	0.15	17.30
14450	0.16	15.20	0.95	-25.00	0.95	-25.00	0.16	15.20
14500	0.17	15.00	0.95	-25.30	0.95	-25.30	0.17	15.00
14550	0.18	14.90	0.94	-25.50	0.94	-25.50	0.18	14.90
14600	0.19	14.00	0.94	-25.90	0.94	-25.90	0.19	14.00
14650	0.21	13.10	0.94	-26.40	0.94	-26.40	0.21	13.10
14700	0.21	12.00	0.94	-26.80	0.94	-26.80	0.21	12.00
14750	0.22	11.00	0.94	-27.30	0.94	-27.30	0.22	11.00
14800	0.23	10.70	0.94	-27.80	0.94	-27.80	0.23	10.70
14850	0.24	10.50	0.94	-28.20	0.94	-28.20	0.24	10.50
14900	0.24	10.50	0.94	-28.50	0.94	-28.50	0.24	10.50
14950	0.24	10.50	0.94	-28.70	0.94	-28.70	0.24	10.50
15000	0.25	9.50	0.93	-29.30	0.93	-29.30	0.25	9.50
15050	0.25	8.50	0.93	-30.00	0.93	-30.00	0.25	8.50
15100	0.25	8.40	0.93	-30.10	0.93	-30.10	0.25	8.40
15150	0.25	8.40	0.93	-30.30	0.93	-30.30	0.25	8.40
15200	0.26	8.90	0.94	-30.60	0.94	-30.60	0.26	8.90
15250	0.26	9.30	0.94	-31.00	0.94	-31.00	0.26	9.30
15300	0.26	8.30	0.94	-31.70	0.94	-31.70	0.26	8.30
15350	0.26	7.30	0.93	-32.30	0.93	-32.30	0.26	7.30
15400	0.26	9.00	0.93	-32.70	0.93	-32.70	0.26	9.00
15450	0.27	10.80	0.93	-33.20	0.93	-33.20	0.27	10.80
15500	0.27	11.20	0.93	-33.60	0.93	-33.60	0.27	11.20
15550	0.28	11.50	0.93	-34.10	0.93	-34.10	0.28	11.50
15600	0.28	13.30	0.93	-34.60	0.93	-34.60	0.28	13.30
15650	0.29	15.00	0.93	-35.00	0.93	-35.00	0.29	15.00
15700	0.30	16.10	0.92	-35.70	0.92	-35.70	0.30	16.10
15750	0.32	17.30	0.92	-36.40	0.92	-36.40	0.32	17.30
15800	0.32	19.50	0.91	-36.70	0.91	-36.70	0.32	19.50
15850	0.32	21.80	0.91	-37.00	0.91	-37.00	0.32	21.80
15900	0.34	22.80	0.90	-37.60	0.90	-37.60	0.34	22.80
15950	0.35	23.80	0.90	-38.20	0.90	-38.20	0.35	23.80
16000	0.36	25.50	0.89	-38.30	0.89	-38.30	0.36	25.50
16050	0.37	27.20	0.89	-38.50	0.89	-38.50	0.37	27.20
16100	0.38	29.50	0.88	-39.10	0.88	-39.10	0.38	29.50
16150	0.39	31.90	0.88	-39.60	0.88	-39.60	0.39	31.90
16200	0.40	31.80	0.87	-39.80	0.87	-39.80	0.40	31.80
16250	0.40	31.80	0.86	-40.10	0.86	-40.10	0.40	31.80
16300	0.40	33.60	0.86	-40.20	0.86	-40.20	0.40	33.60
16350	0.41	35.50	0.86	-40.40	0.86	-40.40	0.41	35.50
16400	0.42	35.80	0.86	-40.80	0.86	-40.80	0.42	35.80
16450	0.43	36.00	0.85	-41.30	0.85	-41.30	0.43	36.00
16500	0.43	35.90	0.85	-41.30	0.85	-41.30	0.43	35.90
16550	0.42	35.70	0.84	-41.40	0.84	-41.40	0.42	35.70
16600	0.43	35.50	0.84	-41.70	0.84	-41.70	0.43	35.50
16650	0.45	35.30	0.84	-42.00	0.84	-42.00	0.45	35.30
16700	0.45	35.00	0.84	-42.30	0.84	-42.30	0.45	35.00
16750	0.45	34.70	0.84	-42.70	0.84	-42.70	0.45	34.70
16800	0.46	34.20	0.84	-43.10	0.84	-43.10	0.46	34.20
16850	0.46	33.70	0.83	-43.50	0.83	-43.50	0.46	33.70
16900	0.47	32.50	0.83	-43.90	0.83	-43.90	0.47	32.50
16950	0.48	31.40	0.82	-44.40	0.82	-44.40	0.48	31.40
17000	0.49	30.60	0.82	-44.80	0.82	-44.80	0.49	30.60
17050	0.49	29.80	0.82	-45.20	0.82	-45.20	0.49	29.80
17100	0.50	29.50	0.81	-45.80	0.81	-45.80	0.50	29.50
17150	0.51	29.10	0.81	-46.40	0.81	-46.40	0.51	29.10
17200	0.51	28.40	0.81	-46.60	0.81	-46.60	0.51	28.40
17250	0.52	27.80	0.80	-46.80	0.80	-46.80	0.52	27.80
17300	0.52	28.30	0.80	-47.30	0.80	-47.30	0.52	28.30
17350	0.52	28.90	0.80	-47.80	0.80	-47.80	0.52	28.90
17400	0.54	28.30	0.79	-48.00	0.79	-48.00	0.54	28.30
17450	0.55	27.80	0.78	-48.20	0.78	-48.20	0.55	27.80
17500	0.54	27.70	0.78	-48.80	0.78	-48.80	0.54	27.70
17550	0.54	27.70	0.78	-49.40	0.78	-49.40	0.54	27.70
17600	0.55	28.10	0.78	-50.10	0.78	-50.10	0.55	28.10
17650	0.56	28.60	0.77	-50.80	0.77	-50.80	0.56	28.60
17700	0.56	28.10	0.77	-51.30	0.77	-51.30	0.56	28.10
17750	0.56	27.70	0.77	-51.70	0.77	-51.70	0.56	27.70
17800	0.56	27.70	0.76	-52.80	0.76	-52.80	0.56	27.70
17850	0.56	27.60	0.76	-53.90	0.76	-53.90	0.56	27.60
17900	0.56	27.10	0.75	-54.60	0.75	-54.60	0.56	27.10
17950	0.56	26.60	0.74	-55.40	0.74	-55.40	0.56	26.60
18000	0.57	25.90	0.73	-56.40	0.73	-56.40	0.57	25.90
18050	0.57	25.30	0.72	-57.30	0.72	-57.30	0.57	25.30
18100	0.58	23.80	0.71	-58.30	0.71	-58.30	0.58	23.80
18150	0.58	22.30	0.69	-59.20	0.69	-59.20	0.58	22.30
18200	0.59	21.10	0.68	-60.20	0.68	-60.20	0.59	21.10
18250	0.59	19.90	0.66	-61.20	0.66	-61.20	0.59	19.90
18300	0.61	17.40	0.65	-61.90	0.65	-61.90	0.61	17.40
18350	0.63	15.00	0.64	-62.60	0.64	-62.60	0.63	15.00
18400	0.63	13.10	0.61	-63.50	0.61	-63.50	0.63	13.10
18450	0.64	11.30	0.59	-64.30	0.59	-64.30	0.64	11.30
18500	0.66	10.40	0.57	-64.20	0.57	-64.20	0.66	10.40
18550	0.69	9.50	0.55	-64.10	0.55	-64.10	0.69	9.50
18600	0.69	6.60	0.52	-64.60	0.52	-64.60	0.69	6.60
18650	0.69	3.70	0.50	-65.10	0.50	-65.10	0.69	3.70
18700	0.70	1.40	0.47	-64.50	0.47	-64.50	0.70	1.40
18750	0.71	-0.80	0.44	-63.90	0.44	-63.90	0.71	-0.80
18800	0.71	-4.50	0.42	-61.70	0.42	-61.70	0.71	-4.50
18850	0.71	-8.30	0.39	-59.50	0.39	-59.50	0.71	-8.30
18900	0.69	-11.20	0.36	-55.50	0.36	-55.50	0.69	-11.20
18950	0.67	-14.10	0.34	-51.40	0.34	-51.40	0.67	-14.10
19000	0.66	-19.00	0.33	-44.30	0.33	-44.30	0.66	-19.00
19050	0.64	-24.00	0.32	-37.10	0.32	-37.10	0.64	-24.00
19100	0.61	-28.50	0.34	-30.00	0.34	-30.00	0.61	-28.50
19150	0.57	-33.00	0.35	-22.80	0.35	-22.80	0.57	-33.00
19200	0.55	-37.80	0.39	-18.80	0.39	-18.80	0.55	-37.80
19250	0.52	-42.70	0.43	-14.80	0.43	-14.80	0.52	-42.70
19300	0.50	-47.40	0.47	-13.50	0.47	-13.50	0.50	-47.40
19350	0.47	-52.20	0.52	-12.10	0.52	-12.10	0.47	-52.20
19400	0.43	-54.70	0.56	-13.30	0.56	-13.30	0.43	-54.70
19450	0.38	-57.30	0.61	-14.40	0.61	-14.40	0.38	-57.30
