# MHZ S MA R 50

50	0.00	7.20	1.00	1.10	1.00	1.10	0.00	7.20
100	0.01	37.80	1.00	1.00	1.00	1.00	0.01	37.80
150	0.01	68.40	1.00	0.90	1.00	0.90	0.01	68.40
200	0.01	72.90	1.00	0.60	1.00	0.60	0.01	72.90
250	0.01	77.40	1.00	0.30	1.00	0.30	0.01	77.40
300	0.02	78.90	1.00	0.00	1.00	0.00	0.02	78.90
350	0.02	80.40	1.00	-0.40	1.00	-0.40	0.02	80.40
400	0.02	79.00	1.00	-0.50	1.00	-0.50	0.02	79.00
450	0.02	77.50	1.00	-0.70	1.00	-0.70	0.02	77.50
500	0.03	82.10	1.00	-1.10	1.00	-1.10	0.03	82.10
550	0.03	86.60	1.00	-1.50	1.00	-1.50	0.03	86.60
600	0.03	87.80	1.00	-1.80	1.00	-1.80	0.03	87.80
650	0.04	89.10	1.00	-2.10	1.00	-2.10	0.04	89.10
700	0.04	88.20	1.00	-2.40	1.00	-2.40	0.04	88.20
750	0.04	87.20	0.99	-2.60	0.99	-2.60	0.04	87.20
800	0.05	87.80	0.99	-2.90	0.99	-2.90	0.05	87.80
850	0.05	88.30	0.99	-3.20	0.99	-3.20	0.05	88.30
900	0.05	88.90	0.99	-3.40	0.99	-3.40	0.05	88.90
950	0.05	89.50	0.99	-3.70	0.99	-3.70	0.05	89.50
1000	0.06	88.70	0.99	-4.00	0.99	-4.00	0.06	88.70
1050	0.06	87.90	0.99	-4.20	0.99	-4.20	0.06	87.90
1100	0.06	88.00	0.99	-4.50	0.99	-4.50	0.06	88.00
1150	0.06	88.20	0.99	-4.80	0.99	-4.80	0.06	88.20
1200	0.07	87.90	0.99	-5.00	0.99	-5.00	0.07	87.90
1250	0.07	87.70	0.99	-5.30	0.99	-5.30	0.07	87.70
1300	0.08	87.50	0.99	-5.50	0.99	-5.50	0.08	87.50
1350	0.08	87.30	0.99	-5.80	0.99	-5.80	0.08	87.30
1400	0.08	86.90	0.99	-6.00	0.99	-6.00	0.08	86.90
1450	0.08	86.60	0.99	-6.30	0.99	-6.30	0.08	86.60
1500	0.09	86.30	0.99	-6.60	0.99	-6.60	0.09	86.30
1550	0.09	86.00	0.99	-6.80	0.99	-6.80	0.09	86.00
1600	0.09	85.50	0.99	-7.10	0.99	-7.10	0.09	85.50
1650	0.10	84.90	0.99	-7.40	0.99	-7.40	0.10	84.90
1700	0.10	85.10	0.99	-7.70	0.99	-7.70	0.10	85.10
1750	0.10	85.30	0.99	-8.00	0.99	-8.00	0.10	85.30
1800	0.10	84.30	0.99	-8.20	0.99	-8.20	0.10	84.30
1850	0.11	83.30	0.99	-8.40	0.99	-8.40	0.11	83.30
1900	0.11	82.70	0.99	-8.60	0.99	-8.60	0.11	82.70
1950	0.11	82.10	0.99	-8.80	0.99	-8.80	0.11	82.10
2000	0.11	81.70	0.99	-9.20	0.99	-9.20	0.11	81.70
2050	0.12	81.20	0.99	-9.50	0.99	-9.50	0.12	81.20
2100	0.12	80.50	0.99	-9.70	0.99	-9.70	0.12	80.50
2150	0.12	79.70	0.99	-9.90	0.99	-9.90	0.12	79.70
2200	0.13	79.50	0.99	-10.20	0.99	-10.20	0.13	79.50
2250	0.13	79.20	0.98	-10.50	0.98	-10.50	0.13	79.20
2300	0.13	78.70	0.98	-10.60	0.98	-10.60	0.13	78.70
2350	0.13	78.20	0.98	-10.80	0.98	-10.80	0.13	78.20
2400	0.14	77.90	0.98	-11.10	0.98	-11.10	0.14	77.90
2450	0.14	77.60	0.98	-11.40	0.98	-11.40	0.14	77.60
2500	0.14	77.20	0.98	-11.70	0.98	-11.70	0.14	77.20
2550	0.15	76.70	0.98	-11.90	0.98	-11.90	0.15	76.70
2600	0.15	76.40	0.98	-12.10	0.98	-12.10	0.15	76.40
2650	0.15	76.10	0.98	-12.30	0.98	-12.30	0.15	76.10
2700	0.16	75.90	0.98	-12.50	0.98	-12.50	0.16	75.90
2750	0.16	75.80	0.98	-12.70	0.98	-12.70	0.16	75.80
2800	0.16	75.30	0.98	-12.90	0.98	-12.90	0.16	75.30
2850	0.17	74.80	0.98	-13.00	0.98	-13.00	0.17	74.80
2900	0.17	74.70	0.98	-13.50	0.98	-13.50	0.17	74.70
2950	0.17	74.60	0.98	-13.90	0.98	-13.90	0.17	74.60
3000	0.17	74.40	0.98	-14.00	0.98	-14.00	0.17	74.40
3050	0.18	74.20	0.98	-14.20	0.98	-14.20	0.18	74.20
3100	0.18	73.30	0.97	-14.60	0.97	-14.60	0.18	73.30
3150	0.18	72.40	0.97	-15.00	0.97	-15.00	0.18	72.40
3200	0.19	72.40	0.97	-15.00	0.97	-15.00	0.19	72.40
3250	0.19	72.50	0.97	-15.00	0.97	-15.00	0.19	72.50
3300	0.19	72.50	0.97	-15.40	0.97	-15.40	0.19	72.50
3350	0.20	72.50	0.97	-15.80	0.97	-15.80	0.20	72.50
3400	0.20	71.90	0.97	-15.90	0.97	-15.90	0.20	71.90
3450	0.20	71.40	0.97	-16.10	0.97	-16.10	0.20	71.40
3500	0.21	71.60	0.97	-16.30	0.97	-16.30	0.21	71.60
3550	0.21	71.70	0.97	-16.40	0.97	-16.40	0.21	71.70
3600	0.21	71.50	0.97	-16.70	0.97	-16.70	0.21	71.50
3650	0.22	71.40	0.97	-17.00	0.97	-17.00	0.22	71.40
3700	0.22	71.00	0.97	-17.30	0.97	-17.30	0.22	71.00
3750	0.22	70.70	0.96	-17.60	0.96	-17.60	0.22	70.70
3800	0.23	70.40	0.96	-17.70	0.96	-17.70	0.23	70.40
3850	0.23	70.10	0.96	-17.90	0.96	-17.90	0.23	70.10
3900	0.23	69.90	0.96	-18.30	0.96	-18.30	0.23	69.90
3950	0.24	69.80	0.96	-18.70	0.96	-18.70	0.24	69.80
4000	0.24	69.40	0.96	-18.90	0.96	-18.90	0.24	69.40
4050	0.24	69.10	0.96	-19.10	0.96	-19.10	0.24	69.10
4100	0.25	68.70	0.96	-19.40	0.96	-19.40	0.25	68.70
4150	0.25	68.30	0.96	-19.70	0.96	-19.70	0.25	68.30
4200	0.25	67.80	0.96	-19.90	0.96	-19.90	0.25	67.80
4250	0.26	67.40	0.96	-20.20	0.96	-20.20	0.26	67.40
4300	0.26	67.00	0.96	-20.30	0.96	-20.30	0.26	67.00
4350	0.27	66.70	0.95	-20.50	0.95	-20.50	0.27	66.70
4400	0.27	66.30	0.96	-20.80	0.96	-20.80	0.27	66.30
4450	0.27	65.90	0.96	-21.20	0.96	-21.20	0.27	65.90
4500	0.28	65.20	0.95	-21.60	0.95	-21.60	0.28	65.20
4550	0.28	64.60	0.95	-22.10	0.95	-22.10	0.28	64.60
4600	0.28	64.00	0.95	-22.30	0.95	-22.30	0.28	64.00
4650	0.29	63.40	0.95	-22.60	0.95	-22.60	0.29	63.40
4700	0.29	63.20	0.95	-22.80	0.95	-22.80	0.29	63.20
4750	0.29	62.90	0.95	-23.10	0.95	-23.10	0.29	62.90
4800	0.30	62.30	0.95	-23.40	0.95	-23.40	0.30	62.30
4850	0.30	61.80	0.94	-23.70	0.94	-23.70	0.30	61.80
4900	0.30	61.60	0.94	-23.90	0.94	-23.90	0.30	61.60
4950	0.31	61.40	0.94	-24.20	0.94	-24.20	0.31	61.40
5000	0.31	60.80	0.94	-24.50	0.94	-24.50	0.31	60.80
5050	0.31	60.30	0.94	-24.80	0.94	-24.80	0.31	60.30
5100	0.32	59.80	0.94	-25.20	0.94	-25.20	0.32	59.80
5150	0.32	59.40	0.94	-25.60	0.94	-25.60	0.32	59.40
5200	0.32	59.60	0.94	-25.70	0.94	-25.70	0.32	59.60
5250	0.32	59.70	0.93	-25.90	0.93	-25.90	0.32	59.70
5300	0.33	59.30	0.93	-26.10	0.93	-26.10	0.33	59.30
5350	0.34	58.90	0.94	-26.30	0.94	-26.30	0.34	58.90
5400	0.34	58.60	0.93	-26.80	0.93	-26.80	0.34	58.60
5450	0.34	58.30	0.93	-27.30	0.93	-27.30	0.34	58.30
5500	0.34	58.30	0.93	-27.50	0.93	-27.50	0.34	58.30
5550	0.35	58.30	0.93	-27.60	0.93	-27.60	0.35	58.30
5600	0.35	58.10	0.93	-28.10	0.93	-28.10	0.35	58.10
5650	0.36	57.90	0.93	-28.50	0.93	-28.50	0.36	57.90
5700	0.36	57.90	0.93	-28.80	0.93	-28.80	0.36	57.90
5750	0.36	57.80	0.93	-29.00	0.93	-29.00	0.36	57.80
5800	0.37	57.50	0.92	-29.50	0.92	-29.50	0.37	57.50
5850	0.37	57.20	0.92	-29.90	0.92	-29.90	0.37	57.20
5900	0.37	57.70	0.92	-30.10	0.92	-30.10	0.37	57.70
5950	0.38	58.20	0.92	-30.40	0.92	-30.40	0.38	58.20
6000	0.37	57.60	0.92	-30.50	0.92	-30.50	0.37	57.60
6050	0.37	57.00	0.92	-30.60	0.92	-30.60	0.37	57.00
6100	0.38	57.50	0.92	-30.80	0.92	-30.80	0.38	57.50
6150	0.38	58.00	0.92	-31.00	0.92	-31.00	0.38	58.00
6200	0.38	58.30	0.92	-31.30	0.92	-31.30	0.38	58.30
6250	0.39	58.60	0.92	-31.60	0.92	-31.60	0.39	58.60
6300	0.39	59.10	0.91	-31.80	0.91	-31.80	0.39	59.10
6350	0.39	59.60	0.91	-32.10	0.91	-32.10	0.39	59.60
6400	0.40	60.00	0.91	-32.40	0.91	-32.40	0.40	60.00
6450	0.40	60.40	0.91	-32.70	0.91	-32.70	0.40	60.40
6500	0.40	60.50	0.90	-33.10	0.90	-33.10	0.40	60.50
6550	0.40	60.50	0.90	-33.40	0.90	-33.40	0.40	60.50
6600	0.41	60.80	0.90	-33.70	0.90	-33.70	0.41	60.80
6650	0.41	61.20	0.90	-34.10	0.90	-34.10	0.41	61.20
6700	0.41	61.40	0.90	-34.30	0.90	-34.30	0.41	61.40
6750	0.41	61.60	0.90	-34.40	0.90	-34.40	0.41	61.60
6800	0.42	61.60	0.90	-34.60	0.90	-34.60	0.42	61.60
6850	0.42	61.70	0.90	-34.80	0.90	-34.80	0.42	61.70
6900	0.43	61.40	0.89	-35.30	0.89	-35.30	0.43	61.40
6950	0.43	61.20	0.89	-35.70	0.89	-35.70	0.43	61.20
7000	0.44	61.20	0.89	-36.10	0.89	-36.10	0.44	61.20
7050	0.44	61.30	0.89	-36.40	0.89	-36.40	0.44	61.30
7100	0.44	61.20	0.89	-36.70	0.89	-36.70	0.44	61.20
7150	0.45	61.20	0.89	-37.00	0.89	-37.00	0.45	61.20
7200	0.45	61.00	0.88	-37.30	0.88	-37.30	0.45	61.00
7250	0.45	60.80	0.88	-37.50	0.88	-37.50	0.45	60.80
7300	0.46	60.60	0.88	-37.70	0.88	-37.70	0.46	60.60
7350	0.46	60.30	0.88	-37.80	0.88	-37.80	0.46	60.30
7400	0.47	59.90	0.88	-38.20	0.88	-38.20	0.47	59.90
7450	0.47	59.50	0.88	-38.70	0.88	-38.70	0.47	59.50
7500	0.47	58.90	0.87	-38.80	0.87	-38.80	0.47	58.90
7550	0.47	58.30	0.87	-38.90	0.87	-38.90	0.47	58.30
7600	0.48	57.50	0.87	-39.30	0.87	-39.30	0.48	57.50
7650	0.48	56.80	0.87	-39.60	0.87	-39.60	0.48	56.80
7700	0.48	55.70	0.87	-39.90	0.87	-39.90	0.48	55.70
7750	0.49	54.60	0.86	-40.30	0.86	-40.30	0.49	54.60
7800	0.49	54.00	0.86	-40.40	0.86	-40.40	0.49	54.00
7850	0.49	53.30	0.86	-40.60	0.86	-40.60	0.49	53.30
7900	0.50	52.00	0.86	-40.80	0.86	-40.80	0.50	52.00
7950	0.50	50.60	0.86	-41.10	0.86	-41.10	0.50	50.60
8000	0.50	49.50	0.86	-41.40	0.86	-41.40	0.50	49.50
8050	0.51	48.50	0.86	-41.70	0.86	-41.70	0.51	48.50
8100	0.51	47.20	0.85	-42.00	0.85	-42.00	0.51	47.20
8150	0.51	45.90	0.85	-42.40	0.85	-42.40	0.51	45.90
8200	0.51	45.00	0.84	-42.40	0.84	-42.40	0.51	45.00
8250	0.51	44.10	0.84	-42.40	0.84	-42.40	0.51	44.10
8300	0.51	42.90	0.84	-42.70	0.84	-42.70	0.51	42.90
8350	0.52	41.70	0.84	-43.00	0.84	-43.00	0.52	41.70
8400	0.52	40.80	0.83	-43.10	0.83	-43.10	0.52	40.80
8450	0.53	40.00	0.83	-43.20	0.83	-43.20	0.53	40.00
8500	0.53	38.90	0.83	-43.40	0.83	-43.40	0.53	38.90
8550	0.53	37.90	0.83	-43.60	0.83	-43.60	0.53	37.90
8600	0.53	37.00	0.83	-43.70	0.83	-43.70	0.53	37.00
8650	0.54	36.10	0.83	-43.90	0.83	-43.90	0.54	36.10
8700	0.54	35.50	0.82	-44.00	0.82	-44.00	0.54	35.50
8750	0.55	34.90	0.82	-44.20	0.82	-44.20	0.55	34.90
8800	0.55	33.90	0.82	-44.30	0.82	-44.30	0.55	33.90
8850	0.55	32.90	0.81	-44.40	0.81	-44.40	0.55	32.90
8900	0.55	33.00	0.81	-44.50	0.81	-44.50	0.55	33.00
8950	0.55	33.20	0.81	-44.60	0.81	-44.60	0.55	33.20
9000	0.56	32.80	0.81	-44.90	0.81	-44.90	0.56	32.80
9050	0.56	32.40	0.81	-45.20	0.81	-45.20	0.56	32.40
9100	0.57	32.10	0.81	-45.50	0.81	-45.50	0.57	32.10
9150	0.57	31.80	0.81	-45.90	0.81	-45.90	0.57	31.80
9200	0.57	31.20	0.80	-46.10	0.80	-46.10	0.57	31.20
9250	0.57	30.70	0.80	-46.40	0.80	-46.40	0.57	30.70
9300	0.57	31.30	0.80	-46.20	0.80	-46.20	0.57	31.30
9350	0.57	31.80	0.80	-46.10	0.80	-46.10	0.57	31.80
9400	0.58	31.20	0.80	-46.40	0.80	-46.40	0.58	31.20
9450	0.58	30.50	0.79	-46.70	0.79	-46.70	0.58	30.50
9500	0.58	30.90	0.79	-46.80	0.79	-46.80	0.58	30.90
9550	0.58	31.20	0.79	-46.90	0.79	-46.90	0.58	31.20
9600	0.59	31.10	0.79	-47.20	0.79	-47.20	0.59	31.10
9650	0.60	30.90	0.79	-47.60	0.79	-47.60	0.60	30.90
9700	0.60	31.10	0.79	-47.60	0.79	-47.60	0.60	31.10
9750	0.60	31.40	0.79	-47.70	0.79	-47.70	0.60	31.40
9800	0.60	31.50	0.79	-47.80	0.79	-47.80	0.60	31.50
9850	0.60	31.60	0.79	-47.90	0.79	-47.90	0.60	31.60
9900	0.61	31.60	0.78	-48.50	0.78	-48.50	0.61	31.60
9950	0.61	31.50	0.78	-49.00	0.78	-49.00	0.61	31.50
10000	0.61	31.40	0.78	-48.90	0.78	-48.90	0.61	31.40
10050	0.61	31.40	0.77	-48.80	0.77	-48.80	0.61	31.40
10100	0.62	31.70	0.78	-49.10	0.78	-49.10	0.62	31.70
10150	0.62	32.10	0.78	-49.50	0.78	-49.50	0.62	32.10
10200	0.62	32.10	0.77	-49.70	0.77	-49.70	0.62	32.10
10250	0.62	32.10	0.77	-49.80	0.77	-49.80	0.62	32.10
10300	0.63	31.70	0.76	-50.10	0.76	-50.10	0.63	31.70
10350	0.63	31.30	0.75	-50.30	0.75	-50.30	0.63	31.30
10400	0.62	31.60	0.76	-50.30	0.76	-50.30	0.62	31.60
10450	0.62	32.00	0.76	-50.30	0.76	-50.30	0.62	32.00
10500	0.63	31.60	0.76	-50.70	0.76	-50.70	0.63	31.60
10550	0.63	31.30	0.75	-51.10	0.75	-51.10	0.63	31.30
10600	0.63	31.20	0.76	-51.10	0.76	-51.10	0.63	31.20
10650	0.63	31.20	0.76	-51.10	0.76	-51.10	0.63	31.20
10700	0.63	31.30	0.75	-51.60	0.75	-51.60	0.63	31.30
10750	0.64	31.40	0.75	-52.00	0.75	-52.00	0.64	31.40
10800	0.64	31.30	0.75	-51.90	0.75	-51.90	0.64	31.30
10850	0.64	31.20	0.75	-51.90	0.75	-51.90	0.64	31.20
10900	0.64	31.00	0.75	-52.10	0.75	-52.10	0.64	31.00
10950	0.64	30.70	0.75	-52.30	0.75	-52.30	0.64	30.70
11000	0.64	30.30	0.75	-53.20	0.75	-53.20	0.64	30.30
11050	0.63	30.00	0.75	-54.10	0.75	-54.10	0.63	30.00
11100	0.64	29.90	0.74	-53.90	0.74	-53.90	0.64	29.90
11150	0.65	29.70	0.74	-53.70	0.74	-53.70	0.65	29.70
11200	0.65	29.30	0.74	-54.50	0.74	-54.50	0.65	29.30
11250	0.65	28.90	0.74	-55.20	0.74	-55.20	0.65	28.90
11300	0.65	28.20	0.74	-55.50	0.74	-55.50	0.65	28.20
11350	0.65	27.60	0.74	-55.80	0.74	-55.80	0.65	27.60
11400	0.65	27.80	0.73	-56.10	0.73	-56.10	0.65	27.80
11450	0.66	28.10	0.72	-56.40	0.72	-56.40	0.66	28.10
11500	0.66	27.60	0.72	-56.70	0.72	-56.70	0.66	27.60
11550	0.67	27.10	0.73	-57.00	0.73	-57.00	0.67	27.10
11600	0.67	27.40	0.72	-57.20	0.72	-57.20	0.67	27.40
11650	0.67	27.70	0.72	-57.50	0.72	-57.50	0.67	27.70
11700	0.68	27.50	0.72	-57.90	0.72	-57.90	0.68	27.50
11750	0.68	27.30	0.72	-58.30	0.72	-58.30	0.68	27.30
11800	0.68	27.70	0.71	-58.30	0.71	-58.30	0.68	27.70
11850	0.69	28.00	0.71	-58.20	0.71	-58.20	0.69	28.00
11900	0.68	28.30	0.71	-58.80	0.71	-58.80	0.68	28.30
11950	0.67	28.60	0.70	-59.30	0.70	-59.30	0.67	28.60
12000	0.68	28.60	0.71	-59.30	0.71	-59.30	0.68	28.60
12050	0.69	28.50	0.71	-59.40	0.71	-59.40	0.69	28.50
12100	0.69	28.10	0.71	-60.10	0.71	-60.10	0.69	28.10
12150	0.69	27.70	0.70	-60.90	0.70	-60.90	0.69	27.70
12200	0.69	27.70	0.70	-61.20	0.70	-61.20	0.69	27.70
12250	0.69	27.80	0.70	-61.50	0.70	-61.50	0.69	27.80
12300	0.69	28.30	0.70	-61.70	0.70	-61.70	0.69	28.30
12350	0.68	28.80	0.69	-61.80	0.69	-61.80	0.68	28.80
12400	0.69	27.80	0.69	-62.80	0.69	-62.80	0.69	27.80
12450	0.69	26.90	0.69	-63.70	0.69	-63.70	0.69	26.90
12500	0.70	27.60	0.68	-63.70	0.68	-63.70	0.70	27.60
12550	0.70	28.30	0.68	-63.70	0.68	-63.70	0.70	28.30
12600	0.70	28.10	0.67	-64.20	0.67	-64.20	0.70	28.10
12650	0.70	27.90	0.66	-64.70	0.66	-64.70	0.70	27.90
12700	0.71	27.70	0.66	-64.90	0.66	-64.90	0.71	27.70
12750	0.72	27.60	0.66	-65.10	0.66	-65.10	0.72	27.60
12800	0.72	27.50	0.65	-65.40	0.65	-65.40	0.72	27.50
12850	0.72	27.50	0.64	-65.60	0.64	-65.60	0.72	27.50
12900	0.73	27.20	0.64	-65.90	0.64	-65.90	0.73	27.20
12950	0.74	27.00	0.64	-66.30	0.64	-66.30	0.74	27.00
13000	0.73	27.00	0.63	-66.20	0.63	-66.20	0.73	27.00
13050	0.73	26.90	0.63	-66.20	0.63	-66.20	0.73	26.90
13100	0.73	26.30	0.63	-66.50	0.63	-66.50	0.73	26.30
13150	0.73	25.70	0.63	-66.70	0.63	-66.70	0.73	25.70
13200	0.74	25.70	0.63	-66.70	0.63	-66.70	0.74	25.70
13250	0.74	25.60	0.62	-66.60	0.62	-66.60	0.74	25.60
13300	0.72	26.60	0.62	-67.40	0.62	-67.40	0.72	26.60
13350	0.70	27.60	0.61	-68.10	0.61	-68.10	0.70	27.60
13400	0.72	25.60	0.61	-68.30	0.61	-68.30	0.72	25.60
13450	0.74	23.60	0.61	-68.60	0.61	-68.60	0.74	23.60
13500	0.74	23.40	0.61	-68.90	0.61	-68.90	0.74	23.40
13550	0.74	23.10	0.60	-69.20	0.60	-69.20	0.74	23.10
13600	0.74	21.90	0.60	-69.80	0.60	-69.80	0.74	21.90
13650	0.75	20.70	0.60	-70.50	0.60	-70.50	0.75	20.70
13700	0.75	20.20	0.59	-70.50	0.59	-70.50	0.75	20.20
13750	0.75	19.70	0.59	-70.60	0.59	-70.60	0.75	19.70
13800	0.75	18.20	0.59	-70.90	0.59	-70.90	0.75	18.20
13850	0.75	16.80	0.58	-71.10	0.58	-71.10	0.75	16.80
13900	0.75	15.70	0.58	-71.10	0.58	-71.10	0.75	15.70
13950	0.76	14.50	0.58	-71.10	0.58	-71.10	0.76	14.50
14000	0.76	13.70	0.58	-71.20	0.58	-71.20	0.76	13.70
14050	0.76	12.90	0.57	-71.30	0.57	-71.30	0.76	12.90
14100	0.77	11.50	0.57	-71.60	0.57	-71.60	0.77	11.50
14150	0.77	10.10	0.58	-71.80	0.58	-71.80	0.77	10.10
14200	0.78	9.50	0.57	-72.10	0.57	-72.10	0.78	9.50
14250	0.79	8.80	0.57	-72.40	0.57	-72.40	0.79	8.80
14300	0.78	7.70	0.57	-72.70	0.57	-72.70	0.78	7.70
14350	0.78	6.50	0.56	-72.90	0.56	-72.90	0.78	6.50
14400	0.79	6.00	0.56	-73.00	0.56	-73.00	0.79	6.00
14450	0.80	5.50	0.56	-73.00	0.56	-73.00	0.80	5.50
14500	0.80	4.80	0.56	-73.00	0.56	-73.00	0.80	4.80
14550	0.80	4.20	0.55	-73.00	0.55	-73.00	0.80	4.20
14600	0.80	3.90	0.55	-73.10	0.55	-73.10	0.80	3.90
14650	0.81	3.70	0.55	-73.20	0.55	-73.20	0.81	3.70
14700	0.81	2.90	0.55	-73.40	0.55	-73.40	0.81	2.90
14750	0.80	2.20	0.54	-73.50	0.54	-73.50	0.80	2.20
14800	0.81	1.80	0.54	-73.80	0.54	-73.80	0.81	1.80
14850	0.81	1.30	0.54	-74.10	0.54	-74.10	0.81	1.30
14900	0.81	1.70	0.54	-73.80	0.54	-73.80	0.81	1.70
14950	0.81	2.10	0.54	-73.50	0.54	-73.50	0.81	2.10
15000	0.81	0.90	0.53	-74.10	0.53	-74.10	0.81	0.90
15050	0.81	-0.30	0.53	-74.70	0.53	-74.70	0.81	-0.30
15100	0.81	0.20	0.53	-74.40	0.53	-74.40	0.81	0.20
15150	0.81	0.80	0.53	-74.00	0.53	-74.00	0.81	0.80
15200	0.81	0.40	0.53	-74.10	0.53	-74.10	0.81	0.40
15250	0.82	0.10	0.52	-74.20	0.52	-74.20	0.82	0.10
15300	0.83	-0.60	0.52	-74.90	0.52	-74.90	0.83	-0.60
15350	0.83	-1.20	0.52	-75.50	0.52	-75.50	0.83	-1.20
15400	0.82	-0.90	0.51	-75.20	0.51	-75.20	0.82	-0.90
15450	0.81	-0.60	0.50	-74.90	0.50	-74.90	0.81	-0.60
15500	0.83	-0.20	0.51	-75.40	0.51	-75.40	0.83	-0.20
15550	0.85	0.30	0.51	-76.00	0.51	-76.00	0.85	0.30
15600	0.85	0.20	0.50	-75.90	0.50	-75.90	0.85	0.20
15650	0.85	0.10	0.50	-75.80	0.50	-75.80	0.85	0.10
15700	0.85	0.30	0.50	-76.20	0.50	-76.20	0.85	0.30
15750	0.86	0.50	0.49	-76.60	0.49	-76.60	0.86	0.50
15800	0.86	1.10	0.49	-76.40	0.49	-76.40	0.86	1.10
15850	0.86	1.70	0.49	-76.10	0.49	-76.10	0.86	1.70
15900	0.86	1.80	0.48	-76.10	0.48	-76.10	0.86	1.80
15950	0.86	1.90	0.47	-76.10	0.47	-76.10	0.86	1.90
16000	0.86	3.30	0.47	-75.70	0.47	-75.70	0.86	3.30
16050	0.87	4.60	0.48	-75.20	0.48	-75.20	0.87	4.60
16100	0.87	4.90	0.47	-75.40	0.47	-75.40	0.87	4.90
16150	0.87	5.20	0.47	-75.70	0.47	-75.70	0.87	5.20
16200	0.86	5.90	0.47	-75.40	0.47	-75.40	0.86	5.90
16250	0.85	6.60	0.47	-75.20	0.47	-75.20	0.85	6.60
16300	0.85	7.00	0.47	-75.10	0.47	-75.10	0.85	7.00
16350	0.85	7.50	0.47	-75.00	0.47	-75.00	0.85	7.50
16400	0.85	7.70	0.47	-75.60	0.47	-75.60	0.85	7.70
16450	0.85	8.00	0.47	-76.10	0.47	-76.10	0.85	8.00
16500	0.85	7.80	0.47	-75.90	0.47	-75.90	0.85	7.80
16550	0.84	7.60	0.46	-75.60	0.46	-75.60	0.84	7.60
16600	0.84	7.60	0.47	-75.80	0.47	-75.80	0.84	7.60
16650	0.85	7.60	0.47	-76.00	0.47	-76.00	0.85	7.60
16700	0.85	7.50	0.47	-76.60	0.47	-76.60	0.85	7.50
16750	0.85	7.40	0.47	-77.10	0.47	-77.10	0.85	7.40
16800	0.85	7.10	0.47	-77.50	0.47	-77.50	0.85	7.10
16850	0.85	6.70	0.46	-77.90	0.46	-77.90	0.85	6.70
16900	0.85	6.40	0.46	-78.10	0.46	-78.10	0.85	6.40
16950	0.86	6.10	0.45	-78.40	0.45	-78.40	0.86	6.10
17000	0.86	6.10	0.45	-78.70	0.45	-78.70	0.86	6.10
17050	0.86	6.00	0.45	-79.00	0.45	-79.00	0.86	6.00
17100	0.87	5.90	0.44	-79.30	0.44	-79.30	0.87	5.90
17150	0.87	5.90	0.44	-79.60	0.44	-79.60	0.87	5.90
17200	0.87	6.30	0.43	-79.60	0.43	-79.60	0.87	6.30
17250	0.88	6.70	0.43	-79.60	0.43	-79.60	0.88	6.70
17300	0.88	7.00	0.43	-79.60	0.43	-79.60	0.88	7.00
17350	0.88	7.30	0.43	-79.70	0.43	-79.70	0.88	7.30
17400	0.89	7.50	0.42	-79.40	0.42	-79.40	0.89	7.50
17450	0.89	7.70	0.42	-79.20	0.42	-79.20	0.89	7.70
17500	0.90	7.70	0.42	-79.60	0.42	-79.60	0.90	7.70
17550	0.90	7.70	0.42	-80.00	0.42	-80.00	0.90	7.70
17600	0.90	7.80	0.42	-80.30	0.42	-80.30	0.90	7.80
17650	0.89	8.00	0.41	-80.70	0.41	-80.70	0.89	8.00
17700	0.90	8.00	0.42	-80.80	0.42	-80.80	0.90	8.00
17750	0.90	8.00	0.42	-80.80	0.42	-80.80	0.90	8.00
17800	0.90	7.00	0.42	-81.70	0.42	-81.70	0.90	7.00
17850	0.89	6.00	0.41	-82.50	0.41	-82.50	0.89	6.00
17900	0.89	6.50	0.41	-82.70	0.41	-82.70	0.89	6.50
17950	0.88	7.10	0.41	-83.00	0.41	-83.00	0.88	7.10
18000	0.88	6.40	0.40	-83.40	0.40	-83.40	0.88	6.40
18050	0.87	5.70	0.40	-83.90	0.40	-83.90	0.87	5.70
18100	0.87	5.00	0.40	-84.40	0.40	-84.40	0.87	5.00
18150	0.87	4.30	0.40	-85.00	0.40	-85.00	0.87	4.30
18200	0.87	4.00	0.39	-85.30	0.39	-85.30	0.87	4.00
18250	0.87	3.80	0.39	-85.70	0.39	-85.70	0.87	3.80
18300	0.88	2.90	0.39	-85.90	0.39	-85.90	0.88	2.90
18350	0.90	2.00	0.39	-86.20	0.39	-86.20	0.90	2.00
18400	0.89	1.70	0.38	-86.60	0.38	-86.60	0.89	1.70
18450	0.89	1.50	0.38	-86.90	0.38	-86.90	0.89	1.50
18500	0.91	2.50	0.38	-86.60	0.38	-86.60	0.91	2.50
18550	0.93	3.50	0.38	-86.30	0.38	-86.30	0.93	3.50
18600	0.93	2.80	0.38	-87.00	0.38	-87.00	0.93	2.80
18650	0.94	2.00	0.38	-87.70	0.38	-87.70	0.94	2.00
18700	0.93	1.40	0.37	-88.50	0.37	-88.50	0.93	1.40
18750	0.93	0.80	0.37	-89.40	0.37	-89.40	0.93	0.80
18800	0.93	1.00	0.37	-89.30	0.37	-89.30	0.93	1.00
18850	0.93	1.20	0.37	-89.30	0.37	-89.30	0.93	1.20
18900	0.94	0.40	0.37	-90.30	0.37	-90.30	0.94	0.40
18950	0.94	-0.30	0.36	-91.30	0.36	-91.30	0.94	-0.30
19000	0.92	-1.00	0.36	-91.40	0.36	-91.40	0.92	-1.00
19050	0.90	-1.60	0.36	-91.60	0.36	-91.60	0.90	-1.60
19100	0.91	-2.50	0.35	-91.90	0.35	-91.90	0.91	-2.50
19150	0.91	-3.40	0.35	-92.20	0.35	-92.20	0.91	-3.40
19200	0.90	-5.10	0.34	-92.50	0.34	-92.50	0.90	-5.10
19250	0.89	-6.90	0.34	-92.70	0.34	-92.70	0.89	-6.90
19300	0.89	-7.80	0.34	-92.80	0.34	-92.80	0.89	-7.80
19350	0.90	-8.80	0.34	-92.80	0.34	-92.80	0.90	-8.80
19400	0.90	-10.70	0.34	-93.90	0.34	-93.90	0.90	-10.70
19450	0.91	-12.50	0.34	-94.90	0.34	-94.90	0.91	-12.50
19500	0.90	-13.60	0.33	-94.70	0.33	-94.70	0.90	-13.60
19550	0.89	-14.60	0.32	-94.40	0.32	-94.40	0.89	-14.60
19600	0.91	-15.40	0.32	-95.30	0.32	-95.30	0.91	-15.40
19650	0.92	-16.20	0.32	-96.30	0.32	-96.30	0.92	-16.20
