#	mhz	s	ma	r	50
50	0.29	67.60	0.93	-15.30	0.93	-15.30	0.29	67.60
100	0.48	56.10	0.82	-28.00	0.82	-28.00	0.48	56.10
150	0.67	44.70	0.71	-40.60	0.71	-40.60	0.67	44.70
200	0.76	37.10	0.61	-48.40	0.61	-48.40	0.76	37.10
250	0.85	29.60	0.51	-56.30	0.51	-56.30	0.85	29.60
300	0.88	24.70	0.43	-61.10	0.43	-61.10	0.88	24.70
350	0.92	19.90	0.35	-66.00	0.35	-66.00	0.92	19.90
400	0.94	16.00	0.30	-69.50	0.30	-69.50	0.94	16.00
450	0.97	12.10	0.24	-73.00	0.24	-73.00	0.97	12.10
500	1.00	12.10	0.19	-76.50	0.19	-76.50	1.00	12.10
550	1.00	12.00	0.14	-79.90	0.14	-79.90	1.00	12.00
600	1.00	10.10	0.11	-80.70	0.11	-80.70	1.00	10.10
650	1.00	8.20	0.07	-81.60	0.07	-81.60	1.00	8.20
700	1.00	6.90	0.05	-76.30	0.05	-76.30	1.00	6.90
750	1.00	5.60	0.02	-71.00	0.02	-71.00	1.00	5.60
800	1.00	3.70	0.03	3.60	0.03	3.60	1.00	3.70
850	0.99	1.80	0.04	78.10	0.04	78.10	0.99	1.80
900	1.00	0.40	0.06	79.30	0.06	79.30	1.00	0.40
950	1.00	-0.90	0.08	80.60	0.08	80.60	1.00	-0.90
1000	1.00	-2.30	0.10	80.00	0.10	80.00	1.00	-2.30
1050	1.00	-3.60	0.12	79.40	0.12	79.40	1.00	-3.60
1100	1.00	-4.90	0.14	78.20	0.14	78.20	1.00	-4.90
1150	0.99	-6.10	0.16	77.00	0.16	77.00	0.99	-6.10
1200	0.99	-7.10	0.18	76.30	0.18	76.30	0.99	-7.10
1250	0.99	-8.20	0.20	75.60	0.20	75.60	0.99	-8.20
1300	0.99	-9.80	0.22	74.20	0.22	74.20	0.99	-9.80
1350	0.98	-11.40	0.23	72.90	0.23	72.90	0.98	-11.40
1400	0.97	-12.30	0.25	72.20	0.25	72.20	0.97	-12.30
1450	0.97	-13.30	0.27	71.50	0.27	71.50	0.97	-13.30
1500	0.96	-14.80	0.28	70.20	0.28	70.20	0.96	-14.80
1550	0.95	-16.30	0.30	69.00	0.30	69.00	0.95	-16.30
1600	0.95	-17.70	0.31	67.90	0.31	67.90	0.95	-17.70
1650	0.94	-19.00	0.33	66.90	0.33	66.90	0.94	-19.00
1700	0.93	-20.10	0.35	65.90	0.35	65.90	0.93	-20.10
1750	0.93	-21.20	0.36	65.00	0.36	65.00	0.93	-21.20
1800	0.92	-22.80	0.38	63.50	0.38	63.50	0.92	-22.80
1850	0.92	-24.30	0.40	62.10	0.40	62.10	0.92	-24.30
1900	0.91	-25.50	0.41	61.50	0.41	61.50	0.91	-25.50
1950	0.90	-26.70	0.42	60.90	0.42	60.90	0.90	-26.70
2000	0.89	-28.10	0.43	59.90	0.43	59.90	0.89	-28.10
2050	0.88	-29.40	0.45	58.90	0.45	58.90	0.88	-29.40
2100	0.87	-30.60	0.47	57.80	0.47	57.80	0.87	-30.60
2150	0.87	-31.70	0.48	56.70	0.48	56.70	0.87	-31.70
2200	0.85	-33.10	0.50	55.50	0.50	55.50	0.85	-33.10
2250	0.84	-34.60	0.51	54.40	0.51	54.40	0.84	-34.60
2300	0.83	-35.70	0.53	53.40	0.53	53.40	0.83	-35.70
2350	0.83	-36.80	0.54	52.40	0.54	52.40	0.83	-36.80
2400	0.81	-38.30	0.56	50.90	0.56	50.90	0.81	-38.30
2450	0.80	-39.80	0.57	49.40	0.57	49.40	0.80	-39.80
2500	0.79	-41.00	0.58	48.00	0.58	48.00	0.79	-41.00
2550	0.78	-42.30	0.60	46.70	0.60	46.70	0.78	-42.30
2600	0.76	-43.60	0.62	45.20	0.62	45.20	0.76	-43.60
2650	0.74	-44.80	0.63	43.70	0.63	43.70	0.74	-44.80
2700	0.72	-46.20	0.65	41.80	0.65	41.80	0.72	-46.20
2750	0.70	-47.60	0.67	39.80	0.67	39.80	0.70	-47.60
2800	0.67	-49.30	0.69	37.20	0.69	37.20	0.67	-49.30
2850	0.63	-51.10	0.71	34.50	0.71	34.50	0.63	-51.10
2900	0.58	-51.60	0.72	29.80	0.72	29.80	0.58	-51.60
2950	0.52	-52.20	0.73	25.00	0.73	25.00	0.52	-52.20
3000	0.44	-41.80	0.71	16.40	0.71	16.40	0.44	-41.80
3050	0.37	-31.40	0.68	7.80	0.68	7.80	0.37	-31.40
3100	0.50	-20.90	0.52	3.90	0.52	3.90	0.50	-20.90
3150	0.64	-10.30	0.35	0.00	0.35	0.00	0.64	-10.30
3200	0.72	-17.40	0.34	20.80	0.34	20.80	0.72	-17.40
3250	0.81	-24.50	0.34	41.60	0.34	41.60	0.81	-24.50
3300	0.81	-29.30	0.39	44.70	0.39	44.70	0.81	-29.30
3350	0.82	-34.00	0.45	47.90	0.45	47.90	0.82	-34.00
3400	0.81	-36.70	0.49	47.60	0.49	47.60	0.81	-36.70
3450	0.80	-39.40	0.53	47.20	0.53	47.20	0.80	-39.40
3500	0.79	-41.40	0.55	46.20	0.55	46.20	0.79	-41.40
3550	0.78	-43.50	0.58	45.20	0.58	45.20	0.78	-43.50
3600	0.76	-44.60	0.59	44.40	0.59	44.40	0.76	-44.60
3650	0.75	-45.80	0.61	43.60	0.61	43.60	0.75	-45.80
3700	0.75	-47.30	0.63	42.70	0.63	42.70	0.75	-47.30
3750	0.74	-48.80	0.64	41.80	0.64	41.80	0.74	-48.80
3800	0.73	-49.70	0.65	41.20	0.65	41.20	0.73	-49.70
3850	0.72	-50.70	0.66	40.60	0.66	40.60	0.72	-50.70
3900	0.71	-51.90	0.67	39.50	0.67	39.50	0.71	-51.90
3950	0.70	-53.10	0.68	38.50	0.68	38.50	0.70	-53.10
4000	0.69	-54.00	0.69	37.90	0.69	37.90	0.69	-54.00
4050	0.68	-54.90	0.70	37.40	0.70	37.40	0.68	-54.90
4100	0.67	-55.70	0.71	36.70	0.71	36.70	0.67	-55.70
4150	0.66	-56.50	0.72	36.00	0.72	36.00	0.66	-56.50
4200	0.66	-57.50	0.73	35.40	0.73	35.40	0.66	-57.50
4250	0.65	-58.60	0.74	34.70	0.74	34.70	0.65	-58.60
4300	0.64	-59.40	0.74	34.20	0.74	34.20	0.64	-59.40
4350	0.63	-60.30	0.75	33.60	0.75	33.60	0.63	-60.30
4400	0.62	-61.30	0.75	32.90	0.75	32.90	0.62	-61.30
4450	0.62	-62.30	0.76	32.10	0.76	32.10	0.62	-62.30
4500	0.61	-62.70	0.77	31.60	0.77	31.60	0.61	-62.70
4550	0.60	-63.20	0.77	31.00	0.77	31.00	0.60	-63.20
4600	0.59	-64.40	0.78	30.00	0.78	30.00	0.59	-64.40
4650	0.59	-65.70	0.79	29.10	0.79	29.10	0.59	-65.70
4700	0.58	-66.40	0.79	28.40	0.79	28.40	0.58	-66.40
4750	0.56	-67.10	0.80	27.80	0.80	27.80	0.56	-67.10
4800	0.55	-68.00	0.80	27.00	0.80	27.00	0.55	-68.00
4850	0.54	-68.80	0.81	26.20	0.81	26.20	0.54	-68.80
4900	0.54	-69.30	0.81	25.50	0.81	25.50	0.54	-69.30
4950	0.53	-69.90	0.82	24.80	0.82	24.80	0.53	-69.90
5000	0.52	-71.00	0.82	23.70	0.82	23.70	0.52	-71.00
5050	0.51	-72.10	0.82	22.50	0.82	22.50	0.51	-72.10
5100	0.49	-72.20	0.83	21.70	0.83	21.70	0.49	-72.20
5150	0.48	-72.40	0.83	20.90	0.83	20.90	0.48	-72.40
5200	0.46	-72.70	0.84	20.10	0.84	20.10	0.46	-72.70
5250	0.45	-72.90	0.84	19.20	0.84	19.20	0.45	-72.90
5300	0.43	-73.30	0.85	17.40	0.85	17.40	0.43	-73.30
5350	0.42	-73.70	0.85	15.60	0.85	15.60	0.42	-73.70
5400	0.39	-72.40	0.85	13.70	0.85	13.70	0.39	-72.40
5450	0.36	-71.10	0.84	11.80	0.84	11.80	0.36	-71.10
5500	0.33	-65.80	0.82	9.10	0.82	9.10	0.33	-65.80
5550	0.30	-60.40	0.81	6.40	0.81	6.40	0.30	-60.40
5600	0.32	-49.00	0.75	3.90	0.75	3.90	0.32	-49.00
5650	0.34	-37.60	0.69	1.40	0.69	1.40	0.34	-37.60
5700	0.42	-37.00	0.62	5.60	0.62	5.60	0.42	-37.00
5750	0.50	-36.40	0.55	9.70	0.55	9.70	0.50	-36.40
5800	0.55	-41.80	0.56	16.50	0.56	16.50	0.55	-41.80
5850	0.60	-47.20	0.58	23.30	0.58	23.30	0.60	-47.20
5900	0.60	-51.20	0.62	24.90	0.62	24.90	0.60	-51.20
5950	0.60	-55.30	0.67	26.50	0.67	26.50	0.60	-55.30
6000	0.59	-58.80	0.70	25.40	0.70	25.40	0.59	-58.80
6050	0.58	-62.30	0.73	24.30	0.73	24.30	0.58	-62.30
6100	0.57	-63.80	0.75	23.90	0.75	23.90	0.57	-63.80
6150	0.56	-65.30	0.76	23.50	0.76	23.50	0.56	-65.30
6200	0.55	-65.90	0.78	22.60	0.78	22.60	0.55	-65.90
6250	0.54	-66.50	0.79	21.70	0.79	21.70	0.54	-66.50
6300	0.53	-67.20	0.80	21.10	0.80	21.10	0.53	-67.20
6350	0.53	-67.90	0.81	20.50	0.81	20.50	0.53	-67.90
6400	0.52	-67.90	0.81	19.80	0.81	19.80	0.52	-67.90
6450	0.51	-67.90	0.82	19.10	0.82	19.10	0.51	-67.90
6500	0.50	-68.00	0.82	18.50	0.82	18.50	0.50	-68.00
6550	0.50	-68.00	0.83	17.90	0.83	17.90	0.50	-68.00
6600	0.49	-67.90	0.84	17.30	0.84	17.30	0.49	-67.90
6650	0.48	-67.80	0.84	16.70	0.84	16.70	0.48	-67.80
6700	0.47	-67.50	0.85	16.40	0.85	16.40	0.47	-67.50
6750	0.47	-67.30	0.85	16.10	0.85	16.10	0.47	-67.30
6800	0.46	-67.10	0.86	15.50	0.86	15.50	0.46	-67.10
6850	0.45	-67.00	0.86	14.90	0.86	14.90	0.45	-67.00
6900	0.45	-67.20	0.86	14.40	0.86	14.40	0.45	-67.20
6950	0.44	-67.30	0.86	13.90	0.86	13.90	0.44	-67.30
7000	0.43	-67.60	0.87	13.30	0.87	13.30	0.43	-67.60
7050	0.42	-67.80	0.87	12.80	0.87	12.80	0.42	-67.80
7100	0.41	-67.60	0.88	12.30	0.88	12.30	0.41	-67.60
7150	0.40	-67.30	0.88	11.80	0.88	11.80	0.40	-67.30
7200	0.39	-68.20	0.88	11.30	0.88	11.30	0.39	-68.20
7250	0.38	-69.10	0.89	10.70	0.89	10.70	0.38	-69.10
7300	0.37	-69.30	0.89	10.10	0.89	10.10	0.37	-69.30
7350	0.36	-69.50	0.90	9.40	0.90	9.40	0.36	-69.50
7400	0.35	-70.30	0.90	8.70	0.90	8.70	0.35	-70.30
7450	0.34	-71.00	0.90	8.00	0.90	8.00	0.34	-71.00
7500	0.33	-71.60	0.90	7.20	0.90	7.20	0.33	-71.60
7550	0.31	-72.20	0.91	6.40	0.91	6.40	0.31	-72.20
7600	0.31	-72.00	0.91	5.60	0.91	5.60	0.31	-72.00
7650	0.30	-71.80	0.91	4.70	0.91	4.70	0.30	-71.80
7700	0.28	-71.60	0.91	3.80	0.91	3.80	0.28	-71.60
7750	0.26	-71.40	0.91	2.90	0.91	2.90	0.26	-71.40
7800	0.24	-68.80	0.90	1.80	0.90	1.80	0.24	-68.80
7850	0.23	-66.10	0.90	0.60	0.90	0.60	0.23	-66.10
7900	0.22	-62.30	0.89	-0.80	0.89	-0.80	0.22	-62.30
7950	0.20	-58.60	0.88	-2.20	0.88	-2.20	0.20	-58.60
8000	0.20	-48.30	0.86	-3.80	0.86	-3.80	0.20	-48.30
8050	0.20	-38.00	0.83	-5.40	0.83	-5.40	0.20	-38.00
8100	0.23	-32.30	0.79	-6.00	0.79	-6.00	0.23	-32.30
8150	0.27	-26.70	0.75	-6.50	0.75	-6.50	0.27	-26.70
8200	0.32	-28.80	0.70	-4.00	0.70	-4.00	0.32	-28.80
8250	0.37	-30.90	0.66	-1.40	0.66	-1.40	0.37	-30.90
8300	0.40	-37.20	0.67	3.20	0.67	3.20	0.40	-37.20
8350	0.43	-43.60	0.68	7.70	0.68	7.70	0.43	-43.60
8400	0.43	-49.20	0.71	9.30	0.71	9.30	0.43	-49.20
8450	0.43	-54.90	0.75	10.80	0.75	10.80	0.43	-54.90
8500	0.42	-58.30	0.78	10.70	0.78	10.70	0.42	-58.30
8550	0.41	-61.70	0.81	10.50	0.81	10.50	0.41	-61.70
8600	0.40	-63.70	0.83	9.70	0.83	9.70	0.40	-63.70
8650	0.38	-65.80	0.85	8.80	0.85	8.80	0.38	-65.80
8700	0.37	-67.10	0.86	7.90	0.86	7.90	0.37	-67.10
8750	0.36	-68.40	0.87	7.00	0.87	7.00	0.36	-68.40
8800	0.35	-68.90	0.88	6.50	0.88	6.50	0.35	-68.90
8850	0.34	-69.50	0.89	6.10	0.89	6.10	0.34	-69.50
8900	0.33	-69.80	0.89	5.20	0.89	5.20	0.33	-69.80
8950	0.32	-70.00	0.90	4.30	0.90	4.30	0.32	-70.00
9000	0.31	-70.50	0.90	3.70	0.90	3.70	0.31	-70.50
9050	0.30	-71.00	0.91	3.00	0.91	3.00	0.30	-71.00
9100	0.29	-71.20	0.91	2.40	0.91	2.40	0.29	-71.20
9150	0.28	-71.40	0.91	1.80	0.91	1.80	0.28	-71.40
9200	0.28	-72.30	0.92	1.40	0.92	1.40	0.28	-72.30
9250	0.27	-73.20	0.92	0.90	0.92	0.90	0.27	-73.20
9300	0.26	-72.80	0.93	0.20	0.93	0.20	0.26	-72.80
9350	0.25	-72.30	0.93	-0.40	0.93	-0.40	0.25	-72.30
9400	0.25	-71.90	0.93	-0.80	0.93	-0.80	0.25	-71.90
9450	0.25	-71.60	0.92	-1.20	0.92	-1.20	0.25	-71.60
9500	0.24	-71.60	0.92	-1.70	0.92	-1.70	0.24	-71.60
9550	0.23	-71.70	0.93	-2.20	0.93	-2.20	0.23	-71.70
9600	0.22	-72.00	0.93	-2.60	0.93	-2.60	0.22	-72.00
9650	0.21	-72.20	0.94	-3.00	0.94	-3.00	0.21	-72.20
9700	0.20	-72.10	0.94	-3.40	0.94	-3.40	0.20	-72.10
9750	0.19	-72.10	0.94	-3.90	0.94	-3.90	0.19	-72.10
9800	0.18	-71.60	0.94	-4.50	0.94	-4.50	0.18	-71.60
9850	0.16	-71.20	0.95	-5.10	0.95	-5.10	0.16	-71.20
9900	0.15	-67.80	0.95	-5.70	0.95	-5.70	0.15	-67.80
9950	0.14	-64.40	0.95	-6.20	0.95	-6.20	0.14	-64.40
10000	0.13	-64.60	0.95	-6.90	0.95	-6.90	0.13	-64.60
10050	0.12	-64.90	0.95	-7.50	0.95	-7.50	0.12	-64.90
10100	0.10	-56.90	0.95	-8.20	0.95	-8.20	0.10	-56.90
10150	0.09	-49.00	0.95	-8.80	0.95	-8.80	0.09	-49.00
10200	0.09	-44.60	0.95	-9.60	0.95	-9.60	0.09	-44.60
10250	0.09	-40.30	0.95	-10.40	0.95	-10.40	0.09	-40.30
10300	0.09	-29.50	0.94	-11.20	0.94	-11.20	0.09	-29.50
10350	0.08	-18.70	0.93	-12.00	0.93	-12.00	0.08	-18.70
10400	0.09	-12.00	0.93	-13.00	0.93	-13.00	0.09	-12.00
10450	0.10	-5.20	0.93	-14.00	0.93	-14.00	0.10	-5.20
10500	0.11	-1.70	0.92	-15.00	0.92	-15.00	0.11	-1.70
10550	0.12	1.90	0.91	-16.00	0.91	-16.00	0.12	1.90
10600	0.15	5.70	0.89	-17.10	0.89	-17.10	0.15	5.70
10650	0.17	9.60	0.88	-18.20	0.88	-18.20	0.17	9.60
10700	0.20	6.90	0.86	-19.30	0.86	-19.30	0.20	6.90
10750	0.22	4.30	0.83	-20.50	0.83	-20.50	0.22	4.30
10800	0.25	2.30	0.80	-20.90	0.80	-20.90	0.25	2.30
10850	0.28	0.20	0.76	-21.20	0.76	-21.20	0.28	0.20
10900	0.31	-6.70	0.72	-20.40	0.72	-20.40	0.31	-6.70
10950	0.34	-13.70	0.68	-19.50	0.68	-19.50	0.34	-13.70
11000	0.35	-21.50	0.65	-15.80	0.65	-15.80	0.35	-21.50
11050	0.36	-29.40	0.62	-12.00	0.62	-12.00	0.36	-29.40
11100	0.38	-37.60	0.63	-7.40	0.63	-7.40	0.38	-37.60
11150	0.39	-45.90	0.65	-2.70	0.65	-2.70	0.39	-45.90
11200	0.37	-52.90	0.68	-0.80	0.68	-0.80	0.37	-52.90
11250	0.36	-60.00	0.72	1.10	0.72	1.10	0.36	-60.00
11300	0.34	-65.00	0.75	0.90	0.75	0.90	0.34	-65.00
11350	0.32	-70.00	0.79	0.80	0.79	0.80	0.32	-70.00
11400	0.30	-73.00	0.81	0.30	0.81	0.30	0.30	-73.00
11450	0.29	-76.00	0.84	-0.10	0.84	-0.10	0.29	-76.00
11500	0.26	-79.00	0.86	-1.20	0.86	-1.20	0.26	-79.00
11550	0.24	-82.10	0.87	-2.20	0.87	-2.20	0.24	-82.10
11600	0.23	-84.50	0.88	-3.10	0.88	-3.10	0.23	-84.50
11650	0.22	-86.90	0.90	-3.90	0.90	-3.90	0.22	-86.90
11700	0.20	-88.40	0.91	-4.80	0.91	-4.80	0.20	-88.40
11750	0.19	-90.00	0.92	-5.70	0.92	-5.70	0.19	-90.00
11800	0.17	-92.80	0.92	-6.40	0.92	-6.40	0.17	-92.80
11850	0.16	-95.60	0.92	-7.20	0.92	-7.20	0.16	-95.60
11900	0.14	-98.70	0.92	-7.90	0.92	-7.90	0.14	-98.70
11950	0.13	-101.90	0.93	-8.70	0.93	-8.70	0.13	-101.90
12000	0.12	-105.40	0.93	-9.60	0.93	-9.60	0.12	-105.40
12050	0.12	-108.90	0.93	-10.50	0.93	-10.50	0.12	-108.90
12100	0.11	-112.30	0.93	-11.20	0.93	-11.20	0.11	-112.30
12150	0.10	-115.60	0.93	-11.90	0.93	-11.90	0.10	-115.60
12200	0.09	-117.00	0.93	-12.60	0.93	-12.60	0.09	-117.00
12250	0.09	-118.30	0.93	-13.20	0.93	-13.20	0.09	-118.30
12300	0.08	-121.00	0.92	-14.00	0.92	-14.00	0.08	-121.00
12350	0.07	-123.70	0.92	-14.70	0.92	-14.70	0.07	-123.70
12400	0.06	-118.30	0.91	-15.30	0.91	-15.30	0.06	-118.30
12450	0.05	-112.90	0.90	-15.90	0.90	-15.90	0.05	-112.90
12500	0.04	-95.40	0.89	-16.40	0.89	-16.40	0.04	-95.40
12550	0.03	-77.90	0.88	-16.80	0.88	-16.80	0.03	-77.90
12600	0.04	-60.00	0.87	-16.80	0.87	-16.80	0.04	-60.00
12650	0.05	-42.10	0.86	-16.70	0.86	-16.70	0.05	-42.10
12700	0.07	-42.80	0.85	-16.00	0.85	-16.00	0.07	-42.80
12750	0.09	-43.50	0.84	-15.40	0.84	-15.40	0.09	-43.50
12800	0.10	-47.70	0.85	-14.80	0.85	-14.80	0.10	-47.70
12850	0.10	-51.80	0.85	-14.20	0.85	-14.20	0.10	-51.80
12900	0.11	-54.50	0.86	-14.20	0.86	-14.20	0.11	-54.50
12950	0.11	-57.10	0.87	-14.20	0.87	-14.20	0.11	-57.10
13000	0.10	-59.10	0.88	-14.60	0.88	-14.60	0.10	-59.10
13050	0.10	-61.00	0.89	-15.00	0.89	-15.00	0.10	-61.00
13100	0.09	-59.30	0.90	-15.60	0.90	-15.60	0.09	-59.30
13150	0.09	-57.60	0.90	-16.20	0.90	-16.20	0.09	-57.60
13200	0.08	-49.60	0.90	-16.70	0.90	-16.70	0.08	-49.60
13250	0.06	-41.50	0.90	-17.30	0.90	-17.30	0.06	-41.50
13300	0.06	-34.30	0.90	-18.30	0.90	-18.30	0.06	-34.30
13350	0.06	-27.00	0.90	-19.30	0.90	-19.30	0.06	-27.00
13400	0.06	-12.90	0.89	-20.20	0.89	-20.20	0.06	-12.90
13450	0.07	1.20	0.89	-21.10	0.89	-21.10	0.07	1.20
13500	0.08	4.10	0.88	-21.80	0.88	-21.80	0.08	4.10
13550	0.09	7.00	0.87	-22.60	0.87	-22.60	0.09	7.00
13600	0.11	8.70	0.85	-23.30	0.85	-23.30	0.11	8.70
13650	0.12	10.50	0.83	-24.00	0.83	-24.00	0.12	10.50
13700	0.15	5.60	0.81	-24.00	0.81	-24.00	0.15	5.60
13750	0.17	0.80	0.79	-24.00	0.79	-24.00	0.17	0.80
13800	0.19	-6.20	0.77	-22.80	0.77	-22.80	0.19	-6.20
13850	0.20	-13.30	0.75	-21.60	0.75	-21.60	0.20	-13.30
13900	0.22	-20.20	0.74	-19.50	0.74	-19.50	0.22	-20.20
13950	0.23	-27.20	0.74	-17.30	0.74	-17.30	0.23	-27.20
14000	0.23	-34.20	0.75	-15.60	0.75	-15.60	0.23	-34.20
14050	0.23	-41.20	0.77	-13.90	0.77	-13.90	0.23	-41.20
14100	0.22	-45.20	0.79	-13.20	0.79	-13.20	0.22	-45.20
14150	0.21	-49.10	0.81	-12.60	0.81	-12.60	0.21	-49.10
14200	0.20	-50.20	0.83	-12.90	0.83	-12.90	0.20	-50.20
14250	0.19	-51.30	0.85	-13.20	0.85	-13.20	0.19	-51.30
14300	0.18	-50.30	0.87	-13.70	0.87	-13.70	0.18	-50.30
14350	0.16	-49.30	0.88	-14.30	0.88	-14.30	0.16	-49.30
14400	0.16	-46.00	0.89	-15.10	0.89	-15.10	0.16	-46.00
14450	0.16	-42.80	0.90	-16.00	0.90	-16.00	0.16	-42.80
14500	0.15	-39.30	0.91	-16.50	0.91	-16.50	0.15	-39.30
14550	0.15	-35.90	0.91	-17.00	0.91	-17.00	0.15	-35.90
14600	0.15	-31.10	0.92	-17.70	0.92	-17.70	0.15	-31.10
14650	0.16	-26.20	0.92	-18.40	0.92	-18.40	0.16	-26.20
14700	0.16	-24.80	0.92	-19.10	0.92	-19.10	0.16	-24.80
14750	0.15	-23.50	0.93	-19.80	0.93	-19.80	0.15	-23.50
14800	0.16	-19.70	0.93	-20.40	0.93	-20.40	0.16	-19.70
14850	0.17	-16.00	0.93	-21.00	0.93	-21.00	0.17	-16.00
14900	0.17	-15.10	0.93	-21.40	0.93	-21.40	0.17	-15.10
14950	0.17	-14.20	0.93	-21.80	0.93	-21.80	0.17	-14.20
15000	0.17	-13.50	0.93	-22.50	0.93	-22.50	0.17	-13.50
15050	0.18	-12.70	0.93	-23.10	0.93	-23.10	0.18	-12.70
15100	0.18	-12.80	0.93	-23.40	0.93	-23.40	0.18	-12.80
15150	0.18	-12.90	0.93	-23.70	0.93	-23.70	0.18	-12.90
15200	0.18	-11.30	0.94	-24.10	0.94	-24.10	0.18	-11.30
15250	0.19	-9.70	0.94	-24.60	0.94	-24.60	0.19	-9.70
15300	0.19	-10.90	0.94	-25.30	0.94	-25.30	0.19	-10.90
15350	0.19	-12.10	0.94	-26.10	0.94	-26.10	0.19	-12.10
15400	0.19	-9.00	0.93	-26.60	0.93	-26.60	0.19	-9.00
15450	0.19	-5.80	0.93	-27.10	0.93	-27.10	0.19	-5.80
15500	0.19	-5.30	0.93	-27.60	0.93	-27.60	0.19	-5.30
15550	0.20	-4.70	0.93	-28.10	0.93	-28.10	0.20	-4.70
15600	0.20	-1.60	0.93	-28.70	0.93	-28.70	0.20	-1.60
15650	0.20	1.50	0.93	-29.20	0.93	-29.20	0.20	1.50
15700	0.22	4.10	0.92	-29.90	0.92	-29.90	0.22	4.10
15750	0.23	6.70	0.92	-30.70	0.92	-30.70	0.23	6.70
15800	0.23	9.80	0.91	-31.10	0.91	-31.10	0.23	9.80
15850	0.23	13.00	0.91	-31.50	0.91	-31.50	0.23	13.00
15900	0.25	14.90	0.90	-32.20	0.90	-32.20	0.25	14.90
15950	0.27	16.90	0.89	-32.90	0.89	-32.90	0.27	16.90
16000	0.28	18.70	0.88	-33.20	0.88	-33.20	0.28	18.70
16050	0.29	20.50	0.87	-33.40	0.87	-33.40	0.29	20.50
16100	0.30	22.80	0.86	-34.00	0.86	-34.00	0.30	22.80
16150	0.31	25.10	0.84	-34.60	0.84	-34.60	0.31	25.10
16200	0.32	23.80	0.83	-34.70	0.83	-34.70	0.32	23.80
16250	0.33	22.50	0.81	-34.70	0.81	-34.70	0.33	22.50
16300	0.33	22.40	0.80	-34.40	0.80	-34.40	0.33	22.40
16350	0.33	22.30	0.79	-34.00	0.79	-34.00	0.33	22.30
16400	0.33	20.40	0.77	-33.10	0.77	-33.10	0.33	20.40
16450	0.33	18.50	0.76	-32.30	0.76	-32.30	0.33	18.50
16500	0.31	15.90	0.76	-30.70	0.76	-30.70	0.31	15.90
16550	0.28	13.20	0.75	-29.10	0.75	-29.10	0.28	13.20
16600	0.27	13.50	0.77	-28.00	0.77	-28.00	0.27	13.50
16650	0.26	13.70	0.78	-26.90	0.78	-26.90	0.26	13.70
16700	0.24	15.20	0.80	-26.50	0.80	-26.50	0.24	15.20
16750	0.22	16.70	0.81	-26.10	0.81	-26.10	0.22	16.70
16800	0.21	20.30	0.83	-26.40	0.83	-26.40	0.21	20.30
16850	0.20	24.00	0.84	-26.60	0.84	-26.60	0.20	24.00
16900	0.21	26.60	0.86	-27.30	0.86	-27.30	0.21	26.60
16950	0.22	29.20	0.87	-28.00	0.87	-28.00	0.22	29.20
17000	0.22	31.40	0.87	-28.70	0.87	-28.70	0.22	31.40
17050	0.23	33.60	0.88	-29.50	0.88	-29.50	0.23	33.60
17100	0.24	35.00	0.88	-30.40	0.88	-30.40	0.24	35.00
17150	0.26	36.40	0.88	-31.20	0.88	-31.20	0.26	36.40
17200	0.27	36.60	0.88	-31.60	0.88	-31.60	0.27	36.60
17250	0.28	36.70	0.88	-32.00	0.88	-32.00	0.28	36.70
17300	0.29	38.50	0.88	-32.60	0.88	-32.60	0.29	38.50
17350	0.29	40.40	0.88	-33.10	0.88	-33.10	0.29	40.40
17400	0.31	39.70	0.88	-33.30	0.88	-33.30	0.31	39.70
17450	0.32	39.00	0.87	-33.50	0.87	-33.50	0.32	39.00
17500	0.31	39.60	0.88	-34.10	0.88	-34.10	0.31	39.60
17550	0.31	40.30	0.88	-34.60	0.88	-34.60	0.31	40.30
17600	0.32	41.40	0.88	-35.20	0.88	-35.20	0.32	41.40
17650	0.33	42.50	0.88	-35.80	0.88	-35.80	0.33	42.50
17700	0.33	42.90	0.88	-36.30	0.88	-36.30	0.33	42.90
17750	0.32	43.20	0.88	-36.70	0.88	-36.70	0.32	43.20
17800	0.33	44.70	0.88	-37.60	0.88	-37.60	0.33	44.70
17850	0.33	46.20	0.88	-38.40	0.88	-38.40	0.33	46.20
17900	0.33	46.40	0.88	-39.00	0.88	-39.00	0.33	46.40
17950	0.33	46.50	0.87	-39.70	0.87	-39.70	0.33	46.50
18000	0.33	47.20	0.87	-40.60	0.87	-40.60	0.33	47.20
18050	0.33	47.80	0.87	-41.40	0.87	-41.40	0.33	47.80
18100	0.34	46.80	0.86	-42.10	0.86	-42.10	0.34	46.80
18150	0.34	45.90	0.86	-42.80	0.86	-42.80	0.34	45.90
18200	0.34	45.40	0.85	-43.80	0.85	-43.80	0.34	45.40
18250	0.34	45.00	0.84	-44.70	0.84	-44.70	0.34	45.00
18300	0.35	42.60	0.84	-45.20	0.84	-45.20	0.35	42.60
18350	0.36	40.20	0.83	-45.70	0.83	-45.70	0.36	40.20
18400	0.37	38.50	0.81	-46.60	0.81	-46.60	0.37	38.50
18450	0.38	36.90	0.80	-47.50	0.80	-47.50	0.38	36.90
18500	0.40	35.70	0.79	-47.50	0.79	-47.50	0.40	35.70
18550	0.42	34.40	0.78	-47.50	0.78	-47.50	0.42	34.40
18600	0.42	32.40	0.76	-48.10	0.76	-48.10	0.42	32.40
18650	0.42	30.40	0.74	-48.70	0.74	-48.70	0.42	30.40
18700	0.42	28.50	0.73	-48.50	0.73	-48.50	0.42	28.50
18750	0.43	26.60	0.71	-48.30	0.71	-48.30	0.43	26.60
18800	0.42	23.30	0.70	-47.40	0.70	-47.40	0.42	23.30
18850	0.41	20.00	0.68	-46.40	0.68	-46.40	0.41	20.00
18900	0.40	20.60	0.67	-45.10	0.67	-45.10	0.40	20.60
18950	0.38	21.20	0.66	-43.70	0.66	-43.70	0.38	21.20
19000	0.36	17.70	0.66	-41.80	0.66	-41.80	0.36	17.70
19050	0.35	14.10	0.66	-39.80	0.66	-39.80	0.35	14.10
19100	0.33	14.50	0.67	-38.30	0.67	-38.30	0.33	14.50
19150	0.31	14.80	0.68	-36.70	0.68	-36.70	0.31	14.80
19200	0.30	13.00	0.71	-36.30	0.71	-36.30	0.30	13.00
19250	0.29	11.20	0.73	-35.90	0.73	-35.90	0.29	11.20
19300	0.28	9.10	0.75	-36.20	0.75	-36.20	0.28	9.10
19350	0.27	6.90	0.77	-36.50	0.77	-36.50	0.27	6.90
19400	0.28	10.40	0.79	-37.70	0.79	-37.70	0.28	10.40
