#	mhz	s	ma	r	50
50	0.04	76.40	1.00	-1.30	1.00	-1.30	0.04	76.40
100	0.07	77.40	0.99	-3.20	0.99	-3.20	0.07	77.40
150	0.11	78.40	0.99	-5.20	0.99	-5.20	0.11	78.40
200	0.15	77.20	0.98	-7.30	0.98	-7.30	0.15	77.20
250	0.18	75.90	0.98	-9.50	0.98	-9.50	0.18	75.90
300	0.21	74.00	0.97	-11.70	0.97	-11.70	0.21	74.00
350	0.24	72.20	0.96	-13.90	0.96	-13.90	0.24	72.20
400	0.28	69.80	0.95	-15.80	0.95	-15.80	0.28	69.80
450	0.31	67.50	0.94	-17.80	0.94	-17.80	0.31	67.50
500	0.37	68.10	0.92	-21.00	0.92	-21.00	0.37	68.10
550	0.43	68.70	0.90	-24.30	0.90	-24.30	0.43	68.70
600	0.45	67.00	0.89	-26.20	0.89	-26.20	0.45	67.00
650	0.47	65.20	0.88	-28.20	0.88	-28.20	0.47	65.20
700	0.50	63.70	0.86	-30.30	0.86	-30.30	0.50	63.70
750	0.54	62.30	0.84	-32.40	0.84	-32.40	0.54	62.30
800	0.56	60.00	0.82	-34.20	0.82	-34.20	0.56	60.00
850	0.57	57.60	0.81	-36.10	0.81	-36.10	0.57	57.60
900	0.61	55.80	0.79	-37.80	0.79	-37.80	0.61	55.80
950	0.64	54.00	0.77	-39.60	0.77	-39.60	0.64	54.00
1000	0.66	52.10	0.75	-41.50	0.75	-41.50	0.66	52.10
1050	0.68	50.20	0.73	-43.30	0.73	-43.30	0.68	50.20
1100	0.70	48.60	0.71	-45.10	0.71	-45.10	0.70	48.60
1150	0.72	46.90	0.69	-47.00	0.69	-47.00	0.72	46.90
1200	0.74	45.30	0.67	-48.40	0.67	-48.40	0.74	45.30
1250	0.76	43.80	0.65	-49.80	0.65	-49.80	0.76	43.80
1300	0.78	41.90	0.63	-51.60	0.63	-51.60	0.78	41.90
1350	0.79	39.90	0.61	-53.40	0.61	-53.40	0.79	39.90
1400	0.81	38.40	0.59	-54.70	0.59	-54.70	0.81	38.40
1450	0.82	36.90	0.57	-55.90	0.57	-55.90	0.82	36.90
1500	0.83	35.10	0.55	-57.50	0.55	-57.50	0.83	35.10
1550	0.85	33.20	0.53	-59.20	0.53	-59.20	0.85	33.20
1600	0.86	31.50	0.51	-60.50	0.51	-60.50	0.86	31.50
1650	0.87	29.80	0.49	-61.90	0.49	-61.90	0.87	29.80
1700	0.88	28.30	0.47	-63.20	0.47	-63.20	0.88	28.30
1750	0.88	26.90	0.45	-64.50	0.45	-64.50	0.88	26.90
1800	0.89	25.30	0.44	-65.70	0.44	-65.70	0.89	25.30
1850	0.91	23.60	0.42	-67.00	0.42	-67.00	0.91	23.60
1900	0.91	22.00	0.40	-68.10	0.40	-68.10	0.91	22.00
1950	0.91	20.30	0.38	-69.20	0.38	-69.20	0.91	20.30
2000	0.92	18.80	0.36	-70.40	0.36	-70.40	0.92	18.80
2050	0.93	17.20	0.34	-71.60	0.34	-71.60	0.93	17.20
2100	0.94	16.00	0.32	-72.60	0.32	-72.60	0.94	16.00
2150	0.94	14.90	0.31	-73.60	0.31	-73.60	0.94	14.90
2200	0.95	13.20	0.29	-74.80	0.29	-74.80	0.95	13.20
2250	0.95	11.50	0.27	-76.10	0.27	-76.10	0.95	11.50
2300	0.95	10.50	0.25	-76.80	0.25	-76.80	0.95	10.50
2350	0.96	9.40	0.24	-77.50	0.24	-77.50	0.96	9.40
2400	0.96	7.90	0.22	-78.70	0.22	-78.70	0.96	7.90
2450	0.97	6.40	0.20	-79.90	0.20	-79.90	0.97	6.40
2500	0.97	5.10	0.18	-80.90	0.18	-80.90	0.97	5.10
2550	0.98	3.80	0.17	-81.90	0.17	-81.90	0.98	3.80
2600	0.98	2.80	0.15	-82.40	0.15	-82.40	0.98	2.80
2650	0.98	1.80	0.13	-82.90	0.13	-82.90	0.98	1.80
2700	0.98	0.60	0.12	-83.50	0.12	-83.50	0.98	0.60
2750	0.99	-0.50	0.10	-84.00	0.10	-84.00	0.99	-0.50
2800	0.99	-1.80	0.08	-83.60	0.08	-83.60	0.99	-1.80
2850	0.99	-3.00	0.07	-83.20	0.07	-83.20	0.99	-3.00
2900	0.99	-4.00	0.05	-80.80	0.05	-80.80	0.99	-4.00
2950	0.99	-5.00	0.04	-78.50	0.04	-78.50	0.99	-5.00
3000	0.99	-6.10	0.02	-49.80	0.02	-49.80	0.99	-6.10
3050	0.99	-7.20	0.01	-21.20	0.01	-21.20	0.99	-7.20
3100	0.99	-8.40	0.02	21.20	0.02	21.20	0.99	-8.40
3150	0.99	-9.50	0.03	63.70	0.03	63.70	0.99	-9.50
3200	0.99	-10.20	0.04	67.60	0.04	67.60	0.99	-10.20
3250	0.99	-10.80	0.06	71.50	0.06	71.50	0.99	-10.80
3300	0.99	-11.80	0.07	71.90	0.07	71.90	0.99	-11.80
3350	0.99	-12.90	0.09	72.40	0.09	72.40	0.99	-12.90
3400	0.99	-13.70	0.10	72.50	0.10	72.50	0.99	-13.70
3450	0.99	-14.50	0.11	72.60	0.11	72.60	0.99	-14.50
3500	0.98	-15.60	0.13	72.20	0.13	72.20	0.98	-15.60
3550	0.98	-16.60	0.14	71.90	0.14	71.90	0.98	-16.60
3600	0.98	-17.20	0.15	71.40	0.15	71.40	0.98	-17.20
3650	0.97	-17.90	0.17	71.00	0.17	71.00	0.97	-17.90
3700	0.97	-19.00	0.18	70.40	0.18	70.40	0.97	-19.00
3750	0.98	-20.10	0.19	69.90	0.19	69.90	0.98	-20.10
3800	0.97	-20.80	0.20	69.50	0.20	69.50	0.97	-20.80
3850	0.96	-21.60	0.22	69.10	0.22	69.10	0.96	-21.60
3900	0.96	-22.70	0.23	68.10	0.23	68.10	0.96	-22.70
3950	0.96	-23.80	0.24	67.20	0.24	67.20	0.96	-23.80
4000	0.95	-24.70	0.25	66.80	0.25	66.80	0.95	-24.70
4050	0.95	-25.50	0.26	66.30	0.26	66.30	0.95	-25.50
4100	0.94	-26.40	0.27	65.60	0.27	65.60	0.94	-26.40
4150	0.94	-27.30	0.28	65.00	0.28	65.00	0.94	-27.30
4200	0.94	-28.30	0.30	64.50	0.30	64.50	0.94	-28.30
4250	0.94	-29.20	0.31	64.00	0.31	64.00	0.94	-29.20
4300	0.94	-30.20	0.32	63.40	0.32	63.40	0.94	-30.20
4350	0.93	-31.10	0.33	62.90	0.33	62.90	0.93	-31.10
4400	0.93	-32.20	0.34	62.10	0.34	62.10	0.93	-32.20
4450	0.92	-33.20	0.35	61.30	0.35	61.30	0.92	-33.20
4500	0.92	-33.80	0.36	60.70	0.36	60.70	0.92	-33.80
4550	0.91	-34.40	0.37	60.20	0.37	60.20	0.91	-34.40
4600	0.91	-35.60	0.38	59.40	0.38	59.40	0.91	-35.60
4650	0.92	-36.80	0.39	58.50	0.39	58.50	0.92	-36.80
4700	0.91	-37.70	0.40	57.90	0.40	57.90	0.91	-37.70
4750	0.90	-38.60	0.41	57.20	0.41	57.20	0.90	-38.60
4800	0.89	-39.70	0.42	56.40	0.42	56.40	0.89	-39.70
4850	0.88	-40.70	0.43	55.60	0.43	55.60	0.88	-40.70
4900	0.89	-41.20	0.44	55.20	0.44	55.20	0.89	-41.20
4950	0.89	-41.70	0.44	54.70	0.44	54.70	0.89	-41.70
5000	0.88	-43.00	0.45	53.60	0.45	53.60	0.88	-43.00
5050	0.88	-44.40	0.46	52.40	0.46	52.40	0.88	-44.40
5100	0.86	-44.70	0.47	52.00	0.47	52.00	0.86	-44.70
5150	0.85	-45.10	0.47	51.50	0.47	51.50	0.85	-45.10
5200	0.85	-45.20	0.48	51.30	0.48	51.30	0.85	-45.20
5250	0.85	-45.30	0.49	51.20	0.49	51.20	0.85	-45.30
5300	0.85	-46.40	0.50	50.00	0.50	50.00	0.85	-46.40
5350	0.86	-47.60	0.51	48.80	0.51	48.80	0.86	-47.60
5400	0.85	-48.00	0.52	48.20	0.52	48.20	0.85	-48.00
5450	0.83	-48.30	0.52	47.60	0.52	47.60	0.83	-48.30
5500	0.83	-48.90	0.53	47.00	0.53	47.00	0.83	-48.90
5550	0.83	-49.40	0.54	46.30	0.54	46.30	0.83	-49.40
5600	0.82	-50.00	0.55	45.60	0.55	45.60	0.82	-50.00
5650	0.81	-50.50	0.55	44.90	0.55	44.90	0.81	-50.50
5700	0.81	-51.00	0.56	44.40	0.56	44.40	0.81	-51.00
5750	0.80	-51.40	0.56	43.90	0.56	43.90	0.80	-51.40
5800	0.80	-51.50	0.57	43.30	0.57	43.30	0.80	-51.50
5850	0.80	-51.60	0.57	42.70	0.57	42.70	0.80	-51.60
5900	0.79	-51.70	0.58	42.30	0.58	42.30	0.79	-51.70
5950	0.78	-51.80	0.58	42.00	0.58	42.00	0.78	-51.80
6000	0.77	-53.30	0.60	40.70	0.60	40.70	0.77	-53.30
6050	0.77	-54.70	0.61	39.40	0.61	39.40	0.77	-54.70
6100	0.76	-54.80	0.61	39.10	0.61	39.10	0.76	-54.80
6150	0.76	-54.90	0.62	38.90	0.62	38.90	0.76	-54.90
6200	0.76	-54.70	0.63	38.20	0.63	38.20	0.76	-54.70
6250	0.75	-54.50	0.63	37.50	0.63	37.50	0.75	-54.50
6300	0.75	-54.70	0.64	37.00	0.64	37.00	0.75	-54.70
6350	0.75	-54.90	0.64	36.50	0.64	36.50	0.75	-54.90
6400	0.74	-54.60	0.65	35.90	0.65	35.90	0.74	-54.60
6450	0.73	-54.30	0.65	35.30	0.65	35.30	0.73	-54.30
6500	0.73	-54.30	0.66	34.80	0.66	34.80	0.73	-54.30
6550	0.72	-54.20	0.66	34.20	0.66	34.20	0.72	-54.20
6600	0.72	-54.00	0.67	33.70	0.67	33.70	0.72	-54.00
6650	0.71	-53.80	0.67	33.10	0.67	33.10	0.71	-53.80
6700	0.70	-53.60	0.68	32.80	0.68	32.80	0.70	-53.60
6750	0.70	-53.40	0.68	32.50	0.68	32.50	0.70	-53.40
6800	0.70	-53.30	0.69	31.90	0.69	31.90	0.70	-53.30
6850	0.69	-53.20	0.70	31.40	0.70	31.40	0.69	-53.20
6900	0.68	-53.60	0.70	30.80	0.70	30.80	0.68	-53.60
6950	0.67	-54.00	0.70	30.10	0.70	30.10	0.67	-54.00
7000	0.66	-54.40	0.71	29.50	0.71	29.50	0.66	-54.40
7050	0.65	-54.70	0.71	28.90	0.71	28.90	0.65	-54.70
7100	0.64	-54.90	0.71	28.20	0.71	28.20	0.64	-54.90
7150	0.62	-55.20	0.71	27.60	0.71	27.60	0.62	-55.20
7200	0.60	-54.00	0.72	27.70	0.72	27.70	0.60	-54.00
7250	0.58	-52.90	0.72	27.90	0.72	27.90	0.58	-52.90
7300	0.60	-52.90	0.73	27.60	0.73	27.60	0.60	-52.90
7350	0.61	-52.90	0.74	27.40	0.74	27.40	0.61	-52.90
7400	0.61	-54.20	0.75	26.80	0.75	26.80	0.61	-54.20
7450	0.60	-55.60	0.76	26.10	0.76	26.10	0.60	-55.60
7500	0.60	-56.60	0.77	25.40	0.77	25.40	0.60	-56.60
7550	0.59	-57.70	0.77	24.80	0.77	24.80	0.59	-57.70
7600	0.59	-58.70	0.78	24.10	0.78	24.10	0.59	-58.70
7650	0.58	-59.70	0.78	23.40	0.78	23.40	0.58	-59.70
7700	0.57	-60.70	0.79	22.90	0.79	22.90	0.57	-60.70
7750	0.56	-61.80	0.79	22.40	0.79	22.40	0.56	-61.80
7800	0.55	-62.40	0.80	21.80	0.80	21.80	0.55	-62.40
7850	0.54	-62.90	0.81	21.20	0.81	21.20	0.54	-62.90
7900	0.54	-64.50	0.81	20.50	0.81	20.50	0.54	-64.50
7950	0.53	-66.20	0.82	19.80	0.82	19.80	0.53	-66.20
8000	0.51	-66.90	0.82	19.00	0.82	19.00	0.51	-66.90
8050	0.50	-67.50	0.83	18.30	0.83	18.30	0.50	-67.50
8100	0.49	-68.50	0.83	17.90	0.83	17.90	0.49	-68.50
8150	0.48	-69.50	0.84	17.50	0.84	17.50	0.48	-69.50
8200	0.47	-70.30	0.85	16.60	0.85	16.60	0.47	-70.30
8250	0.46	-71.10	0.85	15.80	0.85	15.80	0.46	-71.10
8300	0.45	-71.70	0.86	15.20	0.86	15.20	0.45	-71.70
8350	0.44	-72.40	0.87	14.60	0.87	14.60	0.44	-72.40
8400	0.43	-73.30	0.87	13.70	0.87	13.70	0.43	-73.30
8450	0.42	-74.10	0.88	12.80	0.88	12.80	0.42	-74.10
8500	0.41	-74.50	0.88	12.10	0.88	12.10	0.41	-74.50
8550	0.40	-74.90	0.89	11.40	0.89	11.40	0.40	-74.90
8600	0.39	-75.20	0.89	10.50	0.89	10.50	0.39	-75.20
8650	0.38	-75.60	0.89	9.60	0.89	9.60	0.38	-75.60
8700	0.37	-75.90	0.90	8.70	0.90	8.70	0.37	-75.90
8750	0.36	-76.20	0.90	7.90	0.90	7.90	0.36	-76.20
8800	0.35	-76.20	0.90	7.40	0.90	7.40	0.35	-76.20
8850	0.34	-76.20	0.90	7.00	0.90	7.00	0.34	-76.20
8900	0.33	-76.20	0.91	6.00	0.91	6.00	0.33	-76.20
8950	0.32	-76.10	0.91	5.10	0.91	5.10	0.32	-76.10
9000	0.31	-76.50	0.91	4.40	0.91	4.40	0.31	-76.50
9050	0.30	-76.90	0.91	3.70	0.91	3.70	0.30	-76.90
9100	0.29	-77.10	0.92	3.00	0.92	3.00	0.29	-77.10
9150	0.28	-77.30	0.92	2.30	0.92	2.30	0.28	-77.30
9200	0.27	-78.20	0.92	1.60	0.92	1.60	0.27	-78.20
9250	0.26	-79.10	0.93	0.90	0.93	0.90	0.26	-79.10
9300	0.25	-78.80	0.93	0.10	0.93	0.10	0.25	-78.80
9350	0.23	-78.50	0.94	-0.80	0.94	-0.80	0.23	-78.50
9400	0.22	-78.10	0.94	-1.50	0.94	-1.50	0.22	-78.10
9450	0.21	-77.80	0.94	-2.20	0.94	-2.20	0.21	-77.80
9500	0.19	-77.10	0.94	-3.20	0.94	-3.20	0.19	-77.10
9550	0.18	-76.40	0.94	-4.30	0.94	-4.30	0.18	-76.40
9600	0.16	-75.10	0.95	-5.30	0.95	-5.30	0.16	-75.10
9650	0.14	-73.70	0.95	-6.30	0.95	-6.30	0.14	-73.70
9700	0.13	-70.60	0.95	-7.20	0.95	-7.20	0.13	-70.60
9750	0.12	-67.40	0.95	-8.00	0.95	-8.00	0.12	-67.40
9800	0.10	-62.10	0.95	-9.10	0.95	-9.10	0.10	-62.10
9850	0.08	-56.70	0.95	-10.10	0.95	-10.10	0.08	-56.70
9900	0.07	-40.20	0.95	-11.10	0.95	-11.10	0.07	-40.20
9950	0.06	-23.70	0.95	-12.20	0.95	-12.20	0.06	-23.70
10000	0.06	-9.90	0.95	-13.30	0.95	-13.30	0.06	-9.90
10050	0.06	4.00	0.95	-14.40	0.95	-14.40	0.06	4.00
10100	0.08	19.90	0.94	-15.50	0.94	-15.50	0.08	19.90
10150	0.10	35.90	0.94	-16.60	0.94	-16.60	0.10	35.90
10200	0.12	36.60	0.94	-17.90	0.94	-17.90	0.12	36.60
10250	0.13	37.40	0.94	-19.30	0.94	-19.30	0.13	37.40
10300	0.15	41.50	0.92	-20.60	0.92	-20.60	0.15	41.50
10350	0.18	45.70	0.91	-22.00	0.91	-22.00	0.18	45.70
10400	0.20	43.60	0.91	-23.40	0.91	-23.40	0.20	43.60
10450	0.23	41.60	0.91	-24.80	0.91	-24.80	0.23	41.60
10500	0.25	41.30	0.90	-26.40	0.90	-26.40	0.25	41.30
10550	0.27	41.10	0.88	-28.00	0.88	-28.00	0.27	41.10
10600	0.30	39.90	0.88	-29.50	0.88	-29.50	0.30	39.90
10650	0.33	38.80	0.87	-30.90	0.87	-30.90	0.33	38.80
10700	0.35	36.70	0.85	-32.80	0.85	-32.80	0.35	36.70
10750	0.37	34.70	0.83	-34.70	0.83	-34.70	0.37	34.70
10800	0.40	33.80	0.82	-36.20	0.82	-36.20	0.40	33.80
10850	0.43	33.00	0.80	-37.70	0.80	-37.70	0.43	33.00
10900	0.46	30.00	0.78	-39.70	0.78	-39.70	0.46	30.00
10950	0.49	27.10	0.76	-41.60	0.76	-41.60	0.49	27.10
11000	0.51	25.20	0.73	-44.10	0.73	-44.10	0.51	25.20
11050	0.53	23.20	0.70	-46.60	0.70	-46.60	0.53	23.20
11100	0.57	20.30	0.67	-48.30	0.67	-48.30	0.57	20.30
11150	0.61	17.50	0.64	-50.00	0.64	-50.00	0.61	17.50
11200	0.63	14.30	0.60	-52.40	0.60	-52.40	0.63	14.30
11250	0.65	11.20	0.56	-54.90	0.56	-54.90	0.65	11.20
11300	0.68	8.00	0.52	-56.70	0.52	-56.70	0.68	8.00
11350	0.71	4.70	0.48	-58.50	0.48	-58.50	0.71	4.70
11400	0.73	1.90	0.43	-59.20	0.43	-59.20	0.73	1.90
11450	0.75	-0.80	0.38	-60.00	0.38	-60.00	0.75	-0.80
11500	0.77	-4.30	0.34	-59.60	0.34	-59.60	0.77	-4.30
11550	0.79	-7.80	0.29	-59.20	0.29	-59.20	0.79	-7.80
11600	0.80	-10.70	0.25	-54.70	0.25	-54.70	0.80	-10.70
11650	0.82	-13.60	0.20	-50.20	0.20	-50.20	0.82	-13.60
11700	0.82	-17.10	0.18	-38.40	0.18	-38.40	0.82	-17.10
11750	0.83	-20.50	0.15	-26.50	0.15	-26.50	0.83	-20.50
11800	0.83	-23.30	0.15	-9.90	0.15	-9.90	0.83	-23.30
11850	0.84	-26.00	0.16	6.80	0.16	6.80	0.84	-26.00
11900	0.82	-28.70	0.19	16.10	0.19	16.10	0.82	-28.70
11950	0.80	-31.40	0.21	25.40	0.21	25.40	0.80	-31.40
12000	0.81	-35.30	0.25	28.10	0.25	28.10	0.81	-35.30
12050	0.82	-39.20	0.29	30.80	0.29	30.80	0.82	-39.20
12100	0.80	-41.80	0.32	31.60	0.32	31.60	0.80	-41.80
12150	0.77	-44.40	0.35	32.30	0.35	32.30	0.77	-44.40
12200	0.77	-47.20	0.38	31.80	0.38	31.80	0.77	-47.20
12250	0.76	-49.90	0.42	31.40	0.42	31.40	0.76	-49.90
12300	0.74	-51.60	0.45	30.70	0.45	30.70	0.74	-51.60
12350	0.73	-53.30	0.48	30.00	0.48	30.00	0.73	-53.30
12400	0.72	-55.50	0.50	28.90	0.50	28.90	0.72	-55.50
12450	0.70	-57.70	0.52	27.90	0.52	27.90	0.70	-57.70
12500	0.69	-58.90	0.54	27.00	0.54	27.00	0.69	-58.90
12550	0.69	-60.00	0.57	26.10	0.57	26.10	0.69	-60.00
12600	0.67	-61.00	0.58	25.20	0.58	25.20	0.67	-61.00
12650	0.66	-62.00	0.60	24.30	0.60	24.30	0.66	-62.00
12700	0.65	-63.00	0.62	23.20	0.62	23.20	0.65	-63.00
12750	0.65	-64.00	0.63	22.10	0.63	22.10	0.65	-64.00
12800	0.63	-64.50	0.65	21.40	0.65	21.40	0.63	-64.50
12850	0.62	-65.00	0.67	20.70	0.67	20.70	0.62	-65.00
12900	0.61	-65.60	0.68	19.60	0.68	19.60	0.61	-65.60
12950	0.60	-66.30	0.69	18.40	0.69	18.40	0.60	-66.30
13000	0.59	-67.00	0.70	17.80	0.70	17.80	0.59	-67.00
13050	0.59	-67.60	0.72	17.20	0.72	17.20	0.59	-67.60
13100	0.57	-68.60	0.73	16.20	0.73	16.20	0.57	-68.60
13150	0.56	-69.50	0.74	15.10	0.74	15.10	0.56	-69.50
13200	0.55	-70.30	0.75	14.50	0.75	14.50	0.55	-70.30
13250	0.53	-71.00	0.76	13.90	0.76	13.90	0.53	-71.00
13300	0.51	-70.40	0.76	13.00	0.76	13.00	0.51	-70.40
13350	0.49	-69.80	0.77	12.00	0.77	12.00	0.49	-69.80
13400	0.48	-72.60	0.78	11.00	0.78	11.00	0.48	-72.60
13450	0.48	-75.40	0.79	10.10	0.79	10.10	0.48	-75.40
13500	0.47	-76.30	0.80	9.40	0.80	9.40	0.47	-76.30
13550	0.46	-77.20	0.80	8.80	0.80	8.80	0.46	-77.20
13600	0.44	-79.30	0.81	8.00	0.81	8.00	0.44	-79.30
13650	0.43	-81.30	0.81	7.20	0.81	7.20	0.43	-81.30
13700	0.42	-81.80	0.82	6.50	0.82	6.50	0.42	-81.80
13750	0.42	-82.20	0.83	5.70	0.83	5.70	0.42	-82.20
13800	0.40	-84.20	0.83	5.10	0.83	5.10	0.40	-84.20
13850	0.39	-86.10	0.84	4.50	0.84	4.50	0.39	-86.10
13900	0.38	-86.30	0.85	3.80	0.85	3.80	0.38	-86.30
13950	0.37	-86.50	0.86	3.20	0.86	3.20	0.37	-86.50
14000	0.36	-87.30	0.87	2.50	0.87	2.50	0.36	-87.30
14050	0.35	-88.10	0.87	1.70	0.87	1.70	0.35	-88.10
14100	0.34	-88.50	0.88	1.00	0.88	1.00	0.34	-88.50
14150	0.33	-89.00	0.88	0.20	0.88	0.20	0.33	-89.00
14200	0.32	-88.20	0.89	-0.60	0.89	-0.60	0.32	-88.20
14250	0.31	-87.30	0.89	-1.30	0.89	-1.30	0.31	-87.30
14300	0.29	-87.40	0.90	-2.00	0.90	-2.00	0.29	-87.40
14350	0.28	-87.50	0.90	-2.70	0.90	-2.70	0.28	-87.50
14400	0.27	-86.00	0.91	-3.60	0.91	-3.60	0.27	-86.00
14450	0.26	-84.50	0.91	-4.60	0.91	-4.60	0.26	-84.50
14500	0.25	-83.80	0.91	-5.10	0.91	-5.10	0.25	-83.80
14550	0.24	-83.00	0.92	-5.60	0.92	-5.60	0.24	-83.00
14600	0.23	-80.20	0.92	-6.50	0.92	-6.50	0.23	-80.20
14650	0.22	-77.40	0.92	-7.30	0.92	-7.30	0.22	-77.40
14700	0.22	-76.90	0.92	-8.10	0.92	-8.10	0.22	-76.90
14750	0.21	-76.40	0.93	-8.80	0.93	-8.80	0.21	-76.40
14800	0.20	-73.20	0.93	-9.60	0.93	-9.60	0.20	-73.20
14850	0.19	-70.00	0.93	-10.40	0.93	-10.40	0.19	-70.00
14900	0.19	-69.80	0.93	-11.10	0.93	-11.10	0.19	-69.80
14950	0.18	-69.50	0.93	-11.80	0.93	-11.80	0.18	-69.50
15000	0.18	-67.50	0.93	-12.60	0.93	-12.60	0.18	-67.50
15050	0.17	-65.40	0.93	-13.40	0.93	-13.40	0.17	-65.40
15100	0.17	-64.60	0.93	-13.90	0.93	-13.90	0.17	-64.60
15150	0.16	-63.70	0.93	-14.40	0.93	-14.40	0.16	-63.70
15200	0.16	-59.00	0.93	-14.80	0.93	-14.80	0.16	-59.00
15250	0.15	-54.40	0.93	-15.10	0.93	-15.10	0.15	-54.40
15300	0.15	-52.90	0.93	-15.60	0.93	-15.60	0.15	-52.90
15350	0.16	-51.50	0.92	-16.00	0.92	-16.00	0.16	-51.50
15400	0.16	-47.90	0.93	-16.40	0.93	-16.40	0.16	-47.90
15450	0.15	-44.30	0.93	-16.90	0.93	-16.90	0.15	-44.30
15500	0.16	-44.10	0.93	-17.50	0.93	-17.50	0.16	-44.10
15550	0.16	-43.90	0.94	-18.10	0.94	-18.10	0.16	-43.90
15600	0.15	-40.70	0.94	-18.70	0.94	-18.70	0.15	-40.70
15650	0.14	-37.50	0.94	-19.30	0.94	-19.30	0.14	-37.50
15700	0.15	-32.10	0.94	-20.00	0.94	-20.00	0.15	-32.10
15750	0.15	-26.70	0.94	-20.80	0.94	-20.80	0.15	-26.70
15800	0.14	-22.10	0.94	-21.30	0.94	-21.30	0.14	-22.10
15850	0.13	-17.60	0.94	-21.80	0.94	-21.80	0.13	-17.60
15900	0.13	-9.60	0.94	-22.50	0.94	-22.50	0.13	-9.60
15950	0.14	-1.50	0.94	-23.20	0.94	-23.20	0.14	-1.50
16000	0.14	4.80	0.94	-23.70	0.94	-23.70	0.14	4.80
16050	0.14	11.10	0.94	-24.20	0.94	-24.20	0.14	11.10
16100	0.15	19.80	0.93	-25.00	0.93	-25.00	0.15	19.80
16150	0.16	28.40	0.93	-25.80	0.93	-25.80	0.16	28.40
16200	0.17	29.50	0.92	-26.30	0.92	-26.30	0.17	29.50
16250	0.18	30.50	0.92	-26.70	0.92	-26.70	0.18	30.50
16300	0.18	35.30	0.92	-27.20	0.92	-27.20	0.18	35.30
16350	0.19	40.00	0.91	-27.60	0.91	-27.60	0.19	40.00
16400	0.20	41.00	0.91	-28.00	0.91	-28.00	0.20	41.00
16450	0.21	41.90	0.90	-28.40	0.90	-28.40	0.21	41.90
16500	0.21	42.60	0.90	-28.60	0.90	-28.60	0.21	42.60
16550	0.21	43.30	0.89	-28.80	0.89	-28.80	0.21	43.30
16600	0.22	43.60	0.89	-29.20	0.89	-29.20	0.22	43.60
16650	0.24	43.90	0.90	-29.50	0.90	-29.50	0.24	43.90
16700	0.24	44.60	0.90	-29.80	0.90	-29.80	0.24	44.60
16750	0.24	45.30	0.90	-30.10	0.90	-30.10	0.24	45.30
16800	0.25	45.70	0.90	-30.60	0.90	-30.60	0.25	45.70
16850	0.25	46.20	0.90	-31.10	0.90	-31.10	0.25	46.20
16900	0.27	45.00	0.90	-31.70	0.90	-31.70	0.27	45.00
16950	0.28	43.70	0.90	-32.40	0.90	-32.40	0.28	43.70
17000	0.29	43.30	0.90	-33.00	0.90	-33.00	0.29	43.30
17050	0.29	42.80	0.90	-33.70	0.90	-33.70	0.29	42.80
17100	0.31	42.20	0.90	-34.40	0.90	-34.40	0.31	42.20
17150	0.32	41.70	0.90	-35.20	0.90	-35.20	0.32	41.70
17200	0.33	40.70	0.89	-35.60	0.89	-35.60	0.33	40.70
17250	0.34	39.80	0.89	-36.00	0.89	-36.00	0.34	39.80
17300	0.34	40.90	0.89	-36.60	0.89	-36.60	0.34	40.90
17350	0.35	42.00	0.89	-37.30	0.89	-37.30	0.35	42.00
17400	0.36	41.20	0.88	-37.70	0.88	-37.70	0.36	41.20
17450	0.37	40.40	0.88	-38.10	0.88	-38.10	0.37	40.40
17500	0.37	41.00	0.88	-38.70	0.88	-38.70	0.37	41.00
17550	0.37	41.50	0.88	-39.40	0.88	-39.40	0.37	41.50
17600	0.38	42.20	0.88	-40.10	0.88	-40.10	0.38	42.20
17650	0.39	42.80	0.87	-40.80	0.87	-40.80	0.39	42.80
17700	0.39	43.00	0.87	-41.30	0.87	-41.30	0.39	43.00
17750	0.39	43.10	0.87	-41.80	0.87	-41.80	0.39	43.10
17800	0.39	43.90	0.87	-42.70	0.87	-42.70	0.39	43.90
17850	0.40	44.70	0.87	-43.60	0.87	-43.60	0.40	44.70
17900	0.40	44.80	0.86	-44.30	0.86	-44.30	0.40	44.80
17950	0.40	44.80	0.86	-45.10	0.86	-45.10	0.40	44.80
18000	0.40	45.00	0.85	-45.90	0.85	-45.90	0.40	45.00
18050	0.41	45.20	0.85	-46.80	0.85	-46.80	0.41	45.20
18100	0.41	44.40	0.85	-47.60	0.85	-47.60	0.41	44.40
18150	0.42	43.60	0.84	-48.40	0.84	-48.40	0.42	43.60
18200	0.43	43.30	0.83	-49.40	0.83	-49.40	0.43	43.30
18250	0.43	42.90	0.83	-50.40	0.83	-50.40	0.43	42.90
18300	0.44	41.10	0.82	-51.10	0.82	-51.10	0.44	41.10
18350	0.45	39.30	0.82	-51.70	0.82	-51.70	0.45	39.30
18400	0.46	38.10	0.81	-52.80	0.81	-52.80	0.46	38.10
18450	0.47	36.90	0.80	-53.80	0.80	-53.80	0.47	36.90
18500	0.50	36.70	0.79	-54.10	0.79	-54.10	0.50	36.70
18550	0.52	36.50	0.79	-54.30	0.79	-54.30	0.52	36.50
18600	0.52	35.40	0.78	-55.40	0.78	-55.40	0.52	35.40
18650	0.53	34.20	0.77	-56.50	0.77	-56.50	0.53	34.20
18700	0.55	33.30	0.77	-57.40	0.77	-57.40	0.55	33.30
18750	0.56	32.50	0.76	-58.20	0.76	-58.20	0.56	32.50
18800	0.57	30.50	0.75	-58.80	0.75	-58.80	0.57	30.50
18850	0.57	28.60	0.74	-59.50	0.74	-59.50	0.57	28.60
18900	0.58	28.90	0.74	-60.50	0.74	-60.50	0.58	28.90
18950	0.59	29.30	0.73	-61.50	0.73	-61.50	0.59	29.30
19000	0.59	26.30	0.72	-62.20	0.72	-62.20	0.59	26.30
19050	0.59	23.30	0.71	-63.00	0.71	-63.00	0.59	23.30
19100	0.59	22.50	0.69	-63.70	0.69	-63.70	0.59	22.50
19150	0.59	21.60	0.68	-64.50	0.68	-64.50	0.59	21.60
19200	0.60	18.60	0.67	-65.40	0.67	-65.40	0.60	18.60
19250	0.62	15.60	0.66	-66.30	0.66	-66.30	0.62	15.60
19300	0.62	12.40	0.65	-66.90	0.65	-66.90	0.62	12.40
19350	0.62	9.20	0.63	-67.50	0.63	-67.50	0.62	9.20
19400	0.64	7.90	0.62	-68.80	0.62	-68.80	0.64	7.90
19450	0.66	6.60	0.62	-70.20	0.62	-70.20	0.66	6.60
