#	mhz	s	ma	r	50
50	0.0377	85.843	0.99322	-1.796	0.99322	-1.796	0.0377	85.843
70	0.05267	86.109	0.99484	-3.406	0.99484	-3.406	0.05267	86.109
90	0.06737	84.527	0.99527	-4.448	0.99527	-4.448	0.06737	84.527
110	0.08131	82.842	0.99642	-5.296	0.99642	-5.296	0.08131	82.842
130	0.09508	81.760	0.99744	-6.124	0.99744	-6.124	0.09508	81.76
150	0.11028	80.957	0.99479	-6.902	0.99479	-6.902	0.11028	80.957
170	0.12583	80.627	0.98879	-7.579	0.98879	-7.579	0.12583	80.627
190	0.14049	80.514	0.98638	-8.509	0.98638	-8.509	0.14049	80.514
210	0.15442	80.071	0.98273	-9.442	0.98273	-9.442	0.15442	80.071
230	0.16788	79.300	0.97815	-10.336	0.97815	-10.336	0.16788	79.3
250	0.18132	78.749	0.9782	-11.357	0.9782	-11.357	0.18132	78.749
270	0.19267	77.697	0.97378	-12.225	0.97378	-12.225	0.19267	77.697
290	0.20459	76.498	0.97318	-12.979	0.97318	-12.979	0.20459	76.498
310	0.21812	75.084	0.97108	-13.797	0.97108	-13.797	0.21812	75.084
330	0.23284	73.640	0.96666	-14.709	0.96666	-14.709	0.23284	73.64
350	0.24688	72.601	0.9637	-15.596	0.9637	-15.596	0.24688	72.601
370	0.26182	72.026	0.95987	-16.537	0.95987	-16.537	0.26182	72.026
390	0.27731	71.236	0.95683	-17.278	0.95683	-17.278	0.27731	71.236
410	0.29227	70.577	0.9534	-17.97	0.9534	-17.97	0.29227	70.577
430	0.30642	70.098	0.94851	-18.663	0.94851	-18.663	0.30642	70.098
450	0.32025	69.550	0.94128	-19.313	0.94128	-19.313	0.32025	69.55
470	0.33075	68.774	0.93511	-20.432	0.93511	-20.432	0.33075	68.774
490	0.3585	69.134	0.93875	-21.447	0.93875	-21.447	0.3585	69.134
510	0.37758	68.461	0.93598	-22.334	0.93598	-22.334	0.37758	68.461
530	0.38167	66.419	0.92219	-23.092	0.92219	-23.092	0.38167	66.419
550	0.3840	64.510	0.90437	-23.739	0.90437	-23.739	0.3840	64.51
570	0.39669	61.616	0.89056	-25.02	0.89056	-25.02	0.39669	61.616
590	0.41221	59.126	0.87526	-26.399	0.87526	-26.399	0.41221	59.126
610	0.43382	57.125	0.86362	-28.014	0.86362	-28.014	0.43382	57.125
630	0.45878	55.684	0.85785	-29.681	0.85785	-29.681	0.45878	55.684
650	0.47837	54.870	0.85719	-30.899	0.85719	-30.899	0.47837	54.87
670	0.49245	55.128	0.85634	-31.779	0.85634	-31.779	0.49245	55.128
690	0.50474	55.466	0.85703	-32.151	0.85703	-32.151	0.50474	55.466
710	0.51353	55.343	0.85317	-32.568	0.85317	-32.568	0.51353	55.343
730	0.51783	54.637	0.84297	-33.143	0.84297	-33.143	0.51783	54.637
750	0.51745	53.637	0.8290	-33.543	0.8290	-33.543	0.51745	53.637
770	0.52748	51.820	0.81453	-34.58	0.81453	-34.58	0.52748	51.82
790	0.53902	49.824	0.80213	-35.886	0.80213	-35.886	0.53902	49.824
810	0.55567	48.013	0.7929	-37.295	0.7929	-37.295	0.55567	48.013
830	0.57675	46.573	0.78734	-38.745	0.78734	-38.745	0.57675	46.573
850	0.59725	45.509	0.78537	-40.276	0.78537	-40.276	0.59725	45.509
870	0.61441	45.142	0.78266	-41.356	0.78266	-41.356	0.61441	45.142
890	0.63092	45.200	0.78762	-41.803	0.78762	-41.803	0.63092	45.2
910	0.64197	45.208	0.78855	-42.025	0.78855	-42.025	0.64197	45.208
930	0.64724	45.044	0.7816	-42.209	0.7816	-42.209	0.64724	45.044
950	0.65091	44.939	0.77074	-42.323	0.77074	-42.323	0.65091	44.939
970	0.65862	44.283	0.7600	-42.715	0.7600	-42.715	0.65862	44.283
990	0.66526	43.214	0.74554	-43.502	0.74554	-43.502	0.66526	43.214
1010	0.67425	42.125	0.73039	-44.348	0.73039	-44.348	0.67425	42.125
1030	0.68655	41.228	0.71743	-45.243	0.71743	-45.243	0.68655	41.228
1050	0.70062	40.559	0.70944	-46.497	0.70944	-46.497	0.70062	40.559
1070	0.70747	40.294	0.70395	-47.357	0.70395	-47.357	0.70747	40.294
1090	0.7179	39.862	0.70176	-48.225	0.70176	-48.225	0.7179	39.862
1110	0.72412	39.419	0.69859	-48.751	0.69859	-48.751	0.72412	39.419
1130	0.72535	38.989	0.69188	-48.952	0.69188	-48.952	0.72535	38.989
1150	0.72786	38.459	0.68087	-49.215	0.68087	-49.215	0.72786	38.459
1170	0.72865	37.361	0.6664	-49.484	0.6664	-49.484	0.72865	37.361
1190	0.73425	36.187	0.65307	-50.047	0.65307	-50.047	0.73425	36.187
1210	0.7430	34.849	0.63823	-50.894	0.63823	-50.894	0.7430	34.849
1230	0.75305	33.568	0.62216	-51.97	0.62216	-51.97	0.75305	33.568
1250	0.76232	32.872	0.60803	-53.178	0.60803	-53.178	0.76232	32.872
1270	0.77869	32.156	0.60105	-54.39	0.60105	-54.39	0.77869	32.156
1290	0.78527	31.284	0.59337	-55.814	0.59337	-55.814	0.78527	31.284
1310	0.78967	30.690	0.58696	-56.635	0.58696	-56.635	0.78967	30.69
1330	0.79609	30.295	0.58209	-56.917	0.58209	-56.917	0.79609	30.295
1350	0.80528	29.511	0.57741	-57.597	0.57741	-57.597	0.80528	29.511
1370	0.80725	28.565	0.56413	-57.878	0.56413	-57.878	0.80725	28.565
1390	0.81108	27.661	0.55304	-58.376	0.55304	-58.376	0.81108	27.661
1410	0.82034	26.720	0.54141	-59.228	0.54141	-59.228	0.82034	26.72
1430	0.83327	25.832	0.52862	-60.298	0.52862	-60.298	0.83327	25.832
1450	0.84273	25.251	0.51616	-61.179	0.51616	-61.179	0.84273	25.251
1470	0.85705	24.728	0.51092	-62.182	0.51092	-62.182	0.85705	24.728
1490	0.86804	24.277	0.50358	-63.216	0.50358	-63.216	0.86804	24.277
1510	0.87235	24.029	0.49671	-63.884	0.49671	-63.884	0.87235	24.029
1530	0.87372	23.914	0.4907	-64.225	0.4907	-64.225	0.87372	23.914
1550	0.88298	23.657	0.48374	-64.723	0.48374	-64.723	0.88298	23.657
1570	0.88053	22.728	0.4744	-65.094	0.4744	-65.094	0.88053	22.728
1590	0.88144	21.996	0.46354	-65.413	0.46354	-65.413	0.88144	21.996
1610	0.8860	21.343	0.45087	-65.929	0.45087	-65.929	0.8860	21.343
1630	0.89423	20.680	0.43795	-66.701	0.43795	-66.701	0.89423	20.68
1650	0.90582	19.943	0.42813	-67.591	0.42813	-67.591	0.90582	19.943
1670	0.90953	19.096	0.4178	-68.685	0.4178	-68.685	0.90953	19.096
1690	0.91284	18.882	0.40952	-69.474	0.40952	-69.474	0.91284	18.882
1710	0.91809	18.660	0.4031	-70.03	0.4031	-70.03	0.91809	18.66
1730	0.92389	18.205	0.39666	-70.486	0.39666	-70.486	0.92389	18.205
1750	0.92515	17.702	0.38663	-71.032	0.38663	-71.032	0.92515	17.702
1770	0.92145	17.034	0.3778	-71.152	0.3778	-71.152	0.92145	17.034
1790	0.92525	16.418	0.36891	-71.61	0.36891	-71.61	0.92525	16.418
1810	0.92721	15.708	0.35702	-72.094	0.35702	-72.094	0.92721	15.708
1830	0.9271	14.921	0.34348	-72.528	0.34348	-72.528	0.9271	14.921
1850	0.93382	14.234	0.33388	-73.072	0.33388	-73.072	0.93382	14.234
1870	0.93943	13.410	0.32392	-74.17	0.32392	-74.17	0.93943	13.41
1890	0.94017	12.881	0.31296	-75.084	0.31296	-75.084	0.94017	12.881
1910	0.94702	12.766	0.30411	-75.694	0.30411	-75.694	0.94702	12.766
1930	0.95943	12.557	0.29741	-76.115	0.29741	-76.115	0.95943	12.557
1950	0.96534	11.122	0.28975	-76.701	0.28975	-76.701	0.96534	11.122
1970	0.95331	10.896	0.27904	-76.977	0.27904	-76.977	0.95331	10.896
1990	0.95194	10.514	0.26896	-77.127	0.26896	-77.127	0.95194	10.514
2010	0.95819	9.8870	0.25875	-77.363	0.25875	-77.363	0.95819	9.887
2030	0.9663	9.0680	0.24812	-77.894	0.24812	-77.894	0.9663	9.068
2050	0.96778	8.2490	0.23726	-78.929	0.23726	-78.929	0.96778	8.249
2070	0.96357	7.7810	0.22611	-79.488	0.22611	-79.488	0.96357	7.781
2090	0.96746	7.4780	0.21657	-80.199	0.21657	-80.199	0.96746	7.478
2110	0.97498	6.9320	0.20808	-81.17	0.20808	-81.17	0.97498	6.932
2130	0.98002	6.2410	0.19957	-82.163	0.19957	-82.163	0.98002	6.241
2150	0.97478	6.0090	0.18947	-82.59	0.18947	-82.59	0.97478	6.009
2170	0.98201	5.4990	0.18197	-82.477	0.18197	-82.477	0.98201	5.499
2190	0.98585	4.8120	0.17361	-83.023	0.17361	-83.023	0.98585	4.812
2210	0.98766	4.2530	0.16432	-83.376	0.16432	-83.376	0.98766	4.253
2230	0.98884	3.7860	0.1545	-83.481	0.1545	-83.481	0.98884	3.786
2250	0.99083	3.0370	0.14503	-84.082	0.14503	-84.082	0.99083	3.037
2270	0.9884	2.2140	0.13479	-84.693	0.13479	-84.693	0.9884	2.214
2290	0.98972	2.2620	0.12607	-85.011	0.12607	-85.011	0.98972	2.262
2310	0.99534	1.8220	0.11763	-85.506	0.11763	-85.506	0.99534	1.822
2330	0.99919	0.8180	0.10888	-86.113	0.10888	-86.113	0.99919	0.818
2350	0.98862	0.4600	0.09992	-86.235	0.09992	-86.235	0.98862	0.46
2370	0.99613	0.3950	0.09161	-85.738	0.09161	-85.738	0.99613	0.395
2390	0.9991	0.0250	0.08327	-85.64	0.08327	-85.64	0.9991	0.025
2410	0.99901	-0.545	0.07416	-85.247	0.07416	-85.247	0.99901	-0.545
2430	0.99709	-1.104	0.0645	-84.481	0.0645	-84.481	0.99709	-1.104
2450	0.99428	-1.326	0.05552	-83.881	0.05552	-83.881	0.99428	-1.326
2470	0.99785	-2.252	0.04673	-82.864	0.04673	-82.864	0.99785	-2.252
2490	0.99914	-2.699	0.03816	-81.142	0.03816	-81.142	0.99914	-2.699
2510	1.00047	-3.092	0.02965	-77.855	0.02965	-77.855	1.00047	-3.092
2530	1.00165	-3.598	0.02138	-71.284	0.02138	-71.284	1.00165	-3.598
2550	0.99996	-4.120	0.01385	-58.854	0.01385	-58.854	0.99996	-4.12
2570	0.9972	-4.331	0.00938	-18.212	0.00938	-18.212	0.9972	-4.331
2590	0.99697	-4.806	0.01141	24.303	0.01141	24.303	0.99697	-4.806
2610	0.99591	-5.387	0.01725	52.289	0.01725	52.289	0.99591	-5.387
2630	0.99333	-6.012	0.02486	63.122	0.02486	63.122	0.99333	-6.012
2650	0.99123	-6.711	0.03284	67.957	0.03284	67.957	0.99123	-6.711
2670	0.99465	-6.985	0.04098	70.430	0.04098	70.430	0.99465	-6.985
2690	0.99788	-7.662	0.04922	71.514	0.04922	71.514	0.99788	-7.662
2710	0.99657	-8.263	0.05736	72.213	0.05736	72.213	0.99657	-8.263
2730	0.99198	-8.607	0.06548	72.877	0.06548	72.877	0.99198	-8.607
2750	0.99093	-8.808	0.07397	73.196	0.07397	73.196	0.99093	-8.808
2770	0.99101	-9.519	0.08242	72.887	0.08242	72.887	0.99101	-9.519
2790	0.99182	-10.036	0.09065	72.944	0.09065	72.944	0.99182	-10.036
2810	0.99223	-10.517	0.09901	73.005	0.09901	73.005	0.99223	-10.517
2830	0.99071	-11.019	0.10732	72.950	0.10732	72.950	0.99071	-11.019
2850	0.98537	-11.496	0.11484	72.895	0.11484	72.895	0.98537	-11.496
2870	0.98653	-11.759	0.12291	72.511	0.12291	72.511	0.98653	-11.759
2890	0.98653	-12.496	0.13107	72.057	0.13107	72.057	0.98653	-12.496
2910	0.98484	-13.02	0.1392	71.658	0.1392	71.658	0.98484	-13.02
2930	0.98188	-13.226	0.14713	71.232	0.14713	71.232	0.98188	-13.226
2950	0.97906	-13.595	0.15465	70.491	0.15465	70.491	0.97906	-13.595
2970	0.97944	-14.399	0.16403	70.084	0.16403	70.084	0.97944	-14.399
2990	0.98145	-15.207	0.17224	69.676	0.17224	69.676	0.98145	-15.207
3010	0.97928	-15.638	0.17948	69.469	0.17948	69.469	0.97928	-15.638
3030	0.97514	-15.764	0.18671	69.428	0.18671	69.428	0.97514	-15.764
3050	0.97923	-16.107	0.19561	69.278	0.19561	69.278	0.97923	-16.107
3070	0.97593	-16.831	0.20365	68.911	0.20365	68.911	0.97593	-16.831
3090	0.96596	-17.206	0.20993	68.481	0.20993	68.481	0.96596	-17.206
3110	0.96287	-17.43	0.21657	68.062	0.21657	68.062	0.96287	-17.43
3130	0.96717	-17.756	0.22449	67.534	0.22449	67.534	0.96717	-17.756
3150	0.96634	-18.493	0.23337	66.576	0.23337	66.576	0.96634	-18.493
3170	0.96341	-19.262	0.23903	66.119	0.23903	66.119	0.96341	-19.262
3190	0.9615	-19.615	0.24667	66.080	0.24667	66.080	0.9615	-19.615
3210	0.95985	-20.023	0.25506	65.924	0.25506	65.924	0.95985	-20.023
3230	0.95728	-20.54	0.2628	65.515	0.2628	65.515	0.95728	-20.54
3250	0.95217	-20.807	0.26836	65.118	0.26836	65.118	0.95217	-20.807
3270	0.95319	-21.657	0.27461	64.539	0.27461	64.539	0.95319	-21.657
3290	0.9478	-22.174	0.28118	64.108	0.28118	64.108	0.9478	-22.174
3310	0.9442	-22.537	0.2882	63.659	0.2882	63.659	0.9442	-22.537
3330	0.94558	-22.935	0.29558	63.103	0.29558	63.103	0.94558	-22.935
3350	0.95011	-23.56	0.3030	62.428	0.3030	62.428	0.95011	-23.56
3370	0.9407	-24.143	0.30888	61.760	0.30888	61.760	0.9407	-24.143
3390	0.9362	-24.114	0.31511	61.713	0.31511	61.713	0.9362	-24.114
3410	0.93463	-24.23	0.32267	61.721	0.32267	61.721	0.93463	-24.23
3430	0.93278	-24.864	0.33069	61.397	0.33069	61.397	0.93278	-24.864
3450	0.92618	-26.006	0.33646	60.536	0.33646	60.536	0.92618	-26.006
3470	0.91715	-26.31	0.33923	60.145	0.33923	60.145	0.91715	-26.31
3490	0.91824	-26.31	0.34685	59.929	0.34685	59.929	0.91824	-26.31
3510	0.92211	-26.873	0.35462	59.337	0.35462	59.337	0.92211	-26.873
3530	0.92212	-27.848	0.36075	58.506	0.36075	58.506	0.92212	-27.848
3550	0.91229	-28.073	0.36638	58.259	0.36638	58.259	0.91229	-28.073
3570	0.91735	-28.207	0.37615	57.847	0.37615	57.847	0.91735	-28.207
3590	0.91138	-28.843	0.3826	57.164	0.3826	57.164	0.91138	-28.843
3610	0.90484	-29.248	0.38859	56.849	0.38859	56.849	0.90484	-29.248
3630	0.90309	-29.428	0.39554	56.825	0.39554	56.825	0.90309	-29.428
3650	0.90643	-30.134	0.40338	56.294	0.40338	56.294	0.90643	-30.134
3670	0.89757	-30.78	0.40645	55.817	0.40645	55.817	0.89757	-30.78
3690	0.89587	-30.905	0.41215	55.858	0.41215	55.858	0.89587	-30.905
3710	0.89791	-31.22	0.41853	55.431	0.41853	55.431	0.89791	-31.22
3730	0.89797	-31.837	0.42419	54.502	0.42419	54.502	0.89797	-31.837
3750	0.88807	-32.268	0.42824	53.996	0.42824	53.996	0.88807	-32.268
3770	0.88387	-32.341	0.43452	53.654	0.43452	53.654	0.88387	-32.341
3790	0.88037	-32.984	0.44085	53.231	0.44085	53.231	0.88037	-32.984
3810	0.87695	-33.575	0.44809	52.846	0.44809	52.846	0.87695	-33.575
3830	0.87406	-33.962	0.45537	52.482	0.45537	52.482	0.87406	-33.962
3850	0.87323	-34.463	0.46014	51.985	0.46014	51.985	0.87323	-34.463
3870	0.87176	-34.588	0.46555	51.754	0.46555	51.754	0.87176	-34.588
3890	0.87211	-35.031	0.47129	51.568	0.47129	51.568	0.87211	-35.031
3910	0.86911	-35.622	0.47687	51.038	0.47687	51.038	0.86911	-35.622
3930	0.86184	-36.08	0.48159	50.331	0.48159	50.331	0.86184	-36.08
3950	0.85357	-36.014	0.4845	50.169	0.4845	50.169	0.85357	-36.014
3970	0.85564	-36.102	0.49137	49.966	0.49137	49.966	0.85564	-36.102
3990	0.85308	-36.91	0.49532	49.182	0.49532	49.182	0.85308	-36.91
4010	0.84544	-37.668	0.4996	48.558	0.4996	48.558	0.84544	-37.668
4030	0.8366	-37.992	0.50489	48.330	0.50489	48.330	0.8366	-37.992
4050	0.83474	-37.888	0.5093	48.230	0.5093	48.230	0.83474	-37.888
4070	0.8400	-38.551	0.51499	47.558	0.51499	47.558	0.8400	-38.551
4090	0.83761	-39.296	0.52133	46.837	0.52133	46.837	0.83761	-39.296
4110	0.83225	-39.796	0.52523	46.399	0.52523	46.399	0.83225	-39.796
4130	0.82698	-39.892	0.52774	46.287	0.52774	46.287	0.82698	-39.892
4150	0.82328	-39.595	0.5340	46.255	0.5340	46.255	0.82328	-39.595
4170	0.82145	-40.637	0.54192	45.307	0.54192	45.307	0.82145	-40.637
4190	0.81432	-40.898	0.54468	44.902	0.54468	44.902	0.81432	-40.898
4210	0.80953	-41.064	0.5494	44.702	0.5494	44.702	0.80953	-41.064
4230	0.80839	-41.521	0.55591	44.453	0.55591	44.453	0.80839	-41.521
4250	0.80587	-42.356	0.55677	43.981	0.55677	43.981	0.80587	-42.356
4270	0.80273	-42.703	0.56579	43.596	0.56579	43.596	0.80273	-42.703
4290	0.80537	-42.926	0.57015	43.176	0.57015	43.176	0.80537	-42.926
4310	0.8027	-42.939	0.57366	42.824	0.57366	42.824	0.8027	-42.939
4330	0.79449	-42.932	0.57817	42.588	0.57817	42.588	0.79449	-42.932
4350	0.79135	-43.373	0.58349	42.459	0.58349	42.459	0.79135	-43.373
4370	0.78944	-44.268	0.58944	41.740	0.58944	41.740	0.78944	-44.268
4390	0.78308	-44.691	0.59162	41.306	0.59162	41.306	0.78308	-44.691
4410	0.77904	-44.989	0.59515	40.936	0.59515	40.936	0.77904	-44.989
4430	0.77813	-45.257	0.60054	40.593	0.60054	40.593	0.77813	-45.257
4450	0.7752	-45.337	0.60366	40.422	0.60366	40.422	0.7752	-45.337
4470	0.77757	-45.486	0.60836	40.065	0.60836	40.065	0.77757	-45.486
4490	0.77291	-46.006	0.61083	39.458	0.61083	39.458	0.77291	-46.006
4510	0.76552	-46.082	0.61303	39.137	0.61303	39.137	0.76552	-46.082
4530	0.76094	-45.865	0.6178	39.126	0.6178	39.126	0.76094	-45.865
4550	0.76601	-46.466	0.62885	38.943	0.62885	38.943	0.76601	-46.466
4570	0.7502	-47.492	0.62703	38.193	0.62703	38.193	0.7502	-47.492
4590	0.74223	-47.692	0.62699	38.078	0.62699	38.078	0.74223	-47.692
4610	0.74325	-47.814	0.63305	37.927	0.63305	37.927	0.74325	-47.814
4630	0.74762	-48.208	0.64164	37.405	0.64164	37.405	0.74762	-48.208
4650	0.74299	-48.827	0.64132	36.513	0.64132	36.513	0.74299	-48.827
4670	0.73886	-48.871	0.64453	36.308	0.64453	36.308	0.73886	-48.871
4690	0.73722	-48.824	0.65086	36.260	0.65086	36.260	0.73722	-48.824
4710	0.73283	-48.96	0.65628	35.951	0.65628	35.951	0.73283	-48.96
4730	0.72605	-49.284	0.65908	35.366	0.65908	35.366	0.72605	-49.284
4750	0.72281	-49.529	0.65987	34.890	0.65987	34.890	0.72281	-49.529
4770	0.71475	-50.083	0.66408	34.589	0.66408	34.589	0.71475	-50.083
4790	0.70688	-50.593	0.6688	34.359	0.6688	34.359	0.70688	-50.593
4810	0.7059	-51.055	0.67214	33.886	0.67214	33.886	0.7059	-51.055
4830	0.70937	-51.327	0.67477	33.298	0.67477	33.298	0.70937	-51.327
4850	0.70568	-51.128	0.68001	33.163	0.68001	33.163	0.70568	-51.128
4870	0.70348	-51.489	0.68347	32.547	0.68347	32.547	0.70348	-51.489
4890	0.69595	-51.685	0.68506	32.175	0.68506	32.175	0.69595	-51.685
4910	0.68697	-51.653	0.68991	31.997	0.68991	31.997	0.68697	-51.653
4930	0.68022	-51.738	0.69711	31.746	0.69711	31.746	0.68022	-51.738
4950	0.67921	-52.694	0.69968	30.938	0.69968	30.938	0.67921	-52.694
4970	0.66863	-53.414	0.69887	30.670	0.69887	30.670	0.66863	-53.414
4990	0.66973	-53.412	0.70342	30.611	0.70342	30.611	0.66973	-53.412
5010	0.67016	-53.747	0.70704	30.272	0.70704	30.272	0.67016	-53.747
5030	0.66572	-54.336	0.70741	29.710	0.70741	29.710	0.66572	-54.336
5050	0.6603	-53.957	0.70619	29.532	0.70619	29.532	0.6603	-53.957
5070	0.65934	-53.641	0.71531	29.433	0.71531	29.433	0.65934	-53.641
5090	0.65693	-53.779	0.72065	28.885	0.72065	28.885	0.65693	-53.779
5110	0.64878	-54.341	0.72122	28.430	0.72122	28.430	0.64878	-54.341
5130	0.63809	-55.005	0.72013	28.284	0.72013	28.284	0.63809	-55.005
5150	0.63552	-55.16	0.72453	28.340	0.72453	28.340	0.63552	-55.16
5170	0.63781	-55.741	0.73214	27.433	0.73214	27.433	0.63781	-55.741
5190	0.63333	-56.456	0.73083	26.792	0.73083	26.792	0.63333	-56.456
5210	0.62953	-56.508	0.7302	26.707	0.7302	26.707	0.62953	-56.508
5230	0.62985	-56.026	0.73497	26.832	0.73497	26.832	0.62985	-56.026
5250	0.63365	-56.066	0.74497	26.185	0.74497	26.185	0.63365	-56.066
5270	0.62221	-56.658	0.74074	25.335	0.74074	25.335	0.62221	-56.658
5290	0.61323	-56.492	0.74115	25.217	0.74115	25.217	0.61323	-56.492
5310	0.60914	-56.535	0.74507	25.157	0.74507	25.157	0.60914	-56.535
5330	0.60705	-57.202	0.74927	24.714	0.74927	24.714	0.60705	-57.202
5350	0.59877	-58.359	0.74844	23.685	0.74844	23.685	0.59877	-58.359
5370	0.59673	-57.894	0.75003	23.813	0.75003	23.813	0.59673	-57.894
5390	0.59955	-57.969	0.75586	23.473	0.75586	23.473	0.59955	-57.969
5410	0.59884	-58.157	0.75768	23.007	0.75768	23.007	0.59884	-58.157
5430	0.59304	-58.241	0.75612	22.661	0.75612	22.661	0.59304	-58.241
5450	0.58742	-58.221	0.7607	22.585	0.7607	22.585	0.58742	-58.221
5470	0.57734	-58.352	0.75749	22.272	0.75749	22.272	0.57734	-58.352
5490	0.57271	-58.639	0.75908	21.700	0.75908	21.700	0.57271	-58.639
5510	0.56916	-58.865	0.76292	21.195	0.76292	21.195	0.56916	-58.865
5530	0.56524	-59.094	0.76602	20.815	0.76602	20.815	0.56524	-59.094
5550	0.56246	-59.669	0.76495	20.353	0.76495	20.353	0.56246	-59.669
5570	0.55625	-59.805	0.76289	20.446	0.76289	20.446	0.55625	-59.805
5590	0.5546	-59.837	0.76954	19.943	0.76954	19.943	0.5546	-59.837
5610	0.55082	-60.032	0.7733	19.329	0.7733	19.329	0.55082	-60.032
5630	0.54481	-60.31	0.77178	18.889	0.77178	18.889	0.54481	-60.31
5650	0.54307	-60.251	0.7718	18.709	0.7718	18.709	0.54307	-60.251
5670	0.54206	-60.41	0.77437	18.595	0.77437	18.595	0.54206	-60.41
5690	0.54087	-60.611	0.77776	18.198	0.77776	18.198	0.54087	-60.611
5710	0.53775	-60.685	0.77821	17.684	0.77821	17.684	0.53775	-60.685
5730	0.53257	-60.67	0.77374	17.306	0.77374	17.306	0.53257	-60.67
5750	0.52682	-60.813	0.76421	17.406	0.76421	17.406	0.52682	-60.813
5770	0.52377	-60.584	0.77936	16.932	0.77936	16.932	0.52377	-60.584
5790	0.51967	-60.412	0.78191	16.566	0.78191	16.566	0.51967	-60.412
5810	0.51488	-60.576	0.78007	16.157	0.78007	16.157	0.51488	-60.576
5830	0.50954	-60.961	0.77788	15.862	0.77788	15.862	0.50954	-60.961
5850	0.50362	-61.05	0.77519	16.151	0.77519	16.151	0.50362	-61.05
5870	0.50473	-61.115	0.7794	15.425	0.7794	15.425	0.50473	-61.115
5890	0.5043	-61.586	0.78071	14.737	0.78071	14.737	0.5043	-61.586
5910	0.50128	-61.808	0.78078	14.272	0.78078	14.272	0.50128	-61.808
5930	0.49654	-61.605	0.78129	14.072	0.78129	14.072	0.49654	-61.605
5950	0.49288	-61.282	0.78394	14.038	0.78394	14.038	0.49288	-61.282
5970	0.48861	-61.63	0.78352	13.335	0.78352	13.335	0.48861	-61.63
5990	0.48224	-62.049	0.78251	13.075	0.78251	13.075	0.48224	-62.049
6010	0.47876	-62.28	0.78134	12.909	0.78134	12.909	0.47876	-62.28
6030	0.47795	-62.298	0.78121	12.619	0.78121	12.619	0.47795	-62.298
6050	0.4744	-62.315	0.7841	12.116	0.7841	12.116	0.4744	-62.315
6070	0.47157	-62.226	0.78299	11.951	0.78299	11.951	0.47157	-62.226
