#	mhz	s	ma	r	50
50	0.52644	119.44641	0.81132	27.66579	0.81132	27.66579	0.52644	119.44641
70	0.46165	113.08289	0.84244	21.83385	0.84244	21.83385	0.46165	113.08289
90	0.39686	106.71936	0.87355	16.00191	0.87355	16.00191	0.39686	106.71936
110	0.33206	100.35584	0.90466	10.16996	0.90466	10.16996	0.33206	100.35584
130	0.26727	93.99232	0.93577	4.33802	0.93577	4.33802	0.26727	93.99232
150	0.20247	87.6288	0.96688	-1.49392	0.96688	-1.49392	0.20247	87.6288
170	0.18206	84.94446	0.97075	-4.14042	0.97075	-4.14042	0.18206	84.94446
190	0.16164	82.26013	0.97462	-6.78692	0.97462	-6.78692	0.16164	82.26013
210	0.14122	79.5758	0.97849	-9.43342	0.97849	-9.43342	0.14122	79.5758
230	0.1208	76.89146	0.98236	-12.07992	0.98236	-12.07992	0.1208	76.89146
250	0.10039	74.20713	0.98622	-14.72642	0.98622	-14.72642	0.10039	74.20713
270	0.09041	71.76628	0.98746	-17.08122	0.98746	-17.08122	0.09041	71.76628
290	0.08044	69.32542	0.98869	-19.43603	0.98869	-19.43603	0.08044	69.32542
310	0.07046	66.88456	0.98992	-21.79083	0.98992	-21.79083	0.07046	66.88456
330	0.06049	64.44371	0.99116	-24.14563	0.99116	-24.14563	0.06049	64.44371
350	0.05051	62.00285	0.99239	-26.50044	0.99239	-26.50044	0.05051	62.00285
370	0.04487	60.51585	0.99362	-28.52124	0.99362	-28.52124	0.04487	60.51585
390	0.03922	59.02885	0.99484	-30.54203	0.99484	-30.54203	0.03922	59.02885
410	0.03357	57.54184	0.99606	-32.56283	0.99606	-32.56283	0.03357	57.54184
430	0.02792	56.05484	0.99729	-34.58363	0.99729	-34.58363	0.02792	56.05484
450	0.02227	54.56784	0.99851	-36.60442	0.99851	-36.60442	0.02227	54.56784
470	0.02176	67.00521	0.99764	-38.59747	0.99764	-38.59747	0.02176	67.00521
490	0.02125	79.44258	0.99678	-40.59052	0.99678	-40.59052	0.02125	79.44258
510	0.02074	91.87995	0.99591	-42.58357	0.99591	-42.58357	0.02074	91.87995
530	0.02023	104.31733	0.99505	-44.57661	0.99505	-44.57661	0.02023	104.31733
550	0.01971	116.7547	0.99418	-46.56966	0.99418	-46.56966	0.01971	116.7547
570	0.02341	127.77685	0.99359	-48.52496	0.99359	-48.52496	0.02341	127.77685
590	0.02711	138.799	0.993	-50.48025	0.993	-50.48025	0.02711	138.799
610	0.03081	149.82115	0.99241	-52.43555	0.99241	-52.43555	0.03081	149.82115
630	0.03451	160.8433	0.99182	-54.39084	0.99182	-54.39084	0.03451	160.8433
650	0.03821	171.86545	0.99123	-56.34614	0.99123	-56.34614	0.03821	171.86545
670	0.03955	169.71088	0.99247	-58.22218	0.99247	-58.22218	0.03955	169.71088
690	0.04089	167.5563	0.99371	-60.09823	0.99371	-60.09823	0.04089	167.5563
710	0.04223	165.40173	0.99495	-61.97428	0.99495	-61.97428	0.04223	165.40173
730	0.04357	163.24716	0.99618	-63.85033	0.99618	-63.85033	0.04357	163.24716
750	0.04491	161.09259	0.99742	-65.72637	0.99742	-65.72637	0.04491	161.09259
770	0.05035	160.16971	0.99618	-67.63052	0.99618	-67.63052	0.05035	160.16971
790	0.05579	159.24684	0.99493	-69.53466	0.99493	-69.53466	0.05579	159.24684
810	0.06123	158.32397	0.99369	-71.43881	0.99369	-71.43881	0.06123	158.32397
830	0.06667	157.4011	0.99245	-73.34295	0.99245	-73.34295	0.06667	157.4011
850	0.07211	156.47823	0.9912	-75.2471	0.9912	-75.2471	0.07211	156.47823
870	0.07294	154.33427	0.99123	-77.07588	0.99123	-77.07588	0.07294	154.33427
890	0.07378	152.19031	0.99126	-78.90467	0.99126	-78.90467	0.07378	152.19031
910	0.07461	150.04635	0.99129	-80.73345	0.99129	-80.73345	0.07461	150.04635
930	0.07545	147.90239	0.99132	-82.56224	0.99132	-82.56224	0.07545	147.90239
950	0.07628	145.75842	0.99135	-84.39102	0.99135	-84.39102	0.07628	145.75842
970	0.08086	143.24138	0.9912	-86.26741	0.9912	-86.26741	0.08086	143.24138
990	0.08544	140.72433	0.99105	-88.14381	0.99105	-88.14381	0.08544	140.72433
1010	0.09001	138.20728	0.99091	-90.0202	0.99091	-90.0202	0.09001	138.20728
1030	0.09459	135.69024	0.99076	-91.89659	0.99076	-91.89659	0.09459	135.69024
1050	0.09917	133.17319	0.99061	-93.77298	0.99061	-93.77298	0.09917	133.17319
1070	0.10119	131.06771	0.98932	-95.6555	0.98932	-95.6555	0.10119	131.06771
1090	0.1032	128.96223	0.98802	-97.53802	0.98802	-97.53802	0.1032	128.96223
1110	0.10522	126.85676	0.98673	-99.42054	0.98673	-99.42054	0.10522	126.85676
1130	0.10724	124.75128	0.98543	-101.30306	0.98543	-101.30306	0.10724	124.75128
1150	0.10926	122.6458	0.98414	-103.18558	0.98414	-103.18558	0.10926	122.6458
1170	0.11415	120.55577	0.98315	-105.02189	0.98315	-105.02189	0.11415	120.55577
1190	0.11904	118.46575	0.98216	-106.8582	0.98216	-106.8582	0.11904	118.46575
1210	0.12394	116.37572	0.98117	-108.69451	0.98117	-108.69451	0.12394	116.37572
1230	0.12883	114.28569	0.98018	-110.53081	0.98018	-110.53081	0.12883	114.28569
1250	0.13373	112.19567	0.97919	-112.36712	0.97919	-112.36712	0.13373	112.19567
1270	0.13449	110.18521	0.97842	-114.22591	0.97842	-114.22591	0.13449	110.18521
1290	0.13525	108.17475	0.97766	-116.08469	0.97766	-116.08469	0.13525	108.17475
1310	0.13601	106.16429	0.97689	-117.94348	0.97689	-117.94348	0.13601	106.16429
1330	0.13677	104.15383	0.97613	-119.80227	0.97613	-119.80227	0.13677	104.15383
1350	0.13753	102.14337	0.97537	-121.66106	0.97537	-121.66106	0.13753	102.14337
1370	0.14164	99.36846	0.97524	-123.50467	0.97524	-123.50467	0.14164	99.36846
1390	0.14575	96.59355	0.97512	-125.34829	0.97512	-125.34829	0.14575	96.59355
1410	0.14987	93.81864	0.975	-127.19191	0.975	-127.19191	0.14987	93.81864
1430	0.15398	91.04373	0.97487	-129.03552	0.97487	-129.03552	0.15398	91.04373
1450	0.15809	88.26882	0.97475	-130.87914	0.97475	-130.87914	0.15809	88.26882
1470	0.15949	86.17243	0.97457	-132.72132	0.97457	-132.72132	0.15949	86.17243
1490	0.16088	84.07604	0.9744	-134.56351	0.9744	-134.56351	0.16088	84.07604
1510	0.16228	81.97965	0.97422	-136.40569	0.97422	-136.40569	0.16228	81.97965
1530	0.16367	79.88326	0.97404	-138.24788	0.97404	-138.24788	0.16367	79.88326
1550	0.16507	77.78687	0.97387	-140.09006	0.97387	-140.09006	0.16507	77.78687
1570	0.16884	74.67985	0.97272	-141.90172	0.97272	-141.90172	0.16884	74.67985
1590	0.1726	71.57282	0.97156	-143.71339	0.97156	-143.71339	0.1726	71.57282
1610	0.17637	68.4658	0.97041	-145.52505	0.97041	-145.52505	0.17637	68.4658
1630	0.18014	65.35878	0.96926	-147.33671	0.96926	-147.33671	0.18014	65.35878
1650	0.18391	62.25175	0.9681	-149.14837	0.9681	-149.14837	0.18391	62.25175
1670	0.18482	59.96729	0.96938	-150.95588	0.96938	-150.95588	0.18482	59.96729
1690	0.18573	57.68282	0.97066	-152.7634	0.97066	-152.7634	0.18573	57.68282
1710	0.18664	55.39835	0.97194	-154.57091	0.97194	-154.57091	0.18664	55.39835
1730	0.18754	53.11388	0.97322	-156.37842	0.97322	-156.37842	0.18754	53.11388
1750	0.18845	50.82941	0.9745	-158.18593	0.9745	-158.18593	0.18845	50.82941
1770	0.19203	47.85972	0.97294	-160.15607	0.97294	-160.15607	0.19203	47.85972
1790	0.19561	44.89003	0.97137	-162.12621	0.97137	-162.12621	0.19561	44.89003
1810	0.19919	41.92034	0.96981	-164.09635	0.96981	-164.09635	0.19919	41.92034
1830	0.20277	38.95065	0.96824	-166.06649	0.96824	-166.06649	0.20277	38.95065
1850	0.20635	35.98096	0.96667	-168.03663	0.96667	-168.03663	0.20635	35.98096
1870	0.20923	33.85653	0.96612	-169.95752	0.96612	-169.95752	0.20923	33.85653
1890	0.21211	31.73209	0.96556	-171.87841	0.96556	-171.87841	0.21211	31.73209
1910	0.21499	29.60766	0.965	-173.79931	0.965	-173.79931	0.21499	29.60766
1930	0.21787	27.48323	0.96445	-175.7202	0.96445	-175.7202	0.21787	27.48323
1950	0.22075	25.3588	0.96389	-177.64109	0.96389	-177.64109	0.22075	25.3588
1970	0.22377	22.63598	0.96295	-107.58142	0.96295	-107.58142	0.22377	22.63598
1990	0.22678	19.91316	0.96201	-37.52176	0.96201	-37.52176	0.22678	19.91316
2010	0.2298	17.19034	0.96107	32.53791	0.96107	32.53791	0.2298	17.19034
2030	0.23282	14.46752	0.96013	102.59758	0.96013	102.59758	0.23282	14.46752
2050	0.23583	11.7447	0.95919	172.65724	0.95919	172.65724	0.23583	11.7447
2070	0.2397	9.3471	0.95813	170.68193	0.95813	170.68193	0.2397	9.3471
2090	0.24356	6.94951	0.95707	168.70662	0.95707	168.70662	0.24356	6.94951
2110	0.24742	4.55191	0.95601	166.73131	0.95601	166.73131	0.24742	4.55191
2130	0.25128	2.15431	0.95495	164.75601	0.95495	164.75601	0.25128	2.15431
2150	0.25514	-0.24329	0.95389	162.7807	0.95389	162.7807	0.25514	-0.24329
2170	0.25968	-2.94692	0.95093	160.73268	0.95093	160.73268	0.25968	-2.94692
2190	0.26421	-5.65056	0.94798	158.68467	0.94798	158.68467	0.26421	-5.65056
2210	0.26874	-8.3542	0.94502	156.63666	0.94502	156.63666	0.26874	-8.3542
2230	0.27328	-11.05783	0.94207	154.58865	0.94207	154.58865	0.27328	-11.05783
2250	0.27781	-13.76147	0.93912	152.54063	0.93912	152.54063	0.27781	-13.76147
2270	0.28377	-16.53573	0.93588	150.39759	0.93588	150.39759	0.28377	-16.53573
2290	0.28973	-19.31	0.93265	148.25455	0.93265	148.25455	0.28973	-19.31
2310	0.29569	-22.08426	0.92941	146.11151	0.92941	146.11151	0.29569	-22.08426
2330	0.30165	-24.85852	0.92618	143.96847	0.92618	143.96847	0.30165	-24.85852
2350	0.30761	-27.63279	0.92294	141.82543	0.92294	141.82543	0.30761	-27.63279
2370	0.32018	-31.38192	0.9095	139.47954	0.9095	139.47954	0.32018	-31.38192
2390	0.33275	-35.13106	0.89606	137.13365	0.89606	137.13365	0.33275	-35.13106
2410	0.34533	-38.88019	0.88261	134.78775	0.88261	134.78775	0.34533	-38.88019
2430	0.3579	-42.62933	0.86917	132.44186	0.86917	132.44186	0.3579	-42.62933
2450	0.37047	-46.37846	0.85573	130.09597	0.85573	130.09597	0.37047	-46.37846
2470	0.38918	-53.43135	0.81199	128.14845	0.81199	128.14845	0.38918	-53.43135
2490	0.4079	-60.48423	0.76825	126.20094	0.76825	126.20094	0.4079	-60.48423
2510	0.42661	-67.53712	0.72451	124.25342	0.72451	124.25342	0.42661	-67.53712
2530	0.44532	-74.59	0.68077	122.3059	0.68077	122.3059	0.44532	-74.59
2550	0.46403	-81.64289	0.63703	120.35839	0.63703	120.35839	0.46403	-81.64289
2570	0.41261	-91.13521	0.6768	123.56808	0.6768	123.56808	0.41261	-91.13521
2590	0.3612	-100.62754	0.71656	126.77777	0.71656	126.77777	0.3612	-100.62754
2610	0.30978	-110.11986	0.75633	129.98746	0.75633	129.98746	0.30978	-110.11986
2630	0.25836	-119.61219	0.7961	133.19715	0.7961	133.19715	0.25836	-119.61219
2650	0.20694	-129.10452	0.83586	136.40685	0.83586	136.40685	0.20694	-129.10452
2670	0.19523	-121.87069	0.85495	133.0181	0.85495	133.0181	0.19523	-121.87069
2690	0.18352	-114.63686	0.87404	129.62935	0.87404	129.62935	0.18352	-114.63686
2710	0.17181	-107.40303	0.89312	126.2406	0.89312	126.2406	0.17181	-107.40303
2730	0.1601	-100.1692	0.91221	122.85185	0.91221	122.85185	0.1601	-100.1692
2750	0.14839	-92.93537	0.93129	119.4631	0.93129	119.4631	0.14839	-92.93537
2770	0.15679	-93.02644	0.93369	117.0734	0.93369	117.0734	0.15679	-93.02644
2790	0.16519	-93.11751	0.93608	114.68369	0.93608	114.68369	0.16519	-93.11751
2810	0.17359	-93.20859	0.93848	112.29399	0.93848	112.29399	0.17359	-93.20859
2830	0.182	-93.29966	0.94087	109.90429	0.94087	109.90429	0.182	-93.29966
2850	0.1904	-93.39073	0.94327	107.51459	0.94327	107.51459	0.1904	-93.39073
2870	0.19706	-95.21156	0.94156	105.31342	0.94156	105.31342	0.19706	-95.21156
2890	0.20372	-97.0324	0.93985	103.11226	0.93985	103.11226	0.20372	-97.0324
2910	0.21039	-98.85323	0.93815	100.91109	0.93815	100.91109	0.21039	-98.85323
2930	0.21705	-100.67406	0.93644	98.70992	0.93644	98.70992	0.21705	-100.67406
2950	0.22371	-102.4949	0.93474	96.50876	0.93474	96.50876	0.22371	-102.4949
2970	0.22874	-104.84028	0.93499	94.50304	0.93499	94.50304	0.22874	-104.84028
2990	0.23377	-107.18567	0.93524	92.49733	0.93524	92.49733	0.23377	-107.18567
3010	0.2388	-109.53105	0.93549	90.49161	0.93549	90.49161	0.2388	-109.53105
3030	0.24382	-111.87643	0.93575	88.4859	0.93575	88.4859	0.24382	-111.87643
3050	0.24885	-114.22182	0.936	86.48018	0.936	86.48018	0.24885	-114.22182
3070	0.25298	-116.45362	0.93475	84.61009	0.93475	84.61009	0.25298	-116.45362
3090	0.25712	-118.68541	0.93349	82.73999	0.93349	82.73999	0.25712	-118.68541
3110	0.26125	-120.91721	0.93224	80.8699	0.93224	80.8699	0.26125	-120.91721
3130	0.26538	-123.14901	0.93098	78.99981	0.93098	78.99981	0.26538	-123.14901
3150	0.26952	-125.38081	0.92973	77.12971	0.92973	77.12971	0.26952	-125.38081
3170	0.27237	-128.08079	0.9296	75.15588	0.9296	75.15588	0.27237	-128.08079
3190	0.27522	-130.78078	0.92947	73.18205	0.92947	73.18205	0.27522	-130.78078
3210	0.27807	-133.48076	0.92935	71.20822	0.92935	71.20822	0.27807	-133.48076
3230	0.28092	-136.18075	0.92922	69.23439	0.92922	69.23439	0.28092	-136.18075
3250	0.28377	-138.88073	0.92909	67.26056	0.92909	67.26056	0.28377	-138.88073
3270	0.28814	-141.26305	0.92804	65.34847	0.92804	65.34847	0.28814	-141.26305
3290	0.29251	-143.64536	0.92699	63.43637	0.92699	63.43637	0.29251	-143.64536
3310	0.29688	-146.02768	0.92594	61.52428	0.92594	61.52428	0.29688	-146.02768
3330	0.30126	-148.40999	0.92489	59.61219	0.92489	59.61219	0.30126	-148.40999
3350	0.30563	-150.79231	0.92384	57.7001	0.92384	57.7001	0.30563	-150.79231
3370	0.30864	-153.3704	0.92485	55.69693	0.92485	55.69693	0.30864	-153.3704
3390	0.31166	-155.94849	0.92587	53.69377	0.92587	53.69377	0.31166	-155.94849
3410	0.31467	-158.52658	0.92689	51.6906	0.92689	51.6906	0.31467	-158.52658
3430	0.31769	-161.10467	0.92791	49.68744	0.92791	49.68744	0.31769	-161.10467
3450	0.3207	-163.68277	0.92892	47.68427	0.92892	47.68427	0.3207	-163.68277
3470	0.32456	-166.13502	0.92736	45.74905	0.92736	45.74905	0.32456	-166.13502
3490	0.32842	-168.58728	0.9258	43.81383	0.9258	43.81383	0.32842	-168.58728
3510	0.33228	-171.03954	0.92424	41.87861	0.92424	41.87861	0.33228	-171.03954
3530	0.33614	-173.4918	0.92268	39.94339	0.92268	39.94339	0.33614	-173.4918
3550	0.33999	-175.94406	0.92112	38.00818	0.92112	38.00818	0.33999	-175.94406
3570	0.3434	-106.64393	0.91942	35.94954	0.91942	35.94954	0.3434	-106.64393
3590	0.34681	-37.3438	0.91772	33.8909	0.91772	33.8909	0.34681	-37.3438
3610	0.35021	31.95633	0.91602	31.83227	0.91602	31.83227	0.35021	31.95633
3630	0.35362	101.25647	0.91432	29.77363	0.91432	29.77363	0.35362	101.25647
3650	0.35703	170.5566	0.91263	27.71499	0.91263	27.71499	0.35703	170.5566
3670	0.36034	167.89848	0.91178	25.82539	0.91178	25.82539	0.36034	167.89848
3690	0.36366	165.24036	0.91093	23.93578	0.91093	23.93578	0.36366	165.24036
3710	0.36697	162.58225	0.91008	22.04617	0.91008	22.04617	0.36697	162.58225
3730	0.37028	159.92413	0.90923	20.15656	0.90923	20.15656	0.37028	159.92413
3750	0.3736	157.26601	0.90839	18.26695	0.90839	18.26695	0.3736	157.26601
3770	0.37779	154.62186	0.90634	16.17504	0.90634	16.17504	0.37779	154.62186
3790	0.38198	151.97772	0.90429	14.08314	0.90429	14.08314	0.38198	151.97772
3810	0.38617	149.33358	0.90225	11.99124	0.90225	11.99124	0.38617	149.33358
3830	0.39036	146.68943	0.9002	9.89933	0.9002	9.89933	0.39036	146.68943
3850	0.39455	144.04529	0.89816	7.80743	0.89816	7.80743	0.39455	144.04529
3870	0.39912	141.33895	0.89387	5.7416	0.89387	5.7416	0.39912	141.33895
3890	0.40369	138.63261	0.88959	3.67578	0.88959	3.67578	0.40369	138.63261
3910	0.40825	135.92627	0.8853	1.60996	0.8853	1.60996	0.40825	135.92627
3930	0.41282	133.21994	0.88102	-0.45587	0.88102	-0.45587	0.41282	133.21994
3950	0.41739	130.5136	0.87673	-2.52169	0.87673	-2.52169	0.41739	130.5136
3970	0.42319	127.88664	0.87345	-4.57417	0.87345	-4.57417	0.42319	127.88664
3990	0.42899	125.25968	0.87017	-6.62665	0.87017	-6.62665	0.42899	125.25968
4010	0.43478	122.63271	0.86688	-8.67913	0.86688	-8.67913	0.43478	122.63271
4030	0.44058	120.00575	0.8636	-10.73161	0.8636	-10.73161	0.44058	120.00575
4050	0.44638	117.37879	0.86032	-12.78409	0.86032	-12.78409	0.44638	117.37879
4070	0.4518	114.57226	0.85583	-14.81093	0.85583	-14.81093	0.4518	114.57226
4090	0.45723	111.76573	0.85135	-16.83776	0.85135	-16.83776	0.45723	111.76573
4110	0.46265	108.9592	0.84687	-18.8646	0.84687	-18.8646	0.46265	108.9592
4130	0.46807	106.15267	0.84238	-20.89144	0.84238	-20.89144	0.46807	106.15267
4150	0.4735	103.34614	0.8379	-22.91828	0.8379	-22.91828	0.4735	103.34614
4170	0.48004	100.49384	0.83273	-25.14	0.83273	-25.14	0.48004	100.49384
4190	0.48659	97.64154	0.82756	-27.36172	0.82756	-27.36172	0.48659	97.64154
4210	0.49314	94.78924	0.82239	-29.58345	0.82239	-29.58345	0.49314	94.78924
4230	0.49968	91.93694	0.81722	-31.80517	0.81722	-31.80517	0.49968	91.93694
4250	0.50623	89.08464	0.81205	-34.02689	0.81205	-34.02689	0.50623	89.08464
4270	0.51376	86.06115	0.80448	-36.15061	0.80448	-36.15061	0.51376	86.06115
4290	0.52128	83.03765	0.79692	-38.27433	0.79692	-38.27433	0.52128	83.03765
4310	0.52881	80.01416	0.78936	-40.39804	0.78936	-40.39804	0.52881	80.01416
4330	0.53633	76.99066	0.7818	-42.52176	0.7818	-42.52176	0.53633	76.99066
4350	0.54386	73.96716	0.77423	-44.64548	0.77423	-44.64548	0.54386	73.96716
4370	0.55256	70.76041	0.75989	-46.92936	0.75989	-46.92936	0.55256	70.76041
4390	0.56126	67.55366	0.74555	-49.21324	0.74555	-49.21324	0.56126	67.55366
4410	0.56996	64.3469	0.7312	-51.49711	0.7312	-51.49711	0.56996	64.3469
4430	0.57865	61.14015	0.71686	-53.78099	0.71686	-53.78099	0.57865	61.14015
4450	0.58735	57.9334	0.70251	-56.06487	0.70251	-56.06487	0.58735	57.9334
4470	0.59384	53.78626	0.67855	-57.87926	0.67855	-57.87926	0.59384	53.78626
4490	0.60032	49.63913	0.65459	-59.69366	0.65459	-59.69366	0.60032	49.63913
4510	0.60681	45.492	0.63062	-61.50805	0.63062	-61.50805	0.60681	45.492
4530	0.61329	41.34486	0.60666	-63.32244	0.60666	-63.32244	0.61329	41.34486
4550	0.61977	37.19773	0.58269	-65.13683	0.58269	-65.13683	0.61977	37.19773
4570	0.61402	31.82196	0.55574	-63.22322	0.55574	-63.22322	0.61402	31.82196
4590	0.60827	26.44618	0.52878	-61.30961	0.52878	-61.30961	0.60827	26.44618
4610	0.60252	21.07041	0.50182	-59.396	0.50182	-59.396	0.60252	21.07041
4630	0.59676	15.69464	0.47486	-57.48239	0.47486	-57.48239	0.59676	15.69464
4650	0.59101	10.31887	0.4479	-55.56878	0.4479	-55.56878	0.59101	10.31887
4670	0.54657	6.40075	0.49014	-53.83496	0.49014	-53.83496	0.54657	6.40075
4690	0.50212	2.48263	0.53238	-52.10114	0.53238	-52.10114	0.50212	2.48263
4710	0.45768	-1.4355	0.57462	-50.36732	0.57462	-50.36732	0.45768	-1.4355
4730	0.41323	-5.35362	0.61686	-48.6335	0.61686	-48.6335	0.41323	-5.35362
4750	0.36879	-9.27174	0.6591	-46.89968	0.6591	-46.89968	0.36879	-9.27174
4770	0.35607	-6.18327	0.69011	-50.52854	0.69011	-50.52854	0.35607	-6.18327
4790	0.34335	-3.09479	0.72112	-54.15739	0.72112	-54.15739	0.34335	-3.09479
4810	0.33064	-0.00631	0.75213	-57.78625	0.75213	-57.78625	0.33064	-0.00631
4830	0.31792	3.08216	0.78313	-61.4151	0.78313	-61.4151	0.31792	3.08216
4850	0.3052	6.17064	0.81414	-65.04396	0.81414	-65.04396	0.3052	6.17064
4870	0.31875	6.00239	0.81798	-68.11131	0.81798	-68.11131	0.31875	6.00239
4890	0.33229	5.83415	0.82182	-71.17867	0.82182	-71.17867	0.33229	5.83415
4910	0.34583	5.66591	0.82566	-74.24602	0.82566	-74.24602	0.34583	5.66591
4930	0.35938	5.49766	0.8295	-77.31337	0.8295	-77.31337	0.35938	5.49766
4950	0.37292	5.32942	0.83334	-80.38073	0.83334	-80.38073	0.37292	5.32942
4970	0.38584	3.54009	0.83208	-83.02855	0.83208	-83.02855	0.38584	3.54009
4990	0.39876	1.75076	0.83082	-85.67638	0.83082	-85.67638	0.39876	1.75076
5010	0.41168	-0.03856	0.82955	-88.3242	0.82955	-88.3242	0.41168	-0.03856
5030	0.4246	-1.82789	0.82829	-90.97203	0.82829	-90.97203	0.4246	-1.82789
5050	0.43752	-3.61722	0.82703	-93.61986	0.82703	-93.61986	0.43752	-3.61722
5070	0.44535	-6.09449	0.82267	-95.97007	0.82267	-95.97007	0.44535	-6.09449
5090	0.45319	-8.57177	0.81831	-98.32028	0.81831	-98.32028	0.45319	-8.57177
5110	0.46102	-11.04904	0.81395	-100.67049	0.81395	-100.67049	0.46102	-11.04904
5130	0.46886	-13.52632	0.80959	-103.0207	0.80959	-103.0207	0.46886	-13.52632
5150	0.4767	-16.00359	0.80523	-105.37091	0.80523	-105.37091	0.4767	-16.00359
5170	0.48454	-18.33826	0.80046	-107.62455	0.80046	-107.62455	0.48454	-18.33826
5190	0.49237	-20.67293	0.79569	-109.87819	0.79569	-109.87819	0.49237	-20.67293
5210	0.50021	-23.00759	0.79091	-112.13183	0.79091	-112.13183	0.50021	-23.00759
5230	0.50805	-25.34226	0.78614	-114.38547	0.78614	-114.38547	0.50805	-25.34226
5250	0.51589	-27.67693	0.78137	-116.63911	0.78137	-116.63911	0.51589	-27.67693
5270	0.52157	-30.39843	0.77738	-118.71944	0.77738	-118.71944	0.52157	-30.39843
5290	0.52725	-33.11994	0.7734	-120.79976	0.7734	-120.79976	0.52725	-33.11994
5310	0.53293	-35.84144	0.76941	-122.88009	0.76941	-122.88009	0.53293	-35.84144
5330	0.5386	-38.56294	0.76543	-124.96042	0.76543	-124.96042	0.5386	-38.56294
