#	mhz	s	ma	r	50			
50	0.43	121.40	0.86	27.80	0.86	27.80	0.43	121.40
100	0.29	113.60	0.92	18.40	0.92	18.40	0.29	113.60
150	0.15	105.70	0.98	8.90	0.98	8.90	0.15	105.70
200	0.11	105.30	0.99	6.20	0.99	6.20	0.11	105.30
250	0.07	104.90	1.00	3.60	1.00	3.60	0.07	104.90
300	0.05	116.20	1.00	1.80	1.00	1.80	0.05	116.20
350	0.03	127.50	1.00	0.10	1.00	0.10	0.03	127.50
400	0.02	-3.70	1.00	-1.20	1.00	-1.20	0.02	-3.70
450	0.02	-135.00	1.00	-2.50	1.00	-2.50	0.02	-135.00
500	0.03	-129.10	1.00	-3.60	1.00	-3.60	0.03	-129.10
550	0.03	-123.20	1.00	-4.60	1.00	-4.60	0.03	-123.20
600	0.04	-118.90	1.00	-5.60	1.00	-5.60	0.04	-118.90
650	0.05	-114.60	1.00	-6.50	1.00	-6.50	0.05	-114.60
700	0.06	-113.20	1.00	-7.50	1.00	-7.50	0.06	-113.20
750	0.07	-111.80	1.00	-8.50	1.00	-8.50	0.07	-111.80
800	0.08	-110.50	1.00	-9.50	1.00	-9.50	0.08	-110.50
850	0.09	-109.30	0.99	-10.50	0.99	-10.50	0.09	-109.30
900	0.10	-110.10	0.99	-11.40	0.99	-11.40	0.10	-110.10
950	0.11	-110.90	0.99	-12.30	0.99	-12.30	0.11	-110.90
1000	0.12	-110.50	0.99	-13.20	0.99	-13.20	0.12	-110.50
1050	0.12	-110.10	0.99	-14.10	0.99	-14.10	0.12	-110.10
1100	0.13	-111.00	0.99	-15.00	0.99	-15.00	0.13	-111.00
1150	0.14	-111.90	0.99	-16.00	0.99	-16.00	0.14	-111.90
1200	0.15	-112.30	0.99	-17.00	0.99	-17.00	0.15	-112.30
1250	0.16	-112.60	0.98	-17.90	0.98	-17.90	0.16	-112.60
1300	0.17	-114.20	0.98	-18.80	0.98	-18.80	0.17	-114.20
1350	0.18	-115.70	0.98	-19.60	0.98	-19.60	0.18	-115.70
1400	0.19	-116.20	0.98	-20.60	0.98	-20.60	0.19	-116.20
1450	0.20	-116.70	0.98	-21.60	0.98	-21.60	0.20	-116.70
1500	0.21	-117.50	0.97	-22.60	0.97	-22.60	0.21	-117.50
1550	0.22	-118.40	0.97	-23.70	0.97	-23.70	0.22	-118.40
1600	0.23	-119.40	0.97	-24.80	0.97	-24.80	0.23	-119.40
1650	0.25	-120.50	0.96	-25.90	0.96	-25.90	0.25	-120.50
1700	0.26	-121.50	0.96	-27.10	0.96	-27.10	0.26	-121.50
1750	0.28	-122.50	0.95	-28.30	0.95	-28.30	0.28	-122.50
1800	0.29	-124.10	0.95	-29.80	0.95	-29.80	0.29	-124.10
1850	0.31	-125.60	0.94	-31.30	0.94	-31.30	0.31	-125.60
1900	0.34	-127.60	0.93	-33.10	0.93	-33.10	0.34	-127.60
1950	0.36	-129.60	0.91	-35.00	0.91	-35.00	0.36	-129.60
2000	0.41	-134.50	0.87	-38.00	0.87	-38.00	0.41	-134.50
2050	0.45	-139.30	0.83	-40.90	0.83	-40.90	0.45	-139.30
2100	0.48	-159.20	0.68	-33.80	0.68	-33.80	0.48	-159.20
2150	0.52	-179.10	0.53	-26.60	0.53	-26.60	0.52	-179.10
2200	0.34	-178.80	0.72	-22.70	0.72	-22.70	0.34	-178.80
2250	0.16	-178.50	0.90	-18.90	0.90	-18.90	0.16	-178.50
2300	0.18	-159.40	0.93	-23.30	0.93	-23.30	0.18	-159.40
2350	0.19	-140.30	0.95	-27.70	0.95	-27.70	0.19	-140.30
2400	0.22	-137.50	0.95	-29.90	0.95	-29.90	0.22	-137.50
2450	0.25	-134.70	0.94	-32.20	0.94	-32.20	0.25	-134.70
2500	0.27	-135.10	0.94	-33.80	0.94	-33.80	0.27	-135.10
2550	0.29	-135.40	0.94	-35.40	0.94	-35.40	0.29	-135.40
2600	0.30	-135.70	0.94	-36.70	0.94	-36.70	0.30	-135.70
2650	0.32	-135.90	0.94	-38.10	0.94	-38.10	0.32	-135.90
2700	0.33	-136.80	0.93	-39.40	0.93	-39.40	0.33	-136.80
2750	0.35	-137.60	0.92	-40.70	0.92	-40.70	0.35	-137.60
2800	0.36	-138.40	0.92	-41.90	0.92	-41.90	0.36	-138.40
2850	0.38	-139.10	0.92	-43.10	0.92	-43.10	0.38	-139.10
2900	0.39	-140.10	0.91	-44.40	0.91	-44.40	0.39	-140.10
2950	0.40	-141.00	0.90	-45.70	0.90	-45.70	0.40	-141.00
3000	0.41	-141.90	0.89	-46.80	0.89	-46.80	0.41	-141.90
3050	0.43	-142.80	0.89	-47.90	0.89	-47.90	0.43	-142.80
3100	0.44	-144.00	0.88	-49.10	0.88	-49.10	0.44	-144.00
3150	0.46	-145.20	0.88	-50.20	0.88	-50.20	0.46	-145.20
3200	0.47	-146.40	0.87	-51.60	0.87	-51.60	0.47	-146.40
3250	0.48	-147.60	0.86	-53.00	0.86	-53.00	0.48	-147.60
3300	0.50	-148.80	0.85	-54.40	0.85	-54.40	0.50	-148.80
3350	0.51	-149.90	0.84	-55.80	0.84	-55.80	0.51	-149.90
3400	0.53	-151.60	0.82	-57.30	0.82	-57.30	0.53	-151.60
3450	0.55	-153.20	0.81	-58.90	0.81	-58.90	0.55	-153.20
3500	0.57	-155.40	0.79	-60.80	0.79	-60.80	0.57	-155.40
3550	0.58	-157.50	0.76	-62.60	0.76	-62.60	0.58	-157.50
3600	0.61	-160.10	0.73	-64.50	0.73	-64.50	0.61	-160.10
3650	0.64	-162.70	0.70	-66.40	0.70	-66.40	0.64	-162.70
3700	0.66	-168.30	0.63	-67.90	0.63	-67.90	0.66	-168.30
3750	0.69	-173.90	0.57	-69.40	0.57	-69.40	0.69	-173.90
3800	0.68	-3.80	0.48	-59.10	0.48	-59.10	0.68	-3.80
3850	0.66	166.40	0.40	-48.90	0.40	-48.90	0.66	166.40
3900	0.52	158.80	0.53	-38.50	0.53	-38.50	0.52	158.80
3950	0.38	151.30	0.67	-28.00	0.67	-28.00	0.38	151.30
4000	0.32	-12.60	0.76	-34.50	0.76	-34.50	0.32	-12.60
4050	0.27	-176.50	0.84	-41.00	0.84	-41.00	0.27	-176.50
4100	0.31	-168.50	0.86	-45.60	0.86	-45.60	0.31	-168.50
4150	0.34	-160.40	0.87	-50.10	0.87	-50.10	0.34	-160.40
4200	0.38	-159.60	0.87	-53.20	0.87	-53.20	0.38	-159.60
4250	0.41	-158.90	0.86	-56.20	0.86	-56.20	0.41	-158.90
4300	0.44	-159.50	0.85	-58.30	0.85	-58.30	0.44	-159.50
4350	0.46	-160.10	0.85	-60.30	0.85	-60.30	0.46	-160.10
4400	0.48	-161.10	0.84	-62.50	0.84	-62.50	0.48	-161.10
4450	0.50	-162.20	0.83	-64.60	0.83	-64.60	0.50	-162.20
4500	0.53	-163.40	0.82	-66.30	0.82	-66.30	0.53	-163.40
4550	0.55	-164.60	0.81	-67.90	0.81	-67.90	0.55	-164.60
4600	0.56	-166.20	0.79	-69.70	0.79	-69.70	0.56	-166.20
4650	0.58	-167.90	0.78	-71.50	0.78	-71.50	0.58	-167.90
4700	0.60	-169.10	0.77	-72.80	0.77	-72.80	0.60	-169.10
4750	0.61	-170.40	0.75	-74.10	0.75	-74.10	0.61	-170.40
4800	0.62	-172.00	0.74	-75.60	0.74	-75.60	0.62	-172.00
4850	0.63	-173.70	0.72	-77.10	0.72	-77.10	0.63	-173.70
4900	0.65	-175.50	0.70	-78.90	0.70	-78.90	0.65	-175.50
4950	0.68	-177.40	0.69	-80.80	0.69	-80.80	0.68	-177.40
5000	0.69	0.70	0.66	-82.00	0.66	-82.00	0.69	0.70
5050	0.70	178.80	0.64	-83.10	0.64	-83.10	0.70	178.80
5100	0.72	176.30	0.61	-84.80	0.61	-84.80	0.72	176.30
5150	0.74	173.80	0.57	-86.40	0.57	-86.40	0.74	173.80
5200	0.76	170.10	0.53	-87.70	0.53	-87.70	0.76	170.10
5250	0.78	166.50	0.49	-89.00	0.49	-89.00	0.78	166.50
5300	0.77	161.40	0.42	-85.00	0.42	-85.00	0.77	161.40
5350	0.77	156.30	0.35	-81.00	0.35	-81.00	0.77	156.30
5400	0.73	149.40	0.35	-64.30	0.35	-64.30	0.73	149.40
5450	0.69	142.50	0.35	-47.50	0.35	-47.50	0.69	142.50
5500	0.58	138.90	0.47	-43.80	0.47	-43.80	0.58	138.90
5550	0.47	135.30	0.59	-40.00	0.59	-40.00	0.47	135.30
5600	0.40	145.90	0.67	-46.50	0.67	-46.50	0.40	145.90
5650	0.34	156.50	0.76	-53.10	0.76	-53.10	0.34	156.50
5700	0.37	165.70	0.78	-59.00	0.78	-59.00	0.37	165.70
5750	0.40	174.90	0.80	-64.90	0.80	-64.90	0.40	174.90
5800	0.44	177.10	0.79	-68.90	0.79	-68.90	0.44	177.10
5850	0.48	179.30	0.79	-72.90	0.79	-72.90	0.48	179.30
5900	0.52	178.70	0.77	-75.80	0.77	-75.80	0.52	178.70
5950	0.55	178.10	0.76	-78.70	0.76	-78.70	0.55	178.10
6000	0.59	176.90	0.74	-81.20	0.74	-81.20	0.59	176.90
6050	0.63	175.70	0.72	-83.60	0.72	-83.60	0.63	175.70
6100	0.64	174.40	0.70	-85.70	0.70	-85.70	0.64	174.40
6150	0.66	173.00	0.69	-87.80	0.69	-87.80	0.66	173.00
6200	0.68	171.60	0.67	-89.40	0.67	-89.40	0.68	171.60
6250	0.70	170.20	0.65	-91.10	0.65	-91.10	0.70	170.20
6300	0.72	168.80	0.63	-92.50	0.63	-92.50	0.72	168.80
6350	0.73	167.30	0.61	-94.00	0.61	-94.00	0.73	167.30
6400	0.75	166.00	0.59	-95.50	0.59	-95.50	0.75	166.00
6450	0.76	164.60	0.57	-97.00	0.57	-97.00	0.76	164.60
6500	0.77	162.70	0.55	-98.40	0.55	-98.40	0.77	162.70
6550	0.78	160.90	0.53	-99.80	0.53	-99.80	0.78	160.90
6600	0.80	159.30	0.50	-100.80	0.50	-100.80	0.80	159.30
6650	0.81	157.80	0.48	-101.80	0.48	-101.80	0.81	157.80
6700	0.82	155.40	0.45	-102.40	0.45	-102.40	0.82	155.40
6750	0.83	153.00	0.42	-103.00	0.42	-103.00	0.83	153.00
6800	0.83	149.90	0.38	-101.50	0.38	-101.50	0.83	149.90
6850	0.83	146.80	0.33	-100.00	0.33	-100.00	0.83	146.80
6900	0.82	142.90	0.30	-91.00	0.30	-91.00	0.82	142.90
6950	0.81	139.00	0.27	-82.00	0.27	-82.00	0.81	139.00
7000	0.75	134.70	0.31	-69.10	0.31	-69.10	0.75	134.70
7050	0.69	130.30	0.35	-56.20	0.35	-56.20	0.69	130.30
7100	0.61	131.10	0.45	-57.60	0.45	-57.60	0.61	131.10
7150	0.52	131.80	0.55	-58.90	0.55	-58.90	0.52	131.80
7200	0.50	139.70	0.61	-66.50	0.61	-66.50	0.50	139.70
7250	0.48	147.60	0.66	-74.00	0.66	-74.00	0.48	147.60
7300	0.52	151.20	0.66	-80.10	0.66	-80.10	0.52	151.20
7350	0.57	154.80	0.66	-86.30	0.66	-86.30	0.57	154.80
7400	0.61	154.50	0.65	-90.80	0.65	-90.80	0.61	154.50
7450	0.65	154.20	0.63	-95.40	0.63	-95.40	0.65	154.20
7500	0.68	152.60	0.61	-98.80	0.61	-98.80	0.68	152.60
7550	0.71	151.00	0.59	-102.30	0.59	-102.30	0.71	151.00
7600	0.74	149.20	0.56	-104.80	0.56	-104.80	0.74	149.20
7650	0.76	147.40	0.54	-107.30	0.54	-107.30	0.76	147.40
7700	0.78	145.00	0.52	-109.50	0.52	-109.50	0.78	145.00
7750	0.79	142.60	0.49	-111.70	0.49	-111.70	0.79	142.60
7800	0.81	140.40	0.47	-113.60	0.47	-113.60	0.81	140.40
7850	0.83	138.20	0.44	-115.60	0.44	-115.60	0.83	138.20
7900	0.84	135.70	0.42	-117.00	0.42	-117.00	0.84	135.70
7950	0.85	133.10	0.40	-118.30	0.40	-118.30	0.85	133.10
8000	0.87	131.00	0.37	-119.80	0.37	-119.80	0.87	131.00
8050	0.88	128.90	0.35	-121.20	0.35	-121.20	0.88	128.90
8100	0.89	125.90	0.32	-122.20	0.32	-122.20	0.89	125.90
8150	0.89	122.90	0.29	-123.20	0.29	-123.20	0.89	122.90
8200	0.90	120.80	0.26	-122.40	0.26	-122.40	0.90	120.80
8250	0.90	118.70	0.23	-121.70	0.23	-121.70	0.90	118.70
8300	0.90	115.50	0.20	-118.70	0.20	-118.70	0.90	115.50
8350	0.90	112.40	0.18	-115.60	0.18	-115.60	0.90	112.40
8400	0.89	110.10	0.16	-105.80	0.16	-105.80	0.89	110.10
8450	0.89	107.80	0.14	-96.00	0.14	-96.00	0.89	107.80
8500	0.87	104.70	0.15	-81.90	0.15	-81.90	0.87	104.70
8550	0.86	101.50	0.15	-67.80	0.15	-67.80	0.86	101.50
8600	0.83	99.30	0.19	-61.90	0.19	-61.90	0.83	99.30
8650	0.80	97.10	0.23	-56.10	0.23	-56.10	0.80	97.10
8700	0.75	97.20	0.28	-60.90	0.28	-60.90	0.75	97.20
8750	0.70	97.30	0.33	-65.80	0.33	-65.80	0.70	97.30
8800	0.70	100.80	0.34	-75.90	0.34	-75.90	0.70	100.80
8850	0.69	104.30	0.36	-86.10	0.36	-86.10	0.69	104.30
8900	0.73	105.40	0.32	-93.40	0.32	-93.40	0.73	105.40
8950	0.77	106.60	0.28	-100.80	0.28	-100.80	0.77	106.60
9000	0.81	105.10	0.24	-100.80	0.24	-100.80	0.81	105.10
9050	0.84	103.70	0.20	-100.80	0.20	-100.80	0.84	103.70
9100	0.87	101.30	0.17	-93.50	0.17	-93.50	0.87	101.30
9150	0.89	99.00	0.15	-86.30	0.15	-86.30	0.89	99.00
9200	0.89	96.50	0.14	-75.30	0.14	-75.30	0.89	96.50
9250	0.89	94.00	0.14	-64.30	0.14	-64.30	0.89	94.00
9300	0.88	93.60	0.15	-56.40	0.15	-56.40	0.88	93.60
9350	0.88	93.30	0.17	-48.40	0.17	-48.40	0.88	93.30
9400	0.88	91.60	0.18	-45.10	0.18	-45.10	0.88	91.60
9450	0.87	89.80	0.20	-41.80	0.20	-41.80	0.87	89.80
9500	0.86	89.20	0.22	-40.30	0.22	-40.30	0.86	89.20
9550	0.84	88.50	0.23	-38.90	0.23	-38.90	0.84	88.50
9600	0.84	87.70	0.25	-38.90	0.25	-38.90	0.84	87.70
9650	0.83	86.80	0.26	-39.00	0.26	-39.00	0.83	86.80
9700	0.82	86.30	0.28	-39.00	0.28	-39.00	0.82	86.30
9750	0.81	85.80	0.29	-39.00	0.29	-39.00	0.81	85.80
9800	0.81	85.70	0.30	-39.10	0.30	-39.10	0.81	85.70
9850	0.80	85.50	0.32	-39.30	0.32	-39.30	0.80	85.50
9900	0.80	85.00	0.33	-39.70	0.33	-39.70	0.80	85.00
9950	0.81	84.50	0.34	-40.00	0.34	-40.00	0.81	84.50
10000	0.80	83.40	0.35	-39.70	0.35	-39.70	0.80	83.40
10050	0.79	82.20	0.36	-39.40	0.36	-39.40	0.79	82.20
10100	0.79	81.90	0.37	-39.70	0.37	-39.70	0.79	81.90
10150	0.79	81.50	0.39	-39.90	0.39	-39.90	0.79	81.50
10200	0.78	80.30	0.40	-40.10	0.40	-40.10	0.78	80.30
10250	0.78	79.20	0.41	-40.30	0.41	-40.30	0.78	79.20
10300	0.77	77.50	0.43	-41.60	0.43	-41.60	0.77	77.50
10350	0.75	75.80	0.44	-42.80	0.44	-42.80	0.75	75.80
10400	0.73	75.50	0.46	-44.00	0.46	-44.00	0.73	75.50
10450	0.71	75.10	0.47	-45.20	0.47	-45.20	0.71	75.10
10500	0.70	74.50	0.47	-47.60	0.47	-47.60	0.70	74.50
10550	0.69	74.00	0.48	-50.00	0.48	-50.00	0.69	74.00
10600	0.69	75.00	0.47	-50.40	0.47	-50.40	0.69	75.00
10650	0.68	76.00	0.46	-50.80	0.46	-50.80	0.68	76.00
10700	0.70	74.90	0.46	-50.20	0.46	-50.20	0.70	74.90
10750	0.71	73.90	0.45	-49.60	0.45	-49.60	0.71	73.90
10800	0.73	72.50	0.46	-47.70	0.46	-47.70	0.73	72.50
10850	0.74	71.10	0.47	-45.80	0.47	-45.80	0.74	71.10
10900	0.74	68.60	0.49	-44.60	0.49	-44.60	0.74	68.60
10950	0.74	66.20	0.51	-43.40	0.51	-43.40	0.74	66.20
11000	0.73	63.60	0.54	-44.60	0.54	-44.60	0.73	63.60
11050	0.72	60.90	0.57	-45.70	0.57	-45.70	0.72	60.90
11100	0.72	59.30	0.59	-46.50	0.59	-46.50	0.72	59.30
11150	0.71	57.60	0.61	-47.30	0.61	-47.30	0.71	57.60
11200	0.69	55.50	0.63	-49.00	0.63	-49.00	0.69	55.50
11250	0.67	53.50	0.65	-50.60	0.65	-50.60	0.67	53.50
11300	0.66	52.10	0.67	-52.00	0.67	-52.00	0.66	52.10
11350	0.64	50.60	0.68	-53.40	0.68	-53.40	0.64	50.60
11400	0.63	49.40	0.69	-55.00	0.69	-55.00	0.63	49.40
11450	0.61	48.10	0.70	-56.70	0.70	-56.70	0.61	48.10
11500	0.60	46.40	0.72	-58.00	0.72	-58.00	0.60	46.40
11550	0.59	44.70	0.73	-59.40	0.73	-59.40	0.59	44.70
11600	0.58	44.30	0.74	-60.70	0.74	-60.70	0.58	44.30
11650	0.57	43.90	0.75	-62.00	0.75	-62.00	0.57	43.90
11700	0.55	42.80	0.75	-63.40	0.75	-63.40	0.55	42.80
11750	0.53	41.60	0.76	-64.80	0.76	-64.80	0.53	41.60
11800	0.52	41.10	0.77	-65.90	0.77	-65.90	0.52	41.10
11850	0.52	40.60	0.79	-66.90	0.79	-66.90	0.52	40.60
11900	0.50	39.70	0.79	-68.40	0.79	-68.40	0.50	39.70
11950	0.48	38.80	0.80	-70.00	0.80	-70.00	0.48	38.80
12000	0.48	39.10	0.81	-70.90	0.81	-70.90	0.48	39.10
12050	0.47	39.40	0.82	-71.80	0.82	-71.80	0.47	39.40
12100	0.45	37.90	0.83	-73.40	0.83	-73.40	0.45	37.90
12150	0.44	36.40	0.83	-74.90	0.83	-74.90	0.44	36.40
12200	0.43	36.40	0.84	-76.20	0.84	-76.20	0.43	36.40
12250	0.42	36.40	0.85	-77.50	0.85	-77.50	0.42	36.40
12300	0.40	35.90	0.85	-78.60	0.85	-78.60	0.40	35.90
12350	0.39	35.50	0.86	-79.60	0.86	-79.60	0.39	35.50
12400	0.38	34.60	0.86	-80.90	0.86	-80.90	0.38	34.60
12450	0.36	33.60	0.86	-82.10	0.86	-82.10	0.36	33.60
12500	0.35	33.40	0.87	-83.50	0.87	-83.50	0.35	33.40
12550	0.34	33.20	0.87	-84.90	0.87	-84.90	0.34	33.20
12600	0.33	32.20	0.87	-86.00	0.87	-86.00	0.33	32.20
12650	0.32	31.10	0.88	-87.10	0.88	-87.10	0.32	31.10
12700	0.31	29.90	0.88	-88.20	0.88	-88.20	0.31	29.90
12750	0.30	28.70	0.89	-89.30	0.89	-89.30	0.30	28.70
12800	0.29	28.40	0.89	-90.30	0.89	-90.30	0.29	28.40
12850	0.28	28.20	0.89	-91.40	0.89	-91.40	0.28	28.20
12900	0.26	28.10	0.90	-92.80	0.90	-92.80	0.26	28.10
12950	0.24	28.10	0.90	-94.20	0.90	-94.20	0.24	28.10
13000	0.23	26.90	0.90	-95.20	0.90	-95.20	0.23	26.90
13050	0.22	25.80	0.91	-96.30	0.91	-96.30	0.22	25.80
13100	0.21	27.00	0.91	-97.70	0.91	-97.70	0.21	27.00
13150	0.20	28.10	0.91	-99.10	0.91	-99.10	0.20	28.10
13200	0.20	28.60	0.91	-100.40	0.91	-100.40	0.20	28.60
13250	0.19	29.00	0.91	-101.70	0.91	-101.70	0.19	29.00
13300	0.18	31.30	0.91	-103.20	0.91	-103.20	0.18	31.30
13350	0.17	33.60	0.91	-104.70	0.91	-104.70	0.17	33.60
13400	0.17	35.50	0.91	-106.20	0.91	-106.20	0.17	35.50
13450	0.17	37.40	0.90	-107.60	0.90	-107.60	0.17	37.40
13500	0.16	40.60	0.90	-108.70	0.90	-108.70	0.16	40.60
13550	0.16	43.90	0.89	-109.80	0.89	-109.80	0.16	43.90
13600	0.17	42.90	0.89	-110.80	0.89	-110.80	0.17	42.90
13650	0.17	41.80	0.89	-111.80	0.89	-111.80	0.17	41.80
13700	0.16	43.60	0.89	-113.00	0.89	-113.00	0.16	43.60
13750	0.15	45.40	0.89	-114.20	0.89	-114.20	0.15	45.40
13800	0.14	48.10	0.89	-116.20	0.89	-116.20	0.14	48.10
13850	0.14	50.80	0.89	-118.20	0.89	-118.20	0.14	50.80
13900	0.14	58.80	0.88	-120.30	0.88	-120.30	0.14	58.80
13950	0.14	66.80	0.88	-122.50	0.88	-122.50	0.14	66.80
14000	0.17	73.60	0.86	-125.10	0.86	-125.10	0.17	73.60
14050	0.19	80.40	0.84	-127.60	0.84	-127.60	0.19	80.40
14100	0.23	81.70	0.81	-130.30	0.81	-130.30	0.23	81.70
14150	0.26	83.00	0.78	-133.10	0.78	-133.10	0.26	83.00
14200	0.32	79.30	0.72	-135.50	0.72	-135.50	0.32	79.30
14250	0.38	75.60	0.67	-138.00	0.67	-138.00	0.38	75.60
14300	0.44	68.00	0.59	-137.30	0.59	-137.30	0.44	68.00
14350	0.50	60.40	0.52	-136.60	0.52	-136.60	0.50	60.40
14400	0.53	52.50	0.48	-129.40	0.48	-129.40	0.53	52.50
14450	0.57	44.50	0.44	-122.20	0.44	-122.20	0.57	44.50
14500	0.57	37.10	0.47	-116.70	0.47	-116.70	0.57	37.10
14550	0.58	29.60	0.49	-111.10	0.49	-111.10	0.58	29.60
14600	0.58	25.50	0.51	-109.10	0.51	-109.10	0.58	25.50
14650	0.58	21.40	0.54	-107.10	0.54	-107.10	0.58	21.40
14700	0.59	17.60	0.56	-105.60	0.56	-105.60	0.59	17.60
14750	0.59	13.80	0.57	-104.00	0.57	-104.00	0.59	13.80
14800	0.58	9.50	0.60	-103.40	0.60	-103.40	0.58	9.50
14850	0.58	5.30	0.63	-102.70	0.63	-102.70	0.58	5.30
14900	0.57	2.60	0.67	-103.10	0.67	-103.10	0.57	2.60
14950	0.56	0.00	0.70	-103.50	0.70	-103.50	0.56	0.00
15000	0.54	-3.10	0.72	-104.70	0.72	-104.70	0.54	-3.10
15050	0.52	-6.10	0.74	-106.00	0.74	-106.00	0.52	-6.10
15100	0.50	-6.90	0.75	-107.20	0.75	-107.20	0.50	-6.90
15150	0.48	-7.60	0.77	-108.40	0.77	-108.40	0.48	-7.60
15200	0.47	-8.90	0.78	-109.90	0.78	-109.90	0.47	-8.90
15250	0.46	-10.20	0.79	-111.30	0.79	-111.30	0.46	-10.20
15300	0.44	-9.50	0.80	-112.90	0.80	-112.90	0.44	-9.50
15350	0.43	-8.90	0.80	-114.50	0.80	-114.50	0.43	-8.90
15400	0.42	-7.90	0.80	-115.20	0.80	-115.20	0.42	-7.90
15450	0.40	-7.00	0.79	-115.80	0.79	-115.80	0.40	-7.00
15500	0.40	-5.60	0.80	-116.40	0.80	-116.40	0.40	-5.60
15550	0.41	-4.20	0.80	-117.00	0.80	-117.00	0.41	-4.20
15600	0.41	-5.00	0.80	-116.80	0.80	-116.80	0.41	-5.00
15650	0.41	-5.70	0.81	-116.60	0.81	-116.60	0.41	-5.70
15700	0.40	-6.40	0.81	-117.00	0.81	-117.00	0.40	-6.40
15750	0.40	-7.10	0.82	-117.30	0.82	-117.30	0.40	-7.10
15800	0.39	-7.40	0.84	-118.10	0.84	-118.10	0.39	-7.40
15850	0.38	-7.70	0.85	-118.80	0.85	-118.80	0.38	-7.70
15900	0.36	-8.20	0.86	-119.40	0.86	-119.40	0.36	-8.20
15950	0.35	-8.70	0.87	-120.00	0.87	-120.00	0.35	-8.70
16000	0.33	-8.10	0.88	-120.90	0.88	-120.90	0.33	-8.10
16050	0.31	-7.50	0.89	-121.80	0.89	-121.80	0.31	-7.50
16100	0.29	-6.80	0.89	-122.80	0.89	-122.80	0.29	-6.80
16150	0.27	-6.00	0.90	-123.80	0.90	-123.80	0.27	-6.00
16200	0.26	-4.50	0.90	-124.80	0.90	-124.80	0.26	-4.50
16250	0.24	-3.10	0.90	-125.90	0.90	-125.90	0.24	-3.10
16300	0.23	-0.20	0.90	-126.90	0.90	-126.90	0.23	-0.20
16350	0.22	2.80	0.90	-127.80	0.90	-127.80	0.22	2.80
16400	0.22	7.10	0.90	-128.50	0.90	-128.50	0.22	7.10
16450	0.21	11.50	0.89	-129.30	0.89	-129.30	0.21	11.50
16500	0.21	11.40	0.89	-129.20	0.89	-129.20	0.21	11.40
16550	0.22	11.30	0.89	-129.20	0.89	-129.20	0.22	11.30
16600	0.21	12.10	0.90	-129.80	0.90	-129.80	0.21	12.10
16650	0.20	12.90	0.90	-130.40	0.90	-130.40	0.20	12.90
16700	0.19	10.60	0.91	-130.90	0.91	-130.90	0.19	10.60
16750	0.17	8.40	0.91	-131.40	0.91	-131.40	0.17	8.40
16800	0.16	6.70	0.93	-132.10	0.93	-132.10	0.16	6.70
16850	0.15	5.00	0.94	-132.80	0.94	-132.80	0.15	5.00
16900	0.14	7.00	0.94	-133.70	0.94	-133.70	0.14	7.00
16950	0.13	8.90	0.95	-134.60	0.95	-134.60	0.13	8.90
17000	0.11	12.00	0.95	-135.70	0.95	-135.70	0.11	12.00
17050	0.10	15.10	0.96	-136.70	0.96	-136.70	0.10	15.10
17100	0.09	19.80	0.95	-137.80	0.95	-137.80	0.09	19.80
17150	0.08	24.50	0.95	-138.80	0.95	-138.80	0.08	24.50
17200	0.08	32.50	0.96	-139.80	0.96	-139.80	0.08	32.50
17250	0.07	40.50	0.96	-140.70	0.96	-140.70	0.07	40.50
17300	0.07	44.70	0.96	-141.80	0.96	-141.80	0.07	44.70
17350	0.08	49.00	0.96	-142.90	0.96	-142.90	0.08	49.00
17400	0.08	56.10	0.95	-143.60	0.95	-143.60	0.08	56.10
17450	0.08	63.20	0.95	-144.40	0.95	-144.40	0.08	63.20
17500	0.09	63.00	0.95	-145.10	0.95	-145.10	0.09	63.00
17550	0.09	62.80	0.94	-145.90	0.94	-145.90	0.09	62.80
17600	0.09	60.80	0.94	-146.40	0.94	-146.40	0.09	60.80
17650	0.09	58.90	0.94	-146.80	0.94	-146.80	0.09	58.90
17700	0.09	59.20	0.94	-147.10	0.94	-147.10	0.09	59.20
17750	0.09	59.40	0.94	-147.40	0.94	-147.40	0.09	59.40
17800	0.07	62.70	0.95	-148.20	0.95	-148.20	0.07	62.70
17850	0.06	65.90	0.95	-149.10	0.95	-149.10	0.06	65.90
17900	0.06	75.80	0.95	-150.00	0.95	-150.00	0.06	75.80
17950	0.06	85.60	0.95	-150.90	0.95	-150.90	0.06	85.60
18000	0.05	80.70	0.96	-151.60	0.96	-151.60	0.05	80.70
18050	0.05	75.70	0.96	-152.30	0.96	-152.30	0.05	75.70
18100	0.06	81.40	0.96	-153.10	0.96	-153.10	0.06	81.40
18150	0.06	87.10	0.96	-153.90	0.96	-153.90	0.06	87.10
18200	0.06	83.90	0.96	-154.70	0.96	-154.70	0.06	83.90
18250	0.06	80.70	0.96	-155.40	0.96	-155.40	0.06	80.70
18300	0.05	78.90	0.95	-156.40	0.95	-156.40	0.05	78.90
18350	0.05	77.10	0.95	-157.30	0.95	-157.30	0.05	77.10
18400	0.05	58.60	0.95	-157.90	0.95	-157.90	0.05	58.60
18450	0.06	40.10	0.94	-158.40	0.94	-158.40	0.06	40.10
18500	0.06	27.20	0.94	-158.70	0.94	-158.70	0.06	27.20
18550	0.06	14.40	0.93	-159.00	0.93	-159.00	0.06	14.40
18600	0.07	2.20	0.94	-159.30	0.94	-159.30	0.07	2.20
18650	0.07	-10.00	0.94	-159.50	0.94	-159.50	0.07	-10.00
18700	0.07	-21.30	0.94	-160.00	0.94	-160.00	0.07	-21.30
