# MHZ S MA R 50

      50  0.02   76.10    1.00    0.40    1.00    0.40    0.02   76.10
     100  0.04   79.40    0.99   -0.90    0.99   -0.90    0.04   79.40
     150  0.06   82.80    0.99   -2.30    0.99   -2.30    0.06   82.80
     200  0.08   81.00    0.99   -3.60    0.99   -3.60    0.08   81.00
     250  0.09   79.20    0.99   -4.80    0.99   -4.80    0.09   79.20
     300  0.11   78.80    0.99   -6.10    0.99   -6.10    0.11   78.80
     350  0.13   78.50    0.98   -7.50    0.98   -7.50    0.13   78.50
     400  0.15   76.50    0.98   -8.70    0.98   -8.70    0.15   76.50
     450  0.17   74.60    0.98   -9.90    0.98   -9.90    0.17   74.60
     500  0.20   74.60    0.97   -11.80   0.97   -11.80   0.20   74.60
     550  0.22   74.60    0.97   -13.70   0.97   -13.70   0.22   74.60
     600  0.25   73.40    0.96   -15.00   0.96   -15.00   0.25   73.40
     650  0.27   72.20    0.96   -16.30   0.96   -16.30   0.27   72.20
     700  0.28   71.10    0.95   -17.70   0.95   -17.70   0.28   71.10
     750  0.30   69.90    0.95   -19.00   0.95   -19.00   0.30   69.90
     800  0.32   67.80    0.94   -20.40   0.94   -20.40   0.32   67.80
     850  0.34   65.70    0.93   -21.80   0.93   -21.80   0.34   65.70
     900  0.36   64.80    0.92   -23.10   0.92   -23.10   0.36   64.80
     950  0.38   63.90    0.91   -24.30   0.91   -24.30   0.38   63.90
    1000  0.40   62.60    0.91   -25.70   0.91   -25.70   0.40   62.60
    1050  0.42   61.30    0.90   -27.20   0.90   -27.20   0.42   61.30
    1100  0.44   60.00    0.89   -28.50   0.89   -28.50   0.44   60.00
    1150  0.45   58.80    0.88   -29.90   0.88   -29.90   0.45   58.80
    1200  0.47   57.70    0.87   -31.10   0.87   -31.10   0.47   57.70
    1250  0.49   56.70    0.86   -32.40   0.86   -32.40   0.49   56.70
    1300  0.51   55.20    0.85   -33.70   0.85   -33.70   0.51   55.20
    1350  0.52   53.70    0.84   -35.10   0.84   -35.10   0.52   53.70
    1400  0.54   52.20    0.83   -36.40   0.83   -36.40   0.54   52.20
    1450  0.56   50.80    0.81   -37.80   0.81   -37.80   0.56   50.80
    1500  0.58   49.30    0.80   -39.20   0.80   -39.20   0.58   49.30
    1550  0.60   47.90    0.79   -40.60   0.79   -40.60   0.60   47.90
    1600  0.62   46.50    0.78   -42.00   0.78   -42.00   0.62   46.50
    1650  0.63   45.10    0.76   -43.40   0.76   -43.40   0.63   45.10
    1700  0.65   44.00    0.75   -44.60   0.75   -44.60   0.65   44.00
    1750  0.66   42.80    0.74   -45.80   0.74   -45.80   0.66   42.80
    1800  0.68   41.40    0.72   -47.20   0.72   -47.20   0.68   41.40
    1850  0.70   39.90    0.71   -48.60   0.71   -48.60   0.70   39.90
    1900  0.71   38.30    0.69   -50.00   0.69   -50.00   0.71   38.30
    1950  0.72   36.80    0.67   -51.40   0.67   -51.40   0.72   36.80
    2000  0.74   35.30    0.66   -52.80   0.66   -52.80   0.74   35.30
    2050  0.75   33.70    0.64   -54.20   0.64   -54.20   0.75   33.70
    2100  0.77   32.70    0.62   -55.40   0.62   -55.40   0.77   32.70
    2150  0.78   31.70    0.61   -56.70   0.61   -56.70   0.78   31.70
    2200  0.80   29.80    0.59   -58.20   0.59   -58.20   0.80   29.80
    2250  0.81   28.00    0.57   -59.70   0.57   -59.70   0.81   28.00
    2300  0.82   27.00    0.55   -60.90   0.55   -60.90   0.82   27.00
    2350  0.83   26.10    0.53   -62.00   0.53   -62.00   0.83   26.10
    2400  0.84   24.70    0.51   -63.60   0.51   -63.60   0.84   24.70
    2450  0.86   23.20    0.50   -65.10   0.50   -65.10   0.86   23.20
    2500  0.87   21.50    0.47   -66.50   0.47   -66.50   0.87   21.50
    2550  0.88   19.80    0.46   -68.00   0.46   -68.00   0.88   19.80
    2600  0.89   18.60    0.44   -69.20   0.44   -69.20   0.89   18.60
    2650  0.90   17.30    0.41   -70.30   0.41   -70.30   0.90   17.30
    2700  0.91   15.80    0.39   -71.90   0.39   -71.90   0.91   15.80
    2750  0.92   14.30    0.37   -73.50   0.37   -73.50   0.92   14.30
    2800  0.93   12.90    0.35   -74.60   0.35   -74.60   0.93   12.90
    2850  0.94   11.60    0.33   -75.80   0.33   -75.80   0.94   11.60
    2900  0.94    9.90    0.31   -77.30   0.31   -77.30   0.94    9.90
    2950  0.95    8.20    0.28   -78.80   0.28   -78.80   0.95    8.20
    3000  0.96    6.80    0.26   -80.00   0.26   -80.00   0.96    6.80
    3050  0.96    5.30    0.24   -81.20   0.24   -81.20   0.96    5.30
    3100  0.97    4.00    0.22   -82.10   0.22   -82.10   0.97    4.00
    3150  0.97    2.80    0.19   -83.00   0.19   -83.00   0.97    2.80
    3200  0.98    1.20    0.17   -84.00   0.17   -84.00   0.98    1.20
    3250  0.98   -0.40    0.15   -85.00   0.15   -85.00   0.98   -0.40
    3300  0.98   -1.70    0.13   -85.40   0.13   -85.40   0.98   -1.70
    3350  0.98   -3.00    0.10   -85.80   0.10   -85.80   0.98   -3.00
    3400  0.99   -4.50    0.08   -84.60   0.08   -84.60   0.99   -4.50
    3450  0.99   -6.00    0.06   -83.40   0.06   -83.40   0.99   -6.00
    3500  0.99   -7.50    0.04   -71.20   0.04   -71.20   0.99   -7.50
    3550  0.99   -9.00    0.02   -58.90   0.02   -58.90   0.99   -9.00
    3600  0.99   -10.60   0.03   -1.50    0.03   -1.50    0.99   -10.60
    3650  0.99   -12.10   0.03   55.80    0.03   55.80    0.99   -12.10
    3700  0.99   -13.50   0.05   61.30    0.05   61.30    0.99   -13.50
    3750  0.99   -15.00   0.07   66.80    0.07   66.80    0.99   -15.00
    3800  0.98   -16.50   0.09   67.10    0.09   67.10    0.98   -16.50
    3850  0.98   -17.90   0.11   67.40    0.11   67.40    0.98   -17.90
    3900  0.98   -19.60   0.14   67.00    0.14   67.00    0.98   -19.60
    3950  0.97   -21.20   0.16   66.50    0.16   66.50    0.97   -21.20
    4000  0.97   -22.50   0.17   65.60    0.17   65.60    0.97   -22.50
    4050  0.96   -23.80   0.19   64.80    0.19   64.80    0.96   -23.80
    4100  0.95   -25.40   0.21   63.80    0.21   63.80    0.95   -25.40
    4150  0.95   -26.90   0.23   62.80    0.23   62.80    0.95   -26.90
    4200  0.95   -28.20   0.25   62.00    0.25   62.00    0.95   -28.20
    4250  0.94   -29.50   0.27   61.20    0.27   61.20    0.94   -29.50
    4300  0.94   -31.10   0.29   60.20    0.29   60.20    0.94   -31.10
    4350  0.93   -32.70   0.30   59.10    0.30   59.10    0.93   -32.70
    4400  0.92   -34.30   0.32   57.80    0.32   57.80    0.92   -34.30
    4450  0.92   -35.90   0.34   56.40    0.34   56.40    0.92   -35.90
    4500  0.91   -36.90   0.35   55.60    0.35   55.60    0.91   -36.90
    4550  0.90   -38.00   0.37   54.70    0.37   54.70    0.90   -38.00
    4600  0.90   -39.60   0.39   53.60    0.39   53.60    0.90   -39.60
    4650  0.90   -41.20   0.41   52.50    0.41   52.50    0.90   -41.20
    4700  0.89   -42.60   0.42   51.50    0.42   51.50    0.89   -42.60
    4750  0.88   -44.10   0.43   50.40    0.43   50.40    0.88   -44.10
    4800  0.87   -45.50   0.44   49.30    0.44   49.30    0.87   -45.50
    4850  0.86   -47.00   0.46   48.20    0.46   48.20    0.86   -47.00
    4900  0.86   -48.00   0.47   47.50    0.47   47.50    0.86   -48.00
    4950  0.86   -48.90   0.49   46.70    0.49   46.70    0.86   -48.90
    5000  0.85   -50.70   0.50   45.60    0.50   45.60    0.85   -50.70
    5050  0.84   -52.50   0.51   44.40    0.51   44.40    0.84   -52.50
    5100  0.82   -53.50   0.52   43.50    0.52   43.50    0.82   -53.50
    5150  0.80   -54.50   0.53   42.60    0.53   42.60    0.80   -54.50
    5200  0.80   -55.20   0.54   41.90    0.54   41.90    0.80   -55.20
    5250  0.80   -55.90   0.56   41.30    0.56   41.30    0.80   -55.90
    5300  0.80   -57.70   0.57   40.10    0.57   40.10    0.80   -57.70
    5350  0.80   -59.50   0.58   38.90    0.58   38.90    0.80   -59.50
    5400  0.78   -60.10   0.59   38.20    0.59   38.20    0.78   -60.10
    5450  0.77   -60.80   0.60   37.50    0.60   37.50    0.77   -60.80
    5500  0.77   -61.90   0.61   36.40    0.61   36.40    0.77   -61.90
    5550  0.76   -63.00   0.62   35.30    0.62   35.30    0.76   -63.00
    5600  0.75   -63.90   0.62   34.50    0.62   34.50    0.75   -63.90
    5650  0.74   -64.80   0.63   33.70    0.63   33.70    0.74   -64.80
    5700  0.74   -65.60   0.64   32.90    0.64   32.90    0.74   -65.60
    5750  0.73   -66.30   0.65   32.00    0.65   32.00    0.73   -66.30
    5800  0.72   -67.10   0.66   31.20    0.66   31.20    0.72   -67.10
    5850  0.70   -67.80   0.67   30.30    0.67   30.30    0.70   -67.80
    5900  0.70   -68.00   0.67   29.90    0.67   29.90    0.70   -68.00
    5950  0.69   -68.30   0.68   29.40    0.68   29.40    0.69   -68.30
    6000  0.68   -69.40   0.70   27.70    0.70   27.70    0.68   -69.40
    6050  0.67   -70.40   0.71   26.00    0.71   26.00    0.67   -70.40
    6100  0.66   -70.60   0.72   25.40    0.72   25.40    0.66   -70.60
    6150  0.65   -70.70   0.73   24.80    0.73   24.80    0.65   -70.70
    6200  0.64   -70.90   0.73   23.90    0.73   23.90    0.64   -70.90
    6250  0.64   -71.00   0.74   23.10    0.74   23.10    0.64   -71.00
    6300  0.63   -71.00   0.75   22.40    0.75   22.40    0.63   -71.00
    6350  0.62   -71.00   0.75   21.80    0.75   21.80    0.62   -71.00
    6400  0.61   -71.00   0.76   21.00    0.76   21.00    0.61   -71.00
    6450  0.61   -71.00   0.76   20.10    0.76   20.10    0.61   -71.00
    6500  0.59   -70.80   0.76   19.30    0.76   19.30    0.59   -70.80
    6550  0.58   -70.70   0.77   18.50    0.77   18.50    0.58   -70.70
    6600  0.57   -70.60   0.77   18.00    0.77   18.00    0.57   -70.60
    6650  0.57   -70.60   0.78   17.50    0.78   17.50    0.57   -70.60
    6700  0.56   -69.80   0.79   16.80    0.79   16.80    0.56   -69.80
    6750  0.55   -69.10   0.79   16.20    0.79   16.20    0.55   -69.10
    6800  0.55   -69.20   0.80   15.50    0.80   15.50    0.55   -69.20
    6850  0.54   -69.30   0.80   14.80    0.80   14.80    0.54   -69.30
    6900  0.53   -69.00   0.80   14.20    0.80   14.20    0.53   -69.00
    6950  0.52   -68.60   0.81   13.60    0.81   13.60    0.52   -68.60
    7000  0.52   -68.40   0.81   13.00    0.81   13.00    0.52   -68.40
    7050  0.51   -68.10   0.82   12.40    0.82   12.40    0.51   -68.10
    7100  0.50   -67.70   0.82   11.80    0.82   11.80    0.50   -67.70
    7150  0.49   -67.40   0.82   11.20    0.82   11.20    0.49   -67.40
    7200  0.48   -67.20   0.83   10.70    0.83   10.70    0.48   -67.20
    7250  0.48   -67.10   0.83   10.10    0.83   10.10    0.48   -67.10
    7300  0.47   -67.40   0.84    9.40    0.84    9.40    0.47   -67.40
    7350  0.47   -67.70   0.84    8.80    0.84    8.80    0.47   -67.70
    7400  0.46   -67.80   0.85    8.10    0.85    8.10    0.46   -67.80
    7450  0.45   -68.00   0.85    7.50    0.85    7.50    0.45   -68.00
    7500  0.45   -68.10   0.86    6.90    0.86    6.90    0.45   -68.10
    7550  0.44   -68.30   0.86    6.40    0.86    6.40    0.44   -68.30
    7600  0.43   -69.00   0.86    5.70    0.86    5.70    0.43   -69.00
    7650  0.42   -69.80   0.87    5.00    0.87    5.00    0.42   -69.80
    7700  0.41   -69.80   0.87    4.60    0.87    4.60    0.41   -69.80
    7750  0.40   -69.80   0.87    4.10    0.87    4.10    0.40   -69.80
    7800  0.39   -70.60   0.88    3.40    0.88    3.40    0.39   -70.60
    7850  0.39   -71.50   0.88    2.70    0.88    2.70    0.39   -71.50
    7900  0.38   -71.80   0.89    2.00    0.89    2.00    0.38   -71.80
    7950  0.36   -72.10   0.89    1.30    0.89    1.30    0.36   -72.10
    8000  0.36   -73.30   0.89    0.60    0.89    0.60    0.36   -73.30
    8050  0.35   -74.60   0.90   -0.10    0.90   -0.10    0.35   -74.60
    8100  0.34   -74.60   0.90   -0.40    0.90   -0.40    0.34   -74.60
    8150  0.32   -74.70   0.90   -0.80    0.90   -0.80    0.32   -74.70
    8200  0.32   -75.70   0.91   -1.50    0.91   -1.50    0.32   -75.70
    8250  0.31   -76.60   0.91   -2.20    0.91   -2.20    0.31   -76.60
    8300  0.30   -76.90   0.92   -2.70    0.92   -2.70    0.30   -76.90
    8350  0.28   -77.20   0.92   -3.30    0.92   -3.30    0.28   -77.20
    8400  0.28   -78.20   0.92   -4.00    0.92   -4.00    0.28   -78.20
    8450  0.27   -79.10   0.93   -4.70    0.93   -4.70    0.27   -79.10
    8500  0.26   -79.10   0.93   -5.40    0.93   -5.40    0.26   -79.10
    8550  0.25   -79.00   0.94   -6.10    0.94   -6.10    0.25   -79.00
    8600  0.23   -79.70   0.94   -6.70    0.94   -6.70    0.23   -79.70
    8650  0.23   -80.40   0.94   -7.40    0.94   -7.40    0.23   -80.40
    8700  0.21   -79.90   0.94   -8.30    0.94   -8.30    0.21   -79.90
    8750  0.20   -79.40   0.95   -9.20    0.95   -9.20    0.20   -79.40
    8800  0.19   -80.40   0.95   -9.70    0.95   -9.70    0.19   -80.40
    8850  0.18   -81.30   0.95   -10.20   0.95   -10.20   0.18   -81.30
    8900  0.17   -80.70   0.95   -11.10   0.95   -11.10   0.17   -80.70
    8950  0.16   -80.00   0.95   -11.90   0.95   -11.90   0.16   -80.00
    9000  0.15   -79.80   0.95   -12.40   0.95   -12.40   0.15   -79.80
    9050  0.14   -79.60   0.95   -12.80   0.95   -12.80   0.14   -79.60
    9100  0.13   -78.80   0.95   -13.60   0.95   -13.60   0.13   -78.80
    9150  0.12   -78.00   0.95   -14.30   0.95   -14.30   0.12   -78.00
    9200  0.10   -78.70   0.96   -14.90   0.96   -14.90   0.10   -78.70
    9250  0.09   -79.40   0.96   -15.50   0.96   -15.50   0.09   -79.40
    9300  0.08   -78.50   0.96   -16.00   0.96   -16.00   0.08   -78.50
    9350  0.07   -77.60   0.96   -16.50   0.96   -16.50   0.07   -77.60
    9400  0.06   -78.30   0.96   -16.90   0.96   -16.90   0.06   -78.30
    9450  0.05   -79.00   0.96   -17.30   0.96   -17.30   0.05   -79.00
    9500  0.04   -77.50   0.96   -18.10   0.96   -18.10   0.04   -77.50
    9550  0.03   -75.90   0.96   -18.80   0.96   -18.80   0.03   -75.90
    9600  0.03   -64.90   0.96   -19.40   0.96   -19.40   0.03   -64.90
    9650  0.02   -53.90   0.96   -20.10   0.96   -20.10   0.02   -53.90
    9700  0.01   -13.80   0.96   -20.60   0.96   -20.60   0.01   -13.80
    9750  0.01   26.30    0.96   -21.10   0.96   -21.10   0.01   26.30
    9800  0.02   42.00    0.96   -21.70   0.96   -21.70   0.02   42.00
    9850  0.03   57.60    0.96   -22.20   0.96   -22.20   0.03   57.60
    9900  0.03   63.80    0.96   -22.80   0.96   -22.80   0.03   63.80
    9950  0.04   70.00    0.97   -23.40   0.97   -23.40   0.04   70.00
   10000  0.05   73.80    0.96   -23.80   0.96   -23.80   0.05   73.80
   10050  0.06   77.70    0.96   -24.20   0.96   -24.20   0.06   77.70
   10100  0.06   77.60    0.96   -24.80   0.96   -24.80   0.06   77.60
   10150  0.06   77.40    0.96   -25.40   0.96   -25.40   0.06   77.40
   10200  0.07   79.70    0.96   -25.80   0.96   -25.80   0.07   79.70
   10250  0.08   81.90    0.96   -26.30   0.96   -26.30   0.08   81.90
   10300  0.09   78.70    0.96   -27.00   0.96   -27.00   0.09   78.70
   10350  0.09   75.50    0.96   -27.70   0.96   -27.70   0.09   75.50
   10400  0.10   76.60    0.96   -28.30   0.96   -28.30   0.10   76.60
   10450  0.10   77.70    0.96   -28.80   0.96   -28.80   0.10   77.70
   10500  0.12   75.70    0.96   -29.30   0.96   -29.30   0.12   75.70
   10550  0.13   73.70    0.96   -29.90   0.96   -29.90   0.13   73.70
   10600  0.13   73.90    0.96   -30.50   0.96   -30.50   0.13   73.90
   10650  0.13   74.10    0.96   -31.10   0.96   -31.10   0.13   74.10
   10700  0.14   71.90    0.95   -31.80   0.95   -31.80   0.14   71.90
   10750  0.16   69.70    0.95   -32.60   0.95   -32.60   0.16   69.70
   10800  0.16   69.10    0.95   -33.20   0.95   -33.20   0.16   69.10
   10850  0.17   68.50    0.95   -33.90   0.95   -33.90   0.17   68.50
   10900  0.18   67.40    0.95   -34.60   0.95   -34.60   0.18   67.40
   10950  0.19   66.20    0.94   -35.30   0.94   -35.30   0.19   66.20
   11000  0.20   65.30    0.94   -36.20   0.94   -36.20   0.20   65.30
   11050  0.20   64.40    0.94   -37.10   0.94   -37.10   0.20   64.40
   11100  0.22   63.70    0.94   -37.80   0.94   -37.80   0.22   63.70
   11150  0.23   63.00    0.93   -38.50   0.93   -38.50   0.23   63.00
   11200  0.24   61.30    0.92   -39.30   0.92   -39.30   0.24   61.30
   11250  0.25   59.60    0.91   -40.20   0.91   -40.20   0.25   59.60
   11300  0.27   57.10    0.90   -41.10   0.90   -41.10   0.27   57.10
   11350  0.29   54.60    0.88   -41.90   0.88   -41.90   0.29   54.60
   11400  0.31   49.50    0.85   -41.90   0.85   -41.90   0.31   49.50
   11450  0.33   44.50    0.81   -41.90   0.81   -41.90   0.33   44.50
   11500  0.32   36.40    0.82   -39.40   0.82   -39.40   0.32   36.40
   11550  0.32   28.40    0.82   -36.90   0.82   -36.90   0.32   28.40
   11600  0.30   27.70    0.85   -36.80   0.85   -36.80   0.30   27.70
   11650  0.28   27.00    0.88   -36.60   0.88   -36.60   0.28   27.00
   11700  0.28   27.20    0.89   -37.80   0.89   -37.80   0.28   27.20
   11750  0.27   27.40    0.90   -39.00   0.90   -39.00   0.27   27.40
   11800  0.28   29.00    0.91   -39.90   0.91   -39.90   0.28   29.00
   11850  0.28   30.50    0.91   -40.80   0.91   -40.80   0.28   30.50
   11900  0.28   29.90    0.91   -41.90   0.91   -41.90   0.28   29.90
   11950  0.28   29.30    0.91   -43.00   0.91   -43.00   0.28   29.30
   12000  0.29   30.40    0.91   -43.60   0.91   -43.60   0.29   30.40
   12050  0.30   31.50    0.91   -44.20   0.91   -44.20   0.30   31.50
   12100  0.30   30.40    0.91   -45.20   0.91   -45.20   0.30   30.40
   12150  0.30   29.30    0.90   -46.20   0.90   -46.20   0.30   29.30
   12200  0.30   30.10    0.90   -47.00   0.90   -47.00   0.30   30.10
   12250  0.31   30.90    0.90   -47.80   0.90   -47.80   0.31   30.90
   12300  0.31   30.70    0.89   -48.30   0.89   -48.30   0.31   30.70
   12350  0.31   30.60    0.89   -48.80   0.89   -48.80   0.31   30.60
   12400  0.32   30.80    0.88   -49.40   0.88   -49.40   0.32   30.80
   12450  0.32   31.00    0.88   -50.00   0.88   -50.00   0.32   31.00
   12500  0.33   30.90    0.87   -50.70   0.87   -50.70   0.33   30.90
   12550  0.34   30.80    0.87   -51.40   0.87   -51.40   0.34   30.80
   12600  0.35   30.70    0.86   -51.90   0.86   -51.90   0.35   30.70
   12650  0.36   30.60    0.85   -52.50   0.85   -52.50   0.36   30.60
   12700  0.37   30.10    0.85   -52.90   0.85   -52.90   0.37   30.10
   12750  0.38   29.70    0.85   -53.30   0.85   -53.30   0.38   29.70
   12800  0.39   29.50    0.84   -53.60   0.84   -53.60   0.39   29.50
   12850  0.40   29.40    0.84   -53.90   0.84   -53.90   0.40   29.40
   12900  0.40   29.00    0.83   -54.60   0.83   -54.60   0.40   29.00
   12950  0.41   28.60    0.83   -55.30   0.83   -55.30   0.41   28.60
   13000  0.42   28.00    0.83   -55.50   0.83   -55.50   0.42   28.00
   13050  0.43   27.40    0.83   -55.70   0.83   -55.70   0.43   27.40
   13100  0.43   26.90    0.83   -56.40   0.83   -56.40   0.43   26.90
   13150  0.44   26.50    0.83   -57.10   0.83   -57.10   0.44   26.50
   13200  0.45   26.00    0.82   -57.70   0.82   -57.70   0.45   26.00
   13250  0.46   25.50    0.81   -58.30   0.81   -58.30   0.46   25.50
   13300  0.46   25.50    0.81   -59.00   0.81   -59.00   0.46   25.50
   13350  0.46   25.40    0.81   -59.80   0.81   -59.80   0.46   25.40
   13400  0.48   24.60    0.81   -60.40   0.81   -60.40   0.48   24.60
   13450  0.49   23.70    0.81   -61.10   0.81   -61.10   0.49   23.70
   13500  0.49   23.70    0.80   -61.70   0.80   -61.70   0.49   23.70
   13550  0.49   23.70    0.80   -62.30   0.80   -62.30   0.49   23.70
   13600  0.51   22.90    0.80   -63.20   0.80   -63.20   0.51   22.90
   13650  0.52   22.10    0.79   -64.00   0.79   -64.00   0.52   22.10
   13700  0.52   22.10    0.79   -64.40   0.79   -64.40   0.52   22.10
   13750  0.53   22.10    0.78   -64.80   0.78   -64.80   0.53   22.10
   13800  0.54   21.10    0.77   -65.60   0.77   -65.60   0.54   21.10
   13850  0.55   20.10    0.77   -66.40   0.77   -66.40   0.55   20.10
   13900  0.55   19.40    0.76   -66.80   0.76   -66.80   0.55   19.40
   13950  0.56   18.80    0.76   -67.20   0.76   -67.20   0.56   18.80
