# MHZ S MA R 50

      50  0.01   52.60    0.99    1.30    0.99    1.30    0.01   52.60
     100  0.01   66.20    1.00    0.70    1.00    0.70    0.01   66.20
     150  0.02   79.80    1.00    0.10    1.00    0.10    0.02   79.80
     200  0.02   76.90    1.00   -0.40    1.00   -0.40    0.02   76.90
     250  0.03   74.10    1.00   -0.90    1.00   -0.90    0.03   74.10
     300  0.03   76.80    1.00   -1.40    1.00   -1.40    0.03   76.80
     350  0.04   79.50    0.99   -1.90    0.99   -1.90    0.04   79.50
     400  0.04   76.10    0.99   -2.40    0.99   -2.40    0.04   76.10
     450  0.05   72.80    0.99   -2.90    0.99   -2.90    0.05   72.80
     500  0.05   76.70    0.99   -3.50    0.99   -3.50    0.05   76.70
     550  0.06   80.60    0.99   -4.10    0.99   -4.10    0.06   80.60
     600  0.07   79.80    0.99   -4.60    0.99   -4.60    0.07   79.80
     650  0.07   79.10    0.99   -5.00    0.99   -5.00    0.07   79.10
     700  0.08   79.80    0.99   -5.60    0.99   -5.60    0.08   79.80
     750  0.08   80.60    0.99   -6.10    0.99   -6.10    0.08   80.60
     800  0.09   77.70    0.99   -6.60    0.99   -6.60    0.09   77.70
     850  0.09   74.90    0.99   -7.20    0.99   -7.20    0.09   74.90
     900  0.10   76.00    0.99   -7.60    0.99   -7.60    0.10   76.00
     950  0.11   77.10    0.99   -8.10    0.99   -8.10    0.11   77.10
    1000  0.11   75.60    0.99   -8.60    0.99   -8.60    0.11   75.60
    1050  0.12   74.10    0.99   -9.10    0.99   -9.10    0.12   74.10
    1100  0.12   74.70    0.98   -9.60    0.98   -9.60    0.12   74.70
    1150  0.13   75.30    0.98   -10.10   0.98   -10.10   0.13   75.30
    1200  0.14   74.90    0.98   -10.50   0.98   -10.50   0.14   74.90
    1250  0.14   74.50    0.98   -10.90   0.98   -10.90   0.14   74.50
    1300  0.15   74.30    0.98   -11.40   0.98   -11.40   0.15   74.30
    1350  0.15   74.10    0.98   -11.90   0.98   -11.90   0.15   74.10
    1400  0.16   73.20    0.98   -12.40   0.98   -12.40   0.16   73.20
    1450  0.16   72.20    0.98   -12.90   0.98   -12.90   0.16   72.20
    1500  0.17   71.90    0.98   -13.40   0.98   -13.40   0.17   71.90
    1550  0.17   71.60    0.98   -13.80   0.98   -13.80   0.17   71.60
    1600  0.18   70.90    0.98   -14.30   0.98   -14.30   0.18   70.90
    1650  0.19   70.30    0.97   -14.90   0.97   -14.90   0.19   70.30
    1700  0.19   70.20    0.97   -15.20   0.97   -15.20   0.19   70.20
    1750  0.20   70.10    0.97   -15.60   0.97   -15.60   0.20   70.10
    1800  0.20   69.60    0.97   -16.10   0.97   -16.10   0.20   69.60
    1850  0.21   69.10    0.97   -16.60   0.97   -16.60   0.21   69.10
    1900  0.22   68.70    0.97   -17.10   0.97   -17.10   0.22   68.70
    1950  0.22   68.40    0.97   -17.60   0.97   -17.60   0.22   68.40
    2000  0.23   67.60    0.96   -18.10   0.96   -18.10   0.23   67.60
    2050  0.23   66.80    0.96   -18.60   0.96   -18.60   0.23   66.80
    2100  0.24   66.80    0.96   -19.00   0.96   -19.00   0.24   66.80
    2150  0.25   66.90    0.96   -19.50   0.96   -19.50   0.25   66.90
    2200  0.25   65.90    0.96   -20.00   0.96   -20.00   0.25   65.90
    2250  0.26   65.00    0.96   -20.40   0.96   -20.40   0.26   65.00
    2300  0.26   65.10    0.95   -20.90   0.95   -20.90   0.26   65.10
    2350  0.27   65.30    0.95   -21.30   0.95   -21.30   0.27   65.30
    2400  0.27   65.00    0.95   -21.80   0.95   -21.80   0.27   65.00
    2450  0.28   64.80    0.94   -22.30   0.94   -22.30   0.28   64.80
    2500  0.29   64.40    0.94   -22.80   0.94   -22.80   0.29   64.40
    2550  0.29   64.00    0.94   -23.30   0.94   -23.30   0.29   64.00
    2600  0.30   63.50    0.94   -23.70   0.94   -23.70   0.30   63.50
    2650  0.30   63.10    0.94   -24.10   0.94   -24.10   0.30   63.10
    2700  0.31   62.90    0.94   -24.60   0.94   -24.60   0.31   62.90
    2750  0.32   62.70    0.94   -25.10   0.94   -25.10   0.32   62.70
    2800  0.32   62.30    0.94   -25.50   0.94   -25.50   0.32   62.30
    2850  0.33   61.80    0.94   -26.00   0.94   -26.00   0.33   61.80
    2900  0.34   61.40    0.93   -26.60   0.93   -26.60   0.34   61.40
    2950  0.34   60.90    0.93   -27.20   0.93   -27.20   0.34   60.90
    3000  0.35   60.70    0.93   -27.60   0.93   -27.60   0.35   60.70
    3050  0.36   60.50    0.93   -28.00   0.93   -28.00   0.36   60.50
    3100  0.36   60.00    0.92   -28.40   0.92   -28.40   0.36   60.00
    3150  0.37   59.60    0.92   -28.90   0.92   -28.90   0.37   59.60
    3200  0.37   59.40    0.92   -29.40   0.92   -29.40   0.37   59.40
    3250  0.38   59.30    0.91   -29.90   0.91   -29.90   0.38   59.30
    3300  0.39   58.90    0.91   -30.40   0.91   -30.40   0.39   58.90
    3350  0.40   58.60    0.91   -31.00   0.91   -31.00   0.40   58.60
    3400  0.40   58.10    0.90   -31.40   0.90   -31.40   0.40   58.10
    3450  0.41   57.70    0.90   -31.90   0.90   -31.90   0.41   57.70
    3500  0.41   57.50    0.90   -32.30   0.90   -32.30   0.41   57.50
    3550  0.42   57.20    0.90   -32.70   0.90   -32.70   0.42   57.20
    3600  0.42   56.70    0.89   -33.30   0.89   -33.30   0.42   56.70
    3650  0.43   56.10    0.89   -34.00   0.89   -34.00   0.43   56.10
    3700  0.44   55.80    0.89   -34.40   0.89   -34.40   0.44   55.80
    3750  0.44   55.40    0.88   -34.80   0.88   -34.80   0.44   55.40
    3800  0.45   54.90    0.88   -35.50   0.88   -35.50   0.45   54.90
    3850  0.46   54.40    0.88   -36.30   0.88   -36.30   0.46   54.40
    3900  0.46   54.00    0.88   -36.60   0.88   -36.60   0.46   54.00
    3950  0.46   53.50    0.87   -37.00   0.87   -37.00   0.46   53.50
    4000  0.47   53.00    0.87   -37.60   0.87   -37.60   0.47   53.00
    4050  0.48   52.50    0.86   -38.20   0.86   -38.20   0.48   52.50
    4100  0.49   51.90    0.86   -38.80   0.86   -38.80   0.49   51.90
    4150  0.49   51.40    0.86   -39.50   0.86   -39.50   0.49   51.40
    4200  0.50   50.60    0.85   -39.90   0.85   -39.90   0.50   50.60
    4250  0.51   49.80    0.85   -40.40   0.85   -40.40   0.51   49.80
    4300  0.51   49.20    0.85   -40.90   0.85   -40.90   0.51   49.20
    4350  0.52   48.60    0.84   -41.50   0.84   -41.50   0.52   48.60
    4400  0.53   47.60    0.84   -42.20   0.84   -42.20   0.53   47.60
    4450  0.54   46.60    0.84   -42.90   0.84   -42.90   0.54   46.60
    4500  0.54   46.00    0.83   -43.60   0.83   -43.60   0.54   46.00
    4550  0.54   45.30    0.82   -44.40   0.82   -44.40   0.54   45.30
    4600  0.55   44.40    0.82   -44.80   0.82   -44.80   0.55   44.40
    4650  0.56   43.50    0.81   -45.20   0.81   -45.20   0.56   43.50
    4700  0.57   42.60    0.81   -45.80   0.81   -45.80   0.57   42.60
    4750  0.57   41.80    0.81   -46.50   0.81   -46.50   0.57   41.80
    4800  0.58   40.60    0.80   -47.20   0.80   -47.20   0.58   40.60
    4850  0.59   39.50    0.80   -47.80   0.80   -47.80   0.59   39.50
    4900  0.60   38.80    0.79   -48.40   0.79   -48.40   0.60   38.80
    4950  0.60   38.10    0.78   -48.90   0.78   -48.90   0.60   38.10
    5000  0.61   36.80    0.78   -49.40   0.78   -49.40   0.61   36.80
    5050  0.62   35.60    0.78   -50.00   0.78   -50.00   0.62   35.60
    5100  0.62   34.50    0.77   -51.00   0.77   -51.00   0.62   34.50
    5150  0.62   33.40    0.76   -52.00   0.76   -52.00   0.62   33.40
    5200  0.63   32.60    0.75   -52.60   0.75   -52.60   0.63   32.60
    5250  0.64   31.90    0.75   -53.30   0.75   -53.30   0.64   31.90
    5300  0.65   30.80    0.74   -53.60   0.74   -53.60   0.65   30.80
    5350  0.66   29.70    0.74   -54.00   0.74   -54.00   0.66   29.70
    5400  0.67   28.40    0.73   -54.90   0.73   -54.90   0.67   28.40
    5450  0.67   27.20    0.72   -55.80   0.72   -55.80   0.67   27.20
    5500  0.68   26.30    0.72   -56.40   0.72   -56.40   0.68   26.30
    5550  0.69   25.40    0.71   -57.10   0.71   -57.10   0.69   25.40
    5600  0.69   24.20    0.70   -57.90   0.70   -57.90   0.69   24.20
    5650  0.70   22.90    0.70   -58.60   0.70   -58.60   0.70   22.90
    5700  0.71   21.90    0.69   -59.50   0.69   -59.50   0.71   21.90
    5750  0.72   20.90    0.68   -60.50   0.68   -60.50   0.72   20.90
    5800  0.72   20.00    0.68   -61.00   0.68   -61.00   0.72   20.00
    5850  0.72   19.20    0.67   -61.60   0.67   -61.60   0.72   19.20
    5900  0.73   18.50    0.66   -62.10   0.66   -62.10   0.73   18.50
    5950  0.74   17.70    0.65   -62.60   0.65   -62.60   0.74   17.70
    6000  0.74   17.90    0.65   -63.00   0.65   -63.00   0.74   17.90
    6050  0.74   18.00    0.66   -63.50   0.66   -63.50   0.74   18.00
    6100  0.75   17.40    0.65   -64.10   0.65   -64.10   0.75   17.40
    6150  0.75   16.80    0.64   -64.80   0.64   -64.80   0.75   16.80
    6200  0.76   16.60    0.63   -65.40   0.63   -65.40   0.76   16.60
    6250  0.77   16.50    0.62   -65.90   0.62   -65.90   0.77   16.50
    6300  0.77   16.30    0.62   -66.60   0.62   -66.60   0.77   16.30
    6350  0.78   16.10    0.61   -67.20   0.61   -67.20   0.78   16.10
    6400  0.79   15.70    0.60   -68.00   0.60   -68.00   0.79   15.70
    6450  0.79   15.30    0.59   -68.80   0.59   -68.80   0.79   15.30
    6500  0.80   15.10    0.58   -69.60   0.58   -69.60   0.80   15.10
    6550  0.80   14.90    0.57   -70.30   0.57   -70.30   0.80   14.90
    6600  0.80   14.60    0.57   -71.00   0.57   -71.00   0.80   14.60
    6650  0.81   14.20    0.56   -71.70   0.56   -71.70   0.81   14.20
    6700  0.82   14.20    0.55   -72.40   0.55   -72.40   0.82   14.20
    6750  0.82   14.20    0.54   -73.10   0.54   -73.10   0.82   14.20
    6800  0.83   13.90    0.53   -73.70   0.53   -73.70   0.83   13.90
    6850  0.83   13.70    0.52   -74.30   0.52   -74.30   0.83   13.70
    6900  0.84   13.30    0.51   -75.30   0.51   -75.30   0.84   13.30
    6950  0.84   12.80    0.50   -76.20   0.50   -76.20   0.84   12.80
    7000  0.85   12.60    0.50   -76.80   0.50   -76.80   0.85   12.60
    7050  0.85   12.40    0.49   -77.30   0.49   -77.30   0.85   12.40
    7100  0.86   12.20    0.48   -78.10   0.48   -78.10   0.86   12.20
    7150  0.86   12.00    0.47   -78.90   0.47   -78.90   0.86   12.00
    7200  0.86   11.80    0.46   -79.40   0.46   -79.40   0.86   11.80
    7250  0.87   11.70    0.45   -80.00   0.45   -80.00   0.87   11.70
    7300  0.88   11.30    0.44   -80.50   0.44   -80.50   0.88   11.30
    7350  0.89   10.90    0.43   -81.00   0.43   -81.00   0.89   10.90
    7400  0.89   10.20    0.42   -81.90   0.42   -81.90   0.89   10.20
    7450  0.89    9.50    0.41   -82.90   0.41   -82.90   0.89    9.50
    7500  0.90    9.20    0.41   -83.20   0.41   -83.20   0.90    9.20
    7550  0.91    8.90    0.40   -83.60   0.40   -83.60   0.91    8.90
    7600  0.91    7.80    0.39   -84.50   0.39   -84.50   0.91    7.80
    7650  0.92    6.70    0.38   -85.50   0.38   -85.50   0.92    6.70
    7700  0.92    5.90    0.37   -86.10   0.37   -86.10   0.92    5.90
    7750  0.92    5.20    0.36   -86.70   0.36   -86.70   0.92    5.20
    7800  0.92    4.40    0.35   -87.30   0.35   -87.30   0.92    4.40
    7850  0.93    3.70    0.34   -87.90   0.34   -87.90   0.93    3.70
    7900  0.93    2.60    0.33   -88.60   0.33   -88.60   0.93    2.60
    7950  0.94    1.50    0.32   -89.40   0.32   -89.40   0.94    1.50
    8000  0.94    0.10    0.31   -90.10   0.31   -90.10   0.94    0.10
    8050  0.94   -1.30    0.30   -90.90   0.30   -90.90   0.94   -1.30
    8100  0.94   -2.00    0.28   -91.10   0.28   -91.10   0.94   -2.00
    8150  0.93   -2.70    0.27   -91.40   0.27   -91.40   0.93   -2.70
    8200  0.94   -3.70    0.26   -91.70   0.26   -91.70   0.94   -3.70
    8250  0.94   -4.70    0.25   -92.00   0.25   -92.00   0.94   -4.70
    8300  0.93   -5.50    0.24   -92.30   0.24   -92.30   0.93   -5.50
    8350  0.93   -6.30    0.23   -92.50   0.23   -92.50   0.93   -6.30
    8400  0.94   -7.40    0.22   -92.70   0.22   -92.70   0.94   -7.40
    8450  0.94   -8.50    0.21   -92.80   0.21   -92.80   0.94   -8.50
    8500  0.94   -9.10    0.20   -92.60   0.20   -92.60   0.94   -9.10
    8550  0.94   -9.70    0.19   -92.30   0.19   -92.30   0.94   -9.70
    8600  0.95   -10.70   0.18   -91.70   0.18   -91.70   0.95   -10.70
    8650  0.95   -11.70   0.17   -91.10   0.17   -91.10   0.95   -11.70
    8700  0.95   -12.20   0.16   -90.10   0.16   -90.10   0.95   -12.20
    8750  0.95   -12.70   0.15   -89.20   0.15   -89.20   0.95   -12.70
    8800  0.95   -14.00   0.15   -87.70   0.15   -87.70   0.95   -14.00
    8850  0.94   -15.30   0.14   -86.20   0.14   -86.20   0.94   -15.30
    8900  0.95   -15.50   0.13   -85.40   0.13   -85.40   0.95   -15.50
    8950  0.95   -15.60   0.13   -84.60   0.13   -84.60   0.95   -15.60
    9000  0.95   -16.10   0.12   -84.40   0.12   -84.40   0.95   -16.10
    9050  0.95   -16.60   0.12   -84.10   0.12   -84.10   0.95   -16.60
    9100  0.95   -17.50   0.11   -83.80   0.11   -83.80   0.95   -17.50
    9150  0.96   -18.30   0.10   -83.60   0.10   -83.60   0.96   -18.30
    9200  0.95   -18.70   0.09   -82.20   0.09   -82.20   0.95   -18.70
    9250  0.94   -19.00   0.08   -80.80   0.08   -80.80   0.94   -19.00
    9300  0.95   -19.10   0.08   -78.60   0.08   -78.60   0.95   -19.10
    9350  0.95   -19.10   0.07   -76.50   0.07   -76.50   0.95   -19.10
    9400  0.95   -20.00   0.06   -72.00   0.06   -72.00   0.95   -20.00
    9450  0.95   -20.80   0.05   -67.50   0.05   -67.50   0.95   -20.80
    9500  0.95   -21.20   0.04   -58.20   0.04   -58.20   0.95   -21.20
    9550  0.95   -21.60   0.04   -49.00   0.04   -49.00   0.95   -21.60
    9600  0.96   -22.40   0.03   -32.50   0.03   -32.50   0.96   -22.40
    9650  0.96   -23.10   0.03   -16.10   0.03   -16.10   0.96   -23.10
    9700  0.96   -23.70   0.03    0.30    0.03    0.30    0.96   -23.70
    9750  0.95   -24.30   0.04   16.70    0.04   16.70    0.95   -24.30
    9800  0.96   -24.90   0.05   25.00    0.05   25.00    0.96   -24.90
    9850  0.96   -25.50   0.05   33.30    0.05   33.30    0.96   -25.50
    9900  0.96   -26.50   0.06   37.30    0.06   37.30    0.96   -26.50
    9950  0.95   -27.40   0.07   41.20    0.07   41.20    0.95   -27.40
   10000  0.95   -28.10   0.08   43.90    0.08   43.90    0.95   -28.10
   10050  0.95   -28.90   0.09   46.70    0.09   46.70    0.95   -28.90
   10100  0.95   -30.20   0.10   47.10    0.10   47.10    0.95   -30.20
   10150  0.95   -31.50   0.11   47.50    0.11   47.50    0.95   -31.50
   10200  0.94   -32.20   0.13   48.30    0.13   48.30    0.94   -32.20
   10250  0.94   -32.80   0.14   49.10    0.14   49.10    0.94   -32.80
   10300  0.94   -33.80   0.15   49.20    0.15   49.20    0.94   -33.80
   10350  0.95   -34.80   0.16   49.40    0.16   49.40    0.95   -34.80
   10400  0.94   -36.40   0.17   48.90    0.17   48.90    0.94   -36.40
   10450  0.93   -38.00   0.18   48.30    0.18   48.30    0.93   -38.00
   10500  0.93   -38.30   0.19   48.40    0.19   48.40    0.93   -38.30
   10550  0.93   -38.70   0.20   48.40    0.20   48.40    0.93   -38.70
   10600  0.93   -41.10   0.21   47.20    0.21   47.20    0.93   -41.10
   10650  0.92   -43.50   0.23   46.00    0.23   46.00    0.92   -43.50
   10700  0.92   -43.60   0.24   45.90    0.24   45.90    0.92   -43.60
   10750  0.92   -43.80   0.25   45.80    0.25   45.80    0.92   -43.80
   10800  0.92   -45.30   0.26   45.00    0.26   45.00    0.92   -45.30
   10850  0.93   -46.80   0.27   44.20    0.27   44.20    0.93   -46.80
   10900  0.92   -48.60   0.28   43.30    0.28   43.30    0.92   -48.60
   10950  0.92   -50.30   0.29   42.50    0.29   42.50    0.92   -50.30
   11000  0.90   -50.70   0.30   41.90    0.30   41.90    0.90   -50.70
   11050  0.88   -51.10   0.30   41.40    0.30   41.40    0.88   -51.10
   11100  0.89   -52.60   0.32   40.80    0.32   40.80    0.89   -52.60
   11150  0.90   -54.00   0.33   40.20    0.33   40.20    0.90   -54.00
   11200  0.89   -54.80   0.34   39.60    0.34   39.60    0.89   -54.80
   11250  0.87   -55.50   0.34   39.10    0.34   39.10    0.87   -55.50
   11300  0.87   -56.80   0.35   38.20    0.35   38.20    0.87   -56.80
   11350  0.87   -58.20   0.36   37.30    0.36   37.30    0.87   -58.20
   11400  0.87   -58.10   0.37   37.20    0.37   37.20    0.87   -58.10
   11450  0.87   -58.00   0.38   37.00    0.38   37.00    0.87   -58.00
   11500  0.87   -59.50   0.39   35.70    0.39   35.70    0.87   -59.50
   11550  0.87   -61.10   0.40   34.50    0.40   34.50    0.87   -61.10
   11600  0.87   -60.70   0.41   34.20    0.41   34.20    0.87   -60.70
   11650  0.87   -60.30   0.42   33.90    0.42   33.90    0.87   -60.30
   11700  0.86   -61.20   0.42   33.00    0.42   33.00    0.86   -61.20
   11750  0.85   -62.10   0.43   32.20    0.43   32.20    0.85   -62.10
   11800  0.85   -62.70   0.44   31.30    0.44   31.30    0.85   -62.70
   11850  0.85   -63.20   0.45   30.50    0.45   30.50    0.85   -63.20
   11900  0.84   -63.20   0.46   30.20    0.46   30.20    0.84   -63.20
   11950  0.83   -63.10   0.46   29.80    0.46   29.80    0.83   -63.10
   12000  0.82   -64.30   0.47   28.40    0.47   28.40    0.82   -64.30
   12050  0.82   -65.40   0.48   27.00    0.48   27.00    0.82   -65.40
   12100  0.81   -65.50   0.49   26.60    0.49   26.60    0.81   -65.50
   12150  0.80   -65.50   0.49   26.30    0.49   26.30    0.80   -65.50
   12200  0.79   -66.00   0.49   25.50    0.49   25.50    0.79   -66.00
   12250  0.79   -66.60   0.50   24.60    0.50   24.60    0.79   -66.60
   12300  0.79   -66.40   0.51   24.30    0.51   24.30    0.79   -66.40
   12350  0.79   -66.30   0.51   23.90    0.51   23.90    0.79   -66.30
   12400  0.77   -66.80   0.51   23.70    0.51   23.70    0.77   -66.80
   12450  0.75   -67.20   0.51   23.60    0.51   23.60    0.75   -67.20
   12500  0.75   -67.20   0.52   22.90    0.52   22.90    0.75   -67.20
   12550  0.75   -67.20   0.54   22.30    0.54   22.30    0.75   -67.20
   12600  0.75   -67.20   0.54   21.90    0.54   21.90    0.75   -67.20
   12650  0.74   -67.10   0.55   21.60    0.55   21.60    0.74   -67.10
   12700  0.74   -67.30   0.55   20.90    0.55   20.90    0.74   -67.30
   12750  0.73   -67.60   0.56   20.20    0.56   20.20    0.73   -67.60
   12800  0.73   -66.80   0.57   20.00    0.57   20.00    0.73   -66.80
   12850  0.72   -66.10   0.58   19.80    0.58   19.80    0.72   -66.10
   12900  0.71   -66.70   0.58   18.60    0.58   18.60    0.71   -66.70
   12950  0.70   -67.30   0.58   17.50    0.58   17.50    0.70   -67.30
   13000  0.70   -66.80   0.59   17.20    0.59   17.20    0.70   -66.80
   13050  0.71   -66.30   0.60   16.90    0.60   16.90    0.71   -66.30
   13100  0.70   -66.80   0.61   15.90    0.61   15.90    0.70   -66.80
   13150  0.69   -67.20   0.61   14.90    0.61   14.90    0.69   -67.20
   13200  0.69   -67.30   0.61   14.00    0.61   14.00    0.69   -67.30
   13250  0.69   -67.40   0.61   13.20    0.61   13.20    0.69   -67.40
   13300  0.69   -67.60   0.61   12.70    0.61   12.70    0.69   -67.60
   13350  0.68   -67.80   0.61   12.10    0.61   12.10    0.68   -67.80
   13400  0.68   -68.30   0.61   11.10    0.61   11.10    0.68   -68.30
   13450  0.68   -68.90   0.61   10.10    0.61   10.10    0.68   -68.90
   13500  0.68   -70.30   0.60   10.20    0.60   10.20    0.68   -70.30
   13550  0.67   -71.60   0.58   10.40    0.58   10.40    0.67   -71.60
   13600  0.65   -73.10   0.58   12.80    0.58   12.80    0.65   -73.10
   13650  0.63   -74.50   0.57   15.30    0.57   15.30    0.63   -74.50
   13700  0.61   -74.40   0.62   16.60    0.62   16.60    0.61   -74.40
   13750  0.58   -74.40   0.67   18.00    0.67   18.00    0.58   -74.40
   13800  0.57   -73.30   0.69   15.70    0.69   15.70    0.57   -73.30
   13850  0.56   -72.20   0.71   13.40    0.71   13.40    0.56   -72.20
   13900  0.57   -72.60   0.72   12.00    0.72   12.00    0.57   -72.60
   13950  0.57   -73.10   0.72   10.50    0.72   10.50    0.57   -73.10
