! L-15CR68JE  measured in a shunt fixture
#	mhz	s	ma	r	50
50	0.11526	97.2979	0.97827	2.71424	0.97827	2.71424	0.11526	97.2979
70	0.09884	94.14969	0.98261	-0.15973	0.98261	-0.15973	0.09884	94.14969
90	0.08242	91.00148	0.98696	-3.0337	0.98696	-3.0337	0.08242	91.00148
110	0.06601	87.85328	0.9913	-5.90766	0.9913	-5.90766	0.06601	87.85328
130	0.04959	84.70507	0.99565	-8.78163	0.99565	-8.78163	0.04959	84.70507
150	0.03318	81.55686	0.99999	-11.6556	0.99999	-11.6556	0.03318	81.55686
170	0.02725	43.29843	0.99843	-13.67546	0.99843	-13.67546	0.02725	43.29843
190	0.02132	5.04	0.99686	-15.69533	0.99686	-15.69533	0.02132	5.04
210	0.0154	-33.21843	0.9953	-17.7152	0.9953	-17.7152	0.0154	-33.21843
230	0.00947	-71.47686	0.99374	-19.73507	0.99374	-19.73507	0.00947	-71.47686
250	0.00354	-109.73529	0.99217	-21.75494	0.99217	-21.75494	0.00354	-109.73529
270	0.00861	-110.52447	0.99221	-23.72785	0.99221	-23.72785	0.00861	-110.52447
290	0.01367	-111.31365	0.99224	-25.70077	0.99224	-25.70077	0.01367	-111.31365
310	0.01874	-112.10282	0.99228	-27.67368	0.99228	-27.67368	0.01874	-112.10282
330	0.02381	-112.892	0.99231	-29.64659	0.99231	-29.64659	0.02381	-112.892
350	0.02887	-113.68118	0.99235	-31.61951	0.99235	-31.61951	0.02887	-113.68118
370	0.03333	-115.7583	0.99346	-33.51842	0.99346	-33.51842	0.03333	-115.7583
390	0.03779	-117.83542	0.99457	-35.41733	0.99457	-35.41733	0.03779	-117.83542
410	0.04225	-119.91254	0.99569	-37.31624	0.99569	-37.31624	0.04225	-119.91254
430	0.04671	-121.98967	0.9968	-39.21515	0.9968	-39.21515	0.04671	-121.98967
450	0.05117	-124.06679	0.99791	-41.11406	0.99791	-41.11406	0.05117	-124.06679
470	0.05459	-129.70047	0.9962	-43.10773	0.9962	-43.10773	0.05459	-129.70047
490	0.05801	-135.33415	0.99449	-45.10139	0.99449	-45.10139	0.05801	-135.33415
510	0.06144	-140.96783	0.99278	-47.09506	0.99278	-47.09506	0.06144	-140.96783
530	0.06486	-146.60152	0.99107	-49.08873	0.99107	-49.08873	0.06486	-146.60152
550	0.06828	-152.2352	0.98936	-51.0824	0.98936	-51.0824	0.06828	-152.2352
570	0.07572	-154.48649	0.98882	-52.96728	0.98882	-52.96728	0.07572	-154.48649
590	0.08316	-156.73778	0.98828	-54.85216	0.98828	-54.85216	0.08316	-156.73778
610	0.09061	-158.98908	0.98774	-56.73704	0.98774	-56.73704	0.09061	-158.98908
630	0.09805	-161.24037	0.98719	-58.62192	0.98719	-58.62192	0.09805	-161.24037
650	0.10549	-163.49167	0.98665	-60.5068	0.98665	-60.5068	0.10549	-163.49167
670	0.10839	-94.85162	0.98631	-62.46333	0.98631	-62.46333	0.10839	-94.85162
690	0.11129	-26.21158	0.98596	-64.41986	0.98596	-64.41986	0.11129	-26.21158
710	0.11419	42.42846	0.98561	-66.37639	0.98561	-66.37639	0.11419	42.42846
730	0.11709	111.0685	0.98527	-68.33292	0.98527	-68.33292	0.11709	111.0685
750	0.11999	179.70854	0.98492	-70.28945	0.98492	-70.28945	0.11999	179.70854
770	0.12735	176.45903	0.98338	-72.20007	0.98338	-72.20007	0.12735	176.45903
790	0.13471	173.20952	0.98183	-74.11069	0.98183	-74.11069	0.13471	173.20952
810	0.14207	169.96001	0.98029	-76.02131	0.98029	-76.02131	0.14207	169.96001
830	0.14943	166.7105	0.97874	-77.93193	0.97874	-77.93193	0.14943	166.7105
850	0.15679	163.46099	0.9772	-79.84255	0.9772	-79.84255	0.15679	163.46099
870	0.15962	159.88073	0.97536	-81.83105	0.97536	-81.83105	0.15962	159.88073
890	0.16246	156.30047	0.97353	-83.81955	0.97353	-83.81955	0.16246	156.30047
910	0.1653	152.72021	0.97169	-85.80805	0.97169	-85.80805	0.1653	152.72021
930	0.16814	149.13995	0.96986	-87.79655	0.96986	-87.79655	0.16814	149.13995
950	0.17098	145.55969	0.96802	-89.78505	0.96802	-89.78505	0.17098	145.55969
970	0.17183	138.5074	0.95456	-91.29186	0.95456	-91.29186	0.17183	138.5074
990	0.17269	131.45512	0.9411	-92.79867	0.9411	-92.79867	0.17269	131.45512
1010	0.17355	124.40284	0.92764	-94.30547	0.92764	-94.30547	0.17355	124.40284
1030	0.1744	117.35056	0.91417	-95.81228	0.91417	-95.81228	0.1744	117.35056
1050	0.17526	110.29827	0.90071	-97.31909	0.90071	-97.31909	0.17526	110.29827
1070	0.16858	112.5398	0.91207	-98.83243	0.91207	-98.83243	0.16858	112.5398
1090	0.16191	114.78132	0.92342	-100.34576	0.92342	-100.34576	0.16191	114.78132
1110	0.15523	117.02284	0.93478	-101.8591	0.93478	-101.8591	0.15523	117.02284
1130	0.14856	119.26436	0.94613	-103.37244	0.94613	-103.37244	0.14856	119.26436
1150	0.14188	121.50588	0.95749	-104.88578	0.95749	-104.88578	0.14188	121.50588
1170	0.14975	119.38287	0.95925	-106.87037	0.95925	-106.87037	0.14975	119.38287
1190	0.15763	117.25986	0.96102	-108.85497	0.96102	-108.85497	0.15763	117.25986
1210	0.1655	115.13686	0.96278	-110.83956	0.96278	-110.83956	0.1655	115.13686
1230	0.17337	113.01385	0.96455	-112.82416	0.96455	-112.82416	0.17337	113.01385
1250	0.18124	110.89084	0.96631	-114.80876	0.96631	-114.80876	0.18124	110.89084
1270	0.18217	108.75034	0.96572	-116.77451	0.96572	-116.77451	0.18217	108.75034
1290	0.1831	106.60984	0.96512	-118.74027	0.96512	-118.74027	0.1831	106.60984
1310	0.18404	104.46933	0.96453	-120.70602	0.96453	-120.70602	0.18404	104.46933
1330	0.18497	102.32883	0.96394	-122.67177	0.96394	-122.67177	0.18497	102.32883
1350	0.1859	100.18833	0.96334	-124.63753	0.96334	-124.63753	0.1859	100.18833
1370	0.19035	97.36119	0.96281	-126.51953	0.96281	-126.51953	0.19035	97.36119
1390	0.19479	94.53406	0.96227	-128.40154	0.96227	-128.40154	0.19479	94.53406
1410	0.19924	91.70692	0.96174	-130.28355	0.96174	-130.28355	0.19924	91.70692
1430	0.20369	88.87978	0.9612	-132.16555	0.9612	-132.16555	0.20369	88.87978
1450	0.20814	86.05265	0.96067	-134.04756	0.96067	-134.04756	0.20814	86.05265
1470	0.20979	83.90866	0.96003	-135.94939	0.96003	-135.94939	0.20979	83.90866
1490	0.21144	81.76468	0.9594	-137.85121	0.9594	-137.85121	0.21144	81.76468
1510	0.2131	79.62069	0.95877	-139.75304	0.95877	-139.75304	0.2131	79.62069
1530	0.21475	77.47671	0.95814	-141.65486	0.95814	-141.65486	0.21475	77.47671
1550	0.2164	75.33273	0.95751	-143.55669	0.95751	-143.55669	0.2164	75.33273
1570	0.22045	72.54957	0.95702	-145.53889	0.95702	-145.53889	0.22045	72.54957
1590	0.22449	69.76642	0.95654	-147.52109	0.95654	-147.52109	0.22449	69.76642
1610	0.22853	66.98327	0.95605	-149.50329	0.95605	-149.50329	0.22853	66.98327
1630	0.23257	64.20012	0.95556	-151.4855	0.95556	-151.4855	0.23257	64.20012
1650	0.23662	61.41696	0.95508	-153.4677	0.95508	-153.4677	0.23662	61.41696
1670	0.23905	58.78544	0.95356	-155.3979	0.95356	-155.3979	0.23905	58.78544
1690	0.24149	56.15392	0.95205	-157.3281	0.95205	-157.3281	0.24149	56.15392
1710	0.24392	53.5224	0.95054	-159.2583	0.95054	-159.2583	0.24392	53.5224
1730	0.24636	50.89088	0.94902	-161.1885	0.94902	-161.1885	0.24636	50.89088
1750	0.24879	48.25936	0.94751	-163.1187	0.94751	-163.1187	0.24879	48.25936
1770	0.25307	44.55582	0.94232	-165.07974	0.94232	-165.07974	0.25307	44.55582
1790	0.25735	40.85228	0.93713	-167.04079	0.93713	-167.04079	0.25735	40.85228
1810	0.26162	37.14875	0.93194	-169.00184	0.93194	-169.00184	0.26162	37.14875
1830	0.2659	33.44521	0.92676	-170.96289	0.92676	-170.96289	0.2659	33.44521
1850	0.27018	29.74167	0.92157	-172.92393	0.92157	-172.92393	0.27018	29.74167
1870	0.26419	27.062	0.91728	-174.27155	0.91728	-174.27155	0.26419	27.062
1890	0.2582	24.38233	0.91299	-175.61916	0.91299	-175.61916	0.2582	24.38233
1910	0.2522	21.70267	0.90871	-176.96677	0.90871	-176.96677	0.2522	21.70267
1930	0.24621	19.023	0.90442	-178.31439	0.90442	-178.31439	0.24621	19.023
1950	0.24022	16.34333	0.90013	-179.662	0.90013	-179.662	0.24022	16.34333
1970	0.24338	15.34803	0.9062	-109.49015	0.9062	-109.49015	0.24338	15.34803
1990	0.24654	14.35274	0.91227	-39.31829	0.91227	-39.31829	0.24654	14.35274
2010	0.24971	13.35744	0.91834	30.85356	0.91834	30.85356	0.24971	13.35744
2030	0.25287	12.36215	0.92441	101.02541	0.92441	101.02541	0.25287	12.36215
2050	0.25603	11.36686	0.93049	171.19726	0.93049	171.19726	0.25603	11.36686
2070	0.26189	9.14129	0.93139	169.21358	0.93139	169.21358	0.26189	9.14129
2090	0.26774	6.91572	0.9323	167.22989	0.9323	167.22989	0.26774	6.91572
2110	0.2736	4.69015	0.93321	165.24621	0.93321	165.24621	0.2736	4.69015
2130	0.27945	2.46458	0.93412	163.26252	0.93412	163.26252	0.27945	2.46458
2150	0.28531	0.23901	0.93503	161.27883	0.93503	161.27883	0.28531	0.23901
2170	0.28953	-2.55044	0.93332	159.28896	0.93332	159.28896	0.28953	-2.55044
2190	0.29376	-5.33989	0.9316	157.29908	0.9316	157.29908	0.29376	-5.33989
2210	0.29798	-8.12934	0.92989	155.3092	0.92989	155.3092	0.29798	-8.12934
2230	0.3022	-10.91879	0.92817	153.31932	0.92817	153.31932	0.3022	-10.91879
2250	0.30643	-13.70825	0.92646	151.32944	0.92646	151.32944	0.30643	-13.70825
2270	0.30933	-16.41044	0.92591	149.36683	0.92591	149.36683	0.30933	-16.41044
2290	0.31224	-19.11264	0.92537	147.40422	0.92537	147.40422	0.31224	-19.11264
2310	0.31515	-21.81483	0.92482	145.44161	0.92482	145.44161	0.31515	-21.81483
2330	0.31805	-24.51703	0.92428	143.47899	0.92428	143.47899	0.31805	-24.51703
2350	0.32096	-27.21923	0.92373	141.51638	0.92373	141.51638	0.32096	-27.21923
2370	0.32428	-30.24062	0.91974	139.65199	0.91974	139.65199	0.32428	-30.24062
2390	0.3276	-33.26202	0.91575	137.7876	0.91575	137.7876	0.3276	-33.26202
2410	0.33092	-36.28342	0.91176	135.92321	0.91176	135.92321	0.33092	-36.28342
2430	0.33425	-39.30482	0.90777	134.05882	0.90777	134.05882	0.33425	-39.30482
2450	0.33757	-42.32621	0.90378	132.19443	0.90378	132.19443	0.33757	-42.32621
2470	0.34058	-44.95242	0.90089	130.25841	0.90089	130.25841	0.34058	-44.95242
2490	0.3436	-47.57863	0.898	128.32239	0.898	128.32239	0.3436	-47.57863
2510	0.34661	-50.20484	0.89512	126.38636	0.89512	126.38636	0.34661	-50.20484
2530	0.34962	-52.83105	0.89223	124.45034	0.89223	124.45034	0.34962	-52.83105
2550	0.35263	-55.45726	0.88934	122.51432	0.88934	122.51432	0.35263	-55.45726
2570	0.3551	-58.56852	0.88711	120.48458	0.88711	120.48458	0.3551	-58.56852
2590	0.35757	-61.67979	0.88488	118.45484	0.88488	118.45484	0.35757	-61.67979
2610	0.36004	-64.79106	0.88265	116.4251	0.88265	116.4251	0.36004	-64.79106
2630	0.36251	-67.90233	0.88042	114.39536	0.88042	114.39536	0.36251	-67.90233
2650	0.36498	-71.01359	0.8782	112.36562	0.8782	112.36562	0.36498	-71.01359
2670	0.36576	-74.14215	0.87185	110.65165	0.87185	110.65165	0.36576	-74.14215
2690	0.36654	-77.2707	0.86549	108.93768	0.86549	108.93768	0.36654	-77.2707
2710	0.36732	-80.39926	0.85914	107.2237	0.85914	107.2237	0.36732	-80.39926
2730	0.3681	-83.52781	0.85279	105.50973	0.85279	105.50973	0.3681	-83.52781
2750	0.36888	-86.65636	0.84644	103.79575	0.84644	103.79575	0.36888	-86.65636
2770	0.36326	-89.48464	0.84494	102.46336	0.84494	102.46336	0.36326	-89.48464
2790	0.35764	-92.31291	0.84344	101.13098	0.84344	101.13098	0.35764	-92.31291
2810	0.35202	-95.14119	0.84195	99.79859	0.84195	99.79859	0.35202	-95.14119
2830	0.3464	-97.96946	0.84045	98.4662	0.84045	98.4662	0.3464	-97.96946
2850	0.34078	-100.79774	0.83895	97.13381	0.83895	97.13381	0.34078	-100.79774
2870	0.3416	-102.02053	0.84306	95.3408	0.84306	95.3408	0.3416	-102.02053
2890	0.34242	-103.24332	0.84718	93.5478	0.84718	93.5478	0.34242	-103.24332
2910	0.34324	-104.46611	0.85129	91.75479	0.85129	91.75479	0.34324	-104.46611
2930	0.34407	-105.68891	0.8554	89.96179	0.8554	89.96179	0.34407	-105.68891
2950	0.34489	-106.9117	0.85951	88.16879	0.85951	88.16879	0.34489	-106.9117
2970	0.35091	-109.10639	0.86142	86.15261	0.86142	86.15261	0.35091	-109.10639
2990	0.35693	-111.30108	0.86333	84.13644	0.86333	84.13644	0.35693	-111.30108
3010	0.36295	-113.49577	0.86524	82.12027	0.86524	82.12027	0.36295	-113.49577
3030	0.36897	-115.69046	0.86715	80.1041	0.86715	80.1041	0.36897	-115.69046
3050	0.37499	-117.88515	0.86906	78.08792	0.86906	78.08792	0.37499	-117.88515
3070	0.38007	-120.18659	0.86842	76.14905	0.86842	76.14905	0.38007	-120.18659
3090	0.38515	-122.48803	0.86779	74.21019	0.86779	74.21019	0.38515	-122.48803
3110	0.39022	-124.78947	0.86716	72.27132	0.86716	72.27132	0.39022	-124.78947
3130	0.3953	-127.09091	0.86653	70.33245	0.86653	70.33245	0.3953	-127.09091
3150	0.40038	-129.39234	0.8659	68.39358	0.8659	68.39358	0.40038	-129.39234
3170	0.40454	-132.28105	0.86588	66.38939	0.86588	66.38939	0.40454	-132.28105
3190	0.4087	-135.16976	0.86587	64.38521	0.86587	64.38521	0.4087	-135.16976
3210	0.41286	-138.05847	0.86586	62.38102	0.86586	62.38102	0.41286	-138.05847
3230	0.41701	-140.94718	0.86585	60.37684	0.86585	60.37684	0.41701	-140.94718
3250	0.42117	-143.83588	0.86584	58.37265	0.86584	58.37265	0.42117	-143.83588
3270	0.42693	-146.51819	0.86303	56.39528	0.86303	56.39528	0.42693	-146.51819
3290	0.43268	-149.20049	0.86022	54.41791	0.86022	54.41791	0.43268	-149.20049
3310	0.43843	-151.8828	0.85741	52.44054	0.85741	52.44054	0.43843	-151.8828
3330	0.44418	-154.5651	0.8546	50.46316	0.8546	50.46316	0.44418	-154.5651
3350	0.44993	-157.24741	0.8518	48.48579	0.8518	48.48579	0.44993	-157.24741
3370	0.45342	-160.15974	0.8496	46.44746	0.8496	46.44746	0.45342	-160.15974
3390	0.45691	-163.07206	0.84741	44.40912	0.84741	44.40912	0.45691	-163.07206
3410	0.4604	-165.98439	0.84521	42.37079	0.84521	42.37079	0.4604	-165.98439
3430	0.46389	-168.89672	0.84302	40.33245	0.84302	40.33245	0.46389	-168.89672
3450	0.46738	-171.80905	0.84082	38.29411	0.84082	38.29411	0.46738	-171.80905
3470	0.47098	-102.77926	0.83625	36.37554	0.83625	36.37554	0.47098	-102.77926
3490	0.47457	-33.74946	0.83168	34.45696	0.83168	34.45696	0.47457	-33.74946
3510	0.47816	35.28034	0.82711	32.53838	0.82711	32.53838	0.47816	35.28034
3530	0.48175	104.31014	0.82254	30.6198	0.82254	30.6198	0.48175	104.31014
3550	0.48535	173.33994	0.81797	28.70122	0.81797	28.70122	0.48535	173.33994
3570	0.48476	170.16535	0.8132	26.85157	0.8132	26.85157	0.48476	170.16535
3590	0.48418	166.99076	0.80842	25.00192	0.80842	25.00192	0.48418	166.99076
3610	0.4836	163.81616	0.80365	23.15228	0.80365	23.15228	0.4836	163.81616
3630	0.48301	160.64157	0.79888	21.30263	0.79888	21.30263	0.48301	160.64157
3650	0.48243	157.46698	0.79411	19.45298	0.79411	19.45298	0.48243	157.46698
3670	0.47902	155.12386	0.79459	17.96981	0.79459	17.96981	0.47902	155.12386
3690	0.47561	152.78073	0.79507	16.48663	0.79507	16.48663	0.47561	152.78073
3710	0.47219	150.43761	0.79555	15.00346	0.79555	15.00346	0.47219	150.43761
3730	0.46878	148.09449	0.79603	13.52028	0.79603	13.52028	0.46878	148.09449
3750	0.46537	145.75136	0.7965	12.03711	0.7965	12.03711	0.46537	145.75136
3770	0.46902	143.63253	0.79857	10.01637	0.79857	10.01637	0.46902	143.63253
3790	0.47268	141.51371	0.80065	7.99563	0.80065	7.99563	0.47268	141.51371
3810	0.47633	139.39488	0.80272	5.97489	0.80272	5.97489	0.47633	139.39488
3830	0.47999	137.27605	0.80479	3.95415	0.80479	3.95415	0.47999	137.27605
3850	0.48365	135.15722	0.80686	1.93341	0.80686	1.93341	0.48365	135.15722
3870	0.48909	132.63823	0.80533	-0.28164	0.80533	-0.28164	0.48909	132.63823
3890	0.49454	130.11924	0.80381	-2.4967	0.80381	-2.4967	0.49454	130.11924
3910	0.49999	127.60026	0.80229	-4.71175	0.80229	-4.71175	0.49999	127.60026
3930	0.50543	125.08127	0.80077	-6.92681	0.80077	-6.92681	0.50543	125.08127
3950	0.51088	122.56228	0.79925	-9.14186	0.79925	-9.14186	0.51088	122.56228
3970	0.51662	119.96372	0.79604	-11.24236	0.79604	-11.24236	0.51662	119.96372
3990	0.52235	117.36515	0.79284	-13.34286	0.79284	-13.34286	0.52235	117.36515
4010	0.52809	114.76659	0.78963	-15.44336	0.78963	-15.44336	0.52809	114.76659
4030	0.53382	112.16803	0.78643	-17.54386	0.78643	-17.54386	0.53382	112.16803
4050	0.53956	109.56946	0.78323	-19.64436	0.78323	-19.64436	0.53956	109.56946
4070	0.54365	106.76761	0.77927	-21.69668	0.77927	-21.69668	0.54365	106.76761
4090	0.54774	103.96577	0.77532	-23.749	0.77532	-23.749	0.54774	103.96577
4110	0.55183	101.16392	0.77137	-25.80132	0.77137	-25.80132	0.55183	101.16392
4130	0.55592	98.36207	0.76742	-27.85363	0.76742	-27.85363	0.55592	98.36207
4150	0.56001	95.56022	0.76346	-29.90595	0.76346	-29.90595	0.56001	95.56022
4170	0.56519	92.83018	0.7579	-32.0179	0.7579	-32.0179	0.56519	92.83018
4190	0.57038	90.10013	0.75233	-34.12984	0.75233	-34.12984	0.57038	90.10013
4210	0.57557	87.37008	0.74676	-36.24179	0.74676	-36.24179	0.57557	87.37008
4230	0.58075	84.64004	0.74119	-38.35374	0.74119	-38.35374	0.58075	84.64004
4250	0.58594	81.90999	0.73563	-40.46568	0.73563	-40.46568	0.58594	81.90999
4270	0.59003	79.08471	0.73051	-42.45444	0.73051	-42.45444	0.59003	79.08471
4290	0.59412	76.25944	0.7254	-44.4432	0.7254	-44.4432	0.59412	76.25944
4310	0.59821	73.43416	0.72028	-46.43195	0.72028	-46.43195	0.59821	73.43416
4330	0.6023	70.60889	0.71517	-48.42071	0.71517	-48.42071	0.6023	70.60889
4350	0.60639	67.78361	0.71005	-50.40946	0.71005	-50.40946	0.60639	67.78361
4370	0.60815	65.02935	0.70162	-52.28397	0.70162	-52.28397	0.60815	65.02935
4390	0.60992	62.2751	0.69319	-54.15848	0.69319	-54.15848	0.60992	62.2751
4410	0.61169	59.52084	0.68476	-56.03299	0.68476	-56.03299	0.61169	59.52084
4430	0.61345	56.76658	0.67634	-57.9075	0.67634	-57.9075	0.61345	56.76658
4450	0.61522	54.01233	0.66791	-59.78201	0.66791	-59.78201	0.61522	54.01233
4470	0.61212	51.1553	0.66149	-61.19629	0.66149	-61.19629	0.61212	51.1553
4490	0.60902	48.29827	0.65508	-62.61057	0.65508	-62.61057	0.60902	48.29827
4510	0.60592	45.44124	0.64867	-64.02485	0.64867	-64.02485	0.60592	45.44124
4530	0.60282	42.58421	0.64225	-65.43913	0.64225	-65.43913	0.60282	42.58421
4550	0.59972	39.72718	0.63584	-66.85341	0.63584	-66.85341	0.59972	39.72718
4570	0.59844	37.58992	0.63313	-68.27852	0.63313	-68.27852	0.59844	37.58992
4590	0.59717	35.45265	0.63043	-69.70363	0.63043	-69.70363	0.59717	35.45265
4610	0.59589	33.31539	0.62772	-71.12874	0.62772	-71.12874	0.59589	33.31539
4630	0.59461	31.17813	0.62502	-72.55385	0.62502	-72.55385	0.59461	31.17813
4650	0.59334	29.04086	0.62231	-73.97896	0.62231	-73.97896	0.59334	29.04086
4670	0.596	26.99606	0.62457	-75.9161	0.62457	-75.9161	0.596	26.99606
4690	0.59867	24.95125	0.62683	-77.85325	0.62683	-77.85325	0.59867	24.95125
4710	0.60134	22.90645	0.62909	-79.79039	0.62909	-79.79039	0.60134	22.90645
4730	0.60401	20.86164	0.63134	-81.72754	0.63134	-81.72754	0.60401	20.86164
4750	0.60667	18.81684	0.6336	-83.66468	0.6336	-83.66468	0.60667	18.81684
4770	0.61311	16.46442	0.63172	-85.84311	0.63172	-85.84311	0.61311	16.46442
4790	0.61954	14.112	0.62984	-88.02154	0.62984	-88.02154	0.61954	14.112
4810	0.62597	11.75958	0.62796	-90.19997	0.62796	-90.19997	0.62597	11.75958
4830	0.63241	9.40716	0.62608	-92.3784	0.62608	-92.3784	0.63241	9.40716
4850	0.63884	7.05474	0.6242	-94.55683	0.6242	-94.55683	0.63884	7.05474
4870	0.64396	4.32194	0.61976	-96.56402	0.61976	-96.56402	0.64396	4.32194
4890	0.64908	1.58913	0.61532	-98.57121	0.61532	-98.57121	0.64908	1.58913
4910	0.65421	-1.14368	0.61088	-100.57839	0.61088	-100.57839	0.65421	-1.14368
4930	0.65933	-3.87649	0.60644	-102.58558	0.60644	-102.58558	0.65933	-3.87649
4950	0.66445	-6.60929	0.602	-104.59277	0.602	-104.59277	0.66445	-6.60929
4970	0.66966	-9.24031	0.59696	-106.51775	0.59696	-106.51775	0.66966	-9.24031
4990	0.67486	-11.87133	0.59192	-108.44272	0.59192	-108.44272	0.67486	-11.87133
5010	0.68007	-14.50234	0.58688	-110.3677	0.58688	-110.3677	0.68007	-14.50234
5030	0.68528	-17.13336	0.58183	-112.29268	0.58183	-112.29268	0.68528	-17.13336
5050	0.69049	-19.76438	0.57679	-114.21766	0.57679	-114.21766	0.69049	-19.76438
5070	0.69378	-22.52125	0.57125	-116.13475	0.57125	-116.13475	0.69378	-22.52125
5090	0.69707	-25.27813	0.56571	-118.05184	0.56571	-118.05184	0.69707	-25.27813
5110	0.70036	-28.035	0.56017	-119.96893	0.56017	-119.96893	0.70036	-28.035
5130	0.70365	-30.79188	0.55463	-121.88602	0.55463	-121.88602	0.70365	-30.79188
5150	0.70694	-33.54875	0.54909	-123.80312	0.54909	-123.80312	0.70694	-33.54875
5170	0.70847	-36.31737	0.54164	-125.59016	0.54164	-125.59016	0.70847	-36.31737
5190	0.71	-39.08599	0.53418	-127.37721	0.53418	-127.37721	0.71	-39.08599
5210	0.71153	-41.85461	0.52673	-129.16426	0.52673	-129.16426	0.71153	-41.85461
5230	0.71306	-44.62323	0.51928	-130.95131	0.51928	-130.95131	0.71306	-44.62323
5250	0.71459	-47.39185	0.51183	-132.73835	0.51183	-132.73835	0.71459	-47.39185
5270	0.71346	-50.23686	0.50625	-134.20829	0.50625	-134.20829	0.71346	-50.23686
5290	0.71233	-53.08187	0.50068	-135.67823	0.50068	-135.67823	0.71233	-53.08187
5310	0.7112	-55.92687	0.49511	-137.14816	0.49511	-137.14816	0.7112	-55.92687
