#	mhz	s	ma	r	50
50	0.95372	171.599	0.14569	78.378	0.14569	78.378	0.95372	171.599
70	0.97768	168.438	0.20809	74.764	0.20809	74.764	0.97768	168.438
90	0.96095	164.785	0.26049	70.628	0.26049	70.628	0.96095	164.785
110	0.93752	161.976	0.31065	67.839	0.31065	67.839	0.93752	161.976
130	0.92016	159.777	0.36131	66.021	0.36131	66.021	0.92016	159.777
150	0.9004	156.387	0.41017	62.548	0.41017	62.548	0.9004	156.387
170	0.87081	153.778	0.44851	60.352	0.44851	60.352	0.87081	153.778
190	0.85715	151.319	0.49179	57.974	0.49179	57.974	0.85715	151.319
210	0.83971	148.797	0.53111	55.439	0.53111	55.439	0.83971	148.797
230	0.81511	146.457	0.56509	53.053	0.56509	53.053	0.81511	146.457
250	0.7962	144.994	0.59985	51.411	0.59985	51.411	0.7962	144.994
270	0.77444	142.531	0.63132	48.981	0.63132	48.981	0.77444	142.531
290	0.74364	140.663	0.65383	47.005	0.65383	47.005	0.74364	140.663
310	0.71922	138.966	0.67799	45.307	0.67799	45.307	0.71922	138.966
330	0.7017	137.147	0.70514	43.64	0.70514	43.64	0.7017	137.147
350	0.67671	135.037	0.72732	41.68	0.72732	41.68	0.67671	135.037
370	0.65621	133.681	0.74276	40.282	0.74276	40.282	0.65621	133.681
390	0.64038	132.173	0.7627	38.889	0.7627	38.889	0.64038	132.173
410	0.62351	130.726	0.77872	37.362	0.77872	37.362	0.62351	130.726
430	0.60439	129.519	0.7888	35.822	0.7888	35.822	0.60439	129.519
450	0.58635	128.706	0.79731	34.644	0.79731	34.644	0.58635	128.706
470	0.56619	127.789	0.81365	33.174	0.81365	33.174	0.56619	127.789
490	0.55592	125.614	0.83665	32.453	0.83665	32.453	0.55592	125.614
510	0.54198	124.561	0.849	31.296	0.849	31.296	0.54198	124.561
530	0.52029	124.903	0.8491	29.508	0.8491	29.508	0.52029	124.903
550	0.49628	124.81	0.85109	27.877	0.85109	27.877	0.49628	124.81
570	0.46919	124.512	0.85961	26.054	0.85961	26.054	0.46919	124.512
590	0.4435	123.713	0.87084	24.342	0.87084	24.342	0.4435	123.713
610	0.42057	122.158	0.88368	22.921	0.88368	22.921	0.42057	122.158
630	0.4017	120.154	0.89821	21.884	0.89821	21.884	0.4017	120.154
650	0.38816	118.566	0.91563	21.237	0.91563	21.237	0.38816	118.566
670	0.38375	117.412	0.92322	20.957	0.92322	20.957	0.38375	117.412
690	0.37928	116.783	0.92979	20.564	0.92979	20.564	0.37928	116.783
710	0.37315	116.53	0.93093	20.075	0.93093	20.075	0.37315	116.53
730	0.36387	116.469	0.92787	19.491	0.92787	19.491	0.36387	116.469
750	0.35008	116.377	0.92753	18.799	0.92753	18.799	0.35008	116.377
770	0.33838	116.631	0.93109	17.818	0.93109	17.818	0.33838	116.631
790	0.32615	115.827	0.94044	16.97	0.94044	16.97	0.32615	115.827
810	0.31287	114.725	0.94771	16.169	0.94771	16.169	0.31287	114.725
830	0.30037	113.68	0.95313	15.497	0.95313	15.497	0.30037	113.68
850	0.2928	112.641	0.96503	15.198	0.96503	15.198	0.2928	112.641
870	0.28915	111.637	0.96824	14.755	0.96824	14.755	0.28915	111.637
890	0.28697	111.125	0.97309	14.66	0.97309	14.66	0.28697	111.125
910	0.28343	110.981	0.97521	14.511	0.97521	14.511	0.28343	110.981
930	0.27773	111.099	0.97265	14.165	0.97265	14.165	0.27773	111.099
950	0.27115	111.393	0.96588	13.741	0.96588	13.741	0.27115	111.393
970	0.26401	111.719	0.96739	13.345	0.96739	13.345	0.26401	111.719
990	0.25566	111.726	0.96868	12.753	0.96868	12.753	0.25566	111.726
1010	0.24654	111.475	0.97001	12.189	0.97001	12.189	0.24654	111.475
1030	0.23798	111.003	0.97262	11.723	0.97262	11.723	0.23798	111.003
1050	0.23223	110.326	0.9788	11.277	0.9788	11.277	0.23223	110.326
1070	0.22796	109.922	0.9821	10.836	0.9821	10.836	0.22796	109.922
1090	0.22415	109.677	0.98288	10.535	0.98288	10.535	0.22415	109.677
1110	0.21973	109.591	0.98182	10.277	0.98182	10.277	0.21973	109.591
1130	0.21442	109.77	0.97965	9.989	0.97965	9.989	0.21442	109.77
1150	0.20878	110.421	0.97714	9.626	0.97714	9.626	0.20878	110.421
1170	0.20235	110.6	0.9791	9.305	0.9791	9.305	0.20235	110.6
1190	0.19447	110.779	0.98009	8.8	0.98009	8.8	0.19447	110.779
1210	0.18685	110.733	0.98099	8.431	0.98099	8.431	0.18685	110.733
1230	0.18027	110.343	0.98271	8.113	0.98271	8.113	0.18027	110.343
1250	0.17454	109.597	0.98614	7.354	0.98614	7.354	0.17454	109.597
1270	0.16974	109.627	0.98987	7.01	0.98987	7.01	0.16974	109.627
1290	0.16572	109.442	0.99187	6.704	0.99187	6.704	0.16572	109.442
1310	0.16158	109.421	0.99303	6.411	0.99303	6.411	0.16158	109.421
1330	0.15701	109.585	0.99397	6.119	0.99397	6.119	0.15701	109.585
1350	0.15236	109.603	0.99501	5.827	0.99501	5.827	0.15236	109.603
1370	0.14724	109.714	0.99365	5.605	0.99365	5.605	0.14724	109.714
1390	0.14154	109.705	0.99222	5.333	0.99222	5.333	0.14154	109.705
1410	0.13641	109.628	0.99166	5.059	0.99166	5.059	0.13641	109.628
1430	0.13203	109.522	0.99283	4.748	0.99283	4.748	0.13203	109.522
1450	0.12769	109.415	0.99649	4.282	0.99649	4.282	0.12769	109.415
1470	0.12323	109.346	0.99682	4.193	0.99682	4.193	0.12323	109.346
1490	0.11956	109.48	0.99844	3.794	0.99844	3.794	0.11956	109.48
1510	0.11608	109.634	1.00101	3.543	1.00101	3.543	0.11608	109.634
1530	0.11262	109.76	1.00303	3.476	1.00303	3.476	0.11262	109.76
1550	0.10947	109.948	1.00187	3.206	1.00187	3.206	0.10947	109.948
1570	0.10561	110.188	1.00032	2.782	1.00032	2.782	0.10561	110.188
1590	0.10195	110.495	1.00122	2.681	1.00122	2.681	0.10195	110.495
1610	0.09806	110.98	1.0017	2.505	1.0017	2.505	0.09806	110.98
1630	0.09414	111.584	1.00177	2.102	1.00177	2.102	0.09414	111.584
1650	0.09105	112.084	1.00434	1.567	1.00434	1.567	0.09105	112.084
1670	0.08662	112.326	1.00481	1.614	1.00481	1.614	0.08662	112.326
1690	0.0829	112.564	1.00426	1.468	1.00426	1.468	0.0829	112.564
1710	0.07978	112.829	1.00442	1.194	1.00442	1.194	0.07978	112.829
1730	0.0773	113.25	1.006	0.902	1.006	0.902	0.0773	113.25
1750	0.07566	114.055	1.00869	0.738	1.00869	0.738	0.07566	114.055
1770	0.07322	114.913	1.00527	0.437	1.00527	0.437	0.07322	114.913
1790	0.07014	116.921	1.00419	0.279	1.00419	0.279	0.07014	116.921
1810	0.06701	119.154	1.00496	0.059	1.00496	0.059	0.06701	119.154
1830	0.06372	121.124	1.00646	-0.249	1.00646	-0.249	0.06372	121.124
1850	0.05946	122.773	1.00687	-0.497	1.00687	-0.497	0.05946	122.773
1870	0.05573	124.15	1.00421	-0.816	1.00421	-0.816	0.05573	124.15
1890	0.05239	125.444	1.00498	-1.053	1.00498	-1.053	0.05239	125.444
1910	0.0497	126.9	1.0064	-1.366	1.0064	-1.366	0.0497	126.9
1930	0.0475	128.517	1.00676	-1.67	1.00676	-1.67	0.0475	128.517
1950	0.04526	130.046	1.00548	-1.642	1.00548	-1.642	0.04526	130.046
1970	0.04272	133.117	1.00568	-1.842	1.00568	-1.842	0.04272	133.117
1990	0.03992	136.651	1.00383	-2.061	1.00383	-2.061	0.03992	136.651
2010	0.03724	140.532	1.00463	-2.278	1.00463	-2.278	0.03724	140.532
2030	0.03466	144.37	1.0073	-2.508	1.0073	-2.508	0.03466	144.37
2050	0.03182	147.5	1.00554	-2.808	1.00554	-2.808	0.03182	147.5
2070	0.02944	149.967	1.00689	-3.001	1.00689	-3.001	0.02944	149.967
2090	0.02761	152.155	1.0054	-2.942	1.0054	-2.942	0.02761	152.155
2110	0.02638	154.556	1.00635	-3.241	1.00635	-3.241	0.02638	154.556
2130	0.02584	157.542	1.00909	-3.802	1.00909	-3.802	0.02584	157.542
2150	0.02614	161.36	1.00707	-3.826	1.00707	-3.826	0.02614	161.36
2170	0.02615	167.202	1.00633	-3.907	1.00633	-3.907	0.02615	167.202
2190	0.02608	173.584	1.00598	-4.306	1.00598	-4.306	0.02608	173.584
2210	0.02597	36.427	1.00709	-4.554	1.00709	-4.554	0.02597	36.427
2230	0.02579	-172.636	1.00856	-4.571	1.00856	-4.571	0.02579	-172.636
2250	0.0255	-166.257	1.00714	-4.675	1.00714	-4.675	0.0255	-166.257
2270	0.02457	-162.046	1.00423	-5.236	1.00423	-5.236	0.02457	-162.046
2290	0.02424	-158.705	1.0062	-5.321	1.0062	-5.321	0.02424	-158.705
2310	0.02426	-156.705	1.00737	-5.376	1.00737	-5.376	0.02426	-156.705
2330	0.02468	-155.75	1.00605	-5.568	1.00605	-5.568	0.02468	-155.75
2350	0.02591	-154.772	1.00457	-5.789	1.00457	-5.789	0.02591	-154.772
2370	0.02832	-152.714	1.00645	-6.012	1.00645	-6.012	0.02832	-152.714
2390	0.03079	-150.072	1.00656	-6.263	1.00656	-6.263	0.03079	-150.072
2410	0.03318	-146.68	1.00675	-6.389	1.00675	-6.389	0.03318	-146.68
2430	0.03524	-142.631	1.00811	-6.381	1.00811	-6.381	0.03524	-142.631
2450	0.03662	-138.27	1.01094	-6.371	1.01094	-6.371	0.03662	-138.27
2470	0.03673	-135.19	1.00208	-6.993	1.00208	-6.993	0.03673	-135.19
2490	0.0367	-133.118	1.00286	-7.257	1.00286	-7.257	0.0367	-133.118
2510	0.0368	-132.429	1.00475	-7.426	1.00475	-7.426	0.0368	-132.429
2530	0.0373	-133.006	1.00491	-7.61	1.00491	-7.61	0.0373	-133.006
2550	0.03848	-134.241	1.00614	-7.775	1.00614	-7.775	0.03848	-134.241
2570	0.04114	-134.328	1.00485	-7.917	1.00485	-7.917	0.04114	-134.328
2590	0.04414	-133.463	1.00346	-8.072	1.00346	-8.072	0.04414	-133.463
2610	0.04686	-131.729	1.00386	-8.305	1.00386	-8.305	0.04686	-131.729
2630	0.04889	-129.293	1.00659	-8.515	1.00659	-8.515	0.04889	-129.293
2650	0.05002	-126.409	1.01087	-8.433	1.01087	-8.433	0.05002	-126.409
2670	0.04966	-124.388	1.00562	-8.724	1.00562	-8.724	0.04966	-124.388
2690	0.04923	-124.076	1.00498	-8.949	1.00498	-8.949	0.04923	-124.076
2710	0.04907	-124.819	1.00465	-9.114	1.00465	-9.114	0.04907	-124.819
2730	0.04973	-126.139	1.00427	-9.283	1.00427	-9.283	0.04973	-126.139
2750	0.05193	-127.74	1.00745	-9.576	1.00745	-9.576	0.05193	-127.74
2770	0.05532	-127.595	1.0047	-9.736	1.0047	-9.736	0.05532	-127.595
2790	0.05856	-126.052	1.00401	-9.884	1.00401	-9.884	0.05856	-126.052
2810	0.06061	-123.62	1.00386	-9.987	1.00386	-9.987	0.06061	-123.62
2830	0.0614	-121.04	1.0036	-10.087	1.0036	-10.087	0.0614	-121.04
2850	0.06178	-119.284	1.00348	-10.301	1.00348	-10.301	0.06178	-119.284
2870	0.06111	-119.232	1.0015	-10.609	1.0015	-10.609	0.06111	-119.232
2890	0.06088	-119.984	1.00502	-10.649	1.00502	-10.649	0.06088	-119.984
2910	0.06182	-121.049	1.0094	-10.688	1.0094	-10.688	0.06182	-121.049
2930	0.06378	-121.95	1.01072	-10.923	1.01072	-10.923	0.06378	-121.95
2950	0.06583	-122.226	1.00578	-11.481	1.00578	-11.481	0.06583	-122.226
2970	0.06901	-121.129	1.00561	-11.79	1.00561	-11.79	0.06901	-121.129
2990	0.07147	-120.029	1.00334	-11.925	1.00334	-11.925	0.07147	-120.029
3010	0.07267	-118.614	1.00319	-11.982	1.00319	-11.982	0.07267	-118.614
3030	0.07288	-117.278	1.00473	-12.042	1.00473	-12.042	0.07288	-117.278
3050	0.07321	-117.13	1.0029	-12.166	1.0029	-12.166	0.07321	-117.13
3070	0.07367	-117.839	1.00408	-12.18	1.00408	-12.18	0.07367	-117.839
3090	0.07456	-118.265	1.00547	-12.414	1.00547	-12.414	0.07456	-118.265
3110	0.07634	-118.398	1.00507	-12.688	1.00507	-12.688	0.07634	-118.398
3130	0.07879	-118.192	1.00321	-12.883	1.00321	-12.883	0.07879	-118.192
3150	0.08101	-117.563	1.0025	-12.938	1.0025	-12.938	0.08101	-117.563
3170	0.08341	-117.451	1.00166	-13.052	1.00166	-13.052	0.08341	-117.451
3190	0.08348	-116.74	1.00206	-13.378	1.00206	-13.378	0.08348	-116.74
3210	0.08384	-116.878	1.0016	-13.696	1.0016	-13.696	0.08384	-116.878
3230	0.08531	-118.048	1.00048	-13.949	1.00048	-13.949	0.08531	-118.048
3250	0.0869	-119.166	1.00126	-14.248	1.00126	-14.248	0.0869	-119.166
3270	0.08989	-119.473	1.00087	-14.154	1.00087	-14.154	0.08989	-119.473
3290	0.09316	-118.95	1.00211	-14.371	1.00211	-14.371	0.09316	-118.95
3310	0.09616	-117.851	1.0025	-14.537	1.0025	-14.537	0.09616	-117.851
3330	0.09848	-116.58	1.00289	-14.583	1.00289	-14.583	0.09848	-116.58
3350	0.09986	-115.69	1.0075	-14.735	1.0075	-14.735	0.09986	-115.69
3370	0.09878	-115.731	1.00352	-15.052	1.00352	-15.052	0.09878	-115.731
3390	0.09863	-115.996	1.00063	-15.179	1.00063	-15.179	0.09863	-115.996
3410	0.10002	-116.674	1.00013	-15.222	1.00013	-15.222	0.10002	-116.674
3430	0.10283	-117.652	1.00131	-15.333	1.00131	-15.333	0.10283	-117.652
3450	0.10617	-118.514	1.00145	-15.707	1.00145	-15.707	0.10617	-118.514
3470	0.10992	-118.508	0.9986	-15.937	0.9986	-15.937	0.10992	-118.508
3490	0.11376	-117.478	0.9999	-16.016	0.9999	-16.016	0.11376	-117.478
3510	0.1165	-116.179	0.99717	-16.046	0.99717	-16.046	0.1165	-116.179
3530	0.11769	-115.086	0.99259	-16.146	0.99259	-16.146	0.11769	-115.086
3550	0.11756	-114.383	0.99873	-16.455	0.99873	-16.455	0.11756	-114.383
3570	0.11708	-115.015	1.00179	-16.844	1.00179	-16.844	0.11708	-115.015
3590	0.11734	-116.103	0.99845	-17.019	0.99845	-17.019	0.11734	-116.103
3610	0.11965	-117.225	0.99653	-17.098	0.99653	-17.098	0.11965	-117.225
3630	0.12385	-118.09	0.9982	-17.203	0.9982	-17.203	0.12385	-118.09
3650	0.12832	-118.537	0.99997	-17.463	0.99997	-17.463	0.12832	-118.537
3670	0.1323	-117.83	0.99885	-17.667	0.99885	-17.667	0.1323	-117.83
3690	0.13527	-116.806	1.00108	-17.555	1.00108	-17.555	0.13527	-116.806
3710	0.13684	-115.807	1.00015	-17.768	1.00015	-17.768	0.13684	-115.807
3730	0.13718	-115.167	0.99632	-18.3	0.99632	-18.3	0.13718	-115.167
3750	0.13706	-115.21	0.99668	-18.491	0.99668	-18.491	0.13706	-115.21
3770	0.13711	-116.104	0.9942	-18.702	0.9942	-18.702	0.13711	-116.104
3790	0.13866	-117.229	0.99404	-18.81	0.99404	-18.81	0.13866	-117.229
3810	0.14203	-118.247	0.99542	-18.978	0.99542	-18.978	0.14203	-118.247
3830	0.14691	-118.825	0.99733	-19.248	0.99733	-19.248	0.14691	-118.825
3850	0.15228	-118.641	0.99847	-19.533	0.99847	-19.533	0.15228	-118.641
3870	0.15526	-117.888	0.99891	-19.769	0.99891	-19.769	0.15526	-117.888
3890	0.15791	-117.332	0.99675	-19.75	0.99675	-19.75	0.15791	-117.332
3910	0.15862	-116.897	0.99476	-19.83	0.99476	-19.83	0.15862	-116.897
3930	0.15796	-116.651	0.99381	-20.042	0.99381	-20.042	0.15796	-116.651
3950	0.15868	-116.805	0.99298	-20.091	0.99298	-20.091	0.15868	-116.805
3970	0.16024	-117.651	0.99293	-20.197	0.99293	-20.197	0.16024	-117.651
3990	0.16325	-118.823	0.99117	-20.618	0.99117	-20.618	0.16325	-118.823
4010	0.16735	-119.648	0.99128	-20.924	0.99128	-20.924	0.16735	-119.648
4030	0.17211	-119.813	0.99235	-21.065	0.99235	-21.065	0.17211	-119.813
4050	0.17706	-119.366	0.98907	-21.368	0.98907	-21.368	0.17706	-119.366
4070	0.1807	-118.684	0.98846	-21.467	0.98846	-21.467	0.1807	-118.684
4090	0.18232	-118.296	0.98941	-21.673	0.98941	-21.673	0.18232	-118.296
4110	0.18266	-117.869	0.98976	-21.923	0.98976	-21.923	0.18266	-117.869
4130	0.18232	-117.624	0.98862	-22.111	0.98862	-22.111	0.18232	-117.624
4150	0.18176	-118.333	0.98635	-22.091	0.98635	-22.091	0.18176	-118.333
4170	0.18389	-119.469	0.9878	-22.353	0.9878	-22.353	0.18389	-119.469
4190	0.18731	-120.497	0.98824	-22.46	0.98824	-22.46	0.18731	-120.497
4210	0.19181	-121.126	0.98846	-22.67	0.98846	-22.67	0.19181	-121.126
4230	0.19694	-121.297	0.98751	-22.952	0.98751	-22.952	0.19694	-121.297
4250	0.202	-121.18	0.98267	-22.974	0.98267	-22.974	0.202	-121.18
4270	0.20587	-120.688	0.98637	-23.218	0.98637	-23.218	0.20587	-120.688
4290	0.20797	-120.25	0.98618	-23.551	0.98618	-23.551	0.20797	-120.25
4310	0.2084	-119.765	0.98513	-23.643	0.98513	-23.643	0.2084	-119.765
4330	0.20789	-119.552	0.985	-23.619	0.985	-23.619	0.20789	-119.552
4350	0.20782	-120.345	0.9863	-24.065	0.9863	-24.065	0.20782	-120.345
4370	0.21117	-121.526	0.98266	-24.301	0.98266	-24.301	0.21117	-121.526
4390	0.21527	-122.12	0.98218	-24.477	0.98218	-24.477	0.21527	-122.12
4410	0.21998	-122.468	0.98368	-24.768	0.98368	-24.768	0.21998	-122.468
4430	0.22498	-122.434	0.98498	-25.09	0.98498	-25.09	0.22498	-122.434
4450	0.22978	-121.41	0.98298	-25.103	0.98298	-25.103	0.22978	-121.41
4470	0.23078	-121.248	0.98255	-25.214	0.98255	-25.214	0.23078	-121.248
4490	0.23181	-121.007	0.97816	-25.395	0.97816	-25.395	0.23181	-121.007
4510	0.23197	-120.91	0.97711	-25.55	0.97711	-25.55	0.23197	-120.91
4530	0.23152	-121.33	0.98004	-25.724	0.98004	-25.724	0.23152	-121.33
4550	0.23182	-122.787	0.98086	-26.102	0.98086	-26.102	0.23182	-122.787
4570	0.23565	-123.483	0.97937	-26.157	0.97937	-26.157	0.23565	-123.483
4590	0.24133	-123.976	0.97648	-26.371	0.97648	-26.371	0.24133	-123.976
4610	0.24735	-124.04	0.97537	-26.634	0.97537	-26.634	0.24735	-124.04
4630	0.2527	-123.711	0.9754	-26.869	0.9754	-26.869	0.2527	-123.711
4650	0.25682	-123.29	0.9721	-27.032	0.9721	-27.032	0.25682	-123.29
4670	0.25702	-123.071	0.9753	-27.545	0.9753	-27.545	0.25702	-123.071
4690	0.2569	-122.809	0.97667	-27.564	0.97667	-27.564	0.2569	-122.809
4710	0.2569	-122.921	0.97457	-27.56	0.97457	-27.56	0.2569	-122.921
4730	0.25784	-123.46	0.97102	-27.753	0.97102	-27.753	0.25784	-123.46
4750	0.26089	-124.113	0.97173	-28.109	0.97173	-28.109	0.26089	-124.113
4770	0.2666	-124.734	0.97471	-28.139	0.97471	-28.139	0.2666	-124.734
4790	0.26951	-125.074	0.97184	-28.369	0.97184	-28.369	0.26951	-125.074
4810	0.27462	-124.931	0.96887	-28.695	0.96887	-28.695	0.27462	-124.931
4830	0.28127	-124.489	0.96842	-28.98	0.96842	-28.98	0.28127	-124.489
4850	0.28308	-124.321	0.96991	-29.053	0.96991	-29.053	0.28308	-124.321
4870	0.28328	-124.296	0.965	-29.285	0.965	-29.285	0.28328	-124.296
4890	0.28316	-124.613	0.9618	-29.548	0.9618	-29.548	0.28316	-124.613
4910	0.28492	-125.019	0.9651	-29.841	0.9651	-29.841	0.28492	-125.019
4930	0.28843	-125.566	0.96917	-30.125	0.96917	-30.125	0.28843	-125.566
4950	0.29128	-126.606	0.95776	-30.321	0.95776	-30.321	0.29128	-126.606
4970	0.29814	-126.582	0.95921	-30.439	0.95921	-30.439	0.29814	-126.582
4990	0.30437	-126.44	0.96111	-30.41	0.96111	-30.41	0.30437	-126.44
5010	0.308	-126.314	0.95937	-30.602	0.95937	-30.602	0.308	-126.314
5030	0.30932	-126.137	0.95491	-30.932	0.95491	-30.932	0.30932	-126.137
5050	0.31089	-125.64	0.95371	-30.866	0.95371	-30.866	0.31089	-125.64
5070	0.31275	-126.296	0.95462	-31.414	0.95462	-31.414	0.31275	-126.296
5090	0.31441	-126.729	0.95212	-31.588	0.95212	-31.588	0.31441	-126.729
5110	0.31788	-127.332	0.94979	-31.6	0.94979	-31.6	0.31788	-127.332
5130	0.32339	-128.03	0.94953	-31.708	0.94953	-31.708	0.32339	-128.03
5150	0.32948	-128.284	0.95162	-32.205	0.95162	-32.205	0.32948	-128.284
5170	0.33801	-128.304	0.94913	-32.715	0.94913	-32.715	0.33801	-128.304
5190	0.34191	-127.971	0.94488	-32.895	0.94488	-32.895	0.34191	-127.971
5210	0.34467	-127.561	0.94363	-32.923	0.94363	-32.923	0.34467	-127.561
5230	0.34692	-127.377	0.94549	-32.98	0.94549	-32.98	0.34692	-127.377
5250	0.34634	-127.75	0.94589	-33.245	0.94589	-33.245	0.34634	-127.75
5270	0.34665	-127.969	0.94123	-33.61	0.94123	-33.61	0.34665	-127.969
5290	0.35248	-128.451	0.94247	-33.78	0.94247	-33.78	0.35248	-128.451
5310	0.35979	-129.077	0.9415	-33.976	0.9415	-33.976	0.35979	-129.077
5330	0.36625	-129.499	0.93682	-34.242	0.93682	-34.242	0.36625	-129.499
5350	0.37127	-129.139	0.93359	-34.442	0.93359	-34.442	0.37127	-129.139
5370	0.37691	-128.632	0.93391	-34.516	0.93391	-34.516	0.37691	-128.632
5390	0.38158	-128.561	0.93276	-34.757	0.93276	-34.757	0.38158	-128.561
5410	0.38347	-128.54	0.93059	-35.011	0.93059	-35.011	0.38347	-128.54
5430	0.38321	-128.426	0.92909	-35.193	0.92909	-35.193	0.38321	-128.426
5450	0.38395	-128.319	0.93108	-35.284	0.93108	-35.284	0.38395	-128.319
5470	0.38621	-129.089	0.92266	-35.416	0.92266	-35.416	0.38621	-129.089
5490	0.39138	-129.9	0.92089	-35.719	0.92089	-35.719	0.39138	-129.9
5510	0.39777	-130.214	0.9209	-36.002	0.9209	-36.002	0.39777	-130.214
5530	0.40398	-130.088	0.91884	-36.203	0.91884	-36.203	0.40398	-130.088
5550	0.40889	-130.171	0.91192	-36.392	0.91192	-36.392	0.40889	-130.171
5570	0.4132	-129.925	0.9128	-36.224	0.9128	-36.224	0.4132	-129.925
5590	0.41717	-129.914	0.91328	-36.629	0.91328	-36.629	0.41717	-129.914
5610	0.41875	-130.032	0.91077	-36.964	0.91077	-36.964	0.41875	-130.032
5630	0.41924	-130.194	0.90639	-37.098	0.90639	-37.098	0.41924	-130.194
5650	0.42327	-130.339	0.90499	-37.413	0.90499	-37.413	0.42327	-130.339
5670	0.43019	-130.747	0.9046	-37.645	0.9046	-37.645	0.43019	-130.747
5690	0.43566	-131.011	0.90196	-37.847	0.90196	-37.847	0.43566	-131.011
5710	0.44017	-131.002	0.89864	-37.986	0.89864	-37.986	0.44017	-131.002
5730	0.44423	-130.815	0.89445	-38.059	0.89445	-38.059	0.44423	-130.815
5750	0.44843	-130.772	0.88742	-38.098	0.88742	-38.098	0.44843	-130.772
5770	0.45188	-130.726	0.89298	-38.496	0.89298	-38.496	0.45188	-130.726
5790	0.45373	-130.628	0.89511	-38.532	0.89511	-38.532	0.45373	-130.628
5810	0.45494	-130.701	0.89347	-38.7	0.89347	-38.7	0.45494	-130.701
5830	0.45587	-130.947	0.88893	-38.989	0.88893	-38.989	0.45587	-130.947
5850	0.45632	-131.158	0.8837	-38.877	0.8837	-38.877	0.45632	-131.158
5870	0.46438	-131.377	0.88447	-39.259	0.88447	-39.259	0.46438	-131.377
5890	0.46909	-131.666	0.88212	-39.515	0.88212	-39.515	0.46909	-131.666
5910	0.47285	-131.86	0.8802	-39.76	0.8802	-39.76	0.47285	-131.86
