! L-15CR56JE measured in a shunt fixture
#	mhz	s	ma	r	50
50	0.13969	92.22232	0.97148	4.09998	0.97148	4.09998	0.13969	92.22232
70	0.11744	85.18823	0.97482	1.03188	0.97482	1.03188	0.11744	85.18823
90	0.09519	78.15414	0.97817	-2.03622	0.97817	-2.03622	0.09519	78.15414
110	0.07294	71.12004	0.98151	-5.10433	0.98151	-5.10433	0.07294	71.12004
130	0.05069	64.08595	0.98485	-8.17243	0.98485	-8.17243	0.05069	64.08595
150	0.02843	57.05186	0.98819	-11.24053	0.98819	-11.24053	0.02843	57.05186
170	0.02683	25.05894	0.98913	-13.32798	0.98913	-13.32798	0.02683	25.05894
190	0.02522	-6.93398	0.99007	-15.41544	0.99007	-15.41544	0.02522	-6.93398
210	0.02362	-38.9269	0.99101	-17.50289	0.99101	-17.50289	0.02362	-38.9269
230	0.02201	-70.91982	0.99195	-19.59034	0.99195	-19.59034	0.02201	-70.91982
250	0.02041	-102.91274	0.99289	-21.6778	0.99289	-21.6778	0.02041	-102.91274
270	0.02609	-107.12756	0.9939	-23.82374	0.9939	-23.82374	0.02609	-107.12756
290	0.03177	-111.34239	0.9949	-25.96968	0.9949	-25.96968	0.03177	-111.34239
310	0.03745	-115.55722	0.99591	-28.11561	0.99591	-28.11561	0.03745	-115.55722
330	0.04313	-119.77205	0.99691	-30.26155	0.99691	-30.26155	0.04313	-119.77205
350	0.04881	-123.98688	0.99792	-32.40749	0.99792	-32.40749	0.04881	-123.98688
370	0.05285	-126.72266	0.99715	-34.33743	0.99715	-34.33743	0.05285	-126.72266
390	0.05689	-129.45845	0.99637	-36.26736	0.99637	-36.26736	0.05689	-129.45845
410	0.06093	-132.19424	0.9956	-38.19729	0.9956	-38.19729	0.06093	-132.19424
430	0.06497	-134.93002	0.99483	-40.12723	0.99483	-40.12723	0.06497	-134.93002
450	0.06901	-137.66581	0.99406	-42.05716	0.99406	-42.05716	0.06901	-137.66581
470	0.07262	-142.63439	0.99316	-44.00229	0.99316	-44.00229	0.07262	-142.63439
490	0.07622	-147.60297	0.99226	-45.94743	0.99226	-45.94743	0.07622	-147.60297
510	0.07982	-152.57156	0.99136	-47.89256	0.99136	-47.89256	0.07982	-152.57156
530	0.08342	-157.54014	0.99046	-49.8377	0.99046	-49.8377	0.08342	-157.54014
550	0.08702	-162.50872	0.98956	-51.78283	0.98956	-51.78283	0.08702	-162.50872
570	0.09393	-164.38329	0.9891	-53.73951	0.9891	-53.73951	0.09393	-164.38329
590	0.10085	-166.25787	0.98865	-55.69619	0.98865	-55.69619	0.10085	-166.25787
610	0.10777	-168.13244	0.9882	-57.65286	0.9882	-57.65286	0.10777	-168.13244
630	0.11469	-170.00702	0.98775	-59.60954	0.98775	-59.60954	0.11469	-170.00702
650	0.12161	-171.88159	0.98729	-61.56622	0.98729	-61.56622	0.12161	-171.88159
670	0.12383	-102.77346	0.98755	-63.47739	0.98755	-63.47739	0.12383	-102.77346
690	0.12605	-33.66532	0.9878	-65.38856	0.9878	-65.38856	0.12605	-33.66532
710	0.12826	35.44281	0.98806	-67.29972	0.98806	-67.29972	0.12826	35.44281
730	0.13048	104.55095	0.98831	-69.21089	0.98831	-69.21089	0.13048	104.55095
750	0.1327	173.65908	0.98857	-71.12206	0.98857	-71.12206	0.1327	173.65908
770	0.13971	171.00558	0.98676	-73.063	0.98676	-73.063	0.13971	171.00558
790	0.14672	168.35208	0.98496	-75.00393	0.98496	-75.00393	0.14672	168.35208
810	0.15373	165.69858	0.98315	-76.94487	0.98315	-76.94487	0.15373	165.69858
830	0.16075	163.04508	0.98134	-78.8858	0.98134	-78.8858	0.16075	163.04508
850	0.16776	160.39157	0.97954	-80.82674	0.97954	-80.82674	0.16776	160.39157
870	0.17042	157.56199	0.97781	-82.82384	0.97781	-82.82384	0.17042	157.56199
890	0.17308	154.7324	0.97609	-84.82093	0.97609	-84.82093	0.17308	154.7324
910	0.17574	151.90281	0.97437	-86.81803	0.97437	-86.81803	0.17574	151.90281
930	0.1784	149.07323	0.97265	-88.81513	0.97265	-88.81513	0.1784	149.07323
950	0.18106	146.24364	0.97092	-90.81223	0.97092	-90.81223	0.18106	146.24364
970	0.18932	142.66025	0.96727	-92.923	0.96727	-92.923	0.18932	142.66025
990	0.19758	139.07687	0.96361	-95.03377	0.96361	-95.03377	0.19758	139.07687
1010	0.20585	135.49348	0.95996	-97.14454	0.95996	-97.14454	0.20585	135.49348
1030	0.21411	131.91009	0.9563	-99.25532	0.9563	-99.25532	0.21411	131.91009
1050	0.22237	128.32671	0.95264	-101.36609	0.95264	-101.36609	0.22237	128.32671
1070	0.22402	119.84821	0.92825	-102.98489	0.92825	-102.98489	0.22402	119.84821
1090	0.22566	111.36972	0.90385	-104.6037	0.90385	-104.6037	0.22566	111.36972
1110	0.22731	102.89122	0.87945	-106.22251	0.87945	-106.22251	0.22731	102.89122
1130	0.22895	94.41273	0.85505	-107.84131	0.85505	-107.84131	0.22895	94.41273
1150	0.2306	85.93424	0.83066	-109.46012	0.83066	-109.46012	0.2306	85.93424
1170	0.21786	91.11467	0.85449	-110.50826	0.85449	-110.50826	0.21786	91.11467
1190	0.20513	96.29511	0.87832	-111.5564	0.87832	-111.5564	0.20513	96.29511
1210	0.19239	101.47555	0.90216	-112.60454	0.90216	-112.60454	0.19239	101.47555
1230	0.17966	106.65599	0.92599	-113.65268	0.92599	-113.65268	0.17966	106.65599
1250	0.16692	111.83642	0.94982	-114.70082	0.94982	-114.70082	0.16692	111.83642
1270	0.17483	109.91151	0.95072	-116.88984	0.95072	-116.88984	0.17483	109.91151
1290	0.18273	107.98661	0.95162	-119.07885	0.95162	-119.07885	0.18273	107.98661
1310	0.19064	106.0617	0.95252	-121.26786	0.95252	-121.26786	0.19064	106.0617
1330	0.19855	104.13679	0.95342	-123.45687	0.95342	-123.45687	0.19855	104.13679
1350	0.20645	102.21188	0.95432	-125.64588	0.95432	-125.64588	0.20645	102.21188
1370	0.21362	99.09358	0.95391	-127.6751	0.95391	-127.6751	0.21362	99.09358
1390	0.22078	95.97529	0.95351	-129.70433	0.95351	-129.70433	0.22078	95.97529
1410	0.22795	92.85699	0.9531	-131.73356	0.9531	-131.73356	0.22795	92.85699
1430	0.23511	89.7387	0.9527	-133.76278	0.9527	-133.76278	0.23511	89.7387
1450	0.24227	86.6204	0.95229	-135.79201	0.95229	-135.79201	0.24227	86.6204
1470	0.2453	84.09026	0.95097	-137.74257	0.95097	-137.74257	0.2453	84.09026
1490	0.24832	81.56012	0.94965	-139.69313	0.94965	-139.69313	0.24832	81.56012
1510	0.25134	79.02997	0.94833	-141.64369	0.94833	-141.64369	0.25134	79.02997
1530	0.25436	76.49983	0.94701	-143.59424	0.94701	-143.59424	0.25436	76.49983
1550	0.25738	73.96969	0.94569	-145.5448	0.94569	-145.5448	0.25738	73.96969
1570	0.26226	70.99939	0.94515	-147.5163	0.94515	-147.5163	0.26226	70.99939
1590	0.26714	68.02909	0.94461	-149.48779	0.94461	-149.48779	0.26714	68.02909
1610	0.27201	65.05879	0.94407	-151.45929	0.94407	-151.45929	0.27201	65.05879
1630	0.27689	62.08849	0.94353	-153.43079	0.94353	-153.43079	0.27689	62.08849
1650	0.28177	59.11819	0.943	-155.40228	0.943	-155.40228	0.28177	59.11819
1670	0.28458	56.38483	0.94246	-157.39443	0.94246	-157.39443	0.28458	56.38483
1690	0.28739	53.65147	0.94192	-159.38657	0.94192	-159.38657	0.28739	53.65147
1710	0.2902	50.91812	0.94138	-161.37872	0.94138	-161.37872	0.2902	50.91812
1730	0.29301	48.18476	0.94084	-163.37086	0.94084	-163.37086	0.29301	48.18476
1750	0.29582	45.4514	0.94031	-165.36301	0.94031	-165.36301	0.29582	45.4514
1770	0.3014	42.24632	0.93753	-167.32213	0.93753	-167.32213	0.3014	42.24632
1790	0.30699	39.04124	0.93474	-169.28125	0.93474	-169.28125	0.30699	39.04124
1810	0.31258	35.83617	0.93196	-171.24037	0.93196	-171.24037	0.31258	35.83617
1830	0.31816	32.63109	0.92918	-173.19949	0.92918	-173.19949	0.31816	32.63109
1850	0.32375	29.42601	0.9264	-175.15861	0.9264	-175.15861	0.32375	29.42601
1870	0.32818	26.41966	0.92227	-105.24177	0.92227	-105.24177	0.32818	26.41966
1890	0.3326	23.41331	0.91814	-35.32493	0.91814	-35.32493	0.3326	23.41331
1910	0.33703	20.40696	0.91401	34.59191	0.91401	34.59191	0.33703	20.40696
1930	0.34145	17.40061	0.90987	104.50876	0.90987	104.50876	0.34145	17.40061
1950	0.34588	14.39426	0.90574	174.4256	0.90574	174.4256	0.34588	14.39426
1970	0.34605	9.80302	0.89306	172.52922	0.89306	172.52922	0.34605	9.80302
1990	0.34622	5.21178	0.88038	170.63284	0.88038	170.63284	0.34622	5.21178
2010	0.34639	0.62054	0.8677	168.73646	0.8677	168.73646	0.34639	0.62054
2030	0.34656	-3.9707	0.85501	166.84007	0.85501	166.84007	0.34656	-3.9707
2050	0.34673	-8.56194	0.84233	164.94369	0.84233	164.94369	0.34673	-8.56194
2070	0.33025	-9.23334	0.84894	164.26822	0.84894	164.26822	0.33025	-9.23334
2090	0.31378	-9.90475	0.85554	163.59274	0.85554	163.59274	0.31378	-9.90475
2110	0.2973	-10.57616	0.86215	162.91727	0.86215	162.91727	0.2973	-10.57616
2130	0.28083	-11.24757	0.86875	162.24179	0.86875	162.24179	0.28083	-11.24757
2150	0.26435	-11.91898	0.87536	161.56631	0.87536	161.56631	0.26435	-11.91898
2170	0.27491	-13.03822	0.88134	159.2034	0.88134	159.2034	0.27491	-13.03822
2190	0.28546	-14.15746	0.88732	156.8405	0.88732	156.8405	0.28546	-14.15746
2210	0.29602	-15.27671	0.8933	154.47759	0.8933	154.47759	0.29602	-15.27671
2230	0.30658	-16.39595	0.89928	152.11468	0.89928	152.11468	0.30658	-16.39595
2250	0.31713	-17.51519	0.90526	149.75177	0.90526	149.75177	0.31713	-17.51519
2270	0.32318	-19.99753	0.90536	147.62935	0.90536	147.62935	0.32318	-19.99753
2290	0.32922	-22.47987	0.90546	145.50694	0.90546	145.50694	0.32922	-22.47987
2310	0.33527	-24.96221	0.90556	143.38452	0.90556	143.38452	0.33527	-24.96221
2330	0.34131	-27.44455	0.90566	141.26211	0.90566	141.26211	0.34131	-27.44455
2350	0.34736	-29.92689	0.90575	139.13969	0.90575	139.13969	0.34736	-29.92689
2370	0.35314	-32.82387	0.90284	137.11811	0.90284	137.11811	0.35314	-32.82387
2390	0.35892	-35.72086	0.89992	135.09654	0.89992	135.09654	0.35892	-35.72086
2410	0.36471	-38.61784	0.89701	133.07496	0.89701	133.07496	0.36471	-38.61784
2430	0.37049	-41.51483	0.89409	131.05338	0.89409	131.05338	0.37049	-41.51483
2450	0.37627	-44.41182	0.89117	129.03181	0.89117	129.03181	0.37627	-44.41182
2470	0.3809	-46.99324	0.88611	127.02483	0.88611	127.02483	0.3809	-46.99324
2490	0.38553	-49.57467	0.88105	125.01786	0.88105	125.01786	0.38553	-49.57467
2510	0.39016	-52.1561	0.87599	123.01089	0.87599	123.01089	0.39016	-52.1561
2530	0.39479	-54.73753	0.87093	121.00391	0.87093	121.00391	0.39479	-54.73753
2550	0.39941	-57.31896	0.86586	118.99694	0.86586	118.99694	0.39941	-57.31896
2570	0.40341	-60.33984	0.86456	116.87141	0.86456	116.87141	0.40341	-60.33984
2590	0.4074	-63.36073	0.86325	114.74589	0.86325	114.74589	0.4074	-63.36073
2610	0.4114	-66.38161	0.86195	112.62037	0.86195	112.62037	0.4114	-66.38161
2630	0.41539	-69.40249	0.86064	110.49484	0.86064	110.49484	0.41539	-69.40249
2650	0.41939	-72.42338	0.85934	108.36932	0.85934	108.36932	0.41939	-72.42338
2670	0.42444	-75.12399	0.85396	106.523	0.85396	106.523	0.42444	-75.12399
2690	0.42949	-77.8246	0.84859	104.67668	0.84859	104.67668	0.42949	-77.8246
2710	0.43454	-80.52521	0.84321	102.83037	0.84321	102.83037	0.43454	-80.52521
2730	0.43959	-83.22582	0.83784	100.98405	0.83784	100.98405	0.43959	-83.22582
2750	0.44464	-85.92643	0.83246	99.13773	0.83246	99.13773	0.44464	-85.92643
2770	0.44923	-89.25161	0.82839	97.18832	0.82839	97.18832	0.44923	-89.25161
2790	0.45382	-92.57679	0.82433	95.23891	0.82433	95.23891	0.45382	-92.57679
2810	0.45841	-95.90197	0.82026	93.2895	0.82026	93.2895	0.45841	-95.90197
2830	0.46301	-99.22715	0.81619	91.34009	0.81619	91.34009	0.46301	-99.22715
2850	0.4676	-102.55233	0.81212	89.39068	0.81212	89.39068	0.4676	-102.55233
2870	0.46879	-106.05515	0.80238	87.60735	0.80238	87.60735	0.46879	-106.05515
2890	0.46997	-109.55796	0.79264	85.82402	0.79264	85.82402	0.46997	-109.55796
2910	0.47116	-113.06077	0.7829	84.0407	0.7829	84.0407	0.47116	-113.06077
2930	0.47235	-116.56358	0.77316	82.25737	0.77316	82.25737	0.47235	-116.56358
2950	0.47354	-120.0664	0.76343	80.47404	0.76343	80.47404	0.47354	-120.0664
2970	0.46119	-123.29572	0.75942	79.70331	0.75942	79.70331	0.46119	-123.29572
2990	0.44885	-126.52504	0.75542	78.93257	0.75542	78.93257	0.44885	-126.52504
3010	0.43651	-129.75436	0.75142	78.16183	0.75142	78.16183	0.43651	-129.75436
3030	0.42417	-132.98368	0.74742	77.3911	0.74742	77.3911	0.42417	-132.98368
3050	0.41182	-136.213	0.74341	76.62036	0.74341	76.62036	0.41182	-136.213
3070	0.41222	-136.43965	0.75763	74.82199	0.75763	74.82199	0.41222	-136.43965
3090	0.41261	-136.6663	0.77184	73.02362	0.77184	73.02362	0.41261	-136.6663
3110	0.413	-136.89296	0.78605	71.22525	0.78605	71.22525	0.413	-136.89296
3130	0.41339	-137.11961	0.80026	69.42688	0.80026	69.42688	0.41339	-137.11961
3150	0.41378	-137.34626	0.81447	67.62851	0.81447	67.62851	0.41378	-137.34626
3170	0.42316	-139.76419	0.81674	65.35892	0.81674	65.35892	0.42316	-139.76419
3190	0.43254	-142.18213	0.81901	63.08933	0.81901	63.08933	0.43254	-142.18213
3210	0.44192	-144.60006	0.82128	60.81974	0.82128	60.81974	0.44192	-144.60006
3230	0.45129	-147.01799	0.82355	58.55016	0.82355	58.55016	0.45129	-147.01799
3250	0.46067	-149.43592	0.82582	56.28057	0.82582	56.28057	0.46067	-149.43592
3270	0.46866	-152.07427	0.82421	54.07042	0.82421	54.07042	0.46866	-152.07427
3290	0.47665	-154.71261	0.8226	51.86027	0.8226	51.86027	0.47665	-154.71261
3310	0.48464	-157.35095	0.82099	49.65011	0.82099	49.65011	0.48464	-157.35095
3330	0.49263	-159.9893	0.81938	47.43996	0.81938	47.43996	0.49263	-159.9893
3350	0.50062	-162.62764	0.81777	45.22981	0.81777	45.22981	0.50062	-162.62764
3370	0.50584	-165.39525	0.81547	43.03976	0.81547	43.03976	0.50584	-165.39525
3390	0.51106	-168.16286	0.81316	40.84971	0.81316	40.84971	0.51106	-168.16286
3410	0.51628	-170.93048	0.81085	38.65965	0.81085	38.65965	0.51628	-170.93048
3430	0.52151	-173.69809	0.80855	36.4696	0.80855	36.4696	0.52151	-173.69809
3450	0.52673	-176.4657	0.80624	34.27955	0.80624	34.27955	0.52673	-176.4657
3470	0.53215	-107.35269	0.80254	32.15907	0.80254	32.15907	0.53215	-107.35269
3490	0.53758	-38.23969	0.79884	30.03859	0.79884	30.03859	0.53758	-38.23969
3510	0.543	30.87332	0.79515	27.91812	0.79515	27.91812	0.543	30.87332
3530	0.54842	99.98632	0.79145	25.79764	0.79145	25.79764	0.54842	99.98632
3550	0.55385	169.09933	0.78775	23.67717	0.78775	23.67717	0.55385	169.09933
3570	0.55831	166.0601	0.78285	21.43179	0.78285	21.43179	0.55831	166.0601
3590	0.56277	163.02087	0.77795	19.18641	0.77795	19.18641	0.56277	163.02087
3610	0.56724	159.98164	0.77305	16.94104	0.77305	16.94104	0.56724	159.98164
3630	0.5717	156.94241	0.76815	14.69566	0.76815	14.69566	0.5717	156.94241
3650	0.57616	153.90319	0.76325	12.45029	0.76325	12.45029	0.57616	153.90319
3670	0.58031	150.87315	0.75746	10.34511	0.75746	10.34511	0.58031	150.87315
3690	0.58445	147.84312	0.75167	8.23993	0.75167	8.23993	0.58445	147.84312
3710	0.58859	144.81309	0.74588	6.13475	0.74588	6.13475	0.58859	144.81309
3730	0.59273	141.78306	0.74009	4.02956	0.74009	4.02956	0.59273	141.78306
3750	0.59688	138.75303	0.7343	1.92438	0.7343	1.92438	0.59688	138.75303
3770	0.59691	135.34446	0.72314	0.14596	0.72314	0.14596	0.59691	135.34446
3790	0.59694	131.93588	0.71197	-1.63247	0.71197	-1.63247	0.59694	131.93588
3810	0.59697	128.5273	0.7008	-3.41089	0.7008	-3.41089	0.59697	128.5273
3830	0.597	125.11873	0.68964	-5.18932	0.68964	-5.18932	0.597	125.11873
3850	0.59703	121.71015	0.67847	-6.96775	0.67847	-6.96775	0.59703	121.71015
3870	0.58723	118.8749	0.67365	-7.85893	0.67365	-7.85893	0.58723	118.8749
3890	0.57742	116.03965	0.66884	-8.75011	0.66884	-8.75011	0.57742	116.03965
3910	0.56762	113.2044	0.66402	-9.64129	0.66402	-9.64129	0.56762	113.2044
3930	0.55782	110.36915	0.6592	-10.53247	0.6592	-10.53247	0.55782	110.36915
3950	0.54801	107.5339	0.65438	-11.42365	0.65438	-11.42365	0.54801	107.5339
3970	0.54851	106.31203	0.66309	-13.19359	0.66309	-13.19359	0.54851	106.31203
3990	0.549	105.09016	0.67179	-14.96353	0.67179	-14.96353	0.549	105.09016
4010	0.5495	103.86829	0.68049	-16.73348	0.68049	-16.73348	0.5495	103.86829
4030	0.54999	102.64642	0.68919	-18.50342	0.68919	-18.50342	0.54999	102.64642
4050	0.55049	101.42455	0.6979	-20.27336	0.6979	-20.27336	0.55049	101.42455
4070	0.55982	99.19059	0.69777	-22.77544	0.69777	-22.77544	0.55982	99.19059
4090	0.56915	96.95663	0.69763	-25.27752	0.69763	-25.27752	0.56915	96.95663
4110	0.57848	94.72267	0.6975	-27.77959	0.6975	-27.77959	0.57848	94.72267
4130	0.58781	92.48871	0.69737	-30.28167	0.69737	-30.28167	0.58781	92.48871
4150	0.59714	90.25475	0.69724	-32.78374	0.69724	-32.78374	0.59714	90.25475
4170	0.60518	87.59752	0.69239	-35.1728	0.69239	-35.1728	0.60518	87.59752
4190	0.61322	84.94028	0.68754	-37.56185	0.68754	-37.56185	0.61322	84.94028
4210	0.62125	82.28304	0.68269	-39.95091	0.68269	-39.95091	0.62125	82.28304
4230	0.62929	79.62581	0.67784	-42.33996	0.67784	-42.33996	0.62929	79.62581
4250	0.63732	76.96857	0.67299	-44.72902	0.67299	-44.72902	0.63732	76.96857
4270	0.64372	74.12492	0.66766	-46.87412	0.66766	-46.87412	0.64372	74.12492
4290	0.65012	71.28127	0.66233	-49.01923	0.66233	-49.01923	0.65012	71.28127
4310	0.65652	68.43761	0.657	-51.16434	0.657	-51.16434	0.65652	68.43761
4330	0.66291	65.59396	0.65167	-53.30945	0.65167	-53.30945	0.66291	65.59396
4350	0.66931	62.7503	0.64634	-55.45456	0.64634	-55.45456	0.66931	62.7503
4370	0.67482	60.05266	0.63893	-57.62097	0.63893	-57.62097	0.67482	60.05266
4390	0.68033	57.35501	0.63152	-59.78739	0.63152	-59.78739	0.68033	57.35501
4410	0.68584	54.65737	0.6241	-61.95381	0.6241	-61.95381	0.68584	54.65737
4430	0.69135	51.95973	0.61669	-64.12023	0.61669	-64.12023	0.69135	51.95973
4450	0.69686	49.26208	0.60927	-66.28665	0.60927	-66.28665	0.69686	49.26208
4470	0.69929	46.37615	0.6022	-68.20715	0.6022	-68.20715	0.69929	46.37615
4490	0.70172	43.49021	0.59513	-70.12764	0.59513	-70.12764	0.70172	43.49021
4510	0.70415	40.60428	0.58807	-72.04814	0.58807	-72.04814	0.70415	40.60428
4530	0.70658	37.71835	0.581	-73.96863	0.581	-73.96863	0.70658	37.71835
4550	0.70901	34.83241	0.57393	-75.88913	0.57393	-75.88913	0.70901	34.83241
4570	0.7129	32.08518	0.56582	-77.76347	0.56582	-77.76347	0.7129	32.08518
4590	0.7168	29.33796	0.55771	-79.63782	0.55771	-79.63782	0.7168	29.33796
4610	0.72069	26.59073	0.5496	-81.51217	0.5496	-81.51217	0.72069	26.59073
4630	0.72459	23.8435	0.54149	-83.38651	0.54149	-83.38651	0.72459	23.8435
4650	0.72848	21.09627	0.53338	-85.26086	0.53338	-85.26086	0.72848	21.09627
4670	0.72809	18.09998	0.52449	-87.01832	0.52449	-87.01832	0.72809	18.09998
4690	0.72771	15.10369	0.5156	-88.77578	0.5156	-88.77578	0.72771	15.10369
4710	0.72732	12.1074	0.5067	-90.53324	0.5067	-90.53324	0.72732	12.1074
4730	0.72693	9.11111	0.49781	-92.2907	0.49781	-92.2907	0.72693	9.11111
4750	0.72655	6.11482	0.48892	-94.04816	0.48892	-94.04816	0.72655	6.11482
4770	0.7224	3.22421	0.4817	-95.0651	0.4817	-95.0651	0.7224	3.22421
4790	0.71826	0.33361	0.47447	-96.08203	0.47447	-96.08203	0.71826	0.33361
4810	0.71411	-2.557	0.46724	-97.09896	0.46724	-97.09896	0.71411	-2.557
4830	0.70997	-5.4476	0.46002	-98.1159	0.46002	-98.1159	0.70997	-5.4476
4850	0.70583	-8.33821	0.45279	-99.13283	0.45279	-99.13283	0.70583	-8.33821
4870	0.69846	-10.49095	0.45548	-99.92267	0.45548	-99.92267	0.69846	-10.49095
4890	0.6911	-12.6437	0.45817	-100.71251	0.45817	-100.71251	0.6911	-12.6437
4910	0.68374	-14.79645	0.46086	-101.50236	0.46086	-101.50236	0.68374	-14.79645
4930	0.67637	-16.9492	0.46354	-102.2922	0.46354	-102.2922	0.67637	-16.9492
4950	0.66901	-19.10195	0.46623	-103.08204	0.46623	-103.08204	0.66901	-19.10195
4970	0.67464	-20.71638	0.47074	-105.31421	0.47074	-105.31421	0.67464	-20.71638
4990	0.68027	-22.33081	0.47524	-107.54639	0.47524	-107.54639	0.68027	-22.33081
5010	0.6859	-23.94525	0.47974	-109.77856	0.47974	-109.77856	0.6859	-23.94525
5030	0.69153	-25.55968	0.48425	-112.01074	0.48425	-112.01074	0.69153	-25.55968
5050	0.69716	-27.17412	0.48875	-114.24292	0.48875	-114.24292	0.69716	-27.17412
5070	0.70494	-29.65728	0.48491	-116.76161	0.48491	-116.76161	0.70494	-29.65728
5090	0.71272	-32.14044	0.48108	-119.2803	0.48108	-119.2803	0.71272	-32.14044
5110	0.7205	-34.6236	0.47724	-121.799	0.47724	-121.799	0.7205	-34.6236
5130	0.72828	-37.10676	0.47341	-124.31769	0.47341	-124.31769	0.72828	-37.10676
5150	0.73606	-39.58993	0.46957	-126.83638	0.46957	-126.83638	0.73606	-39.58993
5170	0.74303	-42.2545	0.46259	-129.12202	0.46259	-129.12202	0.74303	-42.2545
5190	0.75	-44.91908	0.4556	-131.40766	0.4556	-131.40766	0.75	-44.91908
5210	0.75696	-47.58366	0.44861	-133.69329	0.44861	-133.69329	0.75696	-47.58366
5230	0.76393	-50.24823	0.44163	-135.97893	0.44163	-135.97893	0.76393	-50.24823
5250	0.7709	-52.91281	0.43464	-138.26456	0.43464	-138.26456	0.7709	-52.91281
5270	0.77449	-55.75404	0.42828	-140.2657	0.42828	-140.2657	0.77449	-55.75404
5290	0.77809	-58.59526	0.42192	-142.26683	0.42192	-142.26683	0.77809	-58.59526
5310	0.78169	-61.43648	0.41555	-144.26796	0.41555	-144.26796	0.78169	-61.43648
