! P/N: L-15CR56JE								
! Measured by Marlon								
! Oct. 13, 2003								
! Measure with Series-through-Fixture								
#	mhz	s	ma	r	50
0	0.00000	90.0000	0.99999	0.00000	0.99999	0.00000	0.00000	90.0000			
50	0.86761	30.22133	0.48277	-55.69666	0.48277	-55.69666	0.86761	30.22133
70	0.91372	20.76736	0.35683	-65.5541	0.35683	-65.5541	0.91372	20.76736
90	0.94751	15.82348	0.26826	-70.84941	0.26826	-70.84941	0.94751	15.82348
110	0.97591	11.84404	0.20199	-74.91685	0.20199	-74.91685	0.97591	11.84404
130	0.99494	7.94219	0.14815	-78.54345	0.14815	-78.54345	0.99494	7.94219
150	0.98972	5.8899	0.10199	-79.96905	0.10199	-79.96905	0.98972	5.8899
170	0.99999	3.58531	0.06811	-80.85344	0.06811	-80.85344	0.99999	3.58531
190	0.99999	1.46587	0.03663	-77.41491	0.03663	-77.41491	0.99999	1.46587
210	0.99999	-0.06062	0.01836	-17.13668	0.01836	-17.13668	0.99999	-0.06062
230	0.99999	-1.36222	0.01983	71.8136	0.01983	71.8136	0.99999	-1.36222
250	0.99999	-3.5828	0.04326	80.58377	0.04326	80.58377	0.99999	-3.5828
270	0.99413	-4.55224	0.06521	81.61512	0.06521	81.61512	0.99413	-4.55224
290	0.99679	-5.3442	0.08664	81.65339	0.08664	81.65339	0.99679	-5.3442
310	0.99996	-6.6423	0.10679	80.87592	0.10679	80.87592	0.99996	-6.6423
330	0.99447	-8.34044	0.12541	79.8085	0.12541	79.8085	0.99447	-8.34044
350	0.98281	-9.54276	0.14276	79.32542	0.14276	79.32542	0.98281	-9.54276
370	0.98801	-10.52197	0.16203	77.95344	0.16203	77.95344	0.98801	-10.52197
390	0.98455	-11.60948	0.17843	76.72358	0.17843	76.72358	0.98455	-11.60948
410	0.98218	-12.47962	0.19434	75.88922	0.19434	75.88922	0.98218	-12.47962
430	0.98283	-13.22122	0.21083	75.16536	0.21083	75.16536	0.98283	-13.22122
450	0.98058	-14.33768	0.22764	73.72858	0.22764	73.72858	0.98058	-14.33768
470	0.97046	-15.07417	0.24052	72.97873	0.24052	72.97873	0.97046	-15.07417
490	0.97322	-14.63291	0.2429	72.46352	0.2429	72.46352	0.97322	-14.63291
510	0.97228	-14.4164	0.2489	71.46566	0.2489	71.46566	0.97228	-14.4164
530	0.96402	-14.78685	0.26187	70.13452	0.26187	70.13452	0.96402	-14.78685
550	0.95779	-15.06618	0.2744	69.48609	0.2744	69.48609	0.95779	-15.06618
570	0.94912	-15.92863	0.28785	68.61129	0.28785	68.61129	0.94912	-15.92863
590	0.94325	-16.70081	0.30025	67.80514	0.30025	67.80514	0.94325	-16.70081
610	0.94106	-17.62907	0.31303	67.04022	0.31303	67.04022	0.94106	-17.62907
630	0.93947	-18.72713	0.32591	66.22739	0.32591	66.22739	0.93947	-18.72713
650	0.93146	-19.77606	0.33684	65.2158	0.33684	65.2158	0.93146	-19.77606
670	0.92863	-20.10681	0.34771	64.78198	0.34771	64.78198	0.92863	-20.10681
690	0.93012	-20.58236	0.35892	64.03204	0.35892	64.03204	0.93012	-20.58236
710	0.92832	-21.08775	0.36978	63.14644	0.36978	63.14644	0.92832	-21.08775
730	0.92111	-21.54295	0.38078	62.27778	0.38078	62.27778	0.92111	-21.54295
750	0.91176	-21.9029	0.39353	61.55089	0.39353	61.55089	0.91176	-21.9029
770	0.9048	-22.67748	0.40456	60.395	0.40456	60.395	0.9048	-22.67748
790	0.89621	-23.61949	0.41589	59.6865	0.41589	59.6865	0.89621	-23.61949
810	0.88988	-24.64929	0.42809	58.86734	0.42809	58.86734	0.88988	-24.64929
830	0.885	-25.61508	0.44017	57.87178	0.44017	57.87178	0.885	-25.61508
850	0.87614	-26.29283	0.44962	57.12645	0.44962	57.12645	0.87614	-26.29283
870	0.87591	-26.57132	0.46011	56.64679	0.46011	56.64679	0.87591	-26.57132
890	0.87152	-27.45269	0.47268	55.50544	0.47268	55.50544	0.87152	-27.45269
910	0.86221	-28.16135	0.48402	54.46918	0.48402	54.46918	0.86221	-28.16135
930	0.85025	-28.58408	0.49415	53.67944	0.49415	53.67944	0.85025	-28.58408
950	0.84095	-29.27009	0.50642	52.65224	0.50642	52.65224	0.84095	-29.27009
970	0.82758	-30.62124	0.52039	51.42037	0.52039	51.42037	0.82758	-30.62124
990	0.8139	-31.63879	0.53317	50.39327	0.53317	50.39327	0.8139	-31.63879
1010	0.79921	-32.58145	0.54558	49.14405	0.54558	49.14405	0.79921	-32.58145
1030	0.78399	-33.51264	0.55839	47.53276	0.55839	47.53276	0.78399	-33.51264
1050	0.7698	-34.30053	0.57239	45.70636	0.57239	45.70636	0.7698	-34.30053
1070	0.74669	-35.34248	0.5873	43.48243	0.5873	43.48243	0.74669	-35.34248
1090	0.70879	-35.95041	0.59831	40.18664	0.59831	40.18664	0.70879	-35.95041
1110	0.65977	-35.61003	0.60428	35.85847	0.60428	35.85847	0.65977	-35.61003
1130	0.6058	-33.17459	0.59575	30.28804	0.59575	30.28804	0.6058	-33.17459
1150	0.5556	-26.86483	0.55495	23.01614	0.55495	23.01614	0.5556	-26.86483
1170	0.60924	-18.13607	0.45148	20.56837	0.45148	20.56837	0.60924	-18.13607
1190	0.69503	-16.86225	0.38327	28.55559	0.38327	28.55559	0.69503	-16.86225
1210	0.76796	-19.61239	0.36743	38.88691	0.36743	38.88691	0.76796	-19.61239
1230	0.80903	-23.50703	0.39551	46.58559	0.39551	46.58559	0.80903	-23.50703
1250	0.82526	-26.21825	0.43346	49.78899	0.43346	49.78899	0.82526	-26.21825
1270	0.83174	-28.79971	0.46491	50.0156	0.46491	50.0156	0.83174	-28.79971
1290	0.83026	-30.48402	0.48791	49.72639	0.48791	49.72639	0.83026	-30.48402
1310	0.82507	-31.53571	0.50695	49.33072	0.50695	49.33072	0.82507	-31.53571
1330	0.81936	-32.34772	0.52425	48.91043	0.52425	48.91043	0.81936	-32.34772
1350	0.81527	-33.44142	0.53979	48.21985	0.53979	48.21985	0.81527	-33.44142
1370	0.80318	-34.45834	0.55155	47.56216	0.55155	47.56216	0.80318	-34.45834
1390	0.79513	-35.46502	0.56593	46.90469	0.56593	46.90469	0.79513	-35.46502
1410	0.78752	-36.4585	0.57797	46.28993	0.57797	46.28993	0.78752	-36.4585
1430	0.78041	-37.39485	0.58669	45.70114	0.58669	45.70114	0.78041	-37.39485
1450	0.77753	-38.18918	0.59511	45.06233	0.59511	45.06233	0.77753	-38.18918
1470	0.7748	-38.96473	0.60381	44.37423	0.60381	44.37423	0.7748	-38.96473
1490	0.76836	-39.3992	0.61051	43.74127	0.61051	43.74127	0.76836	-39.3992
1510	0.76067	-39.64493	0.61814	43.31175	0.61814	43.31175	0.76067	-39.64493
1530	0.75293	-39.91703	0.62679	42.88475	0.62679	42.88475	0.75293	-39.91703
1550	0.74508	-40.49337	0.63373	41.9101	0.63373	41.9101	0.74508	-40.49337
1570	0.73267	-41.19405	0.63871	41.34269	0.63871	41.34269	0.73267	-41.19405
1590	0.72076	-41.91684	0.64478	40.60808	0.64478	40.60808	0.72076	-41.91684
1610	0.71155	-42.75802	0.65214	39.99203	0.65214	39.99203	0.71155	-42.75802
1630	0.70512	-43.68687	0.65982	39.53208	0.65982	39.53208	0.70512	-43.68687
1650	0.69938	-44.54566	0.66565	39.01754	0.66565	39.01754	0.69938	-44.54566
1670	0.69567	-45.03584	0.6723	38.38128	0.6723	38.38128	0.69567	-45.03584
1690	0.69116	-45.36386	0.67915	38.01334	0.67915	38.01334	0.69116	-45.36386
1710	0.68538	-45.77961	0.68506	37.46429	0.68506	37.46429	0.68538	-45.77961
1730	0.67807	-46.29253	0.69058	36.73038	0.69058	36.73038	0.67807	-46.29253
1750	0.66912	-46.67157	0.69792	36.25357	0.69792	36.25357	0.66912	-46.67157
1770	0.65898	-47.32013	0.70363	35.82085	0.70363	35.82085	0.65898	-47.32013
1790	0.64942	-48.23872	0.70792	35.0185	0.70792	35.0185	0.64942	-48.23872
1810	0.64135	-49.17348	0.7124	34.38929	0.7124	34.38929	0.64135	-49.17348
1830	0.63548	-50.03631	0.7187	33.95545	0.7187	33.95545	0.63548	-50.03631
1850	0.63241	-50.90493	0.72841	33.21869	0.72841	33.21869	0.63241	-50.90493
1870	0.62599	-51.44243	0.72734	32.3545	0.72734	32.3545	0.62599	-51.44243
1890	0.61869	-51.64281	0.73114	31.96617	0.73114	31.96617	0.61869	-51.64281
1910	0.61059	-51.93764	0.73668	31.43801	0.73668	31.43801	0.61059	-51.93764
1930	0.60058	-52.39798	0.74168	30.53842	0.74168	30.53842	0.60058	-52.39798
1950	0.58638	-52.7344	0.74479	29.41991	0.74479	29.41991	0.58638	-52.7344
1970	0.5726	-52.94995	0.74825	28.51244	0.74825	28.51244	0.5726	-52.94995
1990	0.56034	-52.8321	0.74903	27.37604	0.74903	27.37604	0.56034	-52.8321
2010	0.54375	-52.54329	0.74776	26.09904	0.74776	26.09904	0.54375	-52.54329
2030	0.52394	-51.87735	0.74188	24.6933	0.74188	24.6933	0.52394	-51.87735
2050	0.50895	-50.25953	0.72566	23.09418	0.72566	23.09418	0.50895	-50.25953
2070	0.50486	-47.08363	0.70389	22.26749	0.70389	22.26749	0.50486	-47.08363
2090	0.51457	-43.90571	0.67488	22.43481	0.67488	22.43481	0.51457	-43.90571
2110	0.53811	-41.84749	0.6501	23.76422	0.6501	23.76422	0.53811	-41.84749
2130	0.5694	-41.46769	0.63709	26.06936	0.63709	26.06936	0.5694	-41.46769
2150	0.59623	-42.76194	0.63948	28.80948	0.63948	28.80948	0.59623	-42.76194
2170	0.60933	-44.797	0.65736	30.10336	0.65736	30.10336	0.60933	-44.797
2190	0.61354	-46.89386	0.67378	30.773	0.67378	30.773	0.61354	-46.89386
2210	0.613	-48.80867	0.69048	31.01369	0.69048	31.01369	0.613	-48.80867
2230	0.61056	-50.47999	0.70705	30.93655	0.70705	30.93655	0.61056	-50.47999
2250	0.60778	-52.02876	0.72092	30.5686	0.72092	30.5686	0.60778	-52.02876
2270	0.60071	-52.82435	0.72988	30.31914	0.72988	30.31914	0.60071	-52.82435
2290	0.59585	-53.69024	0.74207	29.98162	0.74207	29.98162	0.59585	-53.69024
2310	0.59	-54.68471	0.75101	29.44961	0.75101	29.44961	0.59	-54.68471
2330	0.5816	-55.64616	0.75541	28.85496	0.75541	28.85496	0.5816	-55.64616
2350	0.57067	-56.19309	0.75918	28.56781	0.75918	28.56781	0.57067	-56.19309
2370	0.56586	-56.79501	0.76962	28.14683	0.76962	28.14683	0.56586	-56.79501
2390	0.5583	-57.77227	0.77582	27.49691	0.77582	27.49691	0.5583	-57.77227
2410	0.55103	-58.72479	0.78001	26.95425	0.78001	26.95425	0.55103	-58.72479
2430	0.54568	-59.49599	0.78347	26.64823	0.78347	26.64823	0.54568	-59.49599
2450	0.54251	-60.17277	0.7865	26.50142	0.7865	26.50142	0.54251	-60.17277
2470	0.54115	-60.73095	0.79456	25.89262	0.79456	25.89262	0.54115	-60.73095
2490	0.53522	-61.12135	0.79635	25.49974	0.79635	25.49974	0.53522	-61.12135
2510	0.52812	-61.42586	0.79894	25.14319	0.79894	25.14319	0.52812	-61.42586
2530	0.52143	-61.70791	0.80383	24.74909	0.80383	24.74909	0.52143	-61.70791
2550	0.51485	-62.01242	0.80695	24.34927	0.80695	24.34927	0.51485	-62.01242
2570	0.50664	-62.44375	0.81057	23.95793	0.81057	23.95793	0.50664	-62.44375
2590	0.49909	-63.04183	0.81439	23.51179	0.81439	23.51179	0.49909	-63.04183
2610	0.49213	-63.75345	0.81834	23.02356	0.81834	23.02356	0.49213	-63.75345
2630	0.48611	-64.45662	0.82127	22.51841	0.82127	22.51841	0.48611	-64.45662
2650	0.48187	-64.96053	0.82095	22.03397	0.82095	22.03397	0.48187	-64.96053
2670	0.47907	-65.47711	0.82878	21.89545	0.82878	21.89545	0.47907	-65.47711
2690	0.47441	-65.6076	0.83032	21.48625	0.83032	21.48625	0.47441	-65.6076
2710	0.46818	-65.88107	0.8317	21.00752	0.8317	21.00752	0.46818	-65.88107
2730	0.46064	-66.29043	0.835	20.64201	0.835	20.64201	0.46064	-66.29043
2750	0.45199	-66.29243	0.83828	20.55409	0.83828	20.55409	0.45199	-66.29243
2770	0.44675	-66.90702	0.83812	19.82579	0.83812	19.82579	0.44675	-66.90702
2790	0.44067	-67.24645	0.84165	19.23606	0.84165	19.23606	0.44067	-67.24645
2810	0.43382	-67.55455	0.84344	18.79928	0.84344	18.79928	0.43382	-67.55455
2830	0.42663	-67.72405	0.84245	18.47429	0.84245	18.47429	0.42663	-67.72405
2850	0.4199	-67.29653	0.84207	18.16442	0.84207	18.16442	0.4199	-67.29653
2870	0.41062	-67.39438	0.84491	17.30315	0.84491	17.30315	0.41062	-67.39438
2890	0.39921	-67.47167	0.84359	16.75279	0.84359	16.75279	0.39921	-67.47167
2910	0.38841	-67.45231	0.84125	16.25623	0.84125	16.25623	0.38841	-67.45231
2930	0.37853	-67.21802	0.83862	15.63329	0.83862	15.63329	0.37853	-67.21802
2950	0.36747	-66.60835	0.83399	14.7807	0.83399	14.7807	0.36747	-66.60835
2970	0.36087	-65.61633	0.83117	14.37796	0.83117	14.37796	0.36087	-65.61633
2990	0.35633	-64.5545	0.8188	14.09187	0.8188	14.09187	0.35633	-64.5545
3010	0.35662	-62.82072	0.80524	13.85661	0.80524	13.85661	0.35662	-62.82072
3030	0.36297	-60.61354	0.79408	13.79294	0.79408	13.79294	0.36297	-60.61354
3050	0.37499	-58.93228	0.78418	14.20822	0.78418	14.20822	0.37499	-58.93228
3070	0.38823	-58.34973	0.77699	15.12503	0.77699	15.12503	0.38823	-58.34973
3090	0.40068	-58.82479	0.77482	16.10299	0.77482	16.10299	0.40068	-58.82479
3110	0.41048	-60.15613	0.78147	16.88051	0.78147	16.88051	0.41048	-60.15613
3130	0.41652	-61.96021	0.79426	17.35472	0.79426	17.35472	0.41652	-61.96021
3150	0.41852	-63.6713	0.80401	17.58145	0.80401	17.58145	0.41852	-63.6713
3170	0.41762	-65.13569	0.81109	17.70482	0.81109	17.70482	0.41762	-65.13569
3190	0.41772	-66.44439	0.82419	17.63986	0.82419	17.63986	0.41772	-66.44439
3210	0.41581	-67.64649	0.83224	17.43312	0.83224	17.43312	0.41581	-67.64649
3230	0.41077	-68.70179	0.83352	17.13828	0.83352	17.13828	0.41077	-68.70179
3250	0.40332	-69.48074	0.83566	16.81629	0.83566	16.81629	0.40332	-69.48074
3270	0.39624	-69.94481	0.84598	16.55434	0.84598	16.55434	0.39624	-69.94481
3290	0.3907	-70.99156	0.84961	16.10312	0.84961	16.10312	0.3907	-70.99156
3310	0.38626	-72.21179	0.853	15.74562	0.853	15.74562	0.38626	-72.21179
3330	0.38292	-73.17852	0.85927	15.46994	0.85927	15.46994	0.38292	-73.17852
3350	0.38112	-73.44709	0.86815	14.9693	0.86815	14.9693	0.38112	-73.44709
3370	0.37531	-73.98732	0.86923	14.86355	0.86923	14.86355	0.37531	-73.98732
3390	0.37143	-74.29409	0.86834	14.68743	0.86834	14.68743	0.37143	-74.29409
3410	0.36686	-74.55367	0.86859	14.29144	0.86859	14.29144	0.36686	-74.55367
3430	0.36046	-74.89675	0.87109	13.79558	0.87109	13.79558	0.36046	-74.89675
3450	0.35257	-75.39843	0.8749	13.58933	0.8749	13.58933	0.35257	-75.39843
3470	0.34486	-76.02036	0.87321	13.25026	0.87321	13.25026	0.34486	-76.02036
3490	0.34075	-76.6928	0.87603	13.15538	0.87603	13.15538	0.34075	-76.6928
3510	0.33673	-77.66141	0.87792	12.9728	0.87792	12.9728	0.33673	-77.66141
3530	0.33213	-78.66424	0.87764	12.62074	0.87764	12.62074	0.33213	-78.66424
3550	0.32914	-78.93178	0.87814	12.26748	0.87814	12.26748	0.32914	-78.93178
3570	0.32878	-79.13194	0.88376	11.87831	0.88376	11.87831	0.32878	-79.13194
3590	0.32433	-79.51674	0.8842	11.48859	0.8842	11.48859	0.32433	-79.51674
3610	0.31868	-79.73534	0.88421	11.24344	0.88421	11.24344	0.31868	-79.73534
3630	0.31353	-79.83791	0.88622	11.04846	0.88622	11.04846	0.31353	-79.83791
3650	0.30941	-80.27568	0.89041	10.56971	0.89041	10.56971	0.30941	-80.27568
3670	0.30336	-80.55384	0.88582	10.33576	0.88582	10.33576	0.30336	-80.55384
3690	0.29843	-80.66485	0.88831	9.98852	0.88831	9.98852	0.29843	-80.66485
3710	0.29391	-80.96992	0.88995	9.6866	0.88995	9.6866	0.29391	-80.96992
3730	0.28912	-81.38092	0.88866	9.3929	0.88866	9.3929	0.28912	-81.38092
3750	0.2834	-81.36032	0.8882	8.87458	0.8882	8.87458	0.2834	-81.36032
3770	0.27863	-81.00144	0.88779	8.7256	0.88779	8.7256	0.27863	-81.00144
3790	0.27373	-81.01539	0.88903	8.09398	0.88903	8.09398	0.27373	-81.01539
3810	0.26724	-80.7795	0.8878	7.6333	0.8878	7.6333	0.26724	-80.7795
3830	0.25984	-80.2045	0.88365	7.50861	0.88365	7.50861	0.25984	-80.2045
3850	0.2543	-79.73451	0.87973	7.39645	0.87973	7.39645	0.2543	-79.73451
3870	0.25041	-78.99024	0.87289	7.06479	0.87289	7.06479	0.25041	-78.99024
3890	0.24781	-77.99159	0.8706	6.84077	0.8706	6.84077	0.24781	-77.99159
3910	0.24718	-76.94952	0.86517	6.62651	0.86517	6.62651	0.24718	-76.94952
3930	0.24885	-75.9633	0.85615	6.53843	0.85615	6.53843	0.24885	-75.9633
3950	0.25278	-75.02046	0.85035	6.90721	0.85035	6.90721	0.25278	-75.02046
3970	0.26105	-74.57712	0.84737	7.36959	0.84737	7.36959	0.26105	-74.57712
3990	0.26915	-74.74578	0.8475	7.63351	0.8475	7.63351	0.26915	-74.74578
4010	0.27555	-75.22413	0.84985	7.87604	0.84985	7.87604	0.27555	-75.22413
4030	0.27995	-75.98166	0.85283	8.11163	0.85283	8.11163	0.27995	-75.98166
4050	0.28327	-77.25962	0.85411	8.19206	0.85411	8.19206	0.28327	-77.25962
4070	0.28255	-78.12661	0.86291	8.50036	0.86291	8.50036	0.28255	-78.12661
4090	0.28028	-79.3903	0.86866	8.2903	0.86866	8.2903	0.28028	-79.3903
4110	0.27702	-80.80038	0.87294	8.20284	0.87294	8.20284	0.27702	-80.80038
4130	0.27388	-82.17068	0.87771	8.31049	0.87771	8.31049	0.27388	-82.17068
4150	0.27249	-83.3792	0.88527	8.11725	0.88527	8.11725	0.27249	-83.3792
4170	0.27123	-85.1044	0.8904	7.38651	0.8904	7.38651	0.27123	-85.1044
4190	0.26962	-86.07177	0.89072	7.29718	0.89072	7.29718	0.26962	-86.07177
4210	0.26867	-86.76969	0.89033	7.21969	0.89033	7.21969	0.26867	-86.76969
4230	0.26745	-87.38899	0.89156	6.93324	0.89156	6.93324	0.26745	-87.38899
4250	0.2631	-87.82294	0.89502	6.62584	0.89502	6.62584	0.2631	-87.82294
4270	0.25863	-88.02161	0.89749	6.66083	0.89749	6.66083	0.25863	-88.02161
4290	0.25468	-88.73047	0.89937	6.36229	0.89937	6.36229	0.25468	-88.73047
4310	0.25111	-89.61028	0.90146	6.06013	0.90146	6.06013	0.25111	-89.61028
4330	0.24808	-90.4672	0.90359	5.87873	0.90359	5.87873	0.24808	-90.4672
4350	0.24602	-91.25278	0.90459	5.73694	0.90459	5.73694	0.24602	-91.25278
4370	0.24453	-91.98974	0.90564	5.313	0.90564	5.313	0.24453	-91.98974
4390	0.24233	-92.5389	0.90333	5.10855	0.90333	5.10855	0.24233	-92.5389
4410	0.24101	-92.71067	0.90721	4.871	0.90721	4.871	0.24101	-92.71067
4430	0.2396	-92.64836	0.91495	4.59912	0.91495	4.59912	0.2396	-92.64836
4450	0.23456	-92.82825	0.91235	4.54305	0.91235	4.54305	0.23456	-92.82825
4470	0.22882	-93.03683	0.91219	4.27161	0.91219	4.27161	0.22882	-93.03683
4490	0.22434	-93.74967	0.91156	3.91335	0.91156	3.91335	0.22434	-93.74967
4510	0.22033	-94.34365	0.90972	3.78823	0.90972	3.78823	0.22033	-94.34365
4530	0.21692	-94.81658	0.90888	3.82282	0.90888	3.82282	0.21692	-94.81658
4550	0.21511	-95.78723	0.9142	3.55021	0.9142	3.55021	0.21511	-95.78723
4570	0.21217	-96.38028	0.91239	3.06102	0.91239	3.06102	0.21217	-96.38028
4590	0.21018	-96.59457	0.91337	2.92605	0.91337	2.92605	0.21018	-96.59457
4610	0.20816	-96.61185	0.91495	2.7291	0.91495	2.7291	0.20816	-96.61185
4630	0.20527	-96.63887	0.91551	2.36079	0.91551	2.36079	0.20527	-96.63887
4650	0.20078	-96.90736	0.91405	2.01858	0.91405	2.01858	0.20078	-96.90736
4670	0.19635	-96.7169	0.91314	1.7707	0.91314	1.7707	0.19635	-96.7169
4690	0.19324	-96.70727	0.91152	1.63296	0.91152	1.63296	0.19324	-96.70727
4710	0.18976	-96.92014	0.91115	1.39738	0.91115	1.39738	0.18976	-96.92014
4730	0.18547	-97.07498	0.91225	1.07616	0.91225	1.07616	0.18547	-97.07498
4750	0.1812	-96.56904	0.91335	0.90172	0.91335	0.90172	0.1812	-96.56904
4770	0.17975	-96.56357	0.9116	0.58257	0.9116	0.58257	0.17975	-96.56357
4790	0.17791	-96.26365	0.91031	0.31298	0.91031	0.31298	0.17791	-96.26365
4810	0.17513	-95.48613	0.90799	0.08791	0.90799	0.08791	0.17513	-95.48613
4830	0.17184	-94.19969	0.90454	-0.09368	0.90454	-0.09368	0.17184	-94.19969
4850	0.16938	-92.52487	0.90125	-0.22893	0.90125	-0.22893	0.16938	-92.52487
4870	0.16847	-91.11817	0.89693	-0.25502	0.89693	-0.25502	0.16847	-91.11817
4890	0.16763	-90.17485	0.89104	-0.45676	0.89104	-0.45676	0.16763	-90.17485
4910	0.1688	-89.57199	0.88572	-0.46943	0.88572	-0.46943	0.1688	-89.57199
4930	0.1726	-89.22019	0.88264	-0.32131	0.88264	-0.32131	0.1726	-89.22019
4950	0.17832	-89.06354	0.88302	-0.43366	0.88302	-0.43366	0.17832	-89.06354
4970	0.18374	-89.52176	0.8815	0.21967	0.8815	0.21967	0.18374	-89.52176
4990	0.18895	-90.13665	0.88469	0.34834	0.88469	0.34834	0.18895	-90.13665
5010	0.19309	-90.64534	0.88889	0.22887	0.88889	0.22887	0.19309	-90.64534
5030	0.19552	-90.90327	0.89215	0.1097	0.89215	0.1097	0.19552	-90.90327
5050	0.19578	-90.88422	0.8942	0.21118	0.8942	0.21118	0.19578	-90.88422
5070	0.1939	-91.36843	0.89928	-0.12552	0.89928	-0.12552	0.1939	-91.36843
5090	0.19111	-92.00046	0.9008	-0.16539	0.9008	-0.16539	0.19111	-92.00046
5110	0.18782	-92.45783	0.90295	-0.28379	0.90295	-0.28379	0.18782	-92.45783
5130	0.18463	-92.87085	0.90594	-0.55664	0.90594	-0.55664	0.18463	-92.87085
5150	0.18241	-93.82268	0.90602	-0.7604	0.90602	-0.7604	0.18241	-93.82268
5170	0.18153	-94.47966	0.90832	-0.96473	0.90832	-0.96473	0.18153	-94.47966
5190	0.17792	-94.53	0.90878	-1.11179	0.90878	-1.11179	0.17792	-94.53
5210	0.17438	-94.17709	0.91033	-1.3423	0.91033	-1.3423	0.17438	-94.17709
5230	0.172	-93.64938	0.91265	-1.66711	0.91265	-1.66711	0.172	-93.64938
5250	0.17014	-93.20035	0.91216	-1.96714	0.91216	-1.96714	0.17014	-93.20035
5270	0.16633	-93.73395	0.91055	-2.2659	0.91055	-2.2659	0.16633	-93.73395
5290	0.16209	-93.27659	0.90945	-2.43599	0.90945	-2.43599	0.16209	-93.27659
5310	0.15995	-92.64218	0.91102	-2.6901	0.91102	-2.6901	0.15995	-92.64218
5330	0.15971	-92.25018	0.91234	-3.04117	0.91234	-3.04117	0.15971	-92.25018
5350	0.15839	-92.12559	0.9054	-3.30227	0.9054	-3.30227	0.15839	-92.12559
5370	0.15499	-90.86754	0.90515	-3.37286	0.90515	-3.37286	0.15499	-90.86754
5390	0.15357	-89.57744	0.90384	-3.61057	0.90384	-3.61057	0.15357	-89.57744
5410	0.15312	-88.05735	0.90269	-3.76478	0.90269	-3.76478	0.15312	-88.05735
