# MHZ S MA R 50

50.00    0.03   77.40    0.99   -0.10    0.99   -0.10    0.03   77.40
100.00   0.05   79.40    0.99   -1.90    0.99   -1.90    0.05   79.40
150.00   0.08   81.40    0.99   -3.70    0.99   -3.70    0.08   81.40
200.00   0.11   79.40    0.99   -5.30    0.99   -5.30    0.11   79.40
250.00   0.13   77.40    0.98   -7.00    0.98   -7.00    0.13   77.40
300.00   0.16   76.50    0.98   -8.70    0.98   -8.70    0.16   76.50
350.00   0.19   75.60    0.97   -10.50   0.97   -10.50   0.19   75.60
400.00   0.21   73.40    0.97   -12.10   0.97   -12.10   0.21   73.40
450.00   0.23   71.30    0.96   -13.80   0.96   -13.80   0.23   71.30
500.00   0.27   70.40    0.95   -16.30   0.95   -16.30   0.27   70.40
550.00   0.31   69.60    0.94   -18.80   0.94   -18.80   0.31   69.60
600.00   0.34   68.10    0.93   -20.50   0.93   -20.50   0.34   68.10
650.00   0.36   66.50    0.93   -22.20   0.93   -22.20   0.36   66.50
700.00   0.38   65.00    0.91   -23.90   0.91   -23.90   0.38   65.00
750.00   0.40   63.40    0.90   -25.50   0.90   -25.50   0.40   63.40
800.00   0.43   61.10    0.89   -27.30   0.89   -27.30   0.43   61.10
850.00   0.45   58.90    0.88   -29.10   0.88   -29.10   0.45   58.90
900.00   0.48   57.60    0.87   -30.50   0.87   -30.50   0.48   57.60
950.00   0.50   56.30    0.85   -32.00   0.85   -32.00   0.50   56.30
1000.00  0.52   54.90    0.84   -33.70   0.84   -33.70   0.52   54.90
1050.00  0.55   53.40    0.83   -35.50   0.83   -35.50   0.55   53.40
1100.00  0.56   51.90    0.81   -37.00   0.81   -37.00   0.56   51.90
1150.00  0.58   50.30    0.80   -38.60   0.80   -38.60   0.58   50.30
1200.00  0.61   49.10    0.78   -40.00   0.78   -40.00   0.61   49.10
1250.00  0.63   47.90    0.77   -41.50   0.77   -41.50   0.63   47.90
1300.00  0.64   46.20    0.75   -43.00   0.75   -43.00   0.64   46.20
1350.00  0.65   44.50    0.74   -44.50   0.74   -44.50   0.65   44.50
1400.00  0.67   43.00    0.72   -46.00   0.72   -46.00   0.67   43.00
1450.00  0.69   41.50    0.70   -47.40   0.70   -47.40   0.69   41.50
1500.00  0.71   39.90    0.69   -48.90   0.69   -48.90   0.71   39.90
1550.00  0.73   38.40    0.68   -50.40   0.68   -50.40   0.73   38.40
1600.00  0.74   37.00    0.66   -51.80   0.66   -51.80   0.74   37.00
1650.00  0.76   35.50    0.64   -53.30   0.64   -53.30   0.76   35.50
1700.00  0.77   34.40    0.63   -54.50   0.63   -54.50   0.77   34.40
1750.00  0.78   33.30    0.61   -55.60   0.61   -55.60   0.78   33.30
1800.00  0.80   31.80    0.59   -57.00   0.59   -57.00   0.80   31.80
1850.00  0.81   30.30    0.58   -58.50   0.58   -58.50   0.81   30.30
1900.00  0.82   28.80    0.56   -59.80   0.56   -59.80   0.82   28.80
1950.00  0.83   27.30    0.54   -61.10   0.54   -61.10   0.83   27.30
2000.00  0.84   25.90    0.52   -62.40   0.52   -62.40   0.84   25.90
2050.00  0.85   24.50    0.50   -63.70   0.50   -63.70   0.85   24.50
2100.00  0.86   23.60    0.49   -64.80   0.49   -64.80   0.86   23.60
2150.00  0.87   22.70    0.47   -65.90   0.47   -65.90   0.87   22.70
2200.00  0.88   21.00    0.45   -67.20   0.45   -67.20   0.88   21.00
2250.00  0.89   19.30    0.43   -68.60   0.43   -68.60   0.89   19.30
2300.00  0.90   18.50    0.42   -69.60   0.42   -69.60   0.90   18.50
2350.00  0.90   17.80    0.40   -70.50   0.40   -70.50   0.90   17.80
2400.00  0.91   16.50    0.38   -71.80   0.38   -71.80   0.91   16.50
2450.00  0.92   15.30    0.36   -73.20   0.36   -73.20   0.92   15.30
2500.00  0.93   13.80    0.35   -74.30   0.35   -74.30   0.93   13.80
2550.00  0.94   12.30    0.33   -75.50   0.33   -75.50   0.94   12.30
2600.00  0.94   11.40    0.31   -76.50   0.31   -76.50   0.94   11.40
2650.00  0.95   10.40    0.29   -77.40   0.29   -77.40   0.95   10.40
2700.00  0.95    9.10    0.28   -78.70   0.28   -78.70   0.95    9.10
2750.00  0.96    7.80    0.26   -79.90   0.26   -79.90   0.96    7.80
2800.00  0.96    6.80    0.24   -80.70   0.24   -80.70   0.96    6.80
2850.00  0.97    5.70    0.22   -81.60   0.22   -81.60   0.97    5.70
2900.00  0.97    4.40    0.21   -82.70   0.21   -82.70   0.97    4.40
2950.00  0.98    3.00    0.19   -83.80   0.19   -83.80   0.98    3.00
3000.00  0.98    1.90    0.17   -84.60   0.17   -84.60   0.98    1.90
3050.00  0.98    0.80    0.16   -85.30   0.16   -85.30   0.98    0.80
3100.00  0.99   -0.10    0.14   -85.70   0.14   -85.70   0.99   -0.10
3150.00  0.99   -1.00    0.12   -86.00   0.12   -86.00   0.99   -1.00
3200.00  0.99   -2.30    0.10   -86.40   0.10   -86.40   0.99   -2.30
3250.00  0.99   -3.60    0.09   -86.70   0.09   -86.70   0.99   -3.60
3300.00  0.99   -4.50    0.07   -85.70   0.07   -85.70   0.99   -4.50
3350.00  0.99   -5.40    0.05   -84.70   0.05   -84.70   0.99   -5.40
3400.00  0.99   -6.50    0.04   -78.10   0.04   -78.10   0.99   -6.50
3450.00  0.99   -7.70    0.02   -71.60   0.02   -71.60   0.99   -7.70
3500.00  0.99   -8.80    0.02   -16.00   0.02   -16.00   0.99   -8.80
3550.00  0.99   -10.00   0.01   39.60    0.01   39.60    0.99   -10.00
3600.00  0.99   -11.10   0.03   52.50    0.03   52.50    0.99   -11.10
3650.00  0.99   -12.20   0.04   65.40    0.04   65.40    0.99   -12.20
3700.00  0.99   -13.40   0.06   67.20    0.06   67.20    0.99   -13.40
3750.00  0.99   -14.50   0.08   69.00    0.08   69.00    0.99   -14.50
3800.00  0.99   -15.50   0.09   69.00    0.09   69.00    0.99   -15.50
3850.00  0.99   -16.60   0.10   68.90    0.10   68.90    0.99   -16.60
3900.00  0.98   -17.90   0.12   68.60    0.12   68.60    0.98   -17.90
3950.00  0.98   -19.30   0.14   68.30    0.14   68.30    0.98   -19.30
4000.00  0.98   -20.20   0.15   67.60    0.15   67.60    0.98   -20.20
4050.00  0.97   -21.20   0.16   67.00    0.16   67.00    0.97   -21.20
4100.00  0.97   -22.40   0.18   66.30    0.18   66.30    0.97   -22.40
4150.00  0.96   -23.50   0.19   65.60    0.19   65.60    0.96   -23.50
4200.00  0.96   -24.50   0.20   65.00    0.20   65.00    0.96   -24.50
4250.00  0.96   -25.50   0.22   64.50    0.22   64.50    0.96   -25.50
4300.00  0.95   -26.80   0.23   63.70    0.23   63.70    0.95   -26.80
4350.00  0.95   -28.00   0.24   62.90    0.24   62.90    0.95   -28.00
4400.00  0.95   -29.30   0.26   61.90    0.26   61.90    0.95   -29.30
4450.00  0.95   -30.60   0.27   60.80    0.27   60.80    0.95   -30.60
4500.00  0.94   -31.40   0.28   60.20    0.28   60.20    0.94   -31.40
4550.00  0.93   -32.30   0.29   59.60    0.29   59.60    0.93   -32.30
4600.00  0.93   -33.50   0.31   58.80    0.31   58.80    0.93   -33.50
4650.00  0.94   -34.80   0.32   58.00    0.32   58.00    0.94   -34.80
4700.00  0.93   -36.00   0.33   57.10    0.33   57.10    0.93   -36.00
4750.00  0.92   -37.20   0.34   56.20    0.34   56.20    0.92   -37.20
4800.00  0.92   -38.50   0.35   55.30    0.35   55.30    0.92   -38.50
4850.00  0.91   -39.70   0.37   54.40    0.37   54.40    0.91   -39.70
4900.00  0.91   -40.40   0.38   53.90    0.38   53.90    0.91   -40.40
4950.00  0.91   -41.20   0.39   53.40    0.39   53.40    0.91   -41.20
5000.00  0.90   -42.80   0.40   52.40    0.40   52.40    0.90   -42.80
5050.00  0.90   -44.40   0.41   51.40    0.41   51.40    0.90   -44.40
5100.00  0.88   -45.20   0.42   50.60    0.42   50.60    0.88   -45.20
5150.00  0.87   -46.10   0.43   49.80    0.43   49.80    0.87   -46.10
5200.00  0.87   -46.60   0.44   49.30    0.44   49.30    0.87   -46.60
5250.00  0.87   -47.10   0.45   48.90    0.45   48.90    0.87   -47.10
5300.00  0.87   -48.70   0.46   47.80    0.46   47.80    0.87   -48.70
5350.00  0.87   -50.30   0.47   46.80    0.47   46.80    0.87   -50.30
5400.00  0.86   -50.90   0.48   46.10    0.48   46.10    0.86   -50.90
5450.00  0.85   -51.50   0.48   45.50    0.48   45.50    0.85   -51.50
5500.00  0.85   -52.40   0.49   44.60    0.49   44.60    0.85   -52.40
5550.00  0.85   -53.40   0.50   43.70    0.50   43.70    0.85   -53.40
5600.00  0.84   -54.30   0.51   43.00    0.51   43.00    0.84   -54.30
5650.00  0.83   -55.10   0.52   42.20    0.52   42.20    0.83   -55.10
5700.00  0.83   -55.70   0.52   41.50    0.52   41.50    0.83   -55.70
5750.00  0.82   -56.30   0.53   40.80    0.53   40.80    0.82   -56.30
5800.00  0.81   -57.00   0.54   40.00    0.54   40.00    0.81   -57.00
5850.00  0.80   -57.70   0.55   39.20    0.55   39.20    0.80   -57.70
5900.00  0.80   -58.00   0.56   38.90    0.56   38.90    0.80   -58.00
5950.00  0.79   -58.20   0.56   38.50    0.56   38.50    0.79   -58.20
6000.00  0.79   -59.10   0.58   36.90    0.58   36.90    0.79   -59.10
6050.00  0.78   -60.10   0.60   35.20    0.60   35.20    0.78   -60.10
6100.00  0.77   -60.20   0.60   34.70    0.60   34.70    0.77   -60.20
6150.00  0.76   -60.40   0.61   34.20    0.61   34.20    0.76   -60.40
6200.00  0.76   -60.50   0.62   33.40    0.62   33.40    0.76   -60.50
6250.00  0.76   -60.60   0.63   32.60    0.63   32.60    0.76   -60.60
6300.00  0.75   -60.60   0.63   32.00    0.63   32.00    0.75   -60.60
6350.00  0.74   -60.60   0.64   31.40    0.64   31.40    0.74   -60.60
6400.00  0.73   -60.60   0.64   30.60    0.64   30.60    0.73   -60.60
6450.00  0.73   -60.70   0.65   29.80    0.65   29.80    0.73   -60.70
6500.00  0.72   -60.50   0.66   29.00    0.66   29.00    0.72   -60.50
6550.00  0.70   -60.40   0.66   28.20    0.66   28.20    0.70   -60.40
6600.00  0.70   -60.40   0.67   27.70    0.67   27.70    0.70   -60.40
6650.00  0.70   -60.40   0.68   27.20    0.68   27.20    0.70   -60.40
6700.00  0.69   -59.80   0.68   26.60    0.68   26.60    0.69   -59.80
6750.00  0.68   -59.20   0.69   25.90    0.69   25.90    0.68   -59.20
6800.00  0.68   -59.30   0.69   25.30    0.69   25.30    0.68   -59.30
6850.00  0.67   -59.50   0.70   24.60    0.70   24.60    0.67   -59.50
6900.00  0.66   -59.30   0.70   23.90    0.70   23.90    0.66   -59.30
6950.00  0.65   -59.10   0.71   23.30    0.71   23.30    0.65   -59.10
7000.00  0.65   -58.90   0.71   22.70    0.71   22.70    0.65   -58.90
7050.00  0.65   -58.70   0.72   22.10    0.72   22.10    0.65   -58.70
7100.00  0.64   -58.50   0.72   21.50    0.72   21.50    0.64   -58.50
7150.00  0.62   -58.30   0.73   20.90    0.73   20.90    0.62   -58.30
7200.00  0.62   -58.20   0.73   20.30    0.73   20.30    0.62   -58.20
7250.00  0.62   -58.10   0.74   19.80    0.74   19.80    0.62   -58.10
7300.00  0.61   -58.60   0.75   19.10    0.75   19.10    0.61   -58.60
7350.00  0.61   -59.00   0.75   18.40    0.75   18.40    0.61   -59.00
7400.00  0.60   -59.30   0.76   17.70    0.76   17.70    0.60   -59.30
7450.00  0.59   -59.50   0.76   17.00    0.76   17.00    0.59   -59.50
7500.00  0.59   -59.80   0.77   16.40    0.77   16.40    0.59   -59.80
7550.00  0.58   -60.10   0.78   15.80    0.78   15.80    0.58   -60.10
7600.00  0.57   -61.00   0.78   15.00    0.78   15.00    0.57   -61.00
7650.00  0.56   -61.80   0.78   14.20    0.78   14.20    0.56   -61.80
7700.00  0.55   -62.00   0.79   13.80    0.79   13.80    0.55   -62.00
7750.00  0.54   -62.30   0.80   13.30    0.80   13.30    0.54   -62.30
7800.00  0.53   -63.20   0.80   12.50    0.80   12.50    0.53   -63.20
7850.00  0.52   -64.10   0.81   11.70    0.81   11.70    0.52   -64.10
7900.00  0.51   -64.70   0.81   10.90    0.81   10.90    0.51   -64.70
7950.00  0.50   -65.40   0.82   10.10    0.82   10.10    0.50   -65.40
8000.00  0.49   -66.70   0.82    9.30    0.82    9.30    0.49   -66.70
8050.00  0.48   -68.00   0.83    8.50    0.83    8.50    0.48   -68.00
8100.00  0.47   -68.40   0.83    8.10    0.83    8.10    0.47   -68.40
8150.00  0.46   -68.80   0.84    7.70    0.84    7.70    0.46   -68.80
8200.00  0.45   -70.00   0.85    6.90    0.85    6.90    0.45   -70.00
8250.00  0.44   -71.20   0.85    6.00    0.85    6.00    0.44   -71.20
8300.00  0.43   -71.90   0.86    5.40    0.86    5.40    0.43   -71.90
8350.00  0.41   -72.60   0.86    4.80    0.86    4.80    0.41   -72.60
8400.00  0.40   -73.80   0.87    3.80    0.87    3.80    0.40   -73.80
8450.00  0.39   -75.10   0.88    2.90    0.88    2.90    0.39   -75.10
8500.00  0.38   -75.70   0.88    2.10    0.88    2.10    0.38   -75.70
8550.00  0.36   -76.30   0.89    1.20    0.89    1.20    0.36   -76.30
8600.00  0.35   -77.60   0.89    0.30    0.89    0.30    0.35   -77.60
8650.00  0.34   -78.80   0.90   -0.70    0.90   -0.70    0.34   -78.80
8700.00  0.32   -79.30   0.90   -1.90    0.90   -1.90    0.32   -79.30
8750.00  0.30   -79.80   0.91   -3.20    0.91   -3.20    0.30   -79.80
8800.00  0.29   -81.70   0.91   -4.10    0.91   -4.10    0.29   -81.70
8850.00  0.27   -83.60   0.91   -5.00    0.91   -5.00    0.27   -83.60
8900.00  0.25   -84.60   0.91   -6.40    0.91   -6.40    0.25   -84.60
8950.00  0.22   -85.70   0.92   -7.90    0.92   -7.90    0.22   -85.70
9000.00  0.20   -87.30   0.91   -9.20    0.91   -9.20    0.20   -87.30
9050.00  0.17   -89.00   0.91   -10.50   0.91   -10.50   0.17   -89.00
9100.00  0.12   -86.10   0.89   -12.70   0.89   -12.70   0.12   -86.10
9150.00  0.08   -83.30   0.88   -14.80   0.88   -14.80   0.08   -83.30
9200.00  0.11   -35.20   0.81   -15.90   0.81   -15.90   0.11   -35.20
9250.00  0.13   12.80    0.75   -16.90   0.75   -16.90   0.13   12.80
9300.00  0.21   -5.40    0.75   -10.30   0.75   -10.30   0.21   -5.40
9350.00  0.29   -23.60   0.75   -3.60    0.75   -3.60    0.29   -23.60
9400.00  0.27   -36.20   0.80   -3.60    0.80   -3.60    0.27   -36.20
9450.00  0.26   -48.80   0.85   -3.50    0.85   -3.50    0.26   -48.80
9500.00  0.24   -54.00   0.88   -5.20    0.88   -5.20    0.24   -54.00
9550.00  0.22   -59.10   0.90   -6.90    0.90   -6.90    0.22   -59.10
9600.00  0.20   -61.00   0.91   -8.20    0.91   -8.20    0.20   -61.00
9650.00  0.19   -62.90   0.92   -9.60    0.92   -9.60    0.19   -62.90
9700.00  0.17   -64.20   0.93   -10.60   0.93   -10.60   0.17   -64.20
9750.00  0.15   -65.40   0.94   -11.70   0.94   -11.70   0.15   -65.40
9800.00  0.13   -63.90   0.94   -12.70   0.94   -12.70   0.13   -63.90
9850.00  0.12   -62.40   0.94   -13.70   0.94   -13.70   0.12   -62.40
9900.00  0.11   -62.10   0.95   -14.60   0.95   -14.60   0.11   -62.10
9950.00  0.10   -61.90   0.95   -15.50   0.95   -15.50   0.10   -61.90
10000.0  0.08   -59.20   0.95   -16.20   0.95   -16.20   0.08   -59.20
10050.0  0.07   -56.40   0.95   -16.90   0.95   -16.90   0.07   -56.40
10100.0  0.06   -54.30   0.95   -17.80   0.95   -17.80   0.06   -54.30
10150.0  0.06   -52.10   0.95   -18.70   0.95   -18.70   0.06   -52.10
10200.0  0.05   -41.00   0.95   -19.40   0.95   -19.40   0.05   -41.00
10250.0  0.03   -29.90   0.96   -20.00   0.96   -20.00   0.03   -29.90
10300.0  0.04   -16.90   0.96   -20.90   0.96   -20.90   0.04   -16.90
10350.0  0.04   -4.00    0.96   -21.90   0.96   -21.90   0.04   -4.00
10400.0  0.04   11.20    0.96   -22.70   0.96   -22.70   0.04   11.20
10450.0  0.04   26.40    0.96   -23.50   0.96   -23.50   0.04   26.40
10500.0  0.05   33.70    0.96   -24.20   0.96   -24.20   0.05   33.70
10550.0  0.06   41.10    0.96   -24.90   0.96   -24.90   0.06   41.10
10600.0  0.07   43.70    0.96   -25.70   0.96   -25.70   0.07   43.70
10650.0  0.07   46.40    0.96   -26.60   0.96   -26.60   0.07   46.40
10700.0  0.09   47.30    0.96   -27.40   0.96   -27.40   0.09   47.30
10750.0  0.10   48.30    0.95   -28.30   0.95   -28.30   0.10   48.30
10800.0  0.11   48.40    0.95   -29.10   0.95   -29.10   0.11   48.40
10850.0  0.12   48.60    0.95   -29.90   0.95   -29.90   0.12   48.60
10900.0  0.13   48.80    0.95   -30.80   0.95   -30.80   0.13   48.80
10950.0  0.14   49.10    0.95   -31.70   0.95   -31.70   0.14   49.10
11000.0  0.15   48.40    0.95   -32.60   0.95   -32.60   0.15   48.40
11050.0  0.16   47.80    0.95   -33.50   0.95   -33.50   0.16   47.80
11100.0  0.17   47.60    0.95   -34.30   0.95   -34.30   0.17   47.60
11150.0  0.19   47.40    0.94   -35.10   0.94   -35.10   0.19   47.40
11200.0  0.20   46.10    0.94   -35.90   0.94   -35.90   0.20   46.10
11250.0  0.20   44.70    0.94   -36.70   0.94   -36.70   0.20   44.70
11300.0  0.22   43.30    0.94   -37.60   0.94   -37.60   0.22   43.30
11350.0  0.22   41.90    0.94   -38.40   0.94   -38.40   0.22   41.90
11400.0  0.24   40.80    0.93   -39.40   0.93   -39.40   0.24   40.80
11450.0  0.25   39.70    0.92   -40.40   0.92   -40.40   0.25   39.70
11500.0  0.26   37.30    0.92   -41.30   0.92   -41.30   0.26   37.30
11550.0  0.27   35.00    0.92   -42.30   0.92   -42.30   0.27   35.00
11600.0  0.29   34.70    0.92   -43.10   0.92   -43.10   0.29   34.70
11650.0  0.30   34.40    0.91   -44.00   0.91   -44.00   0.30   34.40
11700.0  0.31   32.60    0.90   -45.00   0.90   -45.00   0.31   32.60
11750.0  0.32   30.90    0.90   -46.00   0.90   -46.00   0.32   30.90
11800.0  0.34   30.80    0.89   -46.70   0.89   -46.70   0.34   30.80
11850.0  0.35   30.70    0.89   -47.40   0.89   -47.40   0.35   30.70
11900.0  0.36   29.10    0.88   -48.60   0.88   -48.60   0.36   29.10
11950.0  0.37   27.60    0.87   -49.80   0.87   -49.80   0.37   27.60
12000.0  0.38   27.80    0.87   -50.60   0.87   -50.60   0.38   27.80
12050.0  0.39   28.10    0.87   -51.40   0.87   -51.40   0.39   28.10
12100.0  0.40   26.50    0.86   -52.70   0.86   -52.70   0.40   26.50
12150.0  0.40   25.00    0.85   -53.90   0.85   -53.90   0.40   25.00
12200.0  0.42   25.00    0.85   -55.10   0.85   -55.10   0.42   25.00
12250.0  0.43   25.00    0.84   -56.20   0.84   -56.20   0.43   25.00
12300.0  0.44   24.50    0.83   -57.00   0.83   -57.00   0.44   24.50
12350.0  0.45   24.00    0.82   -57.90   0.82   -57.90   0.45   24.00
12400.0  0.46   23.40    0.81   -59.00   0.81   -59.00   0.46   23.40
12450.0  0.47   22.70    0.80   -60.10   0.80   -60.10   0.47   22.70
12500.0  0.48   22.20    0.78   -61.20   0.78   -61.20   0.48   22.20
12550.0  0.50   21.70    0.77   -62.20   0.77   -62.20   0.50   21.70
12600.0  0.51   21.00    0.76   -63.20   0.76   -63.20   0.51   21.00
12650.0  0.53   20.30    0.75   -64.30   0.75   -64.30   0.53   20.30
12700.0  0.55   19.40    0.74   -65.20   0.74   -65.20   0.55   19.40
12750.0  0.56   18.50    0.73   -66.10   0.73   -66.10   0.56   18.50
12800.0  0.57   18.10    0.71   -66.80   0.71   -66.80   0.57   18.10
12850.0  0.59   17.60    0.70   -67.50   0.70   -67.50   0.59   17.60
12900.0  0.60   16.60    0.69   -68.80   0.69   -68.80   0.60   16.60
12950.0  0.62   15.60    0.68   -70.10   0.68   -70.10   0.62   15.60
13000.0  0.63   14.80    0.67   -70.70   0.67   -70.70   0.63   14.80
13050.0  0.64   14.10    0.65   -71.30   0.65   -71.30   0.64   14.10
13100.0  0.66   13.00    0.65   -72.70   0.65   -72.70   0.66   13.00
13150.0  0.67   11.90    0.64   -74.10   0.64   -74.10   0.67   11.90
13200.0  0.69   10.90    0.62   -75.30   0.62   -75.30   0.69   10.90
13250.0  0.70    9.90    0.61   -76.50   0.61   -76.50   0.70    9.90
13300.0  0.71    9.00    0.59   -77.90   0.59   -77.90   0.71    9.00
13350.0  0.72    8.10    0.57   -79.30   0.57   -79.30   0.72    8.10
13400.0  0.74    6.80    0.56   -80.60   0.56   -80.60   0.74    6.80
13450.0  0.76    5.50    0.55   -81.80   0.55   -81.80   0.76    5.50
13500.0  0.76    4.40    0.53   -83.00   0.53   -83.00   0.76    4.40
13550.0  0.77    3.30    0.51   -84.30   0.51   -84.30   0.77    3.30
13600.0  0.79    1.90    0.49   -85.70   0.49   -85.70   0.79    1.90
13650.0  0.80    0.50    0.47   -87.10   0.47   -87.10   0.80    0.50
13700.0  0.81   -0.40    0.45   -87.70   0.45   -87.70   0.81   -0.40
13750.0  0.81   -1.40    0.43   -88.30   0.43   -88.30   0.81   -1.40
13800.0  0.82   -3.00    0.41   -89.50   0.41   -89.50   0.82   -3.00
13850.0  0.84   -4.70    0.39   -90.60   0.39   -90.60   0.84   -4.70
13900.0  0.84   -6.10    0.37   -91.10   0.37   -91.10   0.84   -6.10
13950.0  0.84   -7.60    0.35   -91.60   0.35   -91.60   0.84   -7.60
14000.0  0.85   -8.40    0.33   -92.10   0.33   -92.10   0.85   -8.40
14050.0  0.85   -9.20    0.31   -92.60   0.31   -92.60   0.85   -9.20
14100.0  0.87   -11.50   0.29   -93.40   0.29   -93.40   0.87   -11.50
14150.0  0.88   -13.80   0.27   -94.20   0.27   -94.20   0.88   -13.80
