# MHZ S MA R 50

      50  0.57   53.00    0.80   -31.90   0.80   -31.90   0.57   53.00
      60  0.60   49.90    0.75   -35.20   0.75   -35.20   0.60   49.90
      70  0.64   46.70    0.71   -38.40   0.71   -38.40   0.64   46.70
      80  0.67   43.60    0.67   -41.70   0.67   -41.70   0.67   43.60
      90  0.71   40.40    0.63   -44.90   0.63   -44.90   0.71   40.40
     100  0.74   37.30    0.58   -48.20   0.58   -48.20   0.74   37.30
     110  0.77   34.10    0.54   -51.40   0.54   -51.40   0.77   34.10
     120  0.81   31.00    0.50   -54.70   0.50   -54.70   0.81   31.00
     130  0.84   27.80    0.45   -58.00   0.45   -58.00   0.84   27.80
     140  0.88   24.70    0.41   -61.20   0.41   -61.20   0.88   24.70
     150  0.91   21.50    0.37   -64.50   0.37   -64.50   0.91   21.50
     160  0.92   20.10    0.35   -65.70   0.35   -65.70   0.92   20.10
     170  0.93   18.70    0.32   -67.00   0.32   -67.00   0.93   18.70
     180  0.94   17.40    0.30   -68.30   0.30   -68.30   0.94   17.40
     190  0.94   16.00    0.28   -69.50   0.28   -69.50   0.94   16.00
     200  0.95   14.60    0.26   -70.80   0.26   -70.80   0.95   14.60
     210  0.96   13.20    0.24   -72.10   0.24   -72.10   0.96   13.20
     220  0.97   11.80    0.22   -73.30   0.22   -73.30   0.97   11.80
     230  0.98   10.40    0.20   -74.60   0.20   -74.60   0.98   10.40
     240  0.98    9.00    0.18   -75.90   0.18   -75.90   0.98    9.00
     250  0.99    7.60    0.16   -77.10   0.16   -77.10   0.99    7.60
     260  0.99    6.90    0.14   -76.40   0.14   -76.40   0.99    6.90
     270  0.99    6.20    0.13   -75.80   0.13   -75.80   0.99    6.20
     280  0.99    5.40    0.12   -75.10   0.12   -75.10   0.99    5.40
     290  0.99    4.70    0.10   -74.40   0.10   -74.40   0.99    4.70
     300  0.99    3.90    0.09   -73.80   0.09   -73.80   0.99    3.90
     310  1.00    3.20    0.08   -73.10   0.08   -73.10   1.00    3.20
     320  1.00    2.50    0.06   -72.40   0.06   -72.40   1.00    2.50
     330  1.00    1.70    0.05   -71.80   0.05   -71.80   1.00    1.70
     340  1.00    1.00    0.03   -71.10   0.03   -71.10   1.00    1.00
     350  1.00    0.20    0.02   -70.40   0.02   -70.40   1.00    0.20
     360  1.00   -0.40    0.03   -55.20   0.03   -55.20   1.00   -0.40
     370  1.00   -1.10    0.03   -40.00   0.03   -40.00   1.00   -1.10
     380  1.00   -1.70    0.04   -24.80   0.04   -24.80   1.00   -1.70
     390  1.00   -2.40    0.05   -9.60    0.05   -9.60    1.00   -2.40
     400  1.00   -3.10    0.05    5.60    0.05    5.60    1.00   -3.10
     410  1.00   -3.70    0.06   20.80    0.06   20.80    1.00   -3.70
     420  1.00   -4.40    0.06   36.00    0.06   36.00    1.00   -4.40
     430  1.00   -5.10    0.07   51.20    0.07   51.20    1.00   -5.10
     440  1.00   -5.70    0.08   66.40    0.08   66.40    1.00   -5.70
     450  1.00   -6.40    0.08   81.60    0.08   81.60    1.00   -6.40
     460  0.99   -6.70    0.09   81.40    0.09   81.40    0.99   -6.70
     470  0.99   -6.90    0.10   81.10    0.10   81.10    0.99   -6.90
     480  0.98   -7.20    0.10   80.80    0.10   80.80    0.98   -7.20
     490  0.98   -7.50    0.11   80.60    0.11   80.60    0.98   -7.50
     500  0.98   -7.70    0.12   80.30    0.12   80.30    0.98   -7.70
     510  0.97   -8.00    0.12   80.10    0.12   80.10    0.97   -8.00
     520  0.97   -8.30    0.13   79.80    0.13   79.80    0.97   -8.30
     530  0.96   -8.60    0.14   79.50    0.14   79.50    0.96   -8.60
     540  0.96   -8.80    0.14   79.30    0.14   79.30    0.96   -8.80
     550  0.96   -9.10    0.15   79.00    0.15   79.00    0.96   -9.10
     560  0.96   -9.50    0.16   78.60    0.16   78.60    0.96   -9.50
     570  0.96   -10.00   0.16   78.10    0.16   78.10    0.96   -10.00
     580  0.96   -10.40   0.17   77.70    0.17   77.70    0.96   -10.40
     590  0.96   -10.80   0.18   77.30    0.18   77.30    0.96   -10.80
     600  0.96   -11.30   0.18   76.80    0.18   76.80    0.96   -11.30
     610  0.96   -11.70   0.19   76.40    0.19   76.40    0.96   -11.70
     620  0.96   -12.20   0.20   75.90    0.20   75.90    0.96   -12.20
     630  0.96   -12.60   0.20   75.50    0.20   75.50    0.96   -12.60
     640  0.96   -13.00   0.21   75.10    0.21   75.10    0.96   -13.00
     650  0.96   -13.50   0.22   74.60    0.22   74.60    0.96   -13.50
     660  0.96   -13.90   0.22   74.30    0.22   74.30    0.96   -13.90
     670  0.96   -14.30   0.23   73.90    0.23   73.90    0.96   -14.30
     680  0.95   -14.70   0.23   73.60    0.23   73.60    0.95   -14.70
     690  0.95   -15.20   0.24   73.20    0.24   73.20    0.95   -15.20
     700  0.95   -15.60   0.25   72.90    0.25   72.90    0.95   -15.60
     710  0.95   -16.00   0.25   72.50    0.25   72.50    0.95   -16.00
     720  0.94   -16.40   0.26   72.10    0.26   72.10    0.94   -16.40
     730  0.94   -16.90   0.27   71.80    0.27   71.80    0.94   -16.90
     740  0.94   -17.30   0.27   71.40    0.27   71.40    0.94   -17.30
     750  0.94   -17.70   0.28   71.10    0.28   71.10    0.94   -17.70
     760  0.94   -18.10   0.28   70.70    0.28   70.70    0.94   -18.10
     770  0.93   -18.50   0.29   70.40    0.29   70.40    0.93   -18.50
     780  0.93   -18.90   0.29   70.00    0.29   70.00    0.93   -18.90
     790  0.93   -19.30   0.30   69.60    0.30   69.60    0.93   -19.30
     800  0.93   -19.70   0.31   69.30    0.31   69.30    0.93   -19.70
     810  0.93   -20.00   0.31   68.90    0.31   68.90    0.93   -20.00
     820  0.93   -20.40   0.32   68.50    0.32   68.50    0.93   -20.40
     830  0.93   -20.80   0.32   68.20    0.32   68.20    0.93   -20.80
     840  0.93   -21.20   0.33   67.80    0.33   67.80    0.93   -21.20
     850  0.93   -21.60   0.33   67.50    0.33   67.50    0.93   -21.60
     860  0.92   -21.90   0.34   67.10    0.34   67.10    0.92   -21.90
     870  0.92   -22.30   0.34   66.80    0.34   66.80    0.92   -22.30
     880  0.92   -22.60   0.35   66.50    0.35   66.50    0.92   -22.60
     890  0.92   -23.00   0.35   66.20    0.35   66.20    0.92   -23.00
     900  0.92   -23.30   0.36   65.90    0.36   65.90    0.92   -23.30
     910  0.92   -23.60   0.37   65.60    0.37   65.60    0.92   -23.60
     920  0.92   -24.00   0.37   65.30    0.37   65.30    0.92   -24.00
     930  0.92   -24.30   0.38   64.90    0.38   64.90    0.92   -24.30
     940  0.92   -24.60   0.38   64.60    0.38   64.60    0.92   -24.60
     950  0.92   -25.00   0.39   64.30    0.39   64.30    0.92   -25.00
     960  0.91   -25.20   0.39   64.00    0.39   64.00    0.91   -25.20
     970  0.91   -25.40   0.40   63.60    0.40   63.60    0.91   -25.40
     980  0.91   -25.70   0.40   63.20    0.40   63.20    0.91   -25.70
     990  0.91   -25.90   0.41   62.90    0.41   62.90    0.91   -25.90
    1000  0.90   -26.20   0.41   62.50    0.41   62.50    0.90   -26.20
    1010  0.90   -26.40   0.41   62.20    0.41   62.20    0.90   -26.40
    1020  0.90   -26.60   0.42   61.80    0.42   61.80    0.90   -26.60
    1030  0.90   -26.90   0.42   61.50    0.42   61.50    0.90   -26.90
    1040  0.90   -27.10   0.43   61.10    0.43   61.10    0.90   -27.10
    1050  0.89   -27.30   0.43   60.70    0.43   60.70    0.89   -27.30
    1060  0.89   -27.70   0.44   60.40    0.44   60.40    0.89   -27.70
    1070  0.89   -28.10   0.44   60.10    0.44   60.10    0.89   -28.10
    1080  0.88   -28.50   0.45   59.80    0.45   59.80    0.88   -28.50
    1090  0.88   -28.90   0.45   59.40    0.45   59.40    0.88   -28.90
    1100  0.87   -29.30   0.46   59.10    0.46   59.10    0.87   -29.30
    1110  0.87   -29.60   0.46   58.80    0.46   58.80    0.87   -29.60
    1120  0.87   -30.00   0.47   58.50    0.47   58.50    0.87   -30.00
    1130  0.86   -30.40   0.47   58.10    0.47   58.10    0.86   -30.40
    1140  0.86   -30.80   0.47   57.80    0.47   57.80    0.86   -30.80
    1150  0.86   -31.20   0.48   57.50    0.48   57.50    0.86   -31.20
    1160  0.85   -31.40   0.48   57.20    0.48   57.20    0.85   -31.40
    1170  0.85   -31.70   0.49   56.80    0.49   56.80    0.85   -31.70
    1180  0.85   -32.00   0.49   56.50    0.49   56.50    0.85   -32.00
    1190  0.85   -32.20   0.50   56.10    0.50   56.10    0.85   -32.20
    1200  0.85   -32.50   0.50   55.80    0.50   55.80    0.85   -32.50
    1210  0.85   -32.70   0.51   55.50    0.51   55.50    0.85   -32.70
    1220  0.85   -33.00   0.51   55.10    0.51   55.10    0.85   -33.00
    1230  0.84   -33.30   0.52   54.80    0.52   54.80    0.84   -33.30
    1240  0.84   -33.50   0.52   54.50    0.52   54.50    0.84   -33.50
    1250  0.84   -33.80   0.52   54.10    0.52   54.10    0.84   -33.80
    1260  0.84   -34.20   0.53   53.80    0.53   53.80    0.84   -34.20
    1270  0.83   -34.70   0.53   53.40    0.53   53.40    0.83   -34.70
    1280  0.83   -35.10   0.54   53.00    0.54   53.00    0.83   -35.10
    1290  0.82   -35.50   0.54   52.60    0.54   52.60    0.82   -35.50
    1300  0.82   -35.90   0.55   52.30    0.55   52.30    0.82   -35.90
    1310  0.81   -36.40   0.55   51.90    0.55   51.90    0.81   -36.40
    1320  0.81   -36.80   0.56   51.50    0.56   51.50    0.81   -36.80
    1330  0.81   -37.20   0.56   51.10    0.56   51.10    0.81   -37.20
    1340  0.80   -37.60   0.56   50.70    0.56   50.70    0.80   -37.60
    1350  0.80   -38.10   0.57   50.40    0.57   50.40    0.80   -38.10
    1360  0.79   -38.40   0.57   50.00    0.57   50.00    0.79   -38.40
    1370  0.79   -38.70   0.58   49.70    0.58   49.70    0.79   -38.70
    1380  0.79   -39.00   0.58   49.30    0.58   49.30    0.79   -39.00
    1390  0.79   -39.30   0.59   48.90    0.59   48.90    0.79   -39.30
    1400  0.78   -39.60   0.59   48.60    0.59   48.60    0.78   -39.60
    1410  0.78   -39.90   0.60   48.20    0.60   48.20    0.78   -39.90
    1420  0.78   -40.10   0.60   47.90    0.60   47.90    0.78   -40.10
    1430  0.78   -40.40   0.60   47.50    0.60   47.50    0.78   -40.40
    1440  0.77   -40.70   0.61   47.20    0.61   47.20    0.77   -40.70
    1450  0.77   -41.00   0.61   46.80    0.61   46.80    0.77   -41.00
    1460  0.77   -41.40   0.62   46.30    0.62   46.30    0.77   -41.40
    1470  0.76   -41.80   0.62   45.80    0.62   45.80    0.76   -41.80
    1480  0.76   -42.20   0.63   45.40    0.63   45.40    0.76   -42.20
    1490  0.75   -42.60   0.63   44.90    0.63   44.90    0.75   -42.60
    1500  0.74   -43.00   0.63   44.40    0.63   44.40    0.74   -43.00
    1510  0.74   -43.40   0.64   43.90    0.64   43.90    0.74   -43.40
    1520  0.73   -43.80   0.64   43.40    0.64   43.40    0.73   -43.80
    1530  0.73   -44.20   0.65   43.00    0.65   43.00    0.73   -44.20
    1540  0.72   -44.60   0.65   42.50    0.65   42.50    0.72   -44.60
    1550  0.72   -45.00   0.66   42.00    0.66   42.00    0.72   -45.00
    1560  0.71   -45.40   0.66   41.20    0.66   41.20    0.71   -45.40
    1570  0.70   -45.70   0.67   40.50    0.67   40.50    0.70   -45.70
    1580  0.69   -46.10   0.67   39.70    0.67   39.70    0.69   -46.10
    1590  0.68   -46.40   0.68   39.00    0.68   39.00    0.68   -46.40
    1600  0.67   -46.80   0.68   38.20    0.68   38.20    0.67   -46.80
    1610  0.67   -47.20   0.69   37.50    0.69   37.50    0.67   -47.20
    1620  0.66   -47.50   0.69   36.70    0.69   36.70    0.66   -47.50
    1630  0.65   -47.90   0.69   36.00    0.69   36.00    0.65   -47.90
    1640  0.64   -48.20   0.70   35.20    0.70   35.20    0.64   -48.20
    1650  0.63   -48.60   0.70   34.50    0.70   34.50    0.63   -48.60
    1660  0.61   -47.60   0.70   32.80    0.70   32.80    0.61   -47.60
    1670  0.59   -46.70   0.70   31.10    0.70   31.10    0.59   -46.70
    1680  0.57   -45.70   0.70   29.40    0.70   29.40    0.57   -45.70
    1690  0.56   -44.70   0.70   27.70    0.70   27.70    0.56   -44.70
    1700  0.54   -43.80   0.69   26.00    0.69   26.00    0.54   -43.80
    1710  0.52   -42.80   0.69   24.30    0.69   24.30    0.52   -42.80
    1720  0.50   -41.80   0.69   22.60    0.69   22.60    0.50   -41.80
    1730  0.48   -40.90   0.69   20.90    0.69   20.90    0.48   -40.90
    1740  0.46   -39.90   0.69   19.20    0.69   19.20    0.46   -39.90
    1750  0.44   -39.00   0.69   17.50    0.69   17.50    0.44   -39.00
    1760  0.47   -37.30   0.65   18.90    0.65   18.90    0.47   -37.30
    1770  0.50   -35.70   0.63   20.30    0.63   20.30    0.50   -35.70
    1780  0.53   -34.10   0.59   21.70    0.59   21.70    0.53   -34.10
    1790  0.56   -32.50   0.56   23.10    0.56   23.10    0.56   -32.50
    1800  0.59   -30.90   0.53   24.50    0.53   24.50    0.59   -30.90
    1810  0.62   -29.20   0.50   25.90    0.50   25.90    0.62   -29.20
    1820  0.64   -27.60   0.47   27.30    0.47   27.30    0.64   -27.60
    1830  0.67   -26.00   0.44   28.70    0.44   28.70    0.67   -26.00
    1840  0.70   -24.40   0.41   30.10    0.41   30.10    0.70   -24.40
    1850  0.73   -22.80   0.38   31.50    0.38   31.50    0.73   -22.80
    1860  0.74   -24.30   0.40   32.80    0.40   32.80    0.74   -24.30
    1870  0.74   -25.80   0.41   34.20    0.41   34.20    0.74   -25.80
    1880  0.74   -27.30   0.43   35.60    0.43   35.60    0.74   -27.30
    1890  0.75   -28.80   0.44   37.00    0.44   37.00    0.75   -28.80
    1900  0.75   -30.30   0.46   38.30    0.46   38.30    0.75   -30.30
    1910  0.75   -31.80   0.48   39.70    0.48   39.70    0.75   -31.80
    1920  0.76   -33.30   0.49   41.10    0.49   41.10    0.76   -33.30
    1930  0.76   -34.80   0.51   42.50    0.51   42.50    0.76   -34.80
    1940  0.77   -36.30   0.52   43.80    0.52   43.80    0.77   -36.30
    1950  0.77   -37.80   0.54   45.20    0.54   45.20    0.77   -37.80
    1960  0.77   -38.50   0.55   45.00    0.55   45.00    0.77   -38.50
    1970  0.76   -39.20   0.56   44.70    0.56   44.70    0.76   -39.20
    1980  0.76   -39.80   0.57   44.40    0.57   44.40    0.76   -39.80
    1990  0.76   -40.50   0.57   44.20    0.57   44.20    0.76   -40.50
    2000  0.75   -41.10   0.58   43.90    0.58   43.90    0.75   -41.10
    2010  0.75   -41.80   0.59   43.60    0.59   43.60    0.75   -41.80
    2020  0.75   -42.40   0.60   43.40    0.60   43.40    0.75   -42.40
    2030  0.75   -43.10   0.61   43.10    0.61   43.10    0.75   -43.10
    2040  0.74   -43.70   0.62   42.80    0.62   42.80    0.74   -43.70
    2050  0.74   -44.40   0.63   42.60    0.63   42.60    0.74   -44.40
    2060  0.74   -44.80   0.63   42.30    0.63   42.30    0.74   -44.80
    2070  0.73   -45.20   0.64   42.00    0.64   42.00    0.73   -45.20
    2080  0.73   -45.50   0.64   41.60    0.64   41.60    0.73   -45.50
    2090  0.73   -45.90   0.65   41.30    0.65   41.30    0.73   -45.90
    2100  0.72   -46.30   0.65   41.00    0.65   41.00    0.72   -46.30
    2110  0.72   -46.70   0.66   40.70    0.66   40.70    0.72   -46.70
    2120  0.72   -47.10   0.66   40.40    0.66   40.40    0.72   -47.10
    2130  0.71   -47.50   0.67   40.10    0.67   40.10    0.71   -47.50
    2140  0.71   -47.90   0.67   39.80    0.67   39.80    0.71   -47.90
    2150  0.70   -48.30   0.68   39.50    0.68   39.50    0.70   -48.30
    2160  0.70   -48.60   0.68   39.20    0.68   39.20    0.70   -48.60
    2170  0.70   -49.00   0.69   39.00    0.69   39.00    0.70   -49.00
    2180  0.70   -49.30   0.69   38.80    0.69   38.80    0.70   -49.30
    2190  0.69   -49.70   0.69   38.50    0.69   38.50    0.69   -49.70
    2200  0.69   -50.00   0.69   38.30    0.69   38.30    0.69   -50.00
    2210  0.69   -50.40   0.70   38.00    0.70   38.00    0.69   -50.40
    2220  0.69   -50.70   0.70   37.80    0.70   37.80    0.69   -50.70
    2230  0.68   -51.00   0.70   37.50    0.70   37.50    0.68   -51.00
    2240  0.68   -51.40   0.71   37.30    0.71   37.30    0.68   -51.40
    2250  0.68   -51.70   0.71   37.00    0.71   37.00    0.68   -51.70
    2260  0.67   -52.00   0.71   36.80    0.71   36.80    0.67   -52.00
    2270  0.67   -52.20   0.72   36.50    0.72   36.50    0.67   -52.20
    2280  0.67   -52.50   0.72   36.30    0.72   36.30    0.67   -52.50
    2290  0.66   -52.70   0.72   36.00    0.72   36.00    0.66   -52.70
    2300  0.66   -53.00   0.73   35.80    0.73   35.80    0.66   -53.00
    2310  0.66   -53.20   0.73   35.60    0.73   35.60    0.66   -53.20
    2320  0.65   -53.40   0.73   35.30    0.73   35.30    0.65   -53.40
    2330  0.65   -53.70   0.74   35.10    0.74   35.10    0.65   -53.70
    2340  0.65   -53.90   0.74   34.80    0.74   34.80    0.65   -53.90
    2350  0.64   -54.20   0.74   34.60    0.74   34.60    0.64   -54.20
    2360  0.64   -54.40   0.75   34.30    0.75   34.30    0.64   -54.40
    2370  0.64   -54.60   0.75   34.10    0.75   34.10    0.64   -54.60
    2380  0.64   -54.90   0.75   33.80    0.75   33.80    0.64   -54.90
    2390  0.63   -55.10   0.75   33.60    0.75   33.60    0.63   -55.10
    2400  0.63   -55.30   0.75   33.30    0.75   33.30    0.63   -55.30
    2410  0.63   -55.60   0.75   33.10    0.75   33.10    0.63   -55.60
    2420  0.63   -55.80   0.76   32.80    0.76   32.80    0.63   -55.80
    2430  0.62   -56.00   0.76   32.60    0.76   32.60    0.62   -56.00
    2440  0.62   -56.20   0.76   32.30    0.76   32.30    0.62   -56.20
    2450  0.62   -56.50   0.76   32.10    0.76   32.10    0.62   -56.50
    2460  0.62   -56.80   0.76   31.90    0.76   31.90    0.62   -56.80
    2470  0.61   -57.00   0.76   31.70    0.76   31.70    0.61   -57.00
    2480  0.61   -57.30   0.77   31.50    0.77   31.50    0.61   -57.30
    2490  0.61   -57.60   0.77   31.30    0.77   31.30    0.61   -57.60
    2500  0.61   -57.90   0.77   31.10    0.77   31.10    0.61   -57.90
    2510  0.60   -58.20   0.77   30.90    0.77   30.90    0.60   -58.20
    2520  0.60   -58.50   0.77   30.70    0.77   30.70    0.60   -58.50
    2530  0.60   -58.80   0.78   30.50    0.78   30.50    0.60   -58.80
    2540  0.59   -59.00   0.78   30.20    0.78   30.20    0.59   -59.00
    2550  0.59   -59.30   0.78   30.00    0.78   30.00    0.59   -59.30
    2560  0.59   -59.50   0.78   29.90    0.78   29.90    0.59   -59.50
    2570  0.59   -59.70   0.79   29.70    0.79   29.70    0.59   -59.70
    2580  0.58   -59.80   0.79   29.50    0.79   29.50    0.58   -59.80
    2590  0.58   -60.00   0.79   29.30    0.79   29.30    0.58   -60.00
    2600  0.58   -60.20   0.79   29.10    0.79   29.10    0.58   -60.20
    2610  0.58   -60.30   0.80   28.90    0.80   28.90    0.58   -60.30
    2620  0.57   -60.50   0.80   28.70    0.80   28.70    0.57   -60.50
    2630  0.57   -60.70   0.80   28.50    0.80   28.50    0.57   -60.70
    2640  0.57   -60.80   0.80   28.30    0.80   28.30    0.57   -60.80
    2650  0.56   -61.00   0.80   28.10    0.80   28.10    0.56   -61.00
    2660  0.56   -61.20   0.81   27.90    0.81   27.90    0.56   -61.20
    2670  0.56   -61.40   0.81   27.70    0.81   27.70    0.56   -61.40
    2680  0.56   -61.70   0.81   27.40    0.81   27.40    0.56   -61.70
    2690  0.55   -61.90   0.81   27.20    0.81   27.20    0.55   -61.90
    2700  0.55   -62.10   0.81   27.00    0.81   27.00    0.55   -62.10
    2710  0.55   -62.30   0.81   26.70    0.81   26.70    0.55   -62.30
    2720  0.55   -62.60   0.81   26.50    0.81   26.50    0.55   -62.60
    2730  0.54   -62.80   0.81   26.30    0.81   26.30    0.54   -62.80
    2740  0.54   -63.00   0.81   26.10    0.81   26.10    0.54   -63.00
    2750  0.54   -63.20   0.82   25.80    0.82   25.80    0.54   -63.20
    2760  0.53   -63.40   0.82   25.60    0.82   25.60    0.53   -63.40
    2770  0.53   -63.60   0.82   25.40    0.82   25.40    0.53   -63.60
    2780  0.53   -63.80   0.82   25.20    0.82   25.20    0.53   -63.80
    2790  0.53   -63.90   0.82   25.00    0.82   25.00    0.53   -63.90
    2800  0.52   -64.10   0.83   24.80    0.83   24.80    0.52   -64.10
    2810  0.52   -64.30   0.83   24.60    0.83   24.60    0.52   -64.30
    2820  0.52   -64.50   0.83   24.40    0.83   24.40    0.52   -64.50
