#	mhz	s	ma	r	50
50	0.97144	175.523	0.06904	79.71	0.06904	79.71	0.97144	175.523
70	0.99874	174.305	0.09977	79.398	0.09977	79.398	0.99874	174.305
90	0.99389	171.974	0.12662	77.895	0.12662	77.895	0.99389	171.974
110	0.98316	170.441	0.15212	76.847	0.15212	76.847	0.98316	170.441
130	0.97855	169.614	0.17804	76.227	0.17804	76.227	0.97855	169.614
150	0.97782	167.396	0.2054	74.333	0.2054	74.333	0.97782	167.396
170	0.96038	165.86	0.22848	73.409	0.22848	73.409	0.96038	165.86
190	0.95964	164.51	0.25502	72.231	0.25502	72.231	0.95964	164.51
210	0.95698	162.907	0.27985	70.733	0.27985	70.733	0.95698	162.907
230	0.94739	161.299	0.30242	69.283	0.30242	69.283	0.94739	161.299
250	0.93948	160.617	0.32688	68.685	0.32688	68.685	0.93948	160.617
270	0.94053	158.654	0.35201	66.984	0.35201	66.984	0.94053	158.654
290	0.92348	157.105	0.37209	65.529	0.37209	65.529	0.92348	157.105
310	0.90906	155.825	0.39277	64.498	0.39277	64.498	0.90906	155.825
330	0.90264	154.481	0.41538	63.531	0.41538	63.531	0.90264	154.481
350	0.89423	152.549	0.43695	61.727	0.43695	61.727	0.89423	152.549
370	0.87826	151.532	0.45302	60.6	0.45302	60.6	0.87826	151.532
390	0.87152	150.419	0.47206	59.537	0.47206	59.537	0.87152	150.419
410	0.86465	149.104	0.49014	58.358	0.49014	58.358	0.86465	149.104
430	0.85454	147.757	0.50605	57.084	0.50605	57.084	0.85454	147.757
450	0.84436	146.825	0.52136	55.944	0.52136	55.944	0.84436	146.825
470	0.83262	145.558	0.53959	54.454	0.53959	54.454	0.83262	145.558
490	0.83379	143.62	0.5628	54.576	0.5628	54.576	0.83379	143.62
510	0.82552	142.456	0.57807	53.68	0.57807	53.68	0.82552	142.456
530	0.80263	142.076	0.58474	51.195	0.58474	51.195	0.80263	142.076
550	0.77711	141.056	0.59454	48.61	0.59454	48.61	0.77711	141.056
570	0.75171	139.878	0.61546	46.417	0.61546	46.417	0.75171	139.878
590	0.72975	138.23	0.63586	44.321	0.63586	44.321	0.72975	138.23
610	0.71055	136.229	0.65915	42.86	0.65915	42.86	0.71055	136.229
630	0.69539	134.162	0.68499	42.103	0.68499	42.103	0.69539	134.162
650	0.68753	132.489	0.70933	41.65	0.70933	41.65	0.68753	132.489
670	0.68809	131.345	0.71961	41.382	0.71961	41.382	0.68809	131.345
690	0.68347	130.776	0.72818	41.281	0.72818	41.281	0.68347	130.776
710	0.67675	130.271	0.73392	40.761	0.73392	40.761	0.67675	130.271
730	0.66723	129.681	0.73667	39.758	0.73667	39.758	0.66723	129.681
750	0.65041	129.213	0.73728	38.732	0.73728	38.732	0.65041	129.213
770	0.63568	128.564	0.74906	37.166	0.74906	37.166	0.63568	128.564
790	0.62131	127.176	0.76286	35.826	0.76286	35.826	0.62131	127.176
810	0.60589	125.544	0.77863	34.779	0.77863	34.779	0.60589	125.544
830	0.59293	123.938	0.79624	34.062	0.79624	34.062	0.59293	123.938
850	0.59093	122.407	0.81553	33.686	0.81553	33.686	0.59093	122.407
870	0.58826	121.471	0.82572	33.465	0.82572	33.465	0.58826	121.471
890	0.58879	121.115	0.8321	33.697	0.8321	33.697	0.58879	121.115
910	0.58778	120.875	0.83488	33.754	0.83488	33.754	0.58778	120.875
930	0.5821	120.669	0.83314	33.386	0.83314	33.386	0.5821	120.669
950	0.57016	120.797	0.82489	32.724	0.82489	32.724	0.57016	120.797
970	0.55836	120.641	0.83122	32.103	0.83122	32.103	0.55836	120.641
990	0.54558	119.965	0.83527	31.052	0.83527	31.052	0.54558	119.965
1010	0.53279	119.073	0.84025	30.055	0.84025	30.055	0.53279	119.073
1030	0.52162	118.125	0.84742	29.306	0.84742	29.306	0.52162	118.125
1050	0.51435	117.143	0.856	28.714	0.856	28.714	0.51435	117.143
1070	0.50914	116.158	0.86577	28.182	0.86577	28.182	0.50914	116.158
1090	0.50705	115.544	0.87087	27.911	0.87087	27.911	0.50705	115.544
1110	0.50272	115.233	0.87296	27.765	0.87296	27.765	0.50272	115.233
1130	0.49539	115.202	0.87308	27.551	0.87308	27.551	0.49539	115.202
1150	0.4889	115.477	0.87163	27.012	0.87163	27.012	0.4889	115.477
1170	0.47858	115.139	0.87018	26.216	0.87018	26.216	0.47858	115.139
1190	0.46419	114.663	0.87164	25.367	0.87164	25.367	0.46419	114.663
1210	0.45154	113.957	0.87664	24.553	0.87664	24.553	0.45154	113.957
1230	0.44202	112.924	0.88441	23.748	0.88441	23.748	0.44202	112.924
1250	0.43258	111.465	0.89281	22.819	0.89281	22.819	0.43258	111.465
1270	0.42776	110.895	0.89884	22.543	0.89884	22.543	0.42776	110.895
1290	0.42424	110.02	0.90559	22.151	0.90559	22.151	0.42424	110.02
1310	0.42003	109.424	0.91036	21.811	0.91036	21.811	0.42003	109.424
1330	0.41466	109.224	0.91269	21.545	0.91269	21.545	0.41466	109.224
1350	0.40919	109.075	0.9143	21.232	0.9143	21.232	0.40919	109.075
1370	0.40194	108.675	0.91553	20.862	0.91553	20.862	0.40194	108.675
1390	0.39321	108.227	0.91657	20.381	0.91657	20.381	0.39321	108.227
1410	0.38511	107.727	0.91783	19.864	0.91783	19.864	0.38511	107.727
1430	0.37839	107.098	0.92084	19.322	0.92084	19.322	0.37839	107.098
1450	0.37244	106.193	0.92831	18.707	0.92831	18.707	0.37244	106.193
1470	0.36607	105.344	0.93514	18.496	0.93514	18.496	0.36607	105.344
1490	0.36253	104.747	0.93842	18.197	0.93842	18.197	0.36253	104.747
1510	0.35848	104.235	0.94153	17.896	0.94153	17.896	0.35848	104.235
1530	0.35386	103.829	0.94457	17.701	0.94457	17.701	0.35386	103.829
1550	0.35194	103.745	0.94433	17.743	0.94433	17.743	0.35194	103.745
1570	0.34529	103.308	0.94513	17.346	0.94513	17.346	0.34529	103.308
1590	0.33928	103.092	0.94272	16.916	0.94272	16.916	0.33928	103.092
1610	0.33333	102.708	0.94359	16.389	0.94359	16.389	0.33333	102.708
1630	0.32733	102.033	0.94833	15.823	0.94833	15.823	0.32733	102.033
1650	0.32163	101.216	0.95155	15.392	0.95155	15.392	0.32163	101.216
1670	0.31591	100.524	0.95507	15.131	0.95507	15.131	0.31591	100.524
1690	0.31234	99.895	0.95963	14.844	0.95963	14.844	0.31234	99.895
1710	0.30878	99.473	0.96176	14.611	0.96176	14.611	0.30878	99.473
1730	0.30542	99.199	0.96185	14.402	0.96185	14.402	0.30542	99.199
1750	0.30476	98.813	0.96413	14.077	0.96413	14.077	0.30476	98.813
1770	0.30031	98.744	0.96399	13.837	0.96399	13.837	0.30031	98.744
1790	0.29428	99.122	0.96188	13.497	0.96188	13.497	0.29428	99.122
1810	0.28838	99.153	0.96102	13.025	0.96102	13.025	0.28838	99.153
1830	0.28211	98.673	0.96205	12.52	0.96205	12.52	0.28211	98.673
1850	0.27277	98.149	0.963	12.207	0.963	12.207	0.27277	98.149
1870	0.26847	97.521	0.96876	11.909	0.96876	11.909	0.26847	97.521
1890	0.26326	96.709	0.97054	11.53	0.97054	11.53	0.26326	96.709
1910	0.25978	96.133	0.97186	11.212	0.97186	11.212	0.25978	96.133
1930	0.25822	95.721	0.97358	10.997	0.97358	10.997	0.25822	95.721
1950	0.25634	94.907	0.97383	10.83	0.97383	10.83	0.25634	94.907
1970	0.25087	94.722	0.97451	10.563	0.97451	10.563	0.25087	94.722
1990	0.24452	94.669	0.97241	10.255	0.97241	10.255	0.24452	94.669
2010	0.2387	94.48	0.97154	9.994	0.97154	9.994	0.2387	94.48
2030	0.23367	93.955	0.97381	9.724	0.97381	9.724	0.23367	93.955
2050	0.2286	92.963	0.97903	9.245	0.97903	9.245	0.2286	92.963
2070	0.22288	92.088	0.97763	8.821	0.97763	8.821	0.22288	92.088
2090	0.21989	91.152	0.97783	8.695	0.97783	8.695	0.21989	91.152
2110	0.21799	90.282	0.98116	8.411	0.98116	8.411	0.21799	90.282
2130	0.21586	89.646	0.98552	7.926	0.98552	7.926	0.21586	89.646
2150	0.21248	89.447	0.98511	7.605	0.98511	7.605	0.21248	89.447
2170	0.21041	89.303	0.9841	7.768	0.9841	7.768	0.21041	89.303
2190	0.20765	89.132	0.98647	7.342	0.98647	7.342	0.20765	89.132
2210	0.20405	88.697	0.9886	7.043	0.9886	7.043	0.20405	88.697
2230	0.19951	88.103	0.98876	6.96	0.98876	6.96	0.19951	88.103
2250	0.19395	87.791	0.98706	6.562	0.98706	6.562	0.19395	87.791
2270	0.19157	86.56	0.98566	5.997	0.98566	5.997	0.19157	86.56
2290	0.18986	85.613	0.98775	5.865	0.98775	5.865	0.18986	85.613
2310	0.18883	84.944	0.99004	5.826	0.99004	5.826	0.18883	84.944
2330	0.18803	84.478	0.99083	5.658	0.99083	5.658	0.18803	84.478
2350	0.18656	84.066	0.99007	5.26	0.99007	5.26	0.18656	84.066
2370	0.18425	84.508	0.98955	4.987	0.98955	4.987	0.18425	84.508
2390	0.18111	84.791	0.98917	4.92	0.98917	4.92	0.18111	84.791
2410	0.17768	84.907	0.99109	4.754	0.99109	4.754	0.17768	84.907
2430	0.17378	84.664	0.99334	4.402	0.99334	4.402	0.17378	84.664
2450	0.16849	83.688	0.98983	3.996	0.98983	3.996	0.16849	83.688
2470	0.16586	82.386	0.99395	4.078	0.99395	4.078	0.16586	82.386
2490	0.16455	81.445	0.99454	3.785	0.99454	3.785	0.16455	81.445
2510	0.1638	80.543	0.99383	3.459	0.99383	3.459	0.1638	80.543
2530	0.16297	79.871	0.99411	3.202	0.99411	3.202	0.16297	79.871
2550	0.16155	80.134	0.99772	2.875	0.99772	2.875	0.16155	80.134
2570	0.16009	80.414	0.99768	2.78	0.99768	2.78	0.16009	80.414
2590	0.1571	80.485	0.99497	2.586	0.99497	2.586	0.1571	80.485
2610	0.1531	80.124	0.99295	2.333	0.99295	2.333	0.1531	80.124
2630	0.14888	79.361	0.99335	2.083	0.99335	2.083	0.14888	79.361
2650	0.14555	78.471	0.99622	1.913	0.99622	1.913	0.14555	78.471
2670	0.14441	77.711	0.99315	1.649	0.99315	1.649	0.14441	77.711
2690	0.14405	76.736	0.99542	1.485	0.99542	1.485	0.14405	76.736
2710	0.14388	76.163	0.99547	1.261	0.99547	1.261	0.14388	76.163
2730	0.14327	76.211	0.99382	0.985	0.99382	0.985	0.14327	76.211
2750	0.14158	76.701	0.99901	0.837	0.99901	0.837	0.14158	76.701
2770	0.1378	76.663	0.99792	0.546	0.99792	0.546	0.1378	76.663
2790	0.13422	76.262	0.9959	0.512	0.9959	0.512	0.13422	76.262
2810	0.1311	75.479	0.99641	0.467	0.99641	0.467	0.1311	75.479
2830	0.12887	74.339	0.99922	0.274	0.99922	0.274	0.12887	74.339
2850	0.1281	72.914	1.00043	-0.073	1.00043	-0.073	0.1281	72.914
2870	0.12782	72.232	0.99744	-0.339	0.99744	-0.339	0.12782	72.232
2890	0.1277	71.856	1.00006	-0.455	1.00006	-0.455	0.1277	71.856
2910	0.12754	71.842	1.00476	-0.605	1.00476	-0.605	0.12754	71.842
2930	0.12634	72.007	1.00699	-0.861	1.00699	-0.861	0.12634	72.007
2950	0.12227	71.93	1.00113	-1.184	1.00113	-1.184	0.12227	71.93
2970	0.11894	71.019	0.99894	-1.453	0.99894	-1.453	0.11894	71.019
2990	0.11639	69.624	0.99898	-1.65	0.99898	-1.65	0.11639	69.624
3010	0.11482	68.274	0.99937	-1.758	0.99937	-1.758	0.11482	68.274
3030	0.11405	67.161	0.99932	-1.862	0.99932	-1.862	0.11405	67.161
3050	0.11349	66.144	0.99905	-2.143	0.99905	-2.143	0.11349	66.144
3070	0.11295	66.158	1.00221	-2.116	1.00221	-2.116	0.11295	66.158
3090	0.11185	65.999	1.00329	-2.417	1.00329	-2.417	0.11185	65.999
3110	0.1101	65.666	1.00243	-2.724	1.00243	-2.724	0.1101	65.666
3130	0.108	65.178	1.00185	-2.934	1.00185	-2.934	0.108	65.178
3150	0.10621	64.571	1.00593	-3.162	1.00593	-3.162	0.10621	64.571
3170	0.1047	62.882	1.00254	-3.346	1.00254	-3.346	0.1047	62.882
3190	0.10393	61.781	1.00126	-3.498	1.00126	-3.498	0.10393	61.781
3210	0.10301	61.344	1.00095	-3.681	1.00095	-3.681	0.10301	61.344
3230	0.10178	61.298	1.00139	-3.899	1.00139	-3.899	0.10178	61.298
3250	0.10085	61.023	1.00329	-4.096	1.00329	-4.096	0.10085	61.023
3270	0.09836	61.137	1.00092	-4.23	1.00092	-4.23	0.09836	61.137
3290	0.09502	60.508	1.00177	-4.385	1.00177	-4.385	0.09502	60.508
3310	0.09201	59.3	1.00249	-4.553	1.00249	-4.553	0.09201	59.3
3330	0.09001	57.661	1.00267	-4.743	1.00267	-4.743	0.09001	57.661
3350	0.08922	55.715	1.00482	-4.976	1.00482	-4.976	0.08922	55.715
3370	0.08874	54.594	1.00287	-5.181	1.00287	-5.181	0.08874	54.594
3390	0.08854	54.667	1.00202	-5.284	1.00202	-5.284	0.08854	54.667
3410	0.0875	55.08	1.00215	-5.211	1.00215	-5.211	0.0875	55.08
3430	0.08503	55.18	1.00261	-5.179	1.00261	-5.179	0.08503	55.18
3450	0.08111	54.508	1.00225	-5.704	1.00225	-5.704	0.08111	54.508
3470	0.07782	52.45	1.00298	-5.99	1.00298	-5.99	0.07782	52.45
3490	0.07473	50.179	1.0032	-6.088	1.0032	-6.088	0.07473	50.179
3510	0.07311	47.492	1.00392	-6.186	1.00392	-6.186	0.07311	47.492
3530	0.07316	44.769	1.00482	-6.359	1.00482	-6.359	0.07316	44.769
3550	0.07395	42.972	1.00416	-6.572	1.00416	-6.572	0.07395	42.972
3570	0.07459	43.238	1.00659	-6.752	1.00659	-6.752	0.07459	43.238
3590	0.0734	43.689	1.00674	-7.019	1.00674	-7.019	0.0734	43.689
3610	0.07088	43.681	1.00616	-7.188	1.00616	-7.188	0.07088	43.681
3630	0.06756	43.091	1.00586	-7.249	1.00586	-7.249	0.06756	43.091
3650	0.06406	42.311	1.00631	-7.374	1.00631	-7.374	0.06406	42.311
3670	0.06164	37.995	1.00623	-7.638	1.00623	-7.638	0.06164	37.995
3690	0.06052	33.97	1.00787	-7.576	1.00787	-7.576	0.06052	33.97
3710	0.06092	30.934	1.00815	-7.699	1.00815	-7.699	0.06092	30.934
3730	0.0622	29.119	1.00674	-8.072	1.00674	-8.072	0.0622	29.119
3750	0.06291	28.299	1.0061	-8.309	1.0061	-8.309	0.06291	28.299
3770	0.06191	28.891	1.0028	-8.573	1.0028	-8.573	0.06191	28.891
3790	0.0596	28.993	1.00299	-8.772	1.00299	-8.772	0.0596	28.993
3810	0.05622	27.81	1.00606	-8.92	1.00606	-8.92	0.05622	27.81
3830	0.05254	25.061	1.0099	-9.05	1.0099	-9.05	0.05254	25.061
3850	0.04994	20.985	1.01092	-9.217	1.01092	-9.217	0.04994	20.985
3870	0.04964	16.056	1.01248	-9.466	1.01248	-9.466	0.04964	16.056
3890	0.05051	12.135	1.0099	-9.424	1.0099	-9.424	0.05051	12.135
3910	0.05173	9.784	1.00755	-9.559	1.00755	-9.559	0.05173	9.784
3930	0.05266	9.078	1.00719	-9.836	1.00719	-9.836	0.05266	9.078
3950	0.05281	9.606	1.00787	-9.717	1.00787	-9.717	0.05281	9.606
3970	0.05006	9.191	1.00561	-10.078	1.00561	-10.078	0.05006	9.191
3990	0.04694	7.302	1.00591	-10.45	1.00591	-10.45	0.04694	7.302
4010	0.04393	3.491	1.00767	-10.663	1.00767	-10.663	0.04393	3.491
4030	0.04182	-2.194	1.00982	-10.758	1.00982	-10.758	0.04182	-2.194
4050	0.04176	-9.215	1.01134	-10.987	1.01134	-10.987	0.04176	-9.215
4070	0.04393	-14.799	1.00629	-11.21	1.00629	-11.21	0.04393	-14.799
4090	0.04632	-18.034	1.00815	-11.443	1.00815	-11.443	0.04632	-18.034
4110	0.04839	-18.923	1.00727	-11.581	1.00727	-11.581	0.04839	-18.923
4130	0.0494	-18.317	1.00333	-11.63	1.00333	-11.63	0.0494	-18.317
4150	0.04844	-17.911	1.00535	-11.706	1.00535	-11.706	0.04844	-17.911
4170	0.0458	-19.695	1.00848	-11.988	1.00848	-11.988	0.0458	-19.695
4190	0.04324	-23.601	1.01003	-12.229	1.01003	-12.229	0.04324	-23.601
4210	0.0418	-29.209	1.00877	-12.39	1.00877	-12.39	0.0418	-29.209
4230	0.04234	-35.945	1.00614	-12.51	1.00614	-12.51	0.04234	-35.945
4250	0.04548	-43.083	1.00618	-12.706	1.00618	-12.706	0.04548	-43.083
4270	0.04957	-46.084	1.00761	-12.728	1.00761	-12.728	0.04957	-46.084
4290	0.05223	-46.678	1.01161	-12.996	1.01161	-12.996	0.05223	-46.678
4310	0.05393	-45.899	1.0133	-13.12	1.0133	-13.12	0.05393	-45.899
4330	0.05455	-45.142	1.01144	-13.132	1.01144	-13.132	0.05455	-45.142
4350	0.05331	-46.161	1.00838	-13.483	1.00838	-13.483	0.05331	-46.161
4370	0.05204	-50.159	1.00773	-13.749	1.00773	-13.749	0.05204	-50.159
4390	0.05192	-54.493	1.00823	-13.958	1.00823	-13.958	0.05192	-54.493
4410	0.05382	-59.091	1.00992	-14.205	1.00992	-14.205	0.05382	-59.091
4430	0.05768	-62.988	1.01158	-14.451	1.01158	-14.451	0.05768	-62.988
4450	0.06256	-64.326	1.01073	-14.526	1.01073	-14.526	0.06256	-64.326
4470	0.06545	-64.387	1.01079	-14.599	1.01079	-14.599	0.06545	-64.387
4490	0.06832	-63.447	1.00706	-14.786	1.00706	-14.786	0.06832	-63.447
4510	0.06858	-62.301	1.00509	-14.942	1.00509	-14.942	0.06858	-62.301
4530	0.06628	-62.141	1.00652	-15.058	1.00652	-15.058	0.06628	-62.141
4550	0.06404	-64.557	1.0091	-15.255	1.0091	-15.255	0.06404	-64.557
4570	0.06346	-68.999	1.00514	-15.328	1.00514	-15.328	0.06346	-68.999
4590	0.06568	-73.337	1.00408	-15.629	1.00408	-15.629	0.06568	-73.337
4610	0.07002	-76.574	1.00603	-15.869	1.00603	-15.869	0.07002	-76.574
4630	0.07549	-78.324	1.00861	-15.986	1.00861	-15.986	0.07549	-78.324
4650	0.08082	-78.809	1.00687	-16.144	1.00687	-16.144	0.08082	-78.809
4670	0.08268	-77.955	1.01151	-16.601	1.01151	-16.601	0.08268	-77.955
4690	0.08388	-76.912	1.0118	-16.555	1.0118	-16.555	0.08388	-76.912
4710	0.08375	-76.801	1.01098	-16.654	1.01098	-16.654	0.08375	-76.801
4730	0.08278	-78.028	1.0095	-16.997	1.0095	-16.997	0.08278	-78.028
4750	0.08263	-80.281	1.00501	-17.132	1.00501	-17.132	0.08263	-80.281
4770	0.08536	-83.118	1.00972	-17.076	1.00972	-17.076	0.08536	-83.118
4790	0.08902	-85.383	1.008	-17.308	1.008	-17.308	0.08902	-85.383
4810	0.09409	-86.568	1.00395	-17.614	1.00395	-17.614	0.09409	-86.568
4830	0.09951	-86.59	1.00283	-17.908	1.00283	-17.908	0.09951	-86.59
4850	0.10272	-85.792	1.01103	-18.234	1.01103	-18.234	0.10272	-85.792
4870	0.10222	-85.237	1.00942	-18.239	1.00942	-18.239	0.10222	-85.237
4890	0.10163	-85.001	1.0073	-18.386	1.0073	-18.386	0.10163	-85.001
4910	0.10107	-86.089	1.00712	-18.38	1.00712	-18.38	0.10107	-86.089
4930	0.10141	-88.534	1.00788	-18.395	1.00788	-18.395	0.10141	-88.534
4950	0.10421	-91.397	1.00511	-19.076	1.00511	-19.076	0.10421	-91.397
4970	0.10841	-93.357	1.00362	-19.327	1.00362	-19.327	0.10841	-93.357
4990	0.11472	-94.083	1.00518	-19.369	1.00518	-19.369	0.11472	-94.083
5010	0.12024	-94.156	1.00381	-19.517	1.00381	-19.517	0.12024	-94.156
5030	0.12337	-93.819	1.00045	-19.738	1.00045	-19.738	0.12337	-93.819
5050	0.12388	-92.976	1.00299	-19.65	1.00299	-19.65	0.12388	-92.976
5070	0.12403	-93.043	1.00398	-19.947	1.00398	-19.947	0.12403	-93.043
5090	0.1243	-94.751	0.99793	-20.094	0.99793	-20.094	0.1243	-94.751
5110	0.1261	-96.848	0.99633	-20.201	0.99633	-20.201	0.1261	-96.848
5130	0.12972	-98.585	1.00044	-20.357	1.00044	-20.357	0.12972	-98.585
5150	0.13434	-99.717	1.00129	-20.632	1.00129	-20.632	0.13434	-99.717
5170	0.14169	-100.358	1.00159	-20.94	1.00159	-20.94	0.14169	-100.358
5190	0.14657	-99.901	0.99998	-21.036	0.99998	-21.036	0.14657	-99.901
5210	0.15027	-99.303	1.00164	-21.093	1.00164	-21.093	0.15027	-99.303
5230	0.15279	-99.022	1.00488	-21.221	1.00488	-21.221	0.15279	-99.022
5250	0.1528	-99.014	1.00113	-21.459	1.00113	-21.459	0.1528	-99.014
5270	0.15303	-100.401	0.9947	-21.749	0.9947	-21.749	0.15303	-100.401
5290	0.15698	-101.611	0.99666	-21.964	0.99666	-21.964	0.15698	-101.611
5310	0.16151	-102.804	0.99881	-22.186	0.99881	-22.186	0.16151	-102.804
5330	0.16606	-103.866	0.99757	-22.395	0.99757	-22.395	0.16606	-103.866
5350	0.17264	-104.407	0.99401	-22.47	0.99401	-22.47	0.17264	-104.407
5370	0.17972	-103.786	0.99498	-22.887	0.99498	-22.887	0.17972	-103.786
5390	0.18464	-103.317	0.99432	-22.987	0.99432	-22.987	0.18464	-103.317
5410	0.18675	-102.822	0.99419	-23.026	0.99419	-23.026	0.18675	-102.822
5430	0.18685	-102.447	0.99482	-23.119	0.99482	-23.119	0.18685	-102.447
5450	0.18715	-102.662	0.99446	-23.246	0.99446	-23.246	0.18715	-102.662
5470	0.18831	-103.762	0.98971	-23.415	0.98971	-23.415	0.18831	-103.762
5490	0.19189	-105.147	0.98886	-23.739	0.98886	-23.739	0.19189	-105.147
5510	0.19696	-106.165	0.98881	-23.889	0.98881	-23.889	0.19696	-106.165
5530	0.20276	-106.649	0.98808	-23.918	0.98808	-23.918	0.20276	-106.649
5550	0.20877	-106.92	0.98684	-24.265	0.98684	-24.265	0.20877	-106.92
5570	0.21285	-106.762	0.98396	-24.273	0.98396	-24.273	0.21285	-106.762
5590	0.21618	-106.673	0.98482	-24.452	0.98482	-24.452	0.21618	-106.673
5610	0.21849	-106.712	0.98656	-24.66	0.98656	-24.66	0.21849	-106.712
5630	0.22016	-106.919	0.98613	-24.882	0.98613	-24.882	0.22016	-106.919
5650	0.2222	-107.319	0.9802	-25.222	0.9802	-25.222	0.2222	-107.319
5670	0.22732	-107.981	0.97999	-25.233	0.97999	-25.233	0.22732	-107.981
5690	0.2326	-108.588	0.98158	-25.401	0.98158	-25.401	0.2326	-108.588
5710	0.23746	-108.88	0.9807	-25.681	0.9807	-25.681	0.23746	-108.88
5730	0.24181	-108.901	0.97682	-25.922	0.97682	-25.922	0.24181	-108.901
5750	0.24605	-109.008	0.97321	-25.863	0.97321	-25.863	0.24605	-109.008
5770	0.24899	-108.69	0.97758	-25.971	0.97758	-25.971	0.24899	-108.69
5790	0.25189	-108.642	0.98161	-26.035	0.98161	-26.035	0.25189	-108.642
5810	0.25386	-108.773	0.98032	-26.236	0.98032	-26.236	0.25386	-108.773
5830	0.25516	-109.088	0.97471	-26.446	0.97471	-26.446	0.25516	-109.088
5850	0.25722	-109.687	0.9718	-26.23	0.9718	-26.23	0.25722	-109.687
5870	0.26265	-109.978	0.97398	-26.613	0.97398	-26.613	0.26265	-109.978
5890	0.26617	-110.414	0.97161	-26.884	0.97161	-26.884	0.26617	-110.414
5910	0.26942	-110.74	0.96995	-27.22	0.96995	-27.22	0.26942	-110.74
5930	0.27269	-110.87	0.97075	-27.522	0.97075	-27.522	0.27269	-110.87
5950	0.27493	-110.891	0.97223	-27.412	0.97223	-27.412	0.27493	-110.891
5970	0.27769	-111.013	0.97208	-27.628	0.97208	-27.628	0.27769	-111.013
5990	0.2819	-111.291	0.96872	-27.748	0.96872	-27.748	0.2819	-111.291
6010	0.2864	-111.685	0.96507	-27.881	0.96507	-27.881	0.2864	-111.685
6030	0.2907	-112.223	0.96273	-28.078	0.96273	-28.078	0.2907	-112.223
6050	0.29507	-112.994	0.96198	-28.337	0.96198	-28.337	0.29507	-112.994
6070	0.29806	-112.619	0.96185	-28.341	0.96185	-28.341	0.29806	-112.619
