# MHZ S MA R 50

      50  0.75   40.00    0.64   -44.90   0.64   -44.90   0.75   40.00
     100  0.86   26.30    0.43   -58.80   0.43   -58.80   0.86   26.30
     150  0.97   12.60    0.22   -72.60   0.22   -72.60   0.97   12.60
     200  0.99    7.60    0.14   -76.30   0.14   -76.30   0.99    7.60
     250  1.00    2.50    0.06   -79.90   0.06   -79.90   1.00    2.50
     300  1.00   -0.50    0.05    0.70    0.05    0.70    1.00   -0.50
     350  1.00   -3.40    0.04   81.40    0.04   81.40    1.00   -3.40
     400  1.00   -6.10    0.08   81.40    0.08   81.40    1.00   -6.10
     450  1.00   -8.80    0.12   81.40    0.12   81.40    1.00   -8.80
     500  1.01   -7.20    0.14   79.60    0.14   79.60    1.01   -7.20
     550  1.01   -5.70    0.16   77.80    0.16   77.80    1.01   -5.70
     600  1.00   -7.50    0.19   76.30    0.19   76.30    1.00   -7.50
     650  0.98   -9.30    0.22   74.80    0.22   74.80    0.98   -9.30
     700  0.98   -10.50   0.25   73.00    0.25   73.00    0.98   -10.50
     750  0.97   -11.70   0.27   71.10    0.27   71.10    0.97   -11.70
     800  0.95   -13.70   0.29   69.70    0.29   69.70    0.95   -13.70
     850  0.93   -15.70   0.32   68.30    0.32   68.30    0.93   -15.70
     900  0.94   -17.20   0.34   66.80    0.34   66.80    0.94   -17.20
     950  0.94   -18.70   0.37   65.40    0.37   65.40    0.94   -18.70
    1000  0.93   -20.30   0.39   63.90    0.39   63.90    0.93   -20.30
    1050  0.91   -21.90   0.41   62.40    0.41   62.40    0.91   -21.90
    1100  0.90   -23.50   0.43   60.50    0.43   60.50    0.90   -23.50
    1150  0.88   -25.00   0.45   58.60    0.45   58.60    0.88   -25.00
    1200  0.87   -26.60   0.48   56.70    0.48   56.70    0.87   -26.60
    1250  0.86   -28.30   0.50   54.90    0.50   54.90    0.86   -28.30
    1300  0.83   -30.40   0.53   51.90    0.53   51.90    0.83   -30.40
    1350  0.80   -32.40   0.55   48.80    0.55   48.80    0.80   -32.40
    1400  0.74   -32.60   0.56   42.90    0.56   42.90    0.74   -32.60
    1450  0.68   -32.70   0.58   36.90    0.58   36.90    0.68   -32.70
    1500  0.72   -26.60   0.48   37.50    0.48   37.50    0.72   -26.60
    1550  0.76   -20.40   0.39   38.10    0.39   38.10    0.76   -20.40
    1600  0.79   -24.90   0.43   44.50    0.43   44.50    0.79   -24.90
    1650  0.83   -29.40   0.48   50.90    0.48   50.90    0.83   -29.40
    1700  0.81   -32.10   0.51   50.30    0.51   50.30    0.81   -32.10
    1750  0.80   -34.70   0.55   49.60    0.55   49.60    0.80   -34.70
    1800  0.79   -37.00   0.57   48.10    0.57   48.10    0.79   -37.00
    1850  0.78   -39.20   0.60   46.70    0.60   46.70    0.78   -39.20
    1900  0.77   -40.90   0.61   45.50    0.61   45.50    0.77   -40.90
    1950  0.75   -42.60   0.63   44.40    0.63   44.40    0.75   -42.60
    2000  0.74   -44.20   0.65   43.20    0.65   43.20    0.74   -44.20
    2050  0.72   -45.80   0.66   41.90    0.66   41.90    0.72   -45.80
    2100  0.71   -47.00   0.68   40.60    0.68   40.60    0.71   -47.00
    2150  0.70   -48.30   0.69   39.40    0.69   39.40    0.70   -48.30
    2200  0.68   -49.80   0.70   38.20    0.70   38.20    0.68   -49.80
    2250  0.67   -51.40   0.71   36.90    0.71   36.90    0.67   -51.40
    2300  0.65   -52.40   0.73   35.80    0.73   35.80    0.65   -52.40
    2350  0.64   -53.40   0.74   34.60    0.74   34.60    0.64   -53.40
    2400  0.62   -54.90   0.75   33.10    0.75   33.10    0.62   -54.90
    2450  0.61   -56.30   0.76   31.60    0.76   31.60    0.61   -56.30
    2500  0.59   -57.10   0.77   30.10    0.77   30.10    0.59   -57.10
    2550  0.57   -57.90   0.77   28.60    0.77   28.60    0.57   -57.90
    2600  0.55   -58.00   0.77   26.70    0.77   26.70    0.55   -58.00
    2650  0.52   -58.10   0.78   24.80    0.78   24.80    0.52   -58.10
    2700  0.51   -54.80   0.75   23.00    0.75   23.00    0.51   -54.80
    2750  0.49   -51.40   0.73   21.10    0.73   21.10    0.49   -51.40
    2800  0.53   -50.80   0.71   23.70    0.71   23.70    0.53   -50.80
    2850  0.57   -50.10   0.69   26.20    0.69   26.20    0.57   -50.10
    2900  0.57   -53.00   0.71   27.00    0.71   27.00    0.57   -53.00
    2950  0.58   -55.80   0.74   27.90    0.74   27.90    0.58   -55.80
    3000  0.58   -57.90   0.75   27.30    0.75   27.30    0.58   -57.90
    3050  0.57   -59.90   0.77   26.80    0.77   26.80    0.57   -59.90
    3100  0.56   -61.60   0.78   26.00    0.78   26.00    0.56   -61.60
    3150  0.55   -63.30   0.79   25.20    0.79   25.20    0.55   -63.30
    3200  0.54   -63.90   0.81   24.40    0.81   24.40    0.54   -63.90
    3250  0.53   -64.50   0.82   23.70    0.82   23.70    0.53   -64.50
    3300  0.52   -65.50   0.82   22.90    0.82   22.90    0.52   -65.50
    3350  0.51   -66.50   0.83   22.10    0.83   22.10    0.51   -66.50
    3400  0.50   -67.20   0.84   21.40    0.84   21.40    0.50   -67.20
    3450  0.49   -68.00   0.84   20.80    0.84   20.80    0.49   -68.00
    3500  0.48   -68.80   0.85   20.00    0.85   20.00    0.48   -68.80
    3550  0.46   -69.70   0.86   19.20    0.86   19.20    0.46   -69.70
    3600  0.45   -70.30   0.86   18.60    0.86   18.60    0.45   -70.30
    3650  0.44   -70.90   0.86   17.90    0.86   17.90    0.44   -70.90
    3700  0.43   -71.50   0.87   17.00    0.87   17.00    0.43   -71.50
    3750  0.42   -72.10   0.87   16.10    0.87   16.10    0.42   -72.10
    3800  0.41   -72.40   0.87   15.40    0.87   15.40    0.41   -72.40
    3850  0.39   -72.60   0.88   14.60    0.88   14.60    0.39   -72.60
    3900  0.38   -72.00   0.87   13.40    0.87   13.40    0.38   -72.00
    3950  0.36   -71.40   0.87   12.20    0.87   12.20    0.36   -71.40
    4000  0.36   -69.30   0.86   11.60    0.86   11.60    0.36   -69.30
    4050  0.35   -67.20   0.84   11.10    0.84   11.10    0.35   -67.20
    4100  0.36   -65.80   0.83   11.90    0.83   11.90    0.36   -65.80
    4150  0.38   -64.30   0.82   12.70    0.82   12.70    0.38   -64.30
    4200  0.39   -67.30   0.83   13.40    0.83   13.40    0.39   -67.30
    4250  0.40   -70.20   0.85   14.10    0.85   14.10    0.40   -70.20
    4300  0.39   -72.10   0.86   13.90    0.86   13.90    0.39   -72.10
    4350  0.38   -74.00   0.87   13.70    0.87   13.70    0.38   -74.00
    4400  0.38   -75.80   0.88   13.00    0.88   13.00    0.38   -75.80
    4450  0.37   -77.50   0.89   12.30    0.89   12.30    0.37   -77.50
    4500  0.36   -78.00   0.89   11.60    0.89   11.60    0.36   -78.00
    4550  0.35   -78.40   0.90   11.00    0.90   11.00    0.35   -78.40
    4600  0.34   -79.70   0.90   10.20    0.90   10.20    0.34   -79.70
    4650  0.34   -81.00   0.91    9.30    0.91    9.30    0.34   -81.00
    4700  0.33   -81.30   0.91    8.80    0.91    8.80    0.33   -81.30
    4750  0.32   -81.60   0.91    8.20    0.91    8.20    0.32   -81.60
    4800  0.31   -82.10   0.91    7.60    0.91    7.60    0.31   -82.10
    4850  0.30   -82.60   0.91    7.00    0.91    7.00    0.30   -82.60
    4900  0.30   -82.60   0.92    6.40    0.92    6.40    0.30   -82.60
    4950  0.29   -82.60   0.92    5.80    0.92    5.80    0.29   -82.60
    5000  0.28   -82.90   0.92    5.00    0.92    5.00    0.28   -82.90
    5050  0.28   -83.20   0.91    4.20    0.91    4.20    0.28   -83.20
    5100  0.27   -82.20   0.91    3.70    0.91    3.70    0.27   -82.20
    5150  0.26   -81.20   0.91    3.10    0.91    3.10    0.26   -81.20
    5200  0.26   -79.60   0.90    2.80    0.90    2.80    0.26   -79.60
    5250  0.25   -78.00   0.90    2.40    0.90    2.40    0.25   -78.00
    5300  0.26   -76.10   0.89    1.90    0.89    1.90    0.26   -76.10
    5350  0.27   -74.10   0.88    1.50    0.88    1.50    0.27   -74.10
    5400  0.27   -74.40   0.88    2.00    0.88    2.00    0.27   -74.40
    5450  0.28   -74.70   0.87    2.60    0.87    2.60    0.28   -74.70
    5500  0.28   -76.80   0.88    2.70    0.88    2.70    0.28   -76.80
    5550  0.29   -78.80   0.89    2.90    0.89    2.90    0.29   -78.80
    5600  0.28   -80.50   0.90    2.50    0.90    2.50    0.28   -80.50
    5650  0.27   -82.10   0.91    2.00    0.91    2.00    0.27   -82.10
    5700  0.27   -83.40   0.92    1.60    0.92    1.60    0.27   -83.40
    5750  0.26   -84.70   0.92    1.20    0.92    1.20    0.26   -84.70
    5800  0.25   -84.50   0.92    0.60    0.92    0.60    0.25   -84.50
    5850  0.24   -84.30   0.92    0.00    0.92    0.00    0.24   -84.30
    5900  0.24   -84.90   0.93   -0.40    0.93   -0.40    0.24   -84.90
    5950  0.23   -85.50   0.93   -0.90    0.93   -0.90    0.23   -85.50
    6000  0.22   -85.60   0.93   -1.80    0.93   -1.80    0.22   -85.60
    6050  0.22   -85.80   0.94   -2.60    0.94   -2.60    0.22   -85.80
    6100  0.21   -85.40   0.94   -3.00    0.94   -3.00    0.21   -85.40
    6150  0.21   -85.10   0.94   -3.30    0.94   -3.30    0.21   -85.10
    6200  0.20   -83.90   0.94   -3.90    0.94   -3.90    0.20   -83.90
    6250  0.19   -82.80   0.94   -4.60    0.94   -4.60    0.19   -82.80
    6300  0.18   -82.10   0.93   -5.10    0.93   -5.10    0.18   -82.10
    6350  0.18   -81.40   0.93   -5.60    0.93   -5.60    0.18   -81.40
    6400  0.17   -78.50   0.92   -6.20    0.92   -6.20    0.17   -78.50
    6450  0.17   -75.70   0.92   -6.70    0.92   -6.70    0.17   -75.70
    6500  0.17   -72.90   0.91   -7.00    0.91   -7.00    0.17   -72.90
    6550  0.17   -70.10   0.90   -7.30    0.90   -7.30    0.17   -70.10
    6600  0.17   -68.10   0.90   -7.30    0.90   -7.30    0.17   -68.10
    6650  0.18   -66.20   0.89   -7.20    0.89   -7.20    0.18   -66.20
    6700  0.18   -66.90   0.90   -7.00    0.90   -7.00    0.18   -66.90
    6750  0.19   -67.60   0.90   -6.70    0.90   -6.70    0.19   -67.60
    6800  0.18   -66.80   0.90   -7.00    0.90   -7.00    0.18   -66.80
    6850  0.17   -66.10   0.91   -7.20    0.91   -7.20    0.17   -66.10
    6900  0.17   -66.10   0.91   -7.60    0.91   -7.60    0.17   -66.10
    6950  0.17   -66.10   0.91   -7.90    0.91   -7.90    0.17   -66.10
    7000  0.17   -65.40   0.91   -8.20    0.91   -8.20    0.17   -65.40
    7050  0.16   -64.70   0.91   -8.50    0.91   -8.50    0.16   -64.70
    7100  0.16   -63.30   0.90   -8.50    0.90   -8.50    0.16   -63.30
    7150  0.16   -61.80   0.90   -8.60    0.90   -8.60    0.16   -61.80
    7200  0.16   -63.40   0.91   -8.60    0.91   -8.60    0.16   -63.40
    7250  0.16   -65.00   0.91   -8.70    0.91   -8.70    0.16   -65.00
    7300  0.16   -65.00   0.91   -8.80    0.91   -8.80    0.16   -65.00
    7350  0.16   -65.00   0.92   -9.00    0.92   -9.00    0.16   -65.00
    7400  0.15   -66.30   0.92   -9.20    0.92   -9.20    0.15   -66.30
    7450  0.15   -67.60   0.92   -9.50    0.92   -9.50    0.15   -67.60
    7500  0.14   -68.40   0.93   -9.80    0.93   -9.80    0.14   -68.40
    7550  0.13   -69.20   0.93   -10.20   0.93   -10.20   0.13   -69.20
    7600  0.13   -68.20   0.94   -10.50   0.94   -10.50   0.13   -68.20
    7650  0.13   -67.30   0.94   -10.90   0.94   -10.90   0.13   -67.30
    7700  0.12   -67.20   0.94   -11.30   0.94   -11.30   0.12   -67.20
    7750  0.11   -67.10   0.94   -11.80   0.94   -11.80   0.11   -67.10
    7800  0.11   -63.30   0.95   -12.20   0.95   -12.20   0.11   -63.30
    7850  0.10   -59.60   0.95   -12.70   0.95   -12.70   0.10   -59.60
    7900  0.10   -58.70   0.95   -13.20   0.95   -13.20   0.10   -58.70
    7950  0.10   -57.80   0.95   -13.60   0.95   -13.60   0.10   -57.80
    8000  0.09   -51.40   0.95   -14.20   0.95   -14.20   0.09   -51.40
    8050  0.09   -45.00   0.96   -14.70   0.96   -14.70   0.09   -45.00
    8100  0.09   -41.30   0.96   -15.10   0.96   -15.10   0.09   -41.30
    8150  0.09   -37.70   0.96   -15.60   0.96   -15.60   0.09   -37.70
    8200  0.09   -32.80   0.95   -16.00   0.95   -16.00   0.09   -32.80
    8250  0.09   -28.00   0.95   -16.50   0.95   -16.50   0.09   -28.00
    8300  0.09   -24.50   0.95   -17.00   0.95   -17.00   0.09   -24.50
    8350  0.10   -21.00   0.95   -17.50   0.95   -17.50   0.10   -21.00
    8400  0.10   -18.90   0.95   -18.00   0.95   -18.00   0.10   -18.90
    8450  0.11   -16.80   0.95   -18.60   0.95   -18.60   0.11   -16.80
    8500  0.12   -14.50   0.95   -19.00   0.95   -19.00   0.12   -14.50
    8550  0.12   -12.20   0.95   -19.50   0.95   -19.50   0.12   -12.20
    8600  0.13   -11.20   0.94   -20.10   0.94   -20.10   0.13   -11.20
    8650  0.14   -10.20   0.94   -20.60   0.94   -20.60   0.14   -10.20
    8700  0.14   -10.00   0.94   -21.00   0.94   -21.00   0.14   -10.00
    8750  0.15   -9.70    0.93   -21.50   0.93   -21.50   0.15   -9.70
    8800  0.16   -10.60   0.93   -21.60   0.93   -21.60   0.16   -10.60
    8850  0.16   -11.60   0.92   -21.70   0.92   -21.70   0.16   -11.60
    8900  0.17   -12.70   0.92   -21.90   0.92   -21.90   0.17   -12.70
    8950  0.17   -13.90   0.91   -22.10   0.91   -22.10   0.17   -13.90
    9000  0.17   -15.30   0.91   -22.10   0.91   -22.10   0.17   -15.30
    9050  0.17   -16.60   0.91   -22.10   0.91   -22.10   0.17   -16.60
    9100  0.17   -16.40   0.91   -22.20   0.91   -22.20   0.17   -16.40
    9150  0.16   -16.30   0.91   -22.40   0.91   -22.40   0.16   -16.30
    9200  0.16   -16.20   0.91   -22.70   0.91   -22.70   0.16   -16.20
    9250  0.16   -16.10   0.92   -23.00   0.92   -23.00   0.16   -16.10
    9300  0.16   -13.10   0.92   -23.20   0.92   -23.20   0.16   -13.10
    9350  0.16   -10.20   0.92   -23.50   0.92   -23.50   0.16   -10.20
    9400  0.16   -9.40    0.92   -23.90   0.92   -23.90   0.16   -9.40
    9450  0.17   -8.70    0.92   -24.30   0.92   -24.30   0.17   -8.70
    9500  0.17   -6.60    0.92   -24.80   0.92   -24.80   0.17   -6.60
    9550  0.17   -4.60    0.91   -25.30   0.91   -25.30   0.17   -4.60
    9600  0.18   -2.70    0.91   -25.70   0.91   -25.70   0.18   -2.70
    9650  0.18   -0.70    0.91   -26.10   0.91   -26.10   0.18   -0.70
    9700  0.19   -0.20    0.91   -26.30   0.91   -26.30   0.19   -0.20
    9750  0.19    0.30    0.90   -26.50   0.90   -26.50   0.19    0.30
    9800  0.19    1.20    0.90   -26.50   0.90   -26.50   0.19    1.20
    9850  0.19    2.10    0.90   -26.60   0.90   -26.60   0.19    2.10
    9900  0.20    3.30    0.89   -26.60   0.89   -26.60   0.20    3.30
    9950  0.20    4.60    0.89   -26.60   0.89   -26.60   0.20    4.60
   10000  0.19    4.00    0.89   -26.50   0.89   -26.50   0.19    4.00
   10050  0.18    3.40    0.90   -26.40   0.90   -26.40   0.18    3.40
   10100  0.18    8.00    0.90   -26.50   0.90   -26.50   0.18    8.00
   10150  0.18   12.60    0.91   -26.70   0.91   -26.70   0.18   12.60
   10200  0.19   13.20    0.91   -27.00   0.91   -27.00   0.19   13.20
   10250  0.19   13.70    0.92   -27.40   0.92   -27.40   0.19   13.70
   10300  0.19   17.50    0.91   -27.80   0.91   -27.80   0.19   17.50
   10350  0.19   21.30    0.91   -28.20   0.91   -28.20   0.19   21.30
   10400  0.19   21.90    0.92   -28.70   0.92   -28.70   0.19   21.90
   10450  0.20   22.50    0.92   -29.10   0.92   -29.10   0.20   22.50
   10500  0.20   22.70    0.92   -29.60   0.92   -29.60   0.20   22.70
   10550  0.20   23.00    0.92   -30.10   0.92   -30.10   0.20   23.00
   10600  0.21   25.00    0.92   -30.50   0.92   -30.50   0.21   25.00
   10650  0.22   27.00    0.92   -30.90   0.92   -30.90   0.22   27.00
   10700  0.22   25.50    0.92   -31.40   0.92   -31.40   0.22   25.50
   10750  0.22   24.00    0.92   -32.00   0.92   -32.00   0.22   24.00
   10800  0.22   25.20    0.91   -32.10   0.91   -32.10   0.22   25.20
   10850  0.22   26.50    0.91   -32.30   0.91   -32.30   0.22   26.50
   10900  0.23   24.80    0.91   -32.80   0.91   -32.80   0.23   24.80
   10950  0.23   23.00    0.91   -33.20   0.91   -33.20   0.23   23.00
   11000  0.22   23.20    0.90   -33.70   0.90   -33.70   0.22   23.20
   11050  0.22   23.40    0.90   -34.10   0.90   -34.10   0.22   23.40
   11100  0.22   22.90    0.90   -34.10   0.90   -34.10   0.22   22.90
   11150  0.22   22.40    0.90   -34.10   0.90   -34.10   0.22   22.40
   11200  0.22   22.60    0.90   -34.50   0.90   -34.50   0.22   22.60
   11250  0.21   22.80    0.90   -34.90   0.90   -34.90   0.21   22.80
   11300  0.22   24.10    0.90   -35.40   0.90   -35.40   0.22   24.10
   11350  0.22   25.50    0.91   -35.80   0.91   -35.80   0.22   25.50
   11400  0.22   26.40    0.90   -36.30   0.90   -36.30   0.22   26.40
   11450  0.22   27.40    0.90   -36.70   0.90   -36.70   0.22   27.40
   11500  0.23   29.00    0.90   -37.30   0.90   -37.30   0.23   29.00
   11550  0.24   30.60    0.90   -38.00   0.90   -38.00   0.24   30.60
   11600  0.25   31.00    0.90   -38.50   0.90   -38.50   0.25   31.00
   11650  0.25   31.50    0.90   -39.10   0.90   -39.10   0.25   31.50
   11700  0.26   32.10    0.90   -39.80   0.90   -39.80   0.26   32.10
   11750  0.27   32.80    0.89   -40.40   0.89   -40.40   0.27   32.80
   11800  0.28   33.90    0.89   -40.80   0.89   -40.80   0.28   33.90
   11850  0.29   35.10    0.88   -41.20   0.88   -41.20   0.29   35.10
   11900  0.29   35.80    0.88   -42.00   0.88   -42.00   0.29   35.80
   11950  0.29   36.50    0.87   -42.80   0.87   -42.80   0.29   36.50
   12000  0.30   35.80    0.87   -43.40   0.87   -43.40   0.30   35.80
   12050  0.31   35.00    0.87   -43.90   0.87   -43.90   0.31   35.00
   12100  0.32   34.80    0.85   -44.80   0.85   -44.80   0.32   34.80
   12150  0.33   34.70    0.84   -45.80   0.84   -45.80   0.33   34.70
   12200  0.34   33.50    0.83   -46.30   0.83   -46.30   0.34   33.50
   12250  0.35   32.40    0.82   -46.80   0.82   -46.80   0.35   32.40
   12300  0.36   31.90    0.80   -47.10   0.80   -47.10   0.36   31.90
   12350  0.37   31.50    0.78   -47.40   0.78   -47.40   0.37   31.50
   12400  0.38   28.50    0.76   -47.60   0.76   -47.60   0.38   28.50
   12450  0.39   25.40    0.74   -47.80   0.74   -47.80   0.39   25.40
   12500  0.40   23.50    0.72   -46.70   0.72   -46.70   0.40   23.50
   12550  0.40   21.60    0.70   -45.60   0.70   -45.60   0.40   21.60
   12600  0.40   18.90    0.69   -44.00   0.69   -44.00   0.40   18.90
   12650  0.40   16.20    0.68   -42.40   0.68   -42.40   0.40   16.20
   12700  0.39   13.80    0.69   -40.80   0.69   -40.80   0.39   13.80
   12750  0.39   11.50    0.70   -39.30   0.70   -39.30   0.39   11.50
   12800  0.37   11.00    0.71   -38.70   0.71   -38.70   0.37   11.00
   12850  0.36   10.50    0.72   -38.10   0.72   -38.10   0.36   10.50
   12900  0.36   10.80    0.74   -38.40   0.74   -38.40   0.36   10.80
   12950  0.35   11.20    0.75   -38.70   0.75   -38.70   0.35   11.20
   13000  0.35   12.10    0.75   -39.20   0.75   -39.20   0.35   12.10
   13050  0.34   13.00    0.76   -39.70   0.76   -39.70   0.34   13.00
   13100  0.35   12.80    0.75   -40.40   0.75   -40.40   0.35   12.80
   13150  0.35   12.60    0.75   -41.00   0.75   -41.00   0.35   12.60
   13200  0.36   12.40    0.74   -40.90   0.74   -40.90   0.36   12.40
   13250  0.37   12.10    0.74   -40.80   0.74   -40.80   0.37   12.10
   13300  0.36   11.80    0.73   -40.70   0.73   -40.70   0.36   11.80
   13350  0.35   11.40    0.72   -40.60   0.72   -40.60   0.35   11.40
   13400  0.36    8.50    0.73   -39.90   0.73   -39.90   0.36    8.50
   13450  0.36    5.60    0.73   -39.20   0.73   -39.20   0.36    5.60
   13500  0.36    4.20    0.74   -38.80   0.74   -38.80   0.36    4.20
   13550  0.35    2.80    0.75   -38.40   0.75   -38.40   0.35    2.80
   13600  0.34    3.00    0.76   -38.90   0.76   -38.90   0.34    3.00
   13650  0.33    3.10    0.77   -39.40   0.77   -39.40   0.33    3.10
   13700  0.33    3.60    0.78   -40.00   0.78   -40.00   0.33    3.60
   13750  0.34    4.20    0.79   -40.50   0.79   -40.50   0.34    4.20
   13800  0.34    4.00    0.79   -41.30   0.79   -41.30   0.34    4.00
   13850  0.33    3.90    0.79   -42.10   0.79   -42.10   0.33    3.90
   13900  0.35    4.10    0.80   -42.80   0.80   -42.80   0.35    4.10
   13950  0.36    4.30    0.80   -43.50   0.80   -43.50   0.36    4.30
