#	mhz	s	ma	r	50			
50	0.17	101.90	0.97	11.90	0.97	11.90	0.17	101.90
100	0.10	94.90	0.98	7.20	0.98	7.20	0.10	94.90
150	0.03	87.90	1.00	2.40	1.00	2.40	0.03	87.90
200	0.02	11.10	1.00	0.80	1.00	0.80	0.02	11.10
250	0.01	-65.70	1.00	-0.90	1.00	-0.90	0.01	-65.70
300	0.03	-78.40	1.00	-2.30	1.00	-2.30	0.03	-78.40
350	0.04	-91.00	1.00	-3.60	1.00	-3.60	0.04	-91.00
400	0.06	-91.10	1.00	-4.80	1.00	-4.80	0.06	-91.10
450	0.07	-91.10	1.00	-6.00	1.00	-6.00	0.07	-91.10
500	0.08	-94.00	1.00	-6.80	1.00	-6.80	0.08	-94.00
550	0.08	-96.80	1.00	-7.60	1.00	-7.60	0.08	-96.80
600	0.09	-98.50	1.00	-8.60	1.00	-8.60	0.09	-98.50
650	0.11	-100.20	0.99	-9.70	0.99	-9.70	0.11	-100.20
700	0.12	-102.10	0.99	-10.70	0.99	-10.70	0.12	-102.10
750	0.13	-104.00	0.99	-11.70	0.99	-11.70	0.13	-104.00
800	0.14	-104.60	0.99	-12.90	0.99	-12.90	0.14	-104.60
850	0.15	-105.20	0.98	-14.00	0.98	-14.00	0.15	-105.20
900	0.16	-107.20	0.98	-15.20	0.98	-15.20	0.16	-107.20
950	0.18	-109.10	0.98	-16.40	0.98	-16.40	0.18	-109.10
1000	0.19	-111.50	0.97	-17.80	0.97	-17.80	0.19	-111.50
1050	0.21	-113.90	0.96	-19.10	0.96	-19.10	0.21	-113.90
1100	0.23	-122.70	0.93	-20.90	0.93	-20.90	0.23	-122.70
1150	0.25	-131.50	0.90	-22.60	0.90	-22.60	0.25	-131.50
1200	0.19	-130.20	0.91	-19.20	0.91	-19.20	0.19	-130.20
1250	0.12	-128.90	0.92	-15.70	0.92	-15.70	0.12	-128.90
1300	0.15	-120.80	0.94	-17.90	0.94	-17.90	0.15	-120.80
1350	0.19	-112.80	0.96	-20.20	0.96	-20.20	0.19	-112.80
1400	0.21	-113.70	0.96	-21.70	0.96	-21.70	0.21	-113.70
1450	0.23	-114.50	0.96	-23.20	0.96	-23.20	0.23	-114.50
1500	0.24	-115.90	0.96	-24.50	0.96	-24.50	0.24	-115.90
1550	0.26	-117.30	0.96	-25.70	0.96	-25.70	0.26	-117.30
1600	0.27	-118.90	0.95	-27.00	0.95	-27.00	0.27	-118.90
1650	0.28	-120.50	0.95	-28.20	0.95	-28.20	0.28	-120.50
1700	0.30	-122.00	0.94	-29.40	0.94	-29.40	0.30	-122.00
1750	0.31	-123.60	0.94	-30.50	0.94	-30.50	0.31	-123.60
1800	0.33	-125.50	0.93	-31.80	0.93	-31.80	0.33	-125.50
1850	0.34	-127.50	0.93	-33.10	0.93	-33.10	0.34	-127.50
1900	0.36	-129.60	0.92	-34.50	0.92	-34.50	0.36	-129.60
1950	0.37	-131.70	0.91	-35.80	0.91	-35.80	0.37	-131.70
2000	0.38	-135.40	0.89	-37.20	0.89	-37.20	0.38	-135.40
2050	0.40	-139.20	0.87	-38.60	0.87	-38.60	0.40	-139.20
2100	0.38	-145.60	0.83	-37.50	0.83	-37.50	0.38	-145.60
2150	0.36	-152.10	0.79	-36.50	0.79	-36.50	0.36	-152.10
2200	0.33	-145.20	0.83	-35.40	0.83	-35.40	0.33	-145.20
2250	0.30	-138.40	0.87	-34.20	0.87	-34.20	0.30	-138.40
2300	0.33	-136.40	0.88	-36.50	0.88	-36.50	0.33	-136.40
2350	0.36	-134.50	0.90	-38.80	0.90	-38.80	0.36	-134.50
2400	0.38	-135.10	0.89	-40.40	0.89	-40.40	0.38	-135.10
2450	0.40	-135.80	0.88	-42.10	0.88	-42.10	0.40	-135.80
2500	0.42	-137.40	0.88	-43.50	0.88	-43.50	0.42	-137.40
2550	0.44	-139.10	0.87	-44.90	0.87	-44.90	0.44	-139.10
2600	0.45	-140.50	0.87	-46.20	0.87	-46.20	0.45	-140.50
2650	0.47	-141.90	0.86	-47.50	0.86	-47.50	0.47	-141.90
2700	0.48	-143.20	0.85	-48.60	0.85	-48.60	0.48	-143.20
2750	0.49	-144.60	0.84	-49.80	0.84	-49.80	0.49	-144.60
2800	0.51	-146.10	0.83	-51.20	0.83	-51.20	0.51	-146.10
2850	0.52	-147.60	0.82	-52.60	0.82	-52.60	0.52	-147.60
2900	0.53	-149.60	0.81	-54.00	0.81	-54.00	0.53	-149.60
2950	0.55	-151.60	0.79	-55.40	0.79	-55.40	0.55	-151.60
3000	0.56	-154.30	0.77	-56.30	0.77	-56.30	0.56	-154.30
3050	0.56	-157.00	0.75	-57.10	0.75	-57.10	0.56	-157.00
3100	0.55	-160.40	0.72	-56.30	0.72	-56.30	0.55	-160.40
3150	0.54	-163.80	0.70	-55.40	0.70	-55.40	0.54	-163.80
3200	0.51	-161.40	0.72	-54.20	0.72	-54.20	0.51	-161.40
3250	0.48	-159.00	0.74	-52.90	0.74	-52.90	0.48	-159.00
3300	0.50	-157.10	0.75	-55.10	0.75	-55.10	0.50	-157.10
3350	0.53	-155.20	0.77	-57.20	0.77	-57.20	0.53	-155.20
3400	0.56	-156.30	0.76	-59.30	0.76	-59.30	0.56	-156.30
3450	0.58	-157.30	0.75	-61.40	0.75	-61.40	0.58	-157.30
3500	0.60	-159.40	0.73	-62.80	0.73	-62.80	0.60	-159.40
3550	0.61	-161.40	0.72	-64.30	0.72	-64.30	0.61	-161.40
3600	0.61	-162.80	0.70	-64.30	0.70	-64.30	0.61	-162.80
3650	0.61	-164.20	0.69	-64.40	0.69	-64.40	0.61	-164.20
3700	0.61	-164.50	0.69	-65.20	0.69	-65.20	0.61	-164.50
3750	0.61	-164.80	0.70	-66.00	0.70	-66.00	0.61	-164.80
3800	0.63	-165.40	0.69	-67.90	0.69	-67.90	0.63	-165.40
3850	0.65	-165.90	0.69	-69.80	0.69	-69.80	0.65	-165.90
3900	0.66	-167.70	0.67	-71.30	0.67	-71.30	0.66	-167.70
3950	0.67	-169.50	0.66	-72.80	0.66	-72.80	0.67	-169.50
4000	0.68	-171.60	0.63	-73.70	0.63	-73.70	0.68	-171.60
4050	0.69	-173.60	0.61	-74.60	0.61	-74.60	0.69	-173.60
4100	0.68	-175.90	0.59	-74.10	0.59	-74.10	0.68	-175.90
4150	0.68	-178.30	0.57	-73.50	0.57	-73.50	0.68	-178.30
4200	0.65	-178.90	0.57	-71.80	0.57	-71.80	0.65	-178.90
4250	0.62	-179.50	0.58	-70.10	0.58	-70.10	0.62	-179.50
4300	0.63	-177.50	0.60	-71.30	0.60	-71.30	0.63	-177.50
4350	0.64	-175.40	0.62	-72.60	0.62	-72.60	0.64	-175.40
4400	0.67	-175.90	0.62	-75.40	0.62	-75.40	0.67	-175.90
4450	0.69	-176.50	0.61	-78.20	0.61	-78.20	0.69	-176.50
4500	0.72	-177.80	0.60	-80.20	0.60	-80.20	0.72	-177.80
4550	0.74	-179.20	0.59	-82.30	0.59	-82.30	0.74	-179.20
4600	0.75	-1.30	0.57	-83.80	0.57	-83.80	0.75	-1.30
4650	0.76	176.60	0.55	-85.40	0.55	-85.40	0.76	176.60
4700	0.77	175.40	0.54	-86.40	0.54	-86.40	0.77	175.40
4750	0.78	174.10	0.52	-87.40	0.52	-87.40	0.78	174.10
4800	0.79	172.30	0.50	-88.60	0.50	-88.60	0.79	172.30
4850	0.80	170.50	0.49	-89.80	0.49	-89.80	0.80	170.50
4900	0.81	168.40	0.47	-91.00	0.47	-91.00	0.81	168.40
4950	0.82	166.30	0.44	-92.20	0.44	-92.20	0.82	166.30
5000	0.81	164.20	0.42	-91.30	0.42	-91.30	0.81	164.20
5050	0.81	162.10	0.39	-90.40	0.39	-90.40	0.81	162.10
5100	0.79	160.00	0.38	-87.70	0.38	-87.70	0.79	160.00
5150	0.78	157.80	0.36	-85.00	0.36	-85.00	0.78	157.80
5200	0.75	157.60	0.38	-82.50	0.38	-82.50	0.75	157.60
5250	0.73	157.30	0.39	-80.10	0.39	-80.10	0.73	157.30
5300	0.73	158.90	0.41	-82.10	0.41	-82.10	0.73	158.90
5350	0.73	160.50	0.42	-84.10	0.42	-84.10	0.73	160.50
5400	0.76	160.30	0.41	-87.50	0.41	-87.50	0.76	160.30
5450	0.79	160.10	0.41	-90.90	0.41	-90.90	0.79	160.10
5500	0.81	158.50	0.38	-92.90	0.38	-92.90	0.81	158.50
5550	0.82	156.90	0.36	-94.90	0.36	-94.90	0.82	156.90
5600	0.83	155.10	0.34	-95.00	0.34	-95.00	0.83	155.10
5650	0.84	153.30	0.31	-95.10	0.31	-95.10	0.84	153.30
5700	0.85	151.70	0.30	-94.90	0.30	-94.90	0.85	151.70
5750	0.85	150.10	0.29	-94.70	0.29	-94.70	0.85	150.10
5800	0.85	148.60	0.27	-94.70	0.27	-94.70	0.85	148.60
5850	0.86	147.10	0.25	-94.70	0.25	-94.70	0.86	147.10
5900	0.86	144.60	0.22	-92.10	0.22	-92.10	0.86	144.60
5950	0.86	142.20	0.20	-89.50	0.20	-89.50	0.86	142.20
6000	0.86	140.80	0.19	-81.30	0.19	-81.30	0.86	140.80
6050	0.85	139.30	0.17	-73.10	0.17	-73.10	0.85	139.30
6100	0.83	137.40	0.19	-65.50	0.19	-65.50	0.83	137.40
6150	0.80	135.50	0.20	-57.80	0.20	-57.80	0.80	135.50
6200	0.78	135.90	0.22	-57.70	0.22	-57.70	0.78	135.90
6250	0.75	136.20	0.25	-57.60	0.25	-57.60	0.75	136.20
6300	0.76	137.20	0.25	-61.20	0.25	-61.20	0.76	137.20
6350	0.76	138.10	0.25	-64.80	0.25	-64.80	0.76	138.10
6400	0.78	137.30	0.23	-64.30	0.23	-64.30	0.78	137.30
6450	0.80	136.40	0.21	-63.70	0.21	-63.70	0.80	136.40
6500	0.80	134.20	0.20	-57.10	0.20	-57.10	0.80	134.20
6550	0.81	131.90	0.19	-50.50	0.19	-50.50	0.81	131.90
6600	0.80	130.50	0.21	-45.50	0.21	-45.50	0.80	130.50
6650	0.79	129.00	0.22	-40.50	0.22	-40.50	0.79	129.00
6700	0.78	127.70	0.24	-38.80	0.24	-38.80	0.78	127.70
6750	0.77	126.30	0.25	-37.00	0.25	-37.00	0.77	126.30
6800	0.76	124.30	0.27	-34.00	0.27	-34.00	0.76	124.30
6850	0.75	122.40	0.28	-30.90	0.28	-30.90	0.75	122.40
6900	0.72	119.80	0.32	-29.80	0.32	-29.80	0.72	119.80
6950	0.70	117.20	0.36	-28.70	0.36	-28.70	0.70	117.20
7000	0.65	115.70	0.40	-31.60	0.40	-31.60	0.65	115.70
7050	0.61	114.20	0.44	-34.50	0.44	-34.50	0.61	114.20
7100	0.56	115.80	0.48	-39.90	0.48	-39.90	0.56	115.80
7150	0.51	117.50	0.51	-45.40	0.51	-45.40	0.51	117.50
7200	0.50	123.10	0.52	-52.30	0.52	-52.30	0.50	123.10
7250	0.48	128.60	0.53	-59.20	0.53	-59.20	0.48	128.60
7300	0.51	132.80	0.51	-65.50	0.51	-65.50	0.51	132.80
7350	0.55	137.00	0.49	-71.80	0.49	-71.80	0.55	137.00
7400	0.60	137.20	0.45	-76.80	0.45	-76.80	0.60	137.20
7450	0.65	137.30	0.42	-81.90	0.42	-81.90	0.65	137.30
7500	0.69	135.10	0.37	-84.50	0.37	-84.50	0.69	135.10
7550	0.73	132.90	0.32	-87.10	0.32	-87.10	0.73	132.90
7600	0.76	130.10	0.28	-86.10	0.28	-86.10	0.76	130.10
7650	0.79	127.20	0.24	-85.10	0.24	-85.10	0.79	127.20
7700	0.81	123.60	0.22	-79.10	0.22	-79.10	0.81	123.60
7750	0.82	120.00	0.19	-73.10	0.19	-73.10	0.82	120.00
7800	0.83	116.90	0.18	-62.80	0.18	-62.80	0.83	116.90
7850	0.83	113.90	0.17	-52.50	0.17	-52.50	0.83	113.90
7900	0.84	110.40	0.18	-44.00	0.18	-44.00	0.84	110.40
7950	0.84	107.00	0.20	-35.40	0.20	-35.40	0.84	107.00
8000	0.83	104.30	0.22	-31.90	0.22	-31.90	0.83	104.30
8050	0.83	101.60	0.25	-28.40	0.25	-28.40	0.83	101.60
8100	0.81	98.70	0.27	-28.10	0.27	-28.10	0.81	98.70
8150	0.80	95.80	0.29	-27.90	0.29	-27.90	0.80	95.80
8200	0.78	94.50	0.31	-28.10	0.31	-28.10	0.78	94.50
8250	0.77	93.30	0.32	-28.30	0.32	-28.30	0.77	93.30
8300	0.76	91.30	0.33	-28.60	0.33	-28.60	0.76	91.30
8350	0.76	89.20	0.35	-28.80	0.35	-28.80	0.76	89.20
8400	0.75	87.80	0.36	-28.50	0.36	-28.50	0.75	87.80
8450	0.75	86.30	0.38	-28.10	0.38	-28.10	0.75	86.30
8500	0.74	84.20	0.39	-28.80	0.39	-28.80	0.74	84.20
8550	0.73	82.10	0.41	-29.40	0.41	-29.40	0.73	82.10
8600	0.73	80.90	0.42	-30.00	0.42	-30.00	0.73	80.90
8650	0.72	79.60	0.44	-30.60	0.44	-30.60	0.72	79.60
8700	0.72	78.40	0.45	-31.40	0.45	-31.40	0.72	78.40
8750	0.72	77.30	0.47	-32.10	0.47	-32.10	0.72	77.30
8800	0.71	75.20	0.48	-33.10	0.48	-33.10	0.71	75.20
8850	0.71	73.10	0.50	-34.10	0.50	-34.10	0.71	73.10
8900	0.69	72.00	0.51	-35.40	0.51	-35.40	0.69	72.00
8950	0.68	70.80	0.53	-36.80	0.53	-36.80	0.68	70.80
9000	0.67	70.00	0.54	-38.10	0.54	-38.10	0.67	70.00
9050	0.66	69.20	0.55	-39.50	0.55	-39.50	0.66	69.20
9100	0.66	68.20	0.56	-40.80	0.56	-40.80	0.66	68.20
9150	0.66	67.10	0.57	-42.10	0.57	-42.10	0.66	67.10
9200	0.64	65.90	0.57	-43.30	0.57	-43.30	0.64	65.90
9250	0.63	64.80	0.58	-44.50	0.58	-44.50	0.63	64.80
9300	0.61	64.90	0.59	-45.20	0.59	-45.20	0.61	64.90
9350	0.60	65.10	0.61	-46.00	0.61	-46.00	0.60	65.10
9400	0.58	64.40	0.61	-47.70	0.61	-47.70	0.58	64.40
9450	0.56	63.60	0.62	-49.40	0.62	-49.40	0.56	63.60
9500	0.54	64.40	0.62	-50.80	0.62	-50.80	0.54	64.40
9550	0.52	65.20	0.62	-52.30	0.62	-52.30	0.52	65.20
9600	0.51	65.80	0.62	-53.70	0.62	-53.70	0.51	65.80
9650	0.51	66.50	0.62	-55.10	0.62	-55.10	0.51	66.50
9700	0.50	67.40	0.62	-56.00	0.62	-56.00	0.50	67.40
9750	0.49	68.40	0.62	-57.00	0.62	-57.00	0.49	68.40
9800	0.49	69.50	0.62	-58.00	0.62	-58.00	0.49	69.50
9850	0.48	70.60	0.62	-59.10	0.62	-59.10	0.48	70.60
9900	0.48	71.70	0.62	-60.00	0.62	-60.00	0.48	71.70
9950	0.49	72.90	0.61	-61.00	0.61	-61.00	0.49	72.90
10000	0.50	72.50	0.61	-60.50	0.61	-60.50	0.50	72.50
10050	0.50	72.10	0.60	-59.90	0.60	-59.90	0.50	72.10
10100	0.50	71.10	0.61	-59.80	0.61	-59.80	0.50	71.10
10150	0.50	70.00	0.62	-59.60	0.62	-59.60	0.50	70.00
10200	0.49	68.70	0.63	-59.90	0.63	-59.90	0.49	68.70
10250	0.48	67.30	0.65	-60.20	0.65	-60.20	0.48	67.30
10300	0.46	65.70	0.66	-61.70	0.66	-61.70	0.46	65.70
10350	0.44	64.10	0.67	-63.20	0.67	-63.20	0.44	64.10
10400	0.42	64.90	0.68	-64.70	0.68	-64.70	0.42	64.90
10450	0.40	65.60	0.69	-66.20	0.69	-66.20	0.40	65.60
10500	0.39	66.80	0.69	-68.10	0.69	-68.10	0.39	66.80
10550	0.38	68.00	0.68	-70.00	0.68	-70.00	0.38	68.00
10600	0.38	70.60	0.68	-71.00	0.68	-71.00	0.38	70.60
10650	0.37	73.20	0.67	-71.90	0.67	-71.90	0.37	73.20
10700	0.38	72.80	0.66	-72.50	0.66	-72.50	0.38	72.80
10750	0.39	72.40	0.65	-73.20	0.65	-73.20	0.39	72.40
10800	0.39	71.20	0.66	-73.00	0.66	-73.00	0.39	71.20
10850	0.39	70.10	0.66	-72.80	0.66	-72.80	0.39	70.10
10900	0.38	68.40	0.68	-73.60	0.68	-73.60	0.38	68.40
10950	0.36	66.70	0.69	-74.40	0.69	-74.40	0.36	66.70
11000	0.34	68.10	0.71	-76.80	0.71	-76.80	0.34	68.10
11050	0.31	69.50	0.72	-79.20	0.72	-79.20	0.31	69.50
11100	0.30	74.50	0.72	-81.80	0.72	-81.80	0.30	74.50
11150	0.29	79.50	0.71	-84.40	0.71	-84.40	0.29	79.50
11200	0.30	85.60	0.70	-87.40	0.70	-87.40	0.30	85.60
11250	0.31	91.60	0.68	-90.30	0.68	-90.30	0.31	91.60
11300	0.34	95.10	0.65	-92.80	0.65	-92.80	0.34	95.10
11350	0.38	98.60	0.62	-95.30	0.62	-95.30	0.38	98.60
11400	0.43	98.00	0.58	-96.80	0.58	-96.80	0.43	98.00
11450	0.47	97.40	0.53	-98.30	0.53	-98.30	0.47	97.40
11500	0.51	94.10	0.49	-96.50	0.49	-96.50	0.51	94.10
11550	0.55	90.80	0.45	-94.60	0.45	-94.60	0.55	90.80
11600	0.58	86.90	0.43	-89.80	0.43	-89.80	0.58	86.90
11650	0.62	83.10	0.40	-85.10	0.40	-85.10	0.62	83.10
11700	0.63	79.00	0.41	-79.70	0.41	-79.70	0.63	79.00
11750	0.64	74.90	0.41	-74.40	0.41	-74.40	0.64	74.90
11800	0.64	71.50	0.44	-71.10	0.44	-71.10	0.64	71.50
11850	0.64	68.00	0.47	-67.80	0.47	-67.80	0.64	68.00
11900	0.63	64.90	0.50	-67.40	0.50	-67.40	0.63	64.90
11950	0.62	61.70	0.52	-67.10	0.52	-67.10	0.62	61.70
12000	0.61	60.30	0.55	-67.10	0.55	-67.10	0.61	60.30
12050	0.61	58.80	0.58	-67.10	0.58	-67.10	0.61	58.80
12100	0.58	56.60	0.60	-68.50	0.60	-68.50	0.58	56.60
12150	0.56	54.30	0.62	-70.00	0.62	-70.00	0.56	54.30
12200	0.56	53.60	0.63	-71.00	0.63	-71.00	0.56	53.60
12250	0.55	52.80	0.64	-71.90	0.64	-71.90	0.55	52.80
12300	0.54	51.70	0.65	-72.30	0.65	-72.30	0.54	51.70
12350	0.53	50.60	0.66	-72.60	0.66	-72.60	0.53	50.60
12400	0.52	48.40	0.68	-73.20	0.68	-73.20	0.52	48.40
12450	0.51	46.20	0.69	-73.80	0.69	-73.80	0.51	46.20
12500	0.50	44.70	0.70	-74.70	0.70	-74.70	0.50	44.70
12550	0.50	43.30	0.72	-75.70	0.72	-75.70	0.50	43.30
12600	0.48	41.50	0.73	-76.70	0.73	-76.70	0.48	41.50
12650	0.47	39.70	0.74	-77.70	0.74	-77.70	0.47	39.70
12700	0.46	37.90	0.75	-78.60	0.75	-78.60	0.46	37.90
12750	0.45	36.00	0.77	-79.50	0.77	-79.50	0.45	36.00
12800	0.44	34.70	0.78	-80.50	0.78	-80.50	0.44	34.70
12850	0.43	33.40	0.79	-81.40	0.79	-81.40	0.43	33.40
12900	0.41	32.00	0.80	-82.80	0.80	-82.80	0.41	32.00
12950	0.40	30.60	0.81	-84.10	0.81	-84.10	0.40	30.60
13000	0.39	28.80	0.82	-85.10	0.82	-85.10	0.39	28.80
13050	0.38	27.00	0.82	-86.00	0.82	-86.00	0.38	27.00
13100	0.37	26.10	0.83	-87.40	0.83	-87.40	0.37	26.10
13150	0.36	25.20	0.84	-88.80	0.84	-88.80	0.36	25.20
13200	0.35	24.20	0.84	-90.00	0.84	-90.00	0.35	24.20
13250	0.34	23.30	0.84	-91.20	0.84	-91.20	0.34	23.30
13300	0.33	22.90	0.84	-92.50	0.84	-92.50	0.33	22.90
13350	0.32	22.40	0.85	-93.90	0.85	-93.90	0.32	22.40
13400	0.32	21.80	0.85	-95.00	0.85	-95.00	0.32	21.80
13450	0.32	21.20	0.85	-96.10	0.85	-96.10	0.32	21.20
13500	0.31	21.20	0.84	-96.90	0.84	-96.90	0.31	21.20
13550	0.31	21.20	0.84	-97.80	0.84	-97.80	0.31	21.20
13600	0.32	20.20	0.84	-98.50	0.84	-98.50	0.32	20.20
13650	0.33	19.20	0.84	-99.20	0.84	-99.20	0.33	19.20
13700	0.33	17.90	0.84	-99.50	0.84	-99.50	0.33	17.90
13750	0.32	16.50	0.84	-99.80	0.84	-99.80	0.32	16.50
13800	0.33	14.00	0.84	-100.70	0.84	-100.70	0.33	14.00
13850	0.34	11.40	0.84	-101.50	0.84	-101.50	0.34	11.40
13900	0.34	9.10	0.84	-102.00	0.84	-102.00	0.34	9.10
13950	0.33	6.80	0.85	-102.60	0.85	-102.60	0.33	6.80
14000	0.33	5.50	0.85	-103.00	0.85	-103.00	0.33	5.50
14050	0.33	4.30	0.85	-103.40	0.85	-103.40	0.33	4.30
14100	0.34	0.40	0.85	-104.10	0.85	-104.10	0.34	0.40
14150	0.34	-3.40	0.86	-104.70	0.86	-104.70	0.34	-3.40
14200	0.34	-5.20	0.87	-105.40	0.87	-105.40	0.34	-5.20
14250	0.34	-7.00	0.87	-106.00	0.87	-106.00	0.34	-7.00
14300	0.34	-9.80	0.87	-106.90	0.87	-106.90	0.34	-9.80
14350	0.34	-12.50	0.88	-107.70	0.88	-107.70	0.34	-12.50
14400	0.34	-14.50	0.88	-108.40	0.88	-108.40	0.34	-14.50
14450	0.34	-16.50	0.88	-109.00	0.88	-109.00	0.34	-16.50
14500	0.34	-17.80	0.89	-110.00	0.89	-110.00	0.34	-17.80
14550	0.34	-19.20	0.89	-111.10	0.89	-111.10	0.34	-19.20
14600	0.33	-20.50	0.89	-111.80	0.89	-111.80	0.33	-20.50
14650	0.33	-21.80	0.90	-112.60	0.90	-112.60	0.33	-21.80
14700	0.32	-22.40	0.90	-113.30	0.90	-113.30	0.32	-22.40
14750	0.32	-23.00	0.90	-114.10	0.90	-114.10	0.32	-23.00
14800	0.31	-24.40	0.90	-114.90	0.90	-114.90	0.31	-24.40
14850	0.31	-25.80	0.90	-115.70	0.90	-115.70	0.31	-25.80
14900	0.31	-25.70	0.90	-116.40	0.90	-116.40	0.31	-25.70
14950	0.30	-25.70	0.91	-117.10	0.91	-117.10	0.30	-25.70
15000	0.29	-27.10	0.91	-117.90	0.91	-117.90	0.29	-27.10
15050	0.28	-28.50	0.91	-118.60	0.91	-118.60	0.28	-28.50
15100	0.28	-27.90	0.91	-119.50	0.91	-119.50	0.28	-27.90
15150	0.27	-27.40	0.91	-120.30	0.91	-120.30	0.27	-27.40
15200	0.26	-28.10	0.91	-121.10	0.91	-121.10	0.26	-28.10
15250	0.26	-28.80	0.91	-121.90	0.91	-121.90	0.26	-28.80
15300	0.25	-27.40	0.91	-122.90	0.91	-122.90	0.25	-27.40
15350	0.24	-25.90	0.91	-123.90	0.91	-123.90	0.24	-25.90
15400	0.23	-25.50	0.91	-124.50	0.91	-124.50	0.23	-25.50
15450	0.22	-25.10	0.91	-125.10	0.91	-125.10	0.22	-25.10
15500	0.21	-23.00	0.91	-126.00	0.91	-126.00	0.21	-23.00
15550	0.20	-20.90	0.91	-127.00	0.91	-127.00	0.20	-20.90
15600	0.19	-19.90	0.91	-127.50	0.91	-127.50	0.19	-19.90
15650	0.19	-19.00	0.91	-128.10	0.91	-128.10	0.19	-19.00
15700	0.18	-17.30	0.91	-128.70	0.91	-128.70	0.18	-17.30
15750	0.17	-15.60	0.91	-129.30	0.91	-129.30	0.17	-15.60
15800	0.16	-12.90	0.91	-130.30	0.91	-130.30	0.16	-12.90
15850	0.15	-10.20	0.92	-131.30	0.92	-131.30	0.15	-10.20
15900	0.13	-6.30	0.92	-132.10	0.92	-132.10	0.13	-6.30
15950	0.12	-2.40	0.92	-132.80	0.92	-132.80	0.12	-2.40
16000	0.11	5.30	0.92	-133.80	0.92	-133.80	0.11	5.30
16050	0.10	13.00	0.91	-134.70	0.91	-134.70	0.10	13.00
16100	0.09	27.10	0.91	-135.70	0.91	-135.70	0.09	27.10
16150	0.09	41.20	0.91	-136.80	0.91	-136.80	0.09	41.20
16200	0.09	52.10	0.90	-137.90	0.90	-137.90	0.09	52.10
16250	0.10	63.00	0.89	-139.00	0.89	-139.00	0.10	63.00
16300	0.11	69.30	0.88	-140.00	0.88	-140.00	0.11	69.30
16350	0.13	75.60	0.88	-140.90	0.88	-140.90	0.13	75.60
16400	0.15	79.80	0.87	-141.90	0.87	-141.90	0.15	79.80
16450	0.17	84.00	0.86	-142.90	0.86	-142.90	0.17	84.00
16500	0.19	83.00	0.84	-143.40	0.84	-143.40	0.19	83.00
16550	0.21	82.10	0.82	-143.90	0.82	-143.90	0.21	82.10
16600	0.22	82.10	0.81	-144.50	0.81	-144.50	0.22	82.10
16650	0.24	82.20	0.79	-145.10	0.79	-145.10	0.24	82.20
16700	0.25	80.30	0.77	-145.10	0.77	-145.10	0.25	80.30
16750	0.26	78.40	0.75	-145.00	0.75	-145.00	0.26	78.40
16800	0.27	74.70	0.75	-144.50	0.75	-144.50	0.27	74.70
16850	0.28	71.00	0.74	-143.90	0.74	-143.90	0.28	71.00
16900	0.28	67.80	0.73	-143.00	0.73	-143.00	0.28	67.80
16950	0.29	64.50	0.72	-142.00	0.72	-142.00	0.29	64.50
17000	0.28	61.70	0.72	-141.30	0.72	-141.30	0.28	61.70
17050	0.28	59.00	0.73	-140.50	0.73	-140.50	0.28	59.00
17100	0.27	56.70	0.73	-140.10	0.73	-140.10	0.27	56.70
17150	0.26	54.40	0.74	-139.60	0.74	-139.60	0.26	54.40
17200	0.25	52.70	0.75	-139.30	0.75	-139.30	0.25	52.70
17250	0.25	50.90	0.76	-139.10	0.76	-139.10	0.25	50.90
17300	0.23	49.10	0.77	-139.40	0.77	-139.40	0.23	49.10
17350	0.22	47.30	0.78	-139.70	0.78	-139.70	0.22	47.30
17400	0.21	47.10	0.79	-139.80	0.79	-139.80	0.21	47.10
17450	0.20	47.00	0.80	-140.00	0.80	-140.00	0.20	47.00
17500	0.19	46.30	0.81	-140.60	0.81	-140.60	0.19	46.30
17550	0.19	45.60	0.82	-141.30	0.82	-141.30	0.19	45.60
17600	0.17	45.30	0.83	-141.90	0.83	-141.90	0.17	45.30
17650	0.16	45.00	0.84	-142.60	0.84	-142.60	0.16	45.00
17700	0.16	45.80	0.85	-143.20	0.85	-143.20	0.16	45.80
17750	0.16	46.60	0.85	-143.80	0.85	-143.80	0.16	46.60
17800	0.14	45.90	0.86	-144.60	0.86	-144.60	0.14	45.90
17850	0.13	45.20	0.86	-145.50	0.86	-145.50	0.13	45.20
17900	0.12	47.90	0.87	-146.30	0.87	-146.30	0.12	47.90
17950	0.11	50.60	0.87	-147.10	0.87	-147.10	0.11	50.60
18000	0.10	46.50	0.88	-147.80	0.88	-147.80	0.10	46.50
18050	0.10	42.30	0.89	-148.50	0.89	-148.50	0.10	42.30
18100	0.10	46.90	0.89	-149.20	0.89	-149.20	0.10	46.90
18150	0.09	51.50	0.89	-149.90	0.89	-149.90	0.09	51.50
18200	0.09	48.00	0.89	-150.60	0.89	-150.60	0.09	48.00
18250	0.08	44.40	0.89	-151.30	0.89	-151.30	0.08	44.40
18300	0.08	42.40	0.89	-152.10	0.89	-152.10	0.08	42.40
18350	0.07	40.50	0.89	-152.90	0.89	-152.90	0.07	40.50
18400	0.07	30.40	0.90	-153.50	0.90	-153.50	0.07	30.40
18450	0.08	20.30	0.90	-154.00	0.90	-154.00	0.08	20.30
18500	0.08	17.00	0.90	-154.60	0.90	-154.60	0.08	17.00
18550	0.08	13.70	0.90	-155.20	0.90	-155.20	0.08	13.70
18600	0.08	7.80	0.90	-155.90	0.90	-155.90	0.08	7.80
18650	0.09	1.80	0.91	-156.60	0.91	-156.60	0.09	1.80
18700	0.10	-5.30	0.91	-157.10	0.91	-157.10	0.10	-5.30
18750	0.10	-12.40	0.91	-157.60	0.91	-157.60	0.10	-12.40
