#	mhz	s	ma	r	50
50	0.0598	84.219	1.00435	-3.111	1.00435	-3.111	0.0598	84.219
70	0.08021	85.116	0.99737	-5.058	0.99737	-5.058	0.08021	85.116
90	0.10017	82.939	0.9918	-6.287	0.9918	-6.287	0.10017	82.939
110	0.12044	80.835	0.98995	-7.488	0.98995	-7.488	0.12044	80.835
130	0.14177	79.701	0.98925	-8.873	0.98925	-8.873	0.14177	79.701
150	0.1650	78.183	0.98232	-10.178	0.98232	-10.178	0.1650	78.183
170	0.18615	77.471	0.97366	-10.985	0.97366	-10.985	0.18615	77.471
190	0.20755	76.735	0.96894	-12.41	0.96894	-12.41	0.20755	76.735
210	0.22752	75.721	0.96502	-13.812	0.96502	-13.812	0.22752	75.721
230	0.2466	74.496	0.96101	-14.986	0.96101	-14.986	0.2466	74.496
250	0.2676	73.442	0.95833	-16.158	0.95833	-16.158	0.2676	73.442
270	0.28424	71.953	0.95176	-17.63	0.95176	-17.63	0.28424	71.953
290	0.30047	70.497	0.94282	-18.791	0.94282	-18.791	0.30047	70.497
310	0.31966	69.016	0.93835	-20.018	0.93835	-20.018	0.31966	69.016
330	0.34119	67.525	0.93589	-21.352	0.93589	-21.352	0.34119	67.525
350	0.36044	66.109	0.92367	-22.495	0.92367	-22.495	0.36044	66.109
370	0.37876	65.115	0.91777	-23.628	0.91777	-23.628	0.37876	65.115
390	0.4004	63.931	0.91035	-24.919	0.91035	-24.919	0.4004	63.931
410	0.42011	62.906	0.90143	-26.079	0.90143	-26.079	0.42011	62.906
430	0.43653	62.038	0.89206	-27.074	0.89206	-27.074	0.43653	62.038
450	0.45216	60.978	0.88438	-28.128	0.88438	-28.128	0.45216	60.978
470	0.46945	59.985	0.87158	-29.281	0.87158	-29.281	0.46945	59.985
490	0.50855	59.831	0.87169	-30.76	0.87169	-30.76	0.50855	59.831
510	0.53253	58.864	0.86464	-31.97	0.86464	-31.97	0.53253	58.864
530	0.5335	56.766	0.84445	-32.773	0.84445	-32.773	0.5335	56.766
550	0.53257	54.544	0.81924	-33.491	0.81924	-33.491	0.53257	54.544
570	0.54635	51.596	0.79863	-34.758	0.79863	-34.758	0.54635	51.596
590	0.56364	48.849	0.77646	-36.508	0.77646	-36.508	0.56364	48.849
610	0.58957	46.428	0.75752	-38.62	0.75752	-38.62	0.58957	46.428
630	0.61966	44.520	0.74446	-40.779	0.74446	-40.779	0.61966	44.52
650	0.6398	43.371	0.73775	-42.48	0.73775	-42.48	0.6398	43.371
670	0.65827	43.247	0.73452	-43.439	0.73452	-43.439	0.65827	43.247
690	0.67402	43.318	0.73178	-44.276	0.73178	-44.276	0.67402	43.318
710	0.68429	43.048	0.72369	-44.938	0.72369	-44.938	0.68429	43.048
730	0.68773	42.297	0.70942	-45.446	0.70942	-45.446	0.68773	42.297
750	0.68436	41.312	0.69319	-45.89	0.69319	-45.89	0.68436	41.312
770	0.69117	39.431	0.67452	-47.042	0.67452	-47.042	0.69117	39.431
790	0.69899	37.348	0.65544	-48.405	0.65544	-48.405	0.69899	37.348
810	0.71426	35.263	0.63916	-49.971	0.63916	-49.971	0.71426	35.263
830	0.73618	33.393	0.62667	-51.765	0.62667	-51.765	0.73618	33.393
850	0.75676	31.971	0.61677	-53.843	0.61677	-53.843	0.75676	31.971
870	0.77704	31.283	0.61371	-54.961	0.61371	-54.961	0.77704	31.283
890	0.79816	31.007	0.61463	-55.928	0.61463	-55.928	0.79816	31.007
910	0.81174	30.814	0.61176	-56.524	0.61176	-56.524	0.81174	30.814
930	0.8171	30.649	0.60281	-56.68	0.60281	-56.68	0.8171	30.649
950	0.82123	30.728	0.59093	-56.473	0.59093	-56.473	0.82123	30.728
970	0.82723	29.838	0.57843	-56.948	0.57843	-56.948	0.82723	29.838
990	0.8308	28.910	0.56151	-57.621	0.56151	-57.621	0.8308	28.91
1010	0.83691	27.947	0.54422	-58.406	0.54422	-58.406	0.83691	27.947
1030	0.84636	26.997	0.52867	-59.356	0.52867	-59.356	0.84636	26.997
1050	0.85574	26.145	0.51509	-60.675	0.51509	-60.675	0.85574	26.145
1070	0.86761	25.495	0.50526	-61.995	0.50526	-61.995	0.86761	25.495
1090	0.87408	24.926	0.49937	-62.92	0.49937	-62.92	0.87408	24.926
1110	0.87732	24.443	0.49249	-63.457	0.49249	-63.457	0.87732	24.443
1130	0.87846	23.984	0.48301	-63.732	0.48301	-63.732	0.87846	23.984
1150	0.87757	23.425	0.47259	-63.998	0.47259	-63.998	0.87757	23.425
1170	0.87902	22.586	0.45706	-64.132	0.45706	-64.132	0.87902	22.586
1190	0.88205	21.583	0.44112	-64.459	0.44112	-64.459	0.88205	21.583
1210	0.88547	20.425	0.42417	-65.125	0.42417	-65.125	0.88547	20.425
1230	0.88888	19.266	0.40709	-66.124	0.40709	-66.124	0.88888	19.266
1250	0.89263	18.403	0.39226	-67.301	0.39226	-67.301	0.89263	18.403
1270	0.90824	17.556	0.38272	-68.716	0.38272	-68.716	0.90824	17.556
1290	0.91248	16.416	0.37316	-70.141	0.37316	-70.141	0.91248	16.416
1310	0.91414	15.790	0.36375	-71.029	0.36375	-71.029	0.91414	15.79
1330	0.91828	15.520	0.35483	-71.483	0.35483	-71.483	0.91828	15.52
1350	0.92619	14.490	0.34693	-72.257	0.34693	-72.257	0.92619	14.49
1370	0.92433	13.481	0.33515	-72.722	0.33515	-72.722	0.92433	13.481
1390	0.9281	12.819	0.32258	-72.958	0.32258	-72.958	0.9281	12.819
1410	0.93469	12.016	0.31007	-73.549	0.31007	-73.549	0.93469	12.016
1430	0.94183	11.089	0.29781	-74.494	0.29781	-74.494	0.94183	11.089
1450	0.94782	10.56	0.28536	-75.204	0.28536	-75.204	0.94782	10.56
1470	0.95886	9.956	0.27603	-76.454	0.27603	-76.454	0.95886	9.956
1490	0.96342	9.165	0.26604	-77.719	0.26604	-77.719	0.96342	9.165
1510	0.96577	8.78	0.25703	-78.534	0.25703	-78.534	0.96577	8.78
1530	0.96908	8.752	0.24922	-78.937	0.24922	-78.937	0.96908	8.752
1550	0.9754	8.387	0.24131	-79.463	0.24131	-79.463	0.9754	8.387
1570	0.97362	7.593	0.2312	-79.617	0.2312	-79.617	0.97362	7.593
1590	0.97251	6.969	0.22043	-79.828	0.22043	-79.828	0.97251	6.969
1610	0.97385	6.409	0.20913	-80.068	0.20913	-80.068	0.97385	6.409
1630	0.97803	5.798	0.19783	-80.524	0.19783	-80.524	0.97803	5.798
1650	0.98405	5.01	0.18749	-81.598	0.18749	-81.598	0.98405	5.01
1670	0.98118	4.581	0.17614	-82.521	0.17614	-82.521	0.98118	4.581
1690	0.98289	4.213	0.16653	-83.129	0.16653	-83.129	0.98289	4.213
1710	0.98692	3.702	0.15815	-83.624	0.15815	-83.624	0.98692	3.702
1730	0.99067	3.034	0.14992	-84.092	0.14992	-84.092	0.99067	3.034
1750	0.99115	2.386	0.14022	-84.505	0.14022	-84.505	0.99115	2.386
1770	0.98886	2.015	0.13088	-84.194	0.13088	-84.194	0.98886	2.015
1790	0.98958	1.466	0.12132	-84.148	0.12132	-84.148	0.98958	1.466
1810	0.98819	0.869	0.11108	-84.277	0.11108	-84.277	0.98819	0.869
1830	0.98617	0.286	0.10055	-84.473	0.10055	-84.473	0.98617	0.286
1850	0.99153	-0.289	0.09096	-84.6	0.09096	-84.6	0.99153	-0.289
1870	0.9912	-1.133	0.08144	-85.089	0.08144	-85.089	0.9912	-1.133
1890	0.98884	-1.56	0.07191	-85.308	0.07191	-85.308	0.98884	-1.56
1910	0.99222	-1.6	0.06282	-85.196	0.06282	-85.196	0.99222	-1.6
1930	1.00196	-1.851	0.05413	-84.833	0.05413	-84.833	1.00196	-1.851
1950	1.01144	-3.477	0.04537	-84.442	0.04537	-84.442	1.01144	-3.477
1970	0.99465	-3.573	0.03646	-82.048	0.03646	-82.048	0.99465	-3.573
1990	0.99081	-3.744	0.02744	-78.197	0.02744	-78.197	0.99081	-3.744
2010	0.99558	-4.278	0.01877	-69.975	0.01877	-69.975	0.99558	-4.278
2030	1.00155	-5.1	0.01141	-49.03	0.01141	-49.03	1.00155	-5.1
2050	0.99829	-5.772	0.00681	-1.568	0.00681	-1.568	0.99829	-5.772
2070	0.9902	-6.104	0.01188	42.381	0.01188	42.381	0.9902	-6.104
2090	0.9938	-6.218	0.01911	61.302	0.01911	61.302	0.9938	-6.218
2110	0.99868	-6.786	0.02722	68.058	0.02722	68.058	0.99868	-6.786
2130	0.99843	-7.631	0.03552	70.716	0.03552	70.716	0.99843	-7.631
2150	0.99061	-7.723	0.04389	72.546	0.04389	72.546	0.99061	-7.723
2170	0.9944	-8.412	0.05269	73.664	0.05269	73.664	0.9944	-8.412
2190	0.99444	-9.002	0.06124	74.136	0.06124	74.136	0.99444	-9.002
2210	0.99516	-9.419	0.06966	74.599	0.06966	74.599	0.99516	-9.419
2230	0.99687	-9.807	0.07791	74.975	0.07791	74.975	0.99687	-9.807
2250	0.99583	-10.528	0.0858	74.478	0.0858	74.478	0.99583	-10.528
2270	0.98719	-10.925	0.09311	74.247	0.09311	74.247	0.98719	-10.925
2290	0.98998	-11.074	0.10138	74.196	0.10138	74.196	0.98998	-11.074
2310	0.99449	-11.65	0.11016	73.681	0.11016	73.681	0.99449	-11.65
2330	0.99328	-12.565	0.11877	72.887	0.11877	72.887	0.99328	-12.565
2350	0.98111	-12.969	0.1262	72.827	0.1262	72.827	0.98111	-12.969
2370	0.98672	-12.872	0.13549	72.874	0.13549	72.874	0.98672	-12.872
2390	0.98993	-13.388	0.14447	72.482	0.14447	72.482	0.98993	-13.388
2410	0.98834	-13.988	0.15233	72.164	0.15233	72.164	0.98834	-13.988
2430	0.98365	-14.343	0.15916	72.117	0.15916	72.117	0.98365	-14.343
2450	0.98158	-14.321	0.16602	72.231	0.16602	72.231	0.98158	-14.321
2470	0.98424	-15.197	0.17401	71.505	0.17401	71.505	0.98424	-15.197
2490	0.98213	-15.66	0.18068	70.952	0.18068	70.952	0.98213	-15.66
2510	0.98052	-16.055	0.18769	70.408	0.18769	70.408	0.98052	-16.055
2530	0.9798	-16.405	0.19582	69.844	0.19582	69.844	0.9798	-16.405
2550	0.97551	-16.407	0.20501	69.36	0.20501	69.36	0.97551	-16.407
2570	0.972	-17.204	0.21272	69.08	0.21272	69.08	0.972	-17.204
2590	0.97034	-17.77	0.21996	68.869	0.21996	68.869	0.97034	-17.77
2610	0.96831	-18.38	0.22731	68.61	0.22731	68.61	0.96831	-18.38
2630	0.96526	-18.964	0.23465	68.379	0.23465	68.379	0.96526	-18.964
2650	0.96204	-19.103	0.24115	68.446	0.24115	68.446	0.96204	-19.103
2670	0.96513	-19.434	0.24674	68.089	0.24674	68.089	0.96513	-19.434
2690	0.96654	-19.953	0.25284	67.432	0.25284	67.432	0.96654	-19.953
2710	0.96318	-20.34	0.25944	66.841	0.25944	66.841	0.96318	-20.34
2730	0.95698	-20.621	0.26659	66.373	0.26659	66.373	0.95698	-20.621
2750	0.95489	-21.176	0.27444	65.785	0.27444	65.785	0.95489	-21.176
2770	0.95108	-21.87	0.28202	65.061	0.28202	65.061	0.95108	-21.87
2790	0.94944	-22.196	0.28877	64.717	0.28877	64.717	0.94944	-22.196
2810	0.94983	-22.619	0.29638	64.391	0.29638	64.391	0.94983	-22.619
2830	0.94927	-23.179	0.30414	63.996	0.30414	63.996	0.94927	-23.179
2850	0.94185	-23.485	0.30887	63.715	0.30887	63.715	0.94185	-23.485
2870	0.94094	-23.658	0.31539	63.23	0.31539	63.23	0.94094	-23.658
2890	0.94214	-24.199	0.3236	62.614	0.3236	62.614	0.94214	-24.199
2910	0.9392	-24.684	0.33114	62.003	0.33114	62.003	0.9392	-24.684
2930	0.93183	-25.041	0.33742	61.405	0.33742	61.405	0.93183	-25.041
2950	0.92575	-25.547	0.34359	60.69	0.34359	60.69	0.92575	-25.547
2970	0.92687	-26.293	0.35159	60.224	0.35159	60.224	0.92687	-26.293
2990	0.92765	-27.052	0.35898	59.716	0.35898	59.716	0.92765	-27.052
3010	0.9243	-27.394	0.36569	59.503	0.36569	59.503	0.9243	-27.394
3030	0.91981	-27.417	0.37215	59.508	0.37215	59.508	0.91981	-27.417
3050	0.92383	-27.752	0.37928	59.242	0.37928	59.242	0.92383	-27.752
3070	0.91722	-28.515	0.38494	58.881	0.38494	58.881	0.91722	-28.515
3090	0.90774	-28.742	0.38831	58.353	0.38831	58.353	0.90774	-28.742
3110	0.90461	-28.914	0.39428	57.983	0.39428	57.983	0.90461	-28.914
3130	0.90706	-29.294	0.40276	57.592	0.40276	57.592	0.90706	-29.294
3150	0.90428	-29.929	0.40866	56.495	0.40866	56.495	0.90428	-29.929
3170	0.89639	-30.529	0.41298	56.291	0.41298	56.291	0.89639	-30.529
3190	0.89508	-30.813	0.41968	56.074	0.41968	56.074	0.89508	-30.813
3210	0.89414	-31.202	0.42657	55.734	0.42657	55.734	0.89414	-31.202
3230	0.89009	-31.686	0.43245	55.331	0.43245	55.331	0.89009	-31.686
3250	0.88229	-31.831	0.43717	55.101	0.43717	55.101	0.88229	-31.831
3270	0.88476	-32.529	0.44178	54.625	0.44178	54.625	0.88476	-32.529
3290	0.87973	-33.037	0.44527	54.209	0.44527	54.209	0.87973	-33.037
3310	0.87552	-33.315	0.45034	53.791	0.45034	53.791	0.87552	-33.315
3330	0.87484	-33.585	0.45723	53.308	0.45723	53.308	0.87484	-33.585
3350	0.8748	-34.33	0.46376	52.69	0.46376	52.69	0.8748	-34.33
3370	0.86681	-34.793	0.46768	52.16	0.46768	52.16	0.86681	-34.793
3390	0.86133	-34.742	0.47237	51.942	0.47237	51.942	0.86133	-34.742
3410	0.85988	-34.799	0.47966	51.841	0.47966	51.841	0.85988	-34.799
3430	0.85946	-35.322	0.48791	51.56	0.48791	51.56	0.85946	-35.322
3450	0.8526	-36.4	0.49203	50.709	0.49203	50.709	0.8526	-36.4
3470	0.84342	-36.728	0.4929	50.336	0.4929	50.336	0.84342	-36.728
3490	0.84287	-36.85	0.49885	50.24	0.49885	50.24	0.84287	-36.85
3510	0.84622	-37.286	0.50528	49.753	0.50528	49.753	0.84622	-37.286
3530	0.84674	-37.966	0.5099	48.951	0.5099	48.951	0.84674	-37.966
3550	0.83569	-38.223	0.51275	48.656	0.51275	48.656	0.83569	-38.223
3570	0.83899	-38.404	0.52247	48.303	0.52247	48.303	0.83899	-38.404
3590	0.83376	-38.97	0.52771	47.659	0.52771	47.659	0.83376	-38.97
3610	0.82793	-39.356	0.53269	47.369	0.53269	47.369	0.82793	-39.356
3630	0.82524	-39.59	0.5389	47.358	0.5389	47.358	0.82524	-39.59
3650	0.82521	-40.296	0.54509	46.831	0.54509	46.831	0.82521	-40.296
3670	0.81616	-40.757	0.54596	46.48	0.54596	46.48	0.81616	-40.757
3690	0.81561	-40.797	0.55125	46.509	0.55125	46.509	0.81561	-40.797
3710	0.81674	-41.075	0.55698	46.083	0.55698	46.083	0.81674	-41.075
3730	0.81477	-41.698	0.56113	45.218	0.56113	45.218	0.81477	-41.698
3750	0.80695	-42.221	0.56363	44.783	0.56363	44.783	0.80695	-42.221
3770	0.80232	-42.35	0.56812	44.501	0.56812	44.501	0.80232	-42.35
3790	0.7986	-42.887	0.57243	43.969	0.57243	43.969	0.7986	-42.887
3810	0.79414	-43.387	0.57799	43.623	0.57799	43.623	0.79414	-43.387
3830	0.7897	-43.792	0.58468	43.435	0.58468	43.435	0.7897	-43.792
3850	0.78839	-44.431	0.5908	42.915	0.5908	42.915	0.78839	-44.431
3870	0.78469	-44.511	0.59264	42.725	0.59264	42.725	0.78469	-44.511
3890	0.78599	-44.784	0.59743	42.442	0.59743	42.442	0.78599	-44.784
3910	0.78322	-45.193	0.60185	41.904	0.60185	41.904	0.78322	-45.193
3930	0.77533	-45.49	0.60473	41.361	0.60473	41.361	0.77533	-45.49
3950	0.76928	-45.236	0.60701	41.47	0.60701	41.47	0.76928	-45.236
3970	0.76746	-45.606	0.61413	41.234	0.61413	41.234	0.76746	-45.606
3990	0.76445	-46.368	0.61731	40.436	0.61731	40.436	0.76445	-46.368
4010	0.75941	-47.009	0.61986	39.877	0.61986	39.877	0.75941	-47.009
4030	0.75403	-47.336	0.6234	39.701	0.6234	39.701	0.75403	-47.336
4050	0.75261	-47.481	0.62789	39.395	0.62789	39.395	0.75261	-47.481
4070	0.7531	-47.897	0.63149	38.872	0.63149	38.872	0.7531	-47.897
4090	0.75117	-48.502	0.6352	38.497	0.6352	38.497	0.75117	-48.502
4110	0.74803	-48.853	0.63851	38.087	0.63851	38.087	0.74803	-48.853
4130	0.74302	-48.833	0.64192	37.745	0.64192	37.745	0.74302	-48.833
4150	0.73361	-48.655	0.64691	37.86	0.64691	37.86	0.73361	-48.655
4170	0.73107	-49.716	0.65156	36.977	0.65156	36.977	0.73107	-49.716
4190	0.72688	-50.05	0.65397	36.649	0.65397	36.649	0.72688	-50.05
4210	0.72302	-50.352	0.65762	36.329	0.65762	36.329	0.72302	-50.352
4230	0.71984	-50.878	0.6621	35.888	0.6621	35.888	0.71984	-50.878
4250	0.7161	-51.448	0.66316	35.614	0.66316	35.614	0.7161	-51.448
4270	0.71388	-51.667	0.66915	35.327	0.66915	35.327	0.71388	-51.667
4290	0.71501	-51.937	0.67348	34.861	0.67348	34.861	0.71501	-51.937
4310	0.71091	-51.967	0.67728	34.528	0.67728	34.528	0.71091	-51.967
4330	0.70272	-51.881	0.68138	34.341	0.68138	34.341	0.70272	-51.881
4350	0.70124	-52.223	0.68634	34.009	0.68634	34.009	0.70124	-52.223
4370	0.69671	-52.878	0.68785	33.494	0.68785	33.494	0.69671	-52.878
4390	0.69394	-53.212	0.69198	33.108	0.69198	33.108	0.69394	-53.212
4410	0.69055	-53.583	0.69664	32.758	0.69664	32.758	0.69055	-53.583
4430	0.68646	-54.011	0.70027	32.409	0.70027	32.409	0.68646	-54.011
4450	0.68384	-54.181	0.70186	32.084	0.70186	32.084	0.68384	-54.181
4470	0.68332	-54.28	0.70502	31.895	0.70502	31.895	0.68332	-54.28
4490	0.6794	-54.744	0.70585	31.35	0.70585	31.35	0.6794	-54.744
4510	0.67306	-54.809	0.70853	31.101	0.70853	31.101	0.67306	-54.809
4530	0.66728	-54.66	0.71486	31.074	0.71486	31.074	0.66728	-54.66
4550	0.66704	-55.434	0.72428	30.462	0.72428	30.462	0.66704	-55.434
4570	0.65394	-56.08	0.72057	30.037	0.72057	30.037	0.65394	-56.08
4590	0.64946	-56.39	0.71899	29.868	0.71899	29.868	0.64946	-56.39
4610	0.65066	-56.647	0.72348	29.609	0.72348	29.609	0.65066	-56.647
4630	0.65253	-56.977	0.7305	29.161	0.7305	29.161	0.65253	-56.977
4650	0.648	-57.349	0.7291	28.67	0.7291	28.67	0.648	-57.349
4670	0.64501	-57.401	0.73396	28.45	0.73396	28.45	0.64501	-57.401
4690	0.64228	-57.381	0.7404	28.261	0.7404	28.261	0.64228	-57.381
4710	0.63494	-57.55	0.74388	27.853	0.74388	27.853	0.63494	-57.55
4730	0.62526	-57.931	0.74396	27.326	0.74396	27.326	0.62526	-57.931
4750	0.62263	-58.319	0.74424	27.13	0.74424	27.13	0.62263	-58.319
4770	0.61768	-58.73	0.7489	26.792	0.7489	26.792	0.61768	-58.73
4790	0.61134	-59.242	0.75265	26.639	0.75265	26.639	0.61134	-59.242
4810	0.60953	-59.675	0.75517	26.171	0.75517	26.171	0.60953	-59.675
4830	0.61142	-59.93	0.75713	25.478	0.75713	25.478	0.61142	-59.93
4850	0.60938	-59.994	0.76014	25.247	0.76014	25.247	0.60938	-59.994
4870	0.60534	-59.986	0.76395	24.823	0.76395	24.823	0.60534	-59.986
4890	0.59716	-60.095	0.76501	24.401	0.76501	24.401	0.59716	-60.095
4910	0.58786	-60.2	0.76908	24.183	0.76908	24.183	0.58786	-60.2
4930	0.5805	-60.438	0.77554	23.974	0.77554	23.974	0.5805	-60.438
4950	0.57818	-61.197	0.77746	23.176	0.77746	23.176	0.57818	-61.197
4970	0.57098	-61.945	0.77414	23.07	0.77414	23.07	0.57098	-61.945
4990	0.57227	-62.047	0.77933	22.908	0.77933	22.908	0.57227	-62.047
5010	0.57215	-62.401	0.78222	22.39	0.78222	22.39	0.57215	-62.401
5030	0.56697	-62.877	0.7805	21.775	0.7805	21.775	0.56697	-62.877
5050	0.55929	-62.316	0.7803	21.874	0.7803	21.874	0.55929	-62.316
5070	0.55717	-62.182	0.7897	21.517	0.7897	21.517	0.55717	-62.182
5090	0.55238	-62.125	0.79304	21.039	0.79304	21.039	0.55238	-62.125
5110	0.54477	-62.637	0.79285	20.584	0.79285	20.584	0.54477	-62.637
5130	0.53675	-63.526	0.79283	20.282	0.79283	20.282	0.53675	-63.526
5150	0.5333	-63.913	0.79783	20.246	0.79783	20.246	0.5333	-63.913
5170	0.53579	-64.311	0.80307	19.556	0.80307	19.556	0.53579	-64.311
5190	0.53228	-64.85	0.80104	18.889	0.80104	18.889	0.53228	-64.85
5210	0.52741	-64.964	0.8005	18.752	0.8005	18.752	0.52741	-64.964
5230	0.52424	-64.715	0.80465	18.849	0.80465	18.849	0.52424	-64.715
5250	0.52422	-64.798	0.81113	18.078	0.81113	18.078	0.52422	-64.798
5270	0.51073	-65.518	0.80465	17.45	0.80465	17.45	0.51073	-65.518
5290	0.50138	-65.613	0.80335	17.402	0.80335	17.402	0.50138	-65.613
5310	0.49714	-65.811	0.80741	17.116	0.80741	17.116	0.49714	-65.811
5330	0.4946	-66.431	0.81152	16.395	0.81152	16.395	0.4946	-66.431
5350	0.48596	-67.379	0.80487	15.669	0.80487	15.669	0.48596	-67.379
5370	0.47814	-67.3	0.80569	15.613	0.80569	15.613	0.47814	-67.3
5390	0.47408	-67.349	0.80545	15.146	0.80545	15.146	0.47408	-67.349
5410	0.46649	-66.95	0.80403	14.912	0.80403	14.912	0.46649	-66.95
5430	0.45502	-65.885	0.80293	15.086	0.80293	15.086	0.45502	-65.885
5450	0.44627	-64.294	0.80537	15.373	0.80537	15.373	0.44627	-64.294
5470	0.44663	-63.536	0.81232	15.397	0.81232	15.397	0.44663	-63.536
5490	0.44813	-63.773	0.81282	14.767	0.81282	14.767	0.44813	-63.773
5510	0.44971	-64.071	0.81544	14.272	0.81544	14.272	0.44971	-64.071
5530	0.4496	-64.242	0.82066	14.02	0.82066	14.02	0.4496	-64.242
5550	0.44533	-64.849	0.82087	13.436	0.82087	13.436	0.44533	-64.849
5570	0.4439	-64.964	0.82357	13.218	0.82357	13.218	0.4439	-64.964
5590	0.44181	-65.147	0.82608	12.687	0.82608	12.687	0.44181	-65.147
5610	0.43791	-65.495	0.82764	12.118	0.82764	12.118	0.43791	-65.495
5630	0.43294	-65.848	0.82774	11.707	0.82774	11.707	0.43294	-65.848
5650	0.42949	-65.792	0.82612	11.574	0.82612	11.574	0.42949	-65.792
5670	0.42828	-65.899	0.82997	11.04	0.82997	11.04	0.42828	-65.899
5690	0.42603	-66.08	0.83204	10.731	0.83204	10.731	0.42603	-66.08
5710	0.4219	-66.044	0.83093	10.397	0.83093	10.397	0.4219	-66.044
5730	0.41675	-65.87	0.82612	9.99	0.82612	9.99	0.41675	-65.87
5750	0.41324	-65.996	0.81808	9.657	0.81808	9.657	0.41324	-65.996
5770	0.41024	-65.473	0.82646	9.489	0.82646	9.489	0.41024	-65.473
5790	0.40544	-65.404	0.83185	9.221	0.83185	9.221	0.40544	-65.404
5810	0.3998	-65.624	0.83157	8.753	0.83157	8.753	0.3998	-65.624
5830	0.39422	-65.902	0.82832	8.274	0.82832	8.274	0.39422	-65.902
5850	0.38955	-65.943	0.83013	8.267	0.83013	8.267	0.38955	-65.943
5870	0.38957	-65.954	0.83182	7.764	0.83182	7.764	0.38957	-65.954
5890	0.38731	-66.056	0.8297	7.22	0.8297	7.22	0.38731	-66.056
5910	0.38381	-66.08	0.82679	6.675	0.82679	6.675	0.38381	-66.08
5930	0.37957	-65.836	0.82597	6.205	0.82597	6.205	0.37957	-65.836
5950	0.37463	-65.113	0.8299	5.923	0.8299	5.923	0.37463	-65.113
5970	0.37188	-65.364	0.82925	5.561	0.82925	5.561	0.37188	-65.364
5990	0.36542	-65.639	0.82657	5.412	0.82657	5.412	0.36542	-65.639
6010	0.36126	-65.703	0.82418	5.229	0.82418	5.229	0.36126	-65.703
6030	0.35999	-65.541	0.82389	4.868	0.82389	4.868	0.35999	-65.541
6050	0.35676	-65.356	0.82696	4.288	0.82696	4.288	0.35676	-65.356
6070	0.3541	-65.041	0.82491	4.178	0.82491	4.178	0.3541	-65.041
6090	0.35098	-64.925	0.82389	3.643	0.82389	3.643	0.35098	-64.925
6110	0.34667	-64.55	0.82312	3.366	0.82312	3.366	0.34667	-64.55
