#	mhz	s	ma	r	50			
50	0.87	158.30	0.37	65.40	0.37	65.40	0.87	158.30
100	0.74	144.40	0.57	51.50	0.57	51.50	0.74	144.40
150	0.61	130.40	0.77	37.60	0.77	37.60	0.61	130.40
200	0.52	123.90	0.83	31.10	0.83	31.10	0.52	123.90
250	0.42	117.50	0.90	24.60	0.90	24.60	0.42	117.50
300	0.36	114.20	0.92	20.50	0.92	20.50	0.36	114.20
350	0.31	110.80	0.94	16.40	0.94	16.40	0.31	110.80
400	0.27	108.50	0.95	13.90	0.95	13.90	0.27	108.50
450	0.23	106.20	0.97	11.30	0.97	11.30	0.23	106.20
500	0.20	104.70	0.98	8.90	0.98	8.90	0.20	104.70
550	0.17	103.10	0.99	6.50	0.99	6.50	0.17	103.10
600	0.15	102.50	0.99	5.10	0.99	5.10	0.15	102.50
650	0.13	101.90	0.99	3.70	0.99	3.70	0.13	101.90
700	0.12	102.10	0.99	2.40	0.99	2.40	0.12	102.10
750	0.10	102.30	0.99	1.20	0.99	1.20	0.10	102.30
800	0.09	102.00	0.99	0.10	0.99	0.10	0.09	102.00
850	0.08	101.60	0.99	-1.10	0.99	-1.10	0.08	101.60
900	0.07	104.40	1.00	-2.00	1.00	-2.00	0.07	104.40
950	0.06	107.10	1.00	-2.90	1.00	-2.90	0.06	107.10
1000	0.05	108.20	1.00	-3.90	1.00	-3.90	0.05	108.20
1050	0.04	109.30	1.00	-4.80	1.00	-4.80	0.04	109.30
1100	0.04	114.70	1.00	-5.70	1.00	-5.70	0.04	114.70
1150	0.03	120.00	1.00	-6.60	1.00	-6.60	0.03	120.00
1200	0.03	131.50	1.00	-7.30	1.00	-7.30	0.03	131.50
1250	0.02	143.00	1.00	-8.10	1.00	-8.10	0.02	143.00
1300	0.02	-17.60	1.00	-8.90	1.00	-8.90	0.02	-17.60
1350	0.02	-178.30	1.00	-9.70	1.00	-9.70	0.02	-178.30
1400	0.02	-164.30	1.00	-10.50	1.00	-10.50	0.02	-164.30
1450	0.03	-150.40	1.00	-11.30	1.00	-11.30	0.03	-150.40
1500	0.03	-144.20	1.00	-12.00	1.00	-12.00	0.03	-144.20
1550	0.04	-138.00	1.00	-12.80	1.00	-12.80	0.04	-138.00
1600	0.04	-134.60	1.00	-13.60	1.00	-13.60	0.04	-134.60
1650	0.05	-131.30	1.00	-14.30	1.00	-14.30	0.05	-131.30
1700	0.05	-129.30	1.00	-15.00	1.00	-15.00	0.05	-129.30
1750	0.06	-127.40	1.00	-15.70	1.00	-15.70	0.06	-127.40
1800	0.06	-126.90	1.00	-16.40	1.00	-16.40	0.06	-126.90
1850	0.07	-126.30	1.00	-17.20	1.00	-17.20	0.07	-126.30
1900	0.07	-125.90	0.99	-17.90	0.99	-17.90	0.07	-125.90
1950	0.08	-125.40	0.99	-18.70	0.99	-18.70	0.08	-125.40
2000	0.09	-125.20	0.99	-19.40	0.99	-19.40	0.09	-125.20
2050	0.09	-125.00	0.99	-20.10	0.99	-20.10	0.09	-125.00
2100	0.09	-125.00	0.99	-20.90	0.99	-20.90	0.09	-125.00
2150	0.10	-125.00	0.99	-21.60	0.99	-21.60	0.10	-125.00
2200	0.11	-125.00	0.99	-22.30	0.99	-22.30	0.11	-125.00
2250	0.11	-125.00	0.99	-22.90	0.99	-22.90	0.11	-125.00
2300	0.12	-125.50	0.99	-23.70	0.99	-23.70	0.12	-125.50
2350	0.12	-126.00	0.99	-24.50	0.99	-24.50	0.12	-126.00
2400	0.13	-125.80	0.99	-25.20	0.99	-25.20	0.13	-125.80
2450	0.13	-125.70	0.98	-25.90	0.98	-25.90	0.13	-125.70
2500	0.14	-126.70	0.98	-26.60	0.98	-26.60	0.14	-126.70
2550	0.14	-127.60	0.98	-27.30	0.98	-27.30	0.14	-127.60
2600	0.15	-127.40	0.98	-28.00	0.98	-28.00	0.15	-127.40
2650	0.15	-127.20	0.98	-28.60	0.98	-28.60	0.15	-127.20
2700	0.16	-128.00	0.98	-29.40	0.98	-29.40	0.16	-128.00
2750	0.17	-128.70	0.98	-30.10	0.98	-30.10	0.17	-128.70
2800	0.17	-128.90	0.98	-30.80	0.98	-30.80	0.17	-128.90
2850	0.17	-129.10	0.98	-31.50	0.98	-31.50	0.17	-129.10
2900	0.18	-129.60	0.98	-32.30	0.98	-32.30	0.18	-129.60
2950	0.19	-130.20	0.97	-33.10	0.97	-33.10	0.19	-130.20
3000	0.19	-130.70	0.98	-33.70	0.98	-33.70	0.19	-130.70
3050	0.19	-131.20	0.98	-34.40	0.98	-34.40	0.19	-131.20
3100	0.20	-131.70	0.98	-35.00	0.98	-35.00	0.20	-131.70
3150	0.21	-132.20	0.98	-35.70	0.98	-35.70	0.21	-132.20
3200	0.21	-132.80	0.97	-36.50	0.97	-36.50	0.21	-132.80
3250	0.22	-133.40	0.97	-37.30	0.97	-37.30	0.22	-133.40
3300	0.22	-133.70	0.97	-38.00	0.97	-38.00	0.22	-133.70
3350	0.23	-134.00	0.96	-38.80	0.96	-38.80	0.23	-134.00
3400	0.23	-134.60	0.96	-39.60	0.96	-39.60	0.23	-134.60
3450	0.24	-135.20	0.96	-40.30	0.96	-40.30	0.24	-135.20
3500	0.25	-135.10	0.96	-41.00	0.96	-41.00	0.25	-135.10
3550	0.25	-135.00	0.95	-41.70	0.95	-41.70	0.25	-135.00
3600	0.26	-135.70	0.95	-42.40	0.95	-42.40	0.26	-135.70
3650	0.26	-136.40	0.95	-43.10	0.95	-43.10	0.26	-136.40
3700	0.27	-137.60	0.95	-43.90	0.95	-43.90	0.27	-137.60
3750	0.28	-138.70	0.95	-44.80	0.95	-44.80	0.28	-138.70
3800	0.28	-139.20	0.95	-45.60	0.95	-45.60	0.28	-139.20
3850	0.28	-139.70	0.95	-46.40	0.95	-46.40	0.28	-139.70
3900	0.29	-140.60	0.95	-47.10	0.95	-47.10	0.29	-140.60
3950	0.29	-141.60	0.94	-47.80	0.94	-47.80	0.29	-141.60
4000	0.30	-142.10	0.94	-48.60	0.94	-48.60	0.30	-142.10
4050	0.30	-142.70	0.94	-49.30	0.94	-49.30	0.30	-142.70
4100	0.31	-143.50	0.94	-50.10	0.94	-50.10	0.31	-143.50
4150	0.32	-144.30	0.94	-50.80	0.94	-50.80	0.32	-144.30
4200	0.32	-145.10	0.94	-51.70	0.94	-51.70	0.32	-145.10
4250	0.33	-146.00	0.93	-52.60	0.93	-52.60	0.33	-146.00
4300	0.34	-147.00	0.93	-53.30	0.93	-53.30	0.34	-147.00
4350	0.35	-147.90	0.93	-54.00	0.93	-54.00	0.35	-147.90
4400	0.35	-148.70	0.92	-55.20	0.92	-55.20	0.35	-148.70
4450	0.36	-149.50	0.92	-56.40	0.92	-56.40	0.36	-149.50
4500	0.37	-150.50	0.92	-57.30	0.92	-57.30	0.37	-150.50
4550	0.38	-151.50	0.91	-58.20	0.91	-58.20	0.38	-151.50
4600	0.39	-152.70	0.91	-59.40	0.91	-59.40	0.39	-152.70
4650	0.40	-153.90	0.90	-60.70	0.90	-60.70	0.40	-153.90
4700	0.41	-154.90	0.89	-61.70	0.89	-61.70	0.41	-154.90
4750	0.42	-155.80	0.89	-62.70	0.89	-62.70	0.42	-155.80
4800	0.43	-157.20	0.88	-63.90	0.88	-63.90	0.43	-157.20
4850	0.44	-158.70	0.87	-65.10	0.87	-65.10	0.44	-158.70
4900	0.47	-160.20	0.86	-66.80	0.86	-66.80	0.47	-160.20
4950	0.49	-161.80	0.84	-68.40	0.84	-68.40	0.49	-161.80
5000	0.50	-163.80	0.82	-69.80	0.82	-69.80	0.50	-163.80
5050	0.52	-165.80	0.80	-71.10	0.80	-71.10	0.52	-165.80
5100	0.55	-168.60	0.77	-73.30	0.77	-73.30	0.55	-168.60
5150	0.57	-171.30	0.75	-75.40	0.75	-75.40	0.57	-171.30
5200	0.61	4.10	0.69	-78.10	0.69	-78.10	0.61	4.10
5250	0.65	179.50	0.64	-80.70	0.64	-80.70	0.65	179.50
5300	0.68	171.50	0.54	-79.10	0.54	-79.10	0.68	171.50
5350	0.70	163.50	0.43	-77.50	0.43	-77.50	0.70	163.50
5400	0.68	151.50	0.41	-56.30	0.41	-56.30	0.68	151.50
5450	0.65	139.40	0.40	-35.10	0.40	-35.10	0.65	139.40
5500	0.53	129.90	0.55	-32.70	0.55	-32.70	0.53	129.90
5550	0.41	120.30	0.70	-30.30	0.70	-30.30	0.41	120.30
5600	0.31	123.20	0.78	-35.60	0.78	-35.60	0.31	123.20
5650	0.22	126.00	0.87	-40.90	0.87	-40.90	0.22	126.00
5700	0.19	140.60	0.89	-45.10	0.89	-45.10	0.19	140.60
5750	0.16	155.30	0.92	-49.30	0.92	-49.30	0.16	155.30
5800	0.18	167.00	0.93	-52.10	0.93	-52.10	0.18	167.00
5850	0.19	178.80	0.93	-54.90	0.93	-54.90	0.19	178.80
5900	0.21	2.70	0.94	-56.90	0.94	-56.90	0.21	2.70
5950	0.22	-173.40	0.94	-58.80	0.94	-58.80	0.22	-173.40
6000	0.26	-171.90	0.93	-60.70	0.93	-60.70	0.26	-171.90
6050	0.29	-170.50	0.93	-62.60	0.93	-62.60	0.29	-170.50
6100	0.31	-170.30	0.93	-64.10	0.93	-64.10	0.31	-170.30
6150	0.32	-170.10	0.92	-65.50	0.92	-65.50	0.32	-170.10
6200	0.34	-170.50	0.92	-66.80	0.92	-66.80	0.34	-170.50
6250	0.35	-171.00	0.91	-68.00	0.91	-68.00	0.35	-171.00
6300	0.36	-171.60	0.91	-69.00	0.91	-69.00	0.36	-171.60
6350	0.38	-172.10	0.90	-70.00	0.90	-70.00	0.38	-172.10
6400	0.38	-172.40	0.90	-71.10	0.90	-71.10	0.38	-172.40
6450	0.40	-172.70	0.89	-72.30	0.89	-72.30	0.40	-172.70
6500	0.40	-173.70	0.89	-73.30	0.89	-73.30	0.40	-173.70
6550	0.41	-174.70	0.88	-74.30	0.88	-74.30	0.41	-174.70
6600	0.42	-174.90	0.88	-75.00	0.88	-75.00	0.42	-174.90
6650	0.43	-175.10	0.88	-75.80	0.88	-75.80	0.43	-175.10
6700	0.44	-175.80	0.88	-76.80	0.88	-76.80	0.44	-175.80
6750	0.45	-176.50	0.88	-77.70	0.88	-77.70	0.45	-176.50
6800	0.45	-177.30	0.87	-78.70	0.87	-78.70	0.45	-177.30
6850	0.46	-178.10	0.87	-79.70	0.87	-79.70	0.46	-178.10
6900	0.47	-178.90	0.86	-80.40	0.86	-80.40	0.47	-178.90
6950	0.47	-179.60	0.86	-81.20	0.86	-81.20	0.47	-179.60
7000	0.48	-0.50	0.86	-82.20	0.86	-82.20	0.48	-0.50
7050	0.49	178.70	0.85	-83.20	0.85	-83.20	0.49	178.70
7100	0.49	177.70	0.85	-84.10	0.85	-84.10	0.49	177.70
7150	0.50	176.80	0.84	-85.00	0.84	-85.00	0.50	176.80
7200	0.50	175.60	0.84	-86.20	0.84	-86.20	0.50	175.60
7250	0.51	174.50	0.84	-87.40	0.84	-87.40	0.51	174.50
7300	0.52	173.10	0.83	-88.40	0.83	-88.40	0.52	173.10
7350	0.53	171.70	0.82	-89.40	0.82	-89.40	0.53	171.70
7400	0.54	170.50	0.82	-90.50	0.82	-90.50	0.54	170.50
7450	0.54	169.30	0.81	-91.50	0.81	-91.50	0.54	169.30
7500	0.55	167.90	0.80	-92.70	0.80	-92.70	0.55	167.90
7550	0.56	166.60	0.80	-93.90	0.80	-93.90	0.56	166.60
7600	0.56	165.20	0.79	-94.90	0.79	-94.90	0.56	165.20
7650	0.57	163.80	0.78	-96.00	0.78	-96.00	0.57	163.80
7700	0.58	161.80	0.77	-97.10	0.77	-97.10	0.58	161.80
7750	0.58	159.80	0.76	-98.20	0.76	-98.20	0.58	159.80
7800	0.58	158.40	0.75	-98.90	0.75	-98.90	0.58	158.40
7850	0.58	157.10	0.73	-99.70	0.73	-99.70	0.58	157.10
7900	0.59	156.50	0.73	-100.80	0.73	-100.80	0.59	156.50
7950	0.60	155.90	0.73	-101.90	0.73	-101.90	0.60	155.90
8000	0.62	154.70	0.72	-103.60	0.72	-103.60	0.62	154.70
8050	0.64	153.40	0.71	-105.30	0.71	-105.30	0.64	153.40
8100	0.66	151.00	0.70	-107.10	0.70	-107.10	0.66	151.00
8150	0.67	148.60	0.69	-108.90	0.69	-108.90	0.67	148.60
8200	0.69	147.00	0.66	-110.60	0.66	-110.60	0.69	147.00
8250	0.70	145.40	0.64	-112.20	0.64	-112.20	0.70	145.40
8300	0.71	142.60	0.62	-114.10	0.62	-114.10	0.71	142.60
8350	0.73	139.80	0.60	-116.10	0.60	-116.10	0.73	139.80
8400	0.74	137.90	0.57	-117.70	0.57	-117.70	0.74	137.90
8450	0.76	135.90	0.54	-119.30	0.54	-119.30	0.76	135.90
8500	0.77	132.90	0.51	-121.10	0.51	-121.10	0.77	132.90
8550	0.78	129.80	0.48	-122.90	0.48	-122.90	0.78	129.80
8600	0.80	127.20	0.44	-123.80	0.44	-123.80	0.80	127.20
8650	0.81	124.60	0.40	-124.70	0.40	-124.70	0.81	124.60
8700	0.82	121.80	0.36	-124.60	0.36	-124.60	0.82	121.80
8750	0.84	118.90	0.32	-124.50	0.32	-124.50	0.84	118.90
8800	0.85	115.30	0.28	-121.20	0.28	-121.20	0.85	115.30
8850	0.86	111.70	0.23	-117.90	0.23	-117.90	0.86	111.70
8900	0.85	108.40	0.20	-107.20	0.20	-107.20	0.85	108.40
8950	0.85	105.10	0.17	-96.60	0.17	-96.60	0.85	105.10
9000	0.84	101.70	0.18	-79.90	0.18	-79.90	0.84	101.70
9050	0.84	98.40	0.19	-63.30	0.19	-63.30	0.84	98.40
9100	0.83	94.50	0.23	-54.80	0.23	-54.80	0.83	94.50
9150	0.82	90.60	0.27	-46.20	0.27	-46.20	0.82	90.60
9200	0.80	86.60	0.32	-44.60	0.32	-44.60	0.80	86.60
9250	0.77	82.50	0.37	-43.10	0.37	-43.10	0.77	82.50
9300	0.73	80.30	0.43	-43.60	0.43	-43.60	0.73	80.30
9350	0.69	78.10	0.48	-44.10	0.48	-44.10	0.69	78.10
9400	0.65	74.60	0.53	-46.60	0.53	-46.60	0.65	74.60
9450	0.61	71.10	0.58	-49.10	0.58	-49.10	0.61	71.10
9500	0.56	69.00	0.62	-51.80	0.62	-51.80	0.56	69.00
9550	0.52	66.90	0.66	-54.60	0.66	-54.60	0.52	66.90
9600	0.47	64.90	0.70	-57.80	0.70	-57.80	0.47	64.90
9650	0.43	62.90	0.74	-61.10	0.74	-61.10	0.43	62.90
9700	0.38	63.00	0.77	-64.20	0.77	-64.20	0.38	63.00
9750	0.33	63.00	0.80	-67.30	0.80	-67.30	0.33	63.00
9800	0.28	65.20	0.82	-70.60	0.82	-70.60	0.28	65.20
9850	0.24	67.30	0.84	-73.80	0.84	-73.80	0.24	67.30
9900	0.20	76.60	0.86	-77.30	0.86	-77.30	0.20	76.60
9950	0.17	85.90	0.87	-80.80	0.87	-80.80	0.17	85.90
10000	0.17	100.60	0.87	-83.90	0.87	-83.90	0.17	100.60
10050	0.17	115.30	0.87	-87.00	0.87	-87.00	0.17	115.30
10100	0.19	128.20	0.87	-90.20	0.87	-90.20	0.19	128.20
10150	0.21	141.20	0.87	-93.30	0.87	-93.30	0.21	141.20
10200	0.25	143.70	0.86	-96.30	0.86	-96.30	0.25	143.70
10250	0.29	146.30	0.85	-99.30	0.85	-99.30	0.29	146.30
10300	0.33	146.20	0.83	-102.30	0.83	-102.30	0.33	146.20
10350	0.37	146.20	0.82	-105.40	0.82	-105.40	0.37	146.20
10400	0.41	145.00	0.79	-108.00	0.79	-108.00	0.41	145.00
10450	0.45	143.70	0.76	-110.50	0.76	-110.50	0.45	143.70
10500	0.48	141.10	0.74	-113.00	0.74	-113.00	0.48	141.10
10550	0.52	138.50	0.72	-115.40	0.72	-115.40	0.52	138.50
10600	0.55	136.50	0.69	-117.10	0.69	-117.10	0.55	136.50
10650	0.57	134.60	0.65	-118.80	0.65	-118.80	0.57	134.60
10700	0.60	131.90	0.63	-121.10	0.63	-121.10	0.60	131.90
10750	0.62	129.10	0.61	-123.30	0.61	-123.30	0.62	129.10
10800	0.65	126.90	0.57	-125.30	0.57	-125.30	0.65	126.90
10850	0.68	124.80	0.54	-127.30	0.54	-127.30	0.68	124.80
10900	0.70	121.60	0.50	-129.10	0.50	-129.10	0.70	121.60
10950	0.72	118.40	0.47	-131.00	0.47	-131.00	0.72	118.40
11000	0.75	115.40	0.43	-132.30	0.43	-132.30	0.75	115.40
11050	0.77	112.30	0.39	-133.70	0.39	-133.70	0.77	112.30
11100	0.79	108.60	0.34	-132.70	0.34	-132.70	0.79	108.60
11150	0.81	105.00	0.29	-131.70	0.29	-131.70	0.81	105.00
11200	0.82	101.30	0.25	-126.50	0.25	-126.50	0.82	101.30
11250	0.83	97.70	0.22	-121.30	0.22	-121.30	0.83	97.70
11300	0.83	94.30	0.20	-109.40	0.20	-109.40	0.83	94.30
11350	0.84	90.90	0.18	-97.50	0.18	-97.50	0.84	90.90
11400	0.83	87.20	0.19	-85.30	0.19	-85.30	0.83	87.20
11450	0.82	83.50	0.20	-73.10	0.20	-73.10	0.82	83.50
11500	0.82	80.00	0.24	-66.50	0.24	-66.50	0.82	80.00
11550	0.81	76.40	0.28	-59.80	0.28	-59.80	0.81	76.40
11600	0.79	73.60	0.31	-58.10	0.31	-58.10	0.79	73.60
11650	0.78	70.70	0.35	-56.40	0.35	-56.40	0.78	70.70
11700	0.75	67.70	0.39	-57.00	0.39	-57.00	0.75	67.70
11750	0.73	64.70	0.44	-57.60	0.44	-57.60	0.73	64.70
11800	0.70	62.60	0.47	-59.30	0.47	-59.30	0.70	62.60
11850	0.68	60.50	0.51	-61.10	0.51	-61.10	0.68	60.50
11900	0.64	59.60	0.53	-64.30	0.53	-64.30	0.64	59.60
11950	0.61	58.70	0.55	-67.50	0.55	-67.50	0.61	58.70
12000	0.61	59.90	0.55	-67.90	0.55	-67.90	0.61	59.90
12050	0.62	61.10	0.56	-68.30	0.56	-68.30	0.62	61.10
12100	0.62	58.20	0.58	-67.90	0.58	-67.90	0.62	58.20
12150	0.61	55.40	0.60	-67.60	0.60	-67.60	0.61	55.40
12200	0.60	53.10	0.63	-68.30	0.63	-68.30	0.60	53.10
12250	0.59	50.80	0.66	-69.10	0.66	-69.10	0.59	50.80
12300	0.57	48.80	0.69	-70.40	0.69	-70.40	0.57	48.80
12350	0.55	46.80	0.71	-71.70	0.71	-71.70	0.55	46.80
12400	0.52	44.50	0.73	-73.50	0.73	-73.50	0.52	44.50
12450	0.50	42.10	0.76	-75.30	0.76	-75.30	0.50	42.10
12500	0.48	40.90	0.77	-77.10	0.77	-77.10	0.48	40.90
12550	0.46	39.80	0.79	-79.00	0.79	-79.00	0.46	39.80
12600	0.44	38.10	0.80	-80.60	0.80	-80.60	0.44	38.10
12650	0.42	36.40	0.81	-82.20	0.81	-82.20	0.42	36.40
12700	0.41	34.80	0.83	-83.70	0.83	-83.70	0.41	34.80
12750	0.39	33.30	0.84	-85.20	0.84	-85.20	0.39	33.30
12800	0.37	32.50	0.85	-86.60	0.85	-86.60	0.37	32.50
12850	0.36	31.70	0.86	-87.90	0.86	-87.90	0.36	31.70
12900	0.34	31.00	0.87	-89.60	0.87	-89.60	0.34	31.00
12950	0.32	30.30	0.88	-91.20	0.88	-91.20	0.32	30.30
13000	0.31	28.80	0.88	-92.30	0.88	-92.30	0.31	28.80
13050	0.29	27.30	0.89	-93.40	0.89	-93.40	0.29	27.30
13100	0.28	27.20	0.89	-94.90	0.89	-94.90	0.28	27.20
13150	0.27	27.10	0.90	-96.30	0.90	-96.30	0.27	27.10
13200	0.26	26.30	0.90	-97.60	0.90	-97.60	0.26	26.30
13250	0.25	25.60	0.91	-98.90	0.91	-98.90	0.25	25.60
13300	0.24	25.50	0.91	-100.30	0.91	-100.30	0.24	25.50
13350	0.23	25.40	0.92	-101.60	0.92	-101.60	0.23	25.40
13400	0.23	24.10	0.92	-102.90	0.92	-102.90	0.23	24.10
13450	0.22	22.90	0.93	-104.30	0.93	-104.30	0.22	22.90
13500	0.21	22.80	0.93	-105.40	0.93	-105.40	0.21	22.80
13550	0.20	22.60	0.93	-106.60	0.93	-106.60	0.20	22.60
13600	0.20	22.00	0.94	-107.90	0.94	-107.90	0.20	22.00
13650	0.20	21.50	0.94	-109.30	0.94	-109.30	0.20	21.50
13700	0.19	21.40	0.94	-110.30	0.94	-110.30	0.19	21.40
13750	0.17	21.30	0.94	-111.40	0.94	-111.40	0.17	21.30
13800	0.17	20.30	0.94	-112.80	0.94	-112.80	0.17	20.30
13850	0.17	19.20	0.94	-114.20	0.94	-114.20	0.17	19.20
13900	0.16	18.90	0.94	-115.40	0.94	-115.40	0.16	18.90
13950	0.15	18.60	0.94	-116.70	0.94	-116.70	0.15	18.60
14000	0.15	21.70	0.94	-117.90	0.94	-117.90	0.15	21.70
14050	0.14	24.80	0.93	-119.20	0.93	-119.20	0.14	24.80
14100	0.14	25.20	0.93	-120.70	0.93	-120.70	0.14	25.20
14150	0.13	25.60	0.93	-122.10	0.93	-122.10	0.13	25.60
14200	0.13	31.50	0.92	-123.80	0.92	-123.80	0.13	31.50
14250	0.14	37.40	0.92	-125.40	0.92	-125.40	0.14	37.40
14300	0.14	41.30	0.91	-127.30	0.91	-127.30	0.14	41.30
14350	0.15	45.30	0.90	-129.10	0.90	-129.10	0.15	45.30
14400	0.17	49.80	0.88	-130.90	0.88	-130.90	0.17	49.80
14450	0.19	54.30	0.86	-132.60	0.86	-132.60	0.19	54.30
14500	0.22	53.70	0.82	-134.80	0.82	-134.80	0.22	53.70
14550	0.26	53.20	0.80	-137.00	0.80	-137.00	0.26	53.20
14600	0.31	50.80	0.75	-137.80	0.75	-137.80	0.31	50.80
14650	0.35	48.40	0.70	-138.60	0.70	-138.60	0.35	48.40
14700	0.40	42.20	0.64	-136.70	0.64	-136.70	0.40	42.20
14750	0.44	36.10	0.59	-134.80	0.59	-134.80	0.44	36.10
14800	0.47	28.50	0.58	-129.30	0.58	-129.30	0.47	28.50
14850	0.49	21.00	0.56	-123.90	0.56	-123.90	0.49	21.00
14900	0.49	14.90	0.59	-119.70	0.59	-119.70	0.49	14.90
14950	0.49	8.80	0.62	-115.60	0.62	-115.60	0.49	8.80
15000	0.47	3.10	0.66	-114.90	0.66	-114.90	0.47	3.10
15050	0.45	-2.50	0.70	-114.30	0.70	-114.30	0.45	-2.50
15100	0.43	-4.80	0.73	-115.10	0.73	-115.10	0.43	-4.80
15150	0.41	-7.20	0.77	-115.90	0.77	-115.90	0.41	-7.20
15200	0.39	-9.60	0.79	-117.20	0.79	-117.20	0.39	-9.60
15250	0.37	-11.90	0.81	-118.60	0.81	-118.60	0.37	-11.90
15300	0.35	-11.40	0.82	-120.30	0.82	-120.30	0.35	-11.40
15350	0.33	-10.80	0.84	-121.90	0.84	-121.90	0.33	-10.80
15400	0.31	-9.90	0.84	-123.00	0.84	-123.00	0.31	-9.90
15450	0.29	-9.00	0.84	-124.20	0.84	-124.20	0.29	-9.00
15500	0.28	-5.40	0.85	-125.60	0.85	-125.60	0.28	-5.40
15550	0.27	-1.70	0.85	-127.00	0.85	-127.00	0.27	-1.70
15600	0.27	1.00	0.83	-127.60	0.83	-127.60	0.27	1.00
15650	0.28	3.60	0.83	-128.20	0.83	-128.20	0.28	3.60
15700	0.29	4.40	0.82	-127.70	0.82	-127.70	0.29	4.40
15750	0.30	5.10	0.81	-127.20	0.81	-127.20	0.30	5.10
15800	0.30	2.80	0.82	-126.80	0.82	-126.80	0.30	2.80
15850	0.30	0.50	0.84	-126.40	0.84	-126.40	0.30	0.50
15900	0.28	-1.30	0.86	-126.70	0.86	-126.70	0.28	-1.30
15950	0.26	-3.20	0.88	-127.00	0.88	-127.00	0.26	-3.20
16000	0.25	-2.90	0.89	-127.80	0.89	-127.80	0.25	-2.90
16050	0.23	-2.50	0.90	-128.70	0.90	-128.70	0.23	-2.50
16100	0.21	-1.00	0.91	-129.70	0.91	-129.70	0.21	-1.00
16150	0.18	0.60	0.92	-130.70	0.92	-130.70	0.18	0.60
16200	0.17	3.70	0.92	-131.80	0.92	-131.80	0.17	3.70
16250	0.16	6.80	0.93	-132.90	0.93	-132.90	0.16	6.80
16300	0.15	11.40	0.93	-133.70	0.93	-133.70	0.15	11.40
16350	0.14	16.00	0.93	-134.50	0.93	-134.50	0.14	16.00
16400	0.14	21.70	0.93	-135.10	0.93	-135.10	0.14	21.70
16450	0.13	27.50	0.93	-135.80	0.93	-135.80	0.13	27.50
16500	0.13	28.10	0.93	-136.00	0.93	-136.00	0.13	28.10
16550	0.13	28.80	0.94	-136.30	0.94	-136.30	0.13	28.80
16600	0.12	35.60	0.94	-137.30	0.94	-137.30	0.12	35.60
16650	0.10	42.40	0.95	-138.20	0.95	-138.20	0.10	42.40
16700	0.09	48.80	0.96	-139.10	0.96	-139.10	0.09	48.80
16750	0.09	55.20	0.96	-140.00	0.96	-140.00	0.09	55.20
16800	0.09	61.20	0.96	-141.00	0.96	-141.00	0.09	61.20
16850	0.08	67.10	0.97	-141.90	0.97	-141.90	0.08	67.10
16900	0.09	73.40	0.97	-142.80	0.97	-142.80	0.09	73.40
16950	0.10	79.70	0.97	-143.70	0.97	-143.70	0.10	79.70
17000	0.10	84.60	0.97	-144.60	0.97	-144.60	0.10	84.60
17050	0.11	89.50	0.97	-145.50	0.97	-145.50	0.11	89.50
17100	0.12	92.50	0.97	-146.40	0.97	-146.40	0.12	92.50
17150	0.12	95.50	0.96	-147.30	0.96	-147.30	0.12	95.50
17200	0.13	97.50	0.97	-148.10	0.97	-148.10	0.13	97.50
17250	0.14	99.40	0.97	-148.80	0.97	-148.80	0.14	99.40
17300	0.14	99.60	0.97	-149.80	0.97	-149.80	0.14	99.60
17350	0.14	99.80	0.97	-150.70	0.97	-150.70	0.14	99.80
17400	0.15	101.00	0.96	-151.40	0.96	-151.40	0.15	101.00
17450	0.16	102.20	0.96	-152.00	0.96	-152.00	0.16	102.20
17500	0.16	101.80	0.96	-152.70	0.96	-152.70	0.16	101.80
17550	0.17	101.30	0.96	-153.40	0.96	-153.40	0.17	101.30
17600	0.16	102.70	0.96	-154.20	0.96	-154.20	0.16	102.70
17650	0.16	104.10	0.96	-155.00	0.96	-155.00	0.16	104.10
17700	0.17	102.60	0.96	-155.60	0.96	-155.60	0.17	102.60
17750	0.18	101.10	0.96	-156.20	0.96	-156.20	0.18	101.10
17800	0.18	102.00	0.96	-157.10	0.96	-157.10	0.18	102.00
17850	0.17	102.90	0.96	-157.90	0.96	-157.90	0.17	102.90
17900	0.17	104.20	0.96	-158.70	0.96	-158.70	0.17	104.20
17950	0.18	105.40	0.95	-159.50	0.95	-159.50	0.18	105.40
18000	0.17	102.60	0.95	-160.10	0.95	-160.10	0.17	102.60
18050	0.16	99.80	0.96	-160.70	0.96	-160.70	0.16	99.80
18100	0.17	99.60	0.95	-161.30	0.95	-161.30	0.17	99.60
18150	0.17	99.50	0.95	-161.90	0.95	-161.90	0.17	99.50
18200	0.16	97.50	0.95	-162.40	0.95	-162.40	0.16	97.50
18250	0.16	95.40	0.95	-162.90	0.95	-162.90	0.16	95.40
18300	0.15	96.00	0.95	-163.50	0.95	-163.50	0.15	96.00
18350	0.14	96.50	0.95	-164.10	0.95	-164.10	0.14	96.50
18400	0.13	93.00	0.95	-164.80	0.95	-164.80	0.13	93.00
18450	0.13	89.50	0.96	-165.40	0.96	-165.40	0.13	89.50
18500	0.12	88.60	0.96	-166.20	0.96	-166.20	0.12	88.60
18550	0.12	87.60	0.95	-167.00	0.95	-167.00	0.12	87.60
18600	0.12	82.70	0.96	-167.90	0.96	-167.90	0.12	82.70
