#	mhz	s	ma	r	50			
50	0.93	169.10	0.19	74.60	0.19	74.60	0.93	169.10
100	0.89	159.30	0.35	65.90	0.35	65.90	0.89	159.30
150	0.85	149.50	0.50	57.10	0.50	57.10	0.85	149.50
200	0.77	142.70	0.60	50.50	0.60	50.50	0.77	142.70
250	0.70	135.90	0.69	43.90	0.69	43.90	0.70	135.90
300	0.63	130.70	0.75	38.60	0.75	38.60	0.63	130.70
350	0.57	125.60	0.80	33.30	0.80	33.30	0.57	125.60
400	0.52	122.00	0.83	29.70	0.83	29.70	0.52	122.00
450	0.47	118.50	0.87	26.10	0.87	26.10	0.47	118.50
500	0.42	114.60	0.90	22.20	0.90	22.20	0.42	114.60
550	0.37	110.80	0.93	18.40	0.93	18.40	0.37	110.80
600	0.34	108.70	0.94	16.30	0.94	16.30	0.34	108.70
650	0.31	106.70	0.95	14.30	0.95	14.30	0.31	106.70
700	0.29	105.40	0.95	12.60	0.95	12.60	0.29	105.40
750	0.27	104.10	0.96	10.80	0.96	10.80	0.27	104.10
800	0.25	102.60	0.96	9.20	0.96	9.20	0.25	102.60
850	0.23	101.00	0.97	7.60	0.97	7.60	0.23	101.00
900	0.22	100.70	0.97	6.40	0.97	6.40	0.22	100.70
950	0.20	100.40	0.98	5.10	0.98	5.10	0.20	100.40
1000	0.19	98.90	0.98	3.90	0.98	3.90	0.19	98.90
1050	0.17	97.30	0.98	2.70	0.98	2.70	0.17	97.30
1100	0.16	96.80	0.98	1.60	0.98	1.60	0.16	96.80
1150	0.15	96.30	0.99	0.50	0.99	0.50	0.15	96.30
1200	0.14	95.90	0.99	-0.50	0.99	-0.50	0.14	95.90
1250	0.13	95.50	0.99	-1.40	0.99	-1.40	0.13	95.50
1300	0.12	95.50	0.99	-2.30	0.99	-2.30	0.12	95.50
1350	0.11	95.60	0.99	-3.30	0.99	-3.30	0.11	95.60
1400	0.10	95.20	0.99	-4.20	0.99	-4.20	0.10	95.20
1450	0.10	94.90	0.99	-5.10	0.99	-5.10	0.10	94.90
1500	0.09	95.30	0.99	-6.00	0.99	-6.00	0.09	95.30
1550	0.08	95.70	0.99	-6.80	0.99	-6.80	0.08	95.70
1600	0.07	95.90	0.99	-7.70	0.99	-7.70	0.07	95.90
1650	0.07	96.20	0.99	-8.60	0.99	-8.60	0.07	96.20
1700	0.06	97.60	1.00	-9.30	1.00	-9.30	0.06	97.60
1750	0.05	99.00	1.00	-10.00	1.00	-10.00	0.05	99.00
1800	0.05	101.60	1.00	-10.80	1.00	-10.80	0.05	101.60
1850	0.04	104.10	1.00	-11.60	1.00	-11.60	0.04	104.10
1900	0.04	109.30	1.00	-12.40	1.00	-12.40	0.04	109.30
1950	0.03	114.40	1.00	-13.20	1.00	-13.20	0.03	114.40
2000	0.03	122.70	1.00	-14.00	1.00	-14.00	0.03	122.70
2050	0.02	131.00	1.00	-14.70	1.00	-14.70	0.02	131.00
2100	0.02	144.20	1.00	-15.50	1.00	-15.50	0.02	144.20
2150	0.02	157.40	1.00	-16.30	1.00	-16.30	0.02	157.40
2200	0.02	-7.50	1.00	-16.90	1.00	-16.90	0.02	-7.50
2250	0.02	-172.30	1.00	-17.60	1.00	-17.60	0.02	-172.30
2300	0.03	-165.20	1.00	-18.40	1.00	-18.40	0.03	-165.20
2350	0.03	-158.10	1.00	-19.20	1.00	-19.20	0.03	-158.10
2400	0.03	-152.10	0.99	-19.90	0.99	-19.90	0.03	-152.10
2450	0.04	-146.10	0.99	-20.60	0.99	-20.60	0.04	-146.10
2500	0.04	-144.70	0.99	-21.30	0.99	-21.30	0.04	-144.70
2550	0.05	-143.20	0.99	-22.00	0.99	-22.00	0.05	-143.20
2600	0.05	-140.40	0.99	-22.60	0.99	-22.60	0.05	-140.40
2650	0.06	-137.50	0.99	-23.30	0.99	-23.30	0.06	-137.50
2700	0.06	-137.50	0.99	-24.00	0.99	-24.00	0.06	-137.50
2750	0.07	-137.40	0.99	-24.70	0.99	-24.70	0.07	-137.40
2800	0.07	-136.20	0.99	-25.40	0.99	-25.40	0.07	-136.20
2850	0.08	-134.90	1.00	-26.10	1.00	-26.10	0.08	-134.90
2900	0.08	-134.80	0.99	-26.90	0.99	-26.90	0.08	-134.80
2950	0.09	-134.80	0.99	-27.60	0.99	-27.60	0.09	-134.80
3000	0.09	-134.80	0.99	-28.20	0.99	-28.20	0.09	-134.80
3050	0.09	-134.90	0.99	-28.80	0.99	-28.80	0.09	-134.90
3100	0.10	-134.90	0.99	-29.50	0.99	-29.50	0.10	-134.90
3150	0.10	-135.00	0.99	-30.10	0.99	-30.10	0.10	-135.00
3200	0.11	-135.40	0.99	-30.80	0.99	-30.80	0.11	-135.40
3250	0.11	-135.80	0.99	-31.60	0.99	-31.60	0.11	-135.80
3300	0.12	-135.90	0.99	-32.30	0.99	-32.30	0.12	-135.90
3350	0.12	-136.10	0.99	-32.90	0.99	-32.90	0.12	-136.10
3400	0.13	-136.60	0.99	-33.60	0.99	-33.60	0.13	-136.60
3450	0.13	-137.10	0.98	-34.30	0.98	-34.30	0.13	-137.10
3500	0.14	-137.50	0.98	-35.00	0.98	-35.00	0.14	-137.50
3550	0.14	-138.00	0.98	-35.70	0.98	-35.70	0.14	-138.00
3600	0.14	-137.80	0.98	-36.30	0.98	-36.30	0.14	-137.80
3650	0.15	-137.70	0.98	-37.00	0.98	-37.00	0.15	-137.70
3700	0.15	-138.70	0.98	-37.70	0.98	-37.70	0.15	-138.70
3750	0.16	-139.80	0.98	-38.40	0.98	-38.40	0.16	-139.80
3800	0.16	-140.20	0.98	-39.20	0.98	-39.20	0.16	-140.20
3850	0.16	-140.60	0.98	-40.00	0.98	-40.00	0.16	-140.60
3900	0.17	-141.50	0.98	-40.50	0.98	-40.50	0.17	-141.50
3950	0.17	-142.40	0.98	-41.10	0.98	-41.10	0.17	-142.40
4000	0.18	-142.90	0.98	-41.70	0.98	-41.70	0.18	-142.90
4050	0.18	-143.40	0.97	-42.40	0.97	-42.40	0.18	-143.40
4100	0.18	-144.10	0.98	-43.00	0.98	-43.00	0.18	-144.10
4150	0.19	-144.80	0.98	-43.60	0.98	-43.60	0.19	-144.80
4200	0.19	-145.50	0.97	-44.30	0.97	-44.30	0.19	-145.50
4250	0.19	-146.10	0.97	-45.00	0.97	-45.00	0.19	-146.10
4300	0.20	-147.10	0.97	-45.60	0.97	-45.60	0.20	-147.10
4350	0.20	-148.10	0.97	-46.10	0.97	-46.10	0.20	-148.10
4400	0.21	-148.60	0.97	-47.00	0.97	-47.00	0.21	-148.60
4450	0.21	-149.00	0.97	-47.90	0.97	-47.90	0.21	-149.00
4500	0.22	-150.00	0.97	-48.50	0.97	-48.50	0.22	-150.00
4550	0.22	-151.10	0.97	-49.20	0.97	-49.20	0.22	-151.10
4600	0.23	-151.70	0.97	-50.00	0.97	-50.00	0.23	-151.70
4650	0.23	-152.40	0.97	-50.80	0.97	-50.80	0.23	-152.40
4700	0.23	-153.10	0.97	-51.40	0.97	-51.40	0.23	-153.10
4750	0.24	-153.90	0.96	-52.00	0.96	-52.00	0.24	-153.90
4800	0.24	-154.80	0.96	-52.70	0.96	-52.70	0.24	-154.80
4850	0.24	-155.60	0.96	-53.30	0.96	-53.30	0.24	-155.60
4900	0.25	-156.30	0.96	-54.10	0.96	-54.10	0.25	-156.30
4950	0.26	-157.00	0.96	-54.90	0.96	-54.90	0.26	-157.00
5000	0.26	-157.70	0.96	-55.30	0.96	-55.30	0.26	-157.70
5050	0.26	-158.50	0.95	-55.80	0.95	-55.80	0.26	-158.50
5100	0.27	-159.20	0.95	-56.60	0.95	-56.60	0.27	-159.20
5150	0.27	-159.90	0.95	-57.40	0.95	-57.40	0.27	-159.90
5200	0.28	-160.30	0.96	-58.30	0.96	-58.30	0.28	-160.30
5250	0.28	-160.80	0.96	-59.20	0.96	-59.20	0.28	-160.80
5300	0.29	-161.60	0.95	-59.80	0.95	-59.80	0.29	-161.60
5350	0.29	-162.40	0.94	-60.50	0.94	-60.50	0.29	-162.40
5400	0.30	-162.80	0.95	-61.10	0.95	-61.10	0.30	-162.80
5450	0.31	-163.20	0.95	-61.70	0.95	-61.70	0.31	-163.20
5500	0.31	-163.70	0.94	-62.60	0.94	-62.60	0.31	-163.70
5550	0.32	-164.20	0.94	-63.40	0.94	-63.40	0.32	-164.20
5600	0.32	-164.90	0.93	-64.10	0.93	-64.10	0.32	-164.90
5650	0.33	-165.50	0.93	-64.70	0.93	-64.70	0.33	-165.50
5700	0.33	-166.20	0.93	-65.60	0.93	-65.60	0.33	-166.20
5750	0.34	-166.80	0.94	-66.50	0.94	-66.50	0.34	-166.80
5800	0.35	-167.20	0.93	-67.30	0.93	-67.30	0.35	-167.20
5850	0.35	-167.50	0.92	-68.10	0.92	-68.10	0.35	-167.50
5900	0.36	-168.30	0.92	-68.70	0.92	-68.70	0.36	-168.30
5950	0.36	-169.00	0.92	-69.30	0.92	-69.30	0.36	-169.00
6000	0.38	-170.10	0.91	-70.30	0.91	-70.30	0.38	-170.10
6050	0.41	-171.30	0.90	-71.30	0.90	-71.30	0.41	-171.30
6100	0.41	-172.10	0.90	-72.10	0.90	-72.10	0.41	-172.10
6150	0.41	-172.80	0.90	-73.00	0.90	-73.00	0.41	-172.80
6200	0.42	-173.80	0.89	-73.70	0.89	-73.70	0.42	-173.80
6250	0.43	-174.80	0.89	-74.40	0.89	-74.40	0.43	-174.80
6300	0.44	-175.70	0.88	-75.10	0.88	-75.10	0.44	-175.70
6350	0.44	-176.70	0.88	-75.80	0.88	-75.80	0.44	-176.70
6400	0.45	-177.20	0.88	-76.70	0.88	-76.70	0.45	-177.20
6450	0.46	-177.80	0.87	-77.60	0.87	-77.60	0.46	-177.80
6500	0.46	1.00	0.86	-78.40	0.86	-78.40	0.46	1.00
6550	0.47	179.90	0.86	-79.20	0.86	-79.20	0.47	179.90
6600	0.48	179.40	0.86	-79.80	0.86	-79.80	0.48	179.40
6650	0.49	178.90	0.86	-80.40	0.86	-80.40	0.49	178.90
6700	0.50	178.00	0.86	-81.30	0.86	-81.30	0.50	178.00
6750	0.50	177.00	0.85	-82.20	0.85	-82.20	0.50	177.00
6800	0.51	176.00	0.85	-83.20	0.85	-83.20	0.51	176.00
6850	0.51	175.00	0.84	-84.20	0.84	-84.20	0.51	175.00
6900	0.52	174.00	0.83	-85.00	0.83	-85.00	0.52	174.00
6950	0.53	173.00	0.83	-85.80	0.83	-85.80	0.53	173.00
7000	0.54	171.80	0.82	-86.90	0.82	-86.90	0.54	171.80
7050	0.54	170.70	0.82	-88.00	0.82	-88.00	0.54	170.70
7100	0.55	169.50	0.81	-89.00	0.81	-89.00	0.55	169.50
7150	0.56	168.30	0.81	-90.00	0.81	-90.00	0.56	168.30
7200	0.57	166.80	0.80	-91.40	0.80	-91.40	0.57	166.80
7250	0.58	165.30	0.79	-92.80	0.79	-92.80	0.58	165.30
7300	0.59	163.50	0.78	-94.00	0.78	-94.00	0.59	163.50
7350	0.60	161.80	0.77	-95.20	0.77	-95.20	0.60	161.80
7400	0.61	160.20	0.76	-96.50	0.76	-96.50	0.61	160.20
7450	0.62	158.60	0.75	-97.80	0.75	-97.80	0.62	158.60
7500	0.63	156.80	0.74	-99.30	0.74	-99.30	0.63	156.80
7550	0.64	155.00	0.72	-100.80	0.72	-100.80	0.64	155.00
7600	0.65	153.20	0.70	-102.10	0.70	-102.10	0.65	153.20
7650	0.67	151.40	0.69	-103.50	0.69	-103.50	0.67	151.40
7700	0.68	149.00	0.67	-105.10	0.67	-105.10	0.68	149.00
7750	0.69	146.70	0.66	-106.70	0.66	-106.70	0.69	146.70
7800	0.71	144.40	0.64	-108.60	0.64	-108.60	0.71	144.40
7850	0.73	142.10	0.61	-110.50	0.61	-110.50	0.73	142.10
7900	0.75	139.20	0.59	-112.30	0.59	-112.30	0.75	139.20
7950	0.76	136.30	0.56	-114.10	0.56	-114.10	0.76	136.30
8000	0.78	133.60	0.53	-116.00	0.53	-116.00	0.78	133.60
8050	0.80	131.00	0.50	-117.90	0.50	-117.90	0.80	131.00
8100	0.82	127.20	0.47	-119.90	0.47	-119.90	0.82	127.20
8150	0.83	123.40	0.43	-121.80	0.43	-121.80	0.83	123.40
8200	0.85	120.40	0.38	-122.70	0.38	-122.70	0.85	120.40
8250	0.86	117.30	0.34	-123.60	0.34	-123.60	0.86	117.30
8300	0.86	113.00	0.29	-122.90	0.29	-122.90	0.86	113.00
8350	0.87	108.70	0.24	-122.20	0.24	-122.20	0.87	108.70
8400	0.88	105.20	0.20	-114.50	0.20	-114.50	0.88	105.20
8450	0.89	101.70	0.15	-106.70	0.15	-106.70	0.89	101.70
8500	0.88	97.30	0.14	-85.40	0.14	-85.40	0.88	97.30
8550	0.88	93.00	0.13	-64.00	0.13	-64.00	0.88	93.00
8600	0.87	89.30	0.16	-49.40	0.16	-49.40	0.87	89.30
8650	0.86	85.50	0.20	-34.70	0.20	-34.70	0.86	85.50
8700	0.85	82.00	0.25	-31.70	0.25	-31.70	0.85	82.00
8750	0.84	78.50	0.30	-28.70	0.30	-28.70	0.84	78.50
8800	0.82	74.40	0.35	-29.30	0.35	-29.30	0.82	74.40
8850	0.80	70.20	0.40	-30.00	0.40	-30.00	0.80	70.20
8900	0.78	67.30	0.45	-31.80	0.45	-31.80	0.78	67.30
8950	0.75	64.30	0.49	-33.50	0.49	-33.50	0.75	64.30
9000	0.73	61.60	0.53	-35.50	0.53	-35.50	0.73	61.60
9050	0.71	58.80	0.57	-37.50	0.57	-37.50	0.71	58.80
9100	0.69	55.90	0.61	-40.00	0.61	-40.00	0.69	55.90
9150	0.67	53.10	0.64	-42.40	0.64	-42.40	0.67	53.10
9200	0.63	50.70	0.67	-44.80	0.67	-44.80	0.63	50.70
9250	0.60	48.40	0.69	-47.10	0.69	-47.10	0.60	48.40
9300	0.57	47.30	0.72	-48.70	0.72	-48.70	0.57	47.30
9350	0.55	46.30	0.75	-50.30	0.75	-50.30	0.55	46.30
9400	0.52	44.10	0.76	-52.30	0.76	-52.30	0.52	44.10
9450	0.50	42.00	0.78	-54.30	0.78	-54.30	0.50	42.00
9500	0.47	40.80	0.80	-56.00	0.80	-56.00	0.47	40.80
9550	0.44	39.70	0.81	-57.80	0.81	-57.80	0.44	39.70
9600	0.42	37.90	0.83	-59.70	0.83	-59.70	0.42	37.90
9650	0.40	36.20	0.84	-61.60	0.84	-61.60	0.40	36.20
9700	0.38	35.50	0.86	-63.10	0.86	-63.10	0.38	35.50
9750	0.35	34.80	0.87	-64.50	0.87	-64.50	0.35	34.80
9800	0.33	33.70	0.88	-66.10	0.88	-66.10	0.33	33.70
9850	0.31	32.50	0.89	-67.60	0.89	-67.60	0.31	32.50
9900	0.29	31.50	0.91	-69.40	0.91	-69.40	0.29	31.50
9950	0.26	30.50	0.92	-71.20	0.92	-71.20	0.26	30.50
10000	0.24	30.30	0.92	-72.50	0.92	-72.50	0.24	30.30
10050	0.22	30.00	0.93	-73.70	0.93	-73.70	0.22	30.00
10100	0.20	28.10	0.93	-75.40	0.93	-75.40	0.20	28.10
10150	0.17	26.30	0.94	-77.10	0.94	-77.10	0.17	26.30
10200	0.15	28.30	0.95	-78.40	0.95	-78.40	0.15	28.30
10250	0.14	30.30	0.95	-79.70	0.95	-79.70	0.14	30.30
10300	0.12	30.80	0.95	-81.30	0.95	-81.30	0.12	30.80
10350	0.10	31.20	0.96	-83.00	0.96	-83.00	0.10	31.20
10400	0.08	42.80	0.96	-84.40	0.96	-84.40	0.08	42.80
10450	0.06	54.40	0.96	-85.80	0.96	-85.80	0.06	54.40
10500	0.05	68.40	0.96	-87.20	0.96	-87.20	0.05	68.40
10550	0.05	82.40	0.96	-88.60	0.96	-88.60	0.05	82.40
10600	0.06	107.40	0.96	-90.00	0.96	-90.00	0.06	107.40
10650	0.07	132.30	0.96	-91.40	0.96	-91.40	0.07	132.30
10700	0.08	134.40	0.96	-92.90	0.96	-92.90	0.08	134.40
10750	0.09	136.50	0.96	-94.30	0.96	-94.30	0.09	136.50
10800	0.11	140.20	0.96	-95.80	0.96	-95.80	0.11	140.20
10850	0.13	143.90	0.96	-97.20	0.96	-97.20	0.13	143.90
10900	0.15	142.50	0.95	-98.60	0.95	-98.60	0.15	142.50
10950	0.16	141.00	0.95	-100.10	0.95	-100.10	0.16	141.00
11000	0.18	141.50	0.95	-101.50	0.95	-101.50	0.18	141.50
11050	0.19	142.10	0.95	-102.80	0.95	-102.80	0.19	142.10
11100	0.22	140.20	0.94	-104.30	0.94	-104.30	0.22	140.20
11150	0.24	138.40	0.93	-105.70	0.93	-105.70	0.24	138.40
11200	0.25	137.70	0.93	-107.00	0.93	-107.00	0.25	137.70
11250	0.27	137.10	0.92	-108.30	0.92	-108.30	0.27	137.10
11300	0.29	135.90	0.92	-109.80	0.92	-109.80	0.29	135.90
11350	0.31	134.80	0.91	-111.20	0.91	-111.20	0.31	134.80
11400	0.32	133.00	0.90	-113.00	0.90	-113.00	0.32	133.00
11450	0.34	131.30	0.89	-114.80	0.89	-114.80	0.34	131.30
11500	0.36	129.50	0.88	-116.20	0.88	-116.20	0.36	129.50
11550	0.38	127.70	0.87	-117.60	0.87	-117.60	0.38	127.70
11600	0.41	125.50	0.85	-119.40	0.85	-119.40	0.41	125.50
11650	0.43	123.40	0.83	-121.20	0.83	-121.20	0.43	123.40
11700	0.45	121.80	0.82	-122.80	0.82	-122.80	0.45	121.80
11750	0.47	120.20	0.80	-124.40	0.80	-124.40	0.47	120.20
11800	0.50	117.70	0.78	-126.00	0.78	-126.00	0.50	117.70
11850	0.52	115.20	0.76	-127.60	0.76	-127.60	0.52	115.20
11900	0.54	113.00	0.73	-129.70	0.73	-129.70	0.54	113.00
11950	0.56	110.80	0.71	-131.80	0.71	-131.80	0.56	110.80
12000	0.59	108.30	0.68	-132.90	0.68	-132.90	0.59	108.30
12050	0.63	105.90	0.65	-134.00	0.65	-134.00	0.63	105.90
12100	0.64	102.80	0.62	-135.90	0.62	-135.90	0.64	102.80
12150	0.66	99.80	0.58	-137.80	0.58	-137.80	0.66	99.80
12200	0.69	96.70	0.54	-138.80	0.54	-138.80	0.69	96.70
12250	0.72	93.70	0.50	-139.80	0.50	-139.80	0.72	93.70
12300	0.73	90.30	0.45	-139.40	0.45	-139.40	0.73	90.30
12350	0.74	86.90	0.40	-139.10	0.40	-139.10	0.74	86.90
12400	0.76	82.50	0.36	-135.80	0.36	-135.80	0.76	82.50
12450	0.77	78.20	0.32	-132.40	0.32	-132.40	0.77	78.20
12500	0.77	73.90	0.28	-123.70	0.28	-123.70	0.77	73.90
12550	0.77	69.60	0.25	-114.90	0.25	-114.90	0.77	69.60
12600	0.77	64.90	0.26	-103.00	0.26	-103.00	0.77	64.90
12650	0.76	60.20	0.27	-91.10	0.27	-91.10	0.76	60.20
12700	0.75	55.70	0.31	-84.30	0.31	-84.30	0.75	55.70
12750	0.74	51.10	0.35	-77.40	0.35	-77.40	0.74	51.10
12800	0.71	46.90	0.40	-75.60	0.40	-75.60	0.71	46.90
12850	0.69	42.70	0.45	-73.80	0.45	-73.80	0.69	42.70
12900	0.67	39.00	0.49	-74.60	0.49	-74.60	0.67	39.00
12950	0.65	35.30	0.54	-75.40	0.54	-75.40	0.65	35.30
13000	0.62	31.50	0.58	-76.60	0.58	-76.60	0.62	31.50
13050	0.59	27.70	0.62	-77.70	0.62	-77.70	0.59	27.70
13100	0.57	24.80	0.65	-79.70	0.65	-79.70	0.57	24.80
13150	0.55	21.80	0.69	-81.70	0.69	-81.70	0.55	21.80
13200	0.53	18.90	0.71	-83.50	0.71	-83.50	0.53	18.90
13250	0.51	16.00	0.74	-85.30	0.74	-85.30	0.51	16.00
13300	0.48	13.70	0.76	-87.20	0.76	-87.20	0.48	13.70
13350	0.46	11.40	0.78	-89.20	0.78	-89.20	0.46	11.40
13400	0.45	9.00	0.80	-90.90	0.80	-90.90	0.45	9.00
13450	0.44	6.50	0.82	-92.70	0.82	-92.70	0.44	6.50
13500	0.42	4.40	0.83	-94.30	0.83	-94.30	0.42	4.40
13550	0.39	2.30	0.84	-95.80	0.84	-95.80	0.39	2.30
13600	0.39	0.70	0.85	-97.40	0.85	-97.40	0.39	0.70
13650	0.38	-1.00	0.86	-99.00	0.86	-99.00	0.38	-1.00
13700	0.37	-2.90	0.87	-100.10	0.87	-100.10	0.37	-2.90
13750	0.36	-4.80	0.87	-101.20	0.87	-101.20	0.36	-4.80
13800	0.35	-6.90	0.88	-102.60	0.88	-102.60	0.35	-6.90
13850	0.35	-9.00	0.88	-104.10	0.88	-104.10	0.35	-9.00
13900	0.34	-11.20	0.89	-105.20	0.89	-105.20	0.34	-11.20
13950	0.33	-13.50	0.89	-106.20	0.89	-106.20	0.33	-13.50
14000	0.32	-14.20	0.90	-107.20	0.90	-107.20	0.32	-14.20
14050	0.32	-14.80	0.90	-108.20	0.90	-108.20	0.32	-14.80
14100	0.31	-18.20	0.90	-109.50	0.90	-109.50	0.31	-18.20
14150	0.31	-21.60	0.91	-110.70	0.91	-110.70	0.31	-21.60
14200	0.30	-22.10	0.91	-111.70	0.91	-111.70	0.30	-22.10
14250	0.29	-22.50	0.92	-112.80	0.92	-112.80	0.29	-22.50
14300	0.29	-24.00	0.92	-114.10	0.92	-114.10	0.29	-24.00
14350	0.28	-25.50	0.92	-115.30	0.92	-115.30	0.28	-25.50
14400	0.27	-25.90	0.91	-116.40	0.91	-116.40	0.27	-25.90
14450	0.27	-26.20	0.91	-117.50	0.91	-117.50	0.27	-26.20
14500	0.26	-24.20	0.90	-118.90	0.90	-118.90	0.26	-24.20
14550	0.26	-22.10	0.89	-120.30	0.89	-120.30	0.26	-22.10
14600	0.28	-20.00	0.87	-120.60	0.87	-120.60	0.28	-20.00
14650	0.29	-17.80	0.85	-120.80	0.85	-120.80	0.29	-17.80
14700	0.31	-19.90	0.85	-119.80	0.85	-119.80	0.31	-19.90
14750	0.33	-22.00	0.85	-118.80	0.85	-118.80	0.33	-22.00
14800	0.32	-25.60	0.87	-119.00	0.87	-119.00	0.32	-25.60
14850	0.32	-29.30	0.88	-119.10	0.88	-119.10	0.32	-29.30
14900	0.31	-30.50	0.90	-119.80	0.90	-119.80	0.31	-30.50
14950	0.31	-31.80	0.91	-120.50	0.91	-120.50	0.31	-31.80
15000	0.30	-33.30	0.91	-121.30	0.91	-121.30	0.30	-33.30
15050	0.29	-34.90	0.92	-122.10	0.92	-122.10	0.29	-34.90
15100	0.28	-34.40	0.92	-123.00	0.92	-123.00	0.28	-34.40
15150	0.27	-34.00	0.93	-123.90	0.93	-123.90	0.27	-34.00
15200	0.26	-34.80	0.93	-124.70	0.93	-124.70	0.26	-34.80
15250	0.26	-35.60	0.94	-125.50	0.94	-125.50	0.26	-35.60
15300	0.25	-33.80	0.94	-126.50	0.94	-126.50	0.25	-33.80
15350	0.24	-32.10	0.94	-127.40	0.94	-127.40	0.24	-32.10
15400	0.23	-31.90	0.94	-127.90	0.94	-127.90	0.23	-31.90
15450	0.22	-31.80	0.94	-128.40	0.94	-128.40	0.22	-31.80
15500	0.21	-30.10	0.94	-129.30	0.94	-129.30	0.21	-30.10
15550	0.20	-28.50	0.94	-130.10	0.94	-130.10	0.20	-28.50
15600	0.20	-28.10	0.95	-130.60	0.95	-130.60	0.20	-28.10
15650	0.19	-27.70	0.95	-131.00	0.95	-131.00	0.19	-27.70
15700	0.18	-27.00	0.95	-131.60	0.95	-131.60	0.18	-27.00
15750	0.17	-26.30	0.95	-132.10	0.95	-132.10	0.17	-26.30
15800	0.17	-24.40	0.95	-132.90	0.95	-132.90	0.17	-24.40
15850	0.16	-22.50	0.96	-133.70	0.96	-133.70	0.16	-22.50
15900	0.14	-21.10	0.96	-134.30	0.96	-134.30	0.14	-21.10
15950	0.13	-19.70	0.97	-134.80	0.97	-134.80	0.13	-19.70
16000	0.12	-16.70	0.97	-135.50	0.97	-135.50	0.12	-16.70
16050	0.11	-13.70	0.97	-136.30	0.97	-136.30	0.11	-13.70
16100	0.09	-7.50	0.97	-136.90	0.97	-136.90	0.09	-7.50
16150	0.08	-1.30	0.97	-137.60	0.97	-137.60	0.08	-1.30
16200	0.07	5.30	0.97	-138.40	0.97	-138.40	0.07	5.30
16250	0.07	11.90	0.97	-139.20	0.97	-139.20	0.07	11.90
16300	0.06	21.00	0.97	-139.80	0.97	-139.80	0.06	21.00
16350	0.06	30.10	0.97	-140.40	0.97	-140.40	0.06	30.10
16400	0.06	41.50	0.97	-141.00	0.97	-141.00	0.06	41.50
16450	0.06	53.00	0.97	-141.60	0.97	-141.60	0.06	53.00
16500	0.06	58.30	0.97	-142.00	0.97	-142.00	0.06	58.30
16550	0.06	63.60	0.97	-142.40	0.97	-142.40	0.06	63.60
16600	0.07	76.00	0.98	-143.30	0.98	-143.30	0.07	76.00
16650	0.08	88.40	0.98	-144.20	0.98	-144.20	0.08	88.40
16700	0.08	95.20	0.98	-144.90	0.98	-144.90	0.08	95.20
16750	0.08	102.00	0.98	-145.60	0.98	-145.60	0.08	102.00
16800	0.09	103.90	0.98	-146.30	0.98	-146.30	0.09	103.90
16850	0.09	105.80	0.99	-147.00	0.99	-147.00	0.09	105.80
16900	0.10	105.60	0.98	-147.70	0.98	-147.70	0.10	105.60
16950	0.12	105.30	0.98	-148.40	0.98	-148.40	0.12	105.30
17000	0.12	107.60	0.98	-149.20	0.98	-149.20	0.12	107.60
17050	0.13	109.90	0.98	-150.00	0.98	-150.00	0.13	109.90
17100	0.14	110.30	0.98	-150.80	0.98	-150.80	0.14	110.30
17150	0.14	110.80	0.97	-151.50	0.97	-151.50	0.14	110.80
17200	0.15	111.10	0.98	-152.10	0.98	-152.10	0.15	111.10
17250	0.15	111.40	0.98	-152.70	0.98	-152.70	0.15	111.40
17300	0.16	110.40	0.98	-153.50	0.98	-153.50	0.16	110.40
17350	0.16	109.40	0.97	-154.40	0.97	-154.40	0.16	109.40
17400	0.17	109.60	0.97	-154.90	0.97	-154.90	0.17	109.60
17450	0.17	109.80	0.97	-155.40	0.97	-155.40	0.17	109.80
17500	0.17	108.70	0.97	-156.00	0.97	-156.00	0.17	108.70
17550	0.17	107.60	0.97	-156.60	0.97	-156.60	0.17	107.60
17600	0.17	108.80	0.97	-157.30	0.97	-157.30	0.17	108.80
17650	0.17	109.90	0.97	-158.00	0.97	-158.00	0.17	109.90
17700	0.17	107.90	0.97	-158.50	0.97	-158.50	0.17	107.90
17750	0.18	105.80	0.97	-158.90	0.97	-158.90	0.18	105.80
17800	0.18	106.80	0.97	-159.70	0.97	-159.70	0.18	106.80
17850	0.17	107.80	0.97	-160.40	0.97	-160.40	0.17	107.80
17900	0.17	109.10	0.96	-161.10	0.96	-161.10	0.17	109.10
17950	0.17	110.40	0.96	-161.90	0.96	-161.90	0.17	110.40
18000	0.17	108.00	0.97	-162.30	0.97	-162.30	0.17	108.00
18050	0.16	105.50	0.97	-162.80	0.97	-162.80	0.16	105.50
18100	0.16	105.80	0.97	-163.40	0.97	-163.40	0.16	105.80
18150	0.16	106.20	0.97	-163.90	0.97	-163.90	0.16	106.20
18200	0.16	104.60	0.97	-164.60	0.97	-164.60	0.16	104.60
18250	0.15	103.10	0.97	-165.20	0.97	-165.20	0.15	103.10
18300	0.14	103.40	0.97	-165.90	0.97	-165.90	0.14	103.40
18350	0.14	103.80	0.97	-166.70	0.97	-166.70	0.14	103.80
18400	0.13	98.50	0.97	-167.40	0.97	-167.40	0.13	98.50
18450	0.12	93.20	0.97	-168.00	0.97	-168.00	0.12	93.20
18500	0.12	91.40	0.97	-168.70	0.97	-168.70	0.12	91.40
18550	0.11	89.70	0.97	-169.40	0.97	-169.40	0.11	89.70
