#	mhz	s	ma	r	50
50	0.01961	90.142	1.00517	-0.818	1.00517	-0.818	0.01961	90.142
70	0.02584	90.707	1.0027	-1.699	1.0027	-1.699	0.02584	90.707
90	0.03215	88.047	1.00073	-2.291	1.00073	-2.291	0.03215	88.047
110	0.03803	85.531	1.00027	-2.763	1.00027	-2.763	0.03803	85.531
130	0.04401	84.301	1.00095	-3.219	1.00095	-3.219	0.04401	84.301
150	0.05165	83.269	1.00098	-3.695	1.00098	-3.695	0.05165	83.269
170	0.06003	83.827	0.99541	-3.908	0.99541	-3.908	0.06003	83.827
190	0.06793	85.188	0.99425	-4.339	0.99425	-4.339	0.06793	85.188
210	0.07428	85.935	0.99458	-4.810	0.99458	-4.810	0.07428	85.935
230	0.07954	85.851	0.99506	-5.237	0.99506	-5.237	0.07954	85.851
250	0.08572	85.924	0.99592	-5.631	0.99592	-5.631	0.08572	85.924
270	0.08991	85.227	0.99456	-6.073	0.99456	-6.073	0.08991	85.227
290	0.09489	83.743	0.99262	-6.531	0.99262	-6.531	0.09489	83.743
310	0.10084	82.077	0.99229	-7.009	0.99229	-7.009	0.10084	82.077
330	0.1078	80.599	0.99375	-7.468	0.99375	-7.468	0.1078	80.599
350	0.11565	79.444	0.99516	-7.824	0.99516	-7.824	0.11565	79.444
370	0.12402	79.055	0.99204	-8.353	0.99204	-8.353	0.12402	79.055
390	0.13253	78.799	0.99097	-8.652	0.99097	-8.652	0.13253	78.799
410	0.14073	78.823	0.98941	-9.021	0.98941	-9.021	0.14073	78.823
430	0.14829	79.020	0.98634	-9.512	0.98634	-9.512	0.14829	79.02
450	0.15496	79.027	0.98232	-9.923	0.98232	-9.923	0.15496	79.027
470	0.16138	79.126	0.98286	-10.418	0.98286	-10.418	0.16138	79.126
490	0.17486	80.388	0.98714	-10.851	0.98714	-10.851	0.17486	80.388
510	0.18396	80.376	0.98705	-11.37	0.98705	-11.37	0.18396	80.376
530	0.18649	78.673	0.98119	-11.886	0.98119	-11.886	0.18649	78.673
550	0.18951	76.885	0.97493	-12.073	0.97493	-12.073	0.18951	76.885
570	0.19677	74.385	0.96899	-12.984	0.96899	-12.984	0.19677	74.385
590	0.2057	72.365	0.96392	-13.697	0.96392	-13.697	0.2057	72.365
610	0.21764	71.028	0.95977	-14.415	0.95977	-14.415	0.21764	71.028
630	0.23071	70.385	0.95807	-15.177	0.95807	-15.177	0.23071	70.385
650	0.2398	70.260	0.96186	-15.85	0.96186	-15.85	0.2398	70.26
670	0.24778	70.726	0.96733	-16.299	0.96733	-16.299	0.24778	70.726
690	0.25396	71.308	0.96679	-16.496	0.96679	-16.496	0.25396	71.308
710	0.25852	71.396	0.96419	-16.704	0.96419	-16.704	0.25852	71.396
730	0.26164	70.846	0.96033	-17.047	0.96033	-17.047	0.26164	70.846
750	0.26349	69.983	0.95288	-17.517	0.95288	-17.517	0.26349	69.983
770	0.26979	68.508	0.94649	-17.999	0.94649	-17.999	0.26979	68.508
790	0.2774	66.889	0.94279	-18.858	0.94279	-18.858	0.2774	66.889
810	0.28818	65.506	0.94181	-19.701	0.94181	-19.701	0.28818	65.506
830	0.30159	64.631	0.94277	-20.421	0.94277	-20.421	0.30159	64.631
850	0.31469	64.434	0.94415	-21.196	0.94415	-21.196	0.31469	64.434
870	0.32412	64.558	0.94696	-21.803	0.94696	-21.803	0.32412	64.558
890	0.33138	65.184	0.95213	-21.87	0.95213	-21.87	0.33138	65.184
910	0.33598	65.633	0.95396	-21.865	0.95396	-21.865	0.33598	65.633
930	0.3384	65.703	0.95025	-21.944	0.95025	-21.944	0.3384	65.703
950	0.3401	65.669	0.94226	-21.949	0.94226	-21.949	0.3401	65.669
970	0.34519	64.971	0.93884	-22.356	0.93884	-22.356	0.34519	64.971
990	0.35195	63.809	0.93247	-22.873	0.93247	-22.873	0.35195	63.809
1010	0.36027	62.885	0.92686	-23.445	0.92686	-23.445	0.36027	62.885
1030	0.36995	62.492	0.92369	-24.013	0.92369	-24.013	0.36995	62.492
1050	0.38078	62.513	0.92254	-24.508	0.92254	-24.508	0.38078	62.513
1070	0.38759	62.519	0.92248	-25.107	0.92248	-25.107	0.38759	62.519
1090	0.39194	62.698	0.92372	-25.457	0.92372	-25.457	0.39194	62.698
1110	0.39428	62.678	0.92294	-25.649	0.92294	-25.649	0.39428	62.678
1130	0.39522	62.365	0.91877	-25.807	0.91877	-25.807	0.39522	62.365
1150	0.39556	61.930	0.91183	-26.087	0.91183	-26.087	0.39556	61.93
1170	0.39917	60.623	0.90519	-26.432	0.90519	-26.432	0.39917	60.623
1190	0.40544	59.447	0.89689	-26.882	0.89689	-26.882	0.40544	59.447
1210	0.41456	58.344	0.89074	-27.48	0.89074	-27.48	0.41456	58.344
1230	0.42513	57.416	0.88667	-28.226	0.88667	-28.226	0.42513	57.416
1250	0.43416	56.915	0.88076	-29.075	0.88076	-29.075	0.43416	56.915
1270	0.44776	56.760	0.88133	-29.711	0.88133	-29.711	0.44776	56.76
1290	0.45474	56.568	0.88223	-30.577	0.88223	-30.577	0.45474	56.568
1310	0.45891	56.481	0.88109	-31.031	0.88109	-31.031	0.45891	56.481
1330	0.4625	56.345	0.87865	-31.085	0.87865	-31.085	0.4625	56.345
1350	0.4662	55.708	0.87868	-31.411	0.87868	-31.411	0.4662	55.708
1370	0.46967	54.806	0.86882	-31.687	0.86882	-31.687	0.46967	54.806
1390	0.47605	54.101	0.86149	-32.07	0.86149	-32.07	0.47605	54.101
1410	0.48568	53.215	0.85717	-32.683	0.85717	-32.683	0.48568	53.215
1430	0.49745	52.370	0.85473	-33.452	0.85473	-33.452	0.49745	52.37
1450	0.50877	52.391	0.85152	-34.104	0.85152	-34.104	0.50877	52.391
1470	0.51939	52.393	0.85274	-34.442	0.85274	-34.442	0.51939	52.393
1490	0.52715	52.530	0.85149	-35.093	0.85149	-35.093	0.52715	52.53
1510	0.53077	52.660	0.85062	-35.558	0.85062	-35.558	0.53077	52.66
1530	0.53239	52.723	0.85031	-35.74	0.85031	-35.74	0.53239	52.723
1550	0.53752	52.748	0.84807	-35.941	0.84807	-35.941	0.53752	52.748
1570	0.5394	51.963	0.84342	-36.197	0.84342	-36.197	0.5394	51.963
1590	0.54256	51.211	0.83593	-36.546	0.83593	-36.546	0.54256	51.211
1610	0.54843	50.544	0.8283	-37.045	0.8283	-37.045	0.54843	50.544
1630	0.55747	49.982	0.82275	-37.635	0.82275	-37.635	0.55747	49.982
1650	0.56919	49.512	0.82098	-38.145	0.82098	-38.145	0.56919	49.512
1670	0.57321	49.093	0.81536	-39.049	0.81536	-39.049	0.57321	49.093
1690	0.58024	49.226	0.81404	-39.501	0.81404	-39.501	0.58024	49.226
1710	0.5867	49.355	0.81484	-39.825	0.81484	-39.825	0.5867	49.355
1730	0.5909	49.192	0.81415	-40.187	0.81415	-40.187	0.5909	49.192
1750	0.5931	48.720	0.80693	-40.604	0.80693	-40.604	0.5931	48.72
1770	0.59337	48.295	0.79988	-40.549	0.79988	-40.549	0.59337	48.295
1790	0.5981	47.725	0.79536	-40.781	0.79536	-40.781	0.5981	47.725
1810	0.60376	46.961	0.78811	-41.366	0.78811	-41.366	0.60376	46.961
1830	0.60957	46.164	0.77862	-42.068	0.77862	-42.068	0.60957	46.164
1850	0.61749	45.699	0.77321	-42.349	0.77321	-42.349	0.61749	45.699
1870	0.63044	45.079	0.77138	-43.26	0.77138	-43.26	0.63044	45.079
1890	0.63444	44.815	0.76482	-43.882	0.76482	-43.882	0.63444	44.815
1910	0.63981	44.983	0.76067	-44.173	0.76067	-44.173	0.63981	44.983
1930	0.64876	45.084	0.76056	-44.343	0.76056	-44.343	0.64876	45.084
1950	0.65545	44.045	0.76063	-44.857	0.76063	-44.857	0.65545	44.045
1970	0.64824	43.704	0.75137	-45.066	0.75137	-45.066	0.64824	43.704
1990	0.6495	43.271	0.74562	-45.394	0.74562	-45.394	0.6495	43.271
2010	0.65742	42.568	0.73881	-45.751	0.73881	-45.751	0.65742	42.568
2030	0.66773	41.722	0.73043	-46.213	0.73043	-46.213	0.66773	41.722
2050	0.67366	41.161	0.72411	-47.02	0.72411	-47.02	0.67366	41.161
2070	0.67916	40.606	0.71521	-47.801	0.71521	-47.801	0.67916	40.606
2090	0.68934	40.493	0.71036	-48.277	0.71036	-48.277	0.68934	40.493
2110	0.69925	40.317	0.70912	-48.917	0.70912	-48.917	0.69925	40.317
2130	0.70569	40.005	0.70859	-49.70	0.70859	-49.70	0.70569	40.005
2150	0.70726	39.917	0.7035	-50.116	0.7035	-50.116	0.70726	39.917
2170	0.71124	39.585	0.69758	-50.198	0.69758	-50.198	0.71124	39.585
2190	0.71564	38.949	0.69432	-50.728	0.69432	-50.728	0.71564	38.949
2210	0.72078	38.424	0.68925	-51.097	0.68925	-51.097	0.72078	38.424
2230	0.72671	38.047	0.68267	-51.299	0.68267	-51.299	0.72671	38.047
2250	0.73319	37.471	0.6797	-51.929	0.6797	-51.929	0.73319	37.471
2270	0.73826	36.821	0.66646	-52.777	0.66646	-52.777	0.73826	36.821
2290	0.74441	36.681	0.66176	-53.211	0.66176	-53.211	0.74441	36.681
2310	0.75354	36.493	0.66103	-53.596	0.66103	-53.596	0.75354	36.493
2330	0.7617	36.078	0.65935	-54.098	0.65935	-54.098	0.7617	36.078
2350	0.75904	35.638	0.65138	-54.687	0.65138	-54.687	0.75904	35.638
2370	0.76304	35.892	0.64641	-54.619	0.64641	-54.619	0.76304	35.892
2390	0.76885	35.514	0.64193	-54.899	0.64193	-54.899	0.76885	35.514
2410	0.77291	34.907	0.63554	-55.36	0.63554	-55.36	0.77291	34.907
2430	0.77429	34.383	0.62651	-55.789	0.62651	-55.789	0.77429	34.383
2450	0.77474	34.163	0.61574	-55.933	0.61574	-55.933	0.77474	34.163
2470	0.78021	33.582	0.61097	-56.561	0.61097	-56.561	0.78021	33.582
2490	0.78846	32.867	0.60556	-57.224	0.60556	-57.224	0.78846	32.867
2510	0.79728	32.309	0.6006	-57.82	0.6006	-57.82	0.79728	32.309
2530	0.8041	32.027	0.59646	-58.325	0.59646	-58.325	0.8041	32.027
2550	0.8060	31.975	0.59277	-58.797	0.59277	-58.797	0.8060	31.975
2570	0.81106	31.712	0.58776	-59.208	0.58776	-59.208	0.81106	31.712
2590	0.81183	31.181	0.5772	-59.345	0.5772	-59.345	0.81183	31.181
2610	0.81205	30.612	0.56875	-59.55	0.56875	-59.55	0.81205	30.612
2630	0.81383	30.021	0.56352	-59.956	0.56352	-59.956	0.81383	30.021
2650	0.81762	29.213	0.55607	-60.49	0.55607	-60.49	0.81762	29.213
2670	0.8244	28.943	0.54765	-60.857	0.54765	-60.857	0.8244	28.943
2690	0.83467	28.288	0.5395	-61.702	0.5395	-61.702	0.83467	28.288
2710	0.84061	27.709	0.53296	-62.429	0.53296	-62.429	0.84061	27.709
2730	0.84302	27.430	0.52845	-62.899	0.52845	-62.899	0.84302	27.43
2750	0.85131	27.429	0.52541	-63.435	0.52541	-63.435	0.85131	27.429
2770	0.85323	26.88	0.51871	-63.886	0.51871	-63.886	0.85323	26.88
2790	0.85492	26.472	0.51291	-64.154	0.51291	-64.154	0.85492	26.472
2810	0.85705	26.099	0.5073	-64.383	0.5073	-64.383	0.85705	26.099
2830	0.85969	25.66	0.50089	-64.711	0.50089	-64.711	0.85969	25.66
2850	0.86238	25.052	0.49239	-65.271	0.49239	-65.271	0.86238	25.052
2870	0.86945	24.701	0.48531	-65.598	0.48531	-65.598	0.86945	24.701
2890	0.87681	24.071	0.48031	-66.167	0.48031	-66.167	0.87681	24.071
2910	0.8819	23.531	0.47497	-66.865	0.47497	-66.865	0.8819	23.531
2930	0.88427	23.233	0.46837	-67.545	0.46837	-67.545	0.88427	23.233
2950	0.88558	23.11	0.46107	-68.027	0.46107	-68.027	0.88558	23.11
2970	0.88953	22.651	0.45793	-68.248	0.45793	-68.248	0.88953	22.651
2990	0.89214	21.878	0.45205	-68.606	0.45205	-68.606	0.89214	21.878
3010	0.89293	21.338	0.44418	-68.887	0.44418	-68.887	0.89293	21.338
3030	0.89427	21.098	0.43582	-69.075	0.43582	-69.075	0.89427	21.098
3050	0.90143	20.739	0.42922	-69.355	0.42922	-69.355	0.90143	20.739
3070	0.90635	20.113	0.42225	-69.732	0.42225	-69.732	0.90635	20.113
3090	0.90325	19.63	0.41341	-70.523	0.41341	-70.523	0.90325	19.63
3110	0.90382	19.321	0.40565	-71.054	0.40565	-71.054	0.90382	19.321
3130	0.91175	19.06	0.3999	-71.342	0.3999	-71.342	0.91175	19.06
3150	0.92276	18.563	0.39505	-72.096	0.39505	-72.096	0.92276	18.563
3170	0.91913	17.63	0.38559	-72.729	0.38559	-72.729	0.91913	17.63
3190	0.9199	17.302	0.37803	-72.749	0.37803	-72.749	0.9199	17.302
3210	0.92297	16.908	0.37166	-72.843	0.37166	-72.843	0.92297	16.908
3230	0.92538	16.298	0.36484	-73.345	0.36484	-73.345	0.92538	16.298
3250	0.92326	15.844	0.35503	-74.234	0.35503	-74.234	0.92326	15.844
3270	0.92768	15.155	0.34764	-74.493	0.34764	-74.493	0.92768	15.155
3290	0.93067	14.44	0.3394	-75.099	0.3394	-75.099	0.93067	14.44
3310	0.93405	13.996	0.33197	-75.707	0.33197	-75.707	0.93405	13.996
3330	0.93941	13.72	0.32604	-76.203	0.32604	-76.203	0.93941	13.72
3350	0.94803	13.106	0.32135	-76.708	0.32135	-76.708	0.94803	13.106
3370	0.94711	12.398	0.31286	-77.262	0.31286	-77.262	0.94711	12.398
3390	0.94575	12.222	0.30383	-77.694	0.30383	-77.694	0.94575	12.222
3410	0.94809	12.07	0.29655	-77.729	0.29655	-77.729	0.94809	12.07
3430	0.95337	11.594	0.2907	-77.729	0.2907	-77.729	0.95337	11.594
3450	0.95603	10.606	0.28337	-78.703	0.28337	-78.703	0.95603	10.606
3470	0.94823	10.007	0.2736	-79.394	0.2736	-79.394	0.94823	10.007
3490	0.94886	9.785	0.26576	-79.492	0.26576	-79.492	0.94886	9.785
3510	0.95763	9.189	0.25927	-79.851	0.25927	-79.851	0.95763	9.189
3530	0.96737	8.234	0.25271	-80.65	0.25271	-80.65	0.96737	8.234
3550	0.96409	7.706	0.24383	-81.395	0.24383	-81.395	0.96409	7.706
3570	0.96972	7.879	0.23828	-81.384	0.23828	-81.384	0.96972	7.879
3590	0.97067	7.442	0.23081	-81.898	0.23081	-81.898	0.97067	7.442
3610	0.9725	6.869	0.22249	-82.255	0.22249	-82.255	0.9725	6.869
3630	0.97581	6.356	0.21442	-82.328	0.21442	-82.328	0.97581	6.356
3650	0.97634	5.816	0.20776	-82.537	0.20776	-82.537	0.97634	5.816
3670	0.97198	4.942	0.19931	-83.379	0.19931	-83.379	0.97198	4.942
3690	0.9706	4.567	0.1906	-83.459	0.1906	-83.459	0.9706	4.567
3710	0.97613	4.174	0.18274	-83.718	0.18274	-83.718	0.97613	4.174
3730	0.98403	3.529	0.17568	-84.447	0.17568	-84.447	0.98403	3.529
3750	0.98132	2.675	0.16825	-85.289	0.16825	-85.289	0.98132	2.675
3770	0.97927	2.758	0.1594	-85.1	0.1594	-85.1	0.97927	2.758
3790	0.98062	2.259	0.15204	-85.387	0.15204	-85.387	0.98062	2.259
3810	0.98103	1.753	0.14488	-85.718	0.14488	-85.718	0.98103	1.753
3830	0.98062	1.318	0.13721	-85.917	0.13721	-85.917	0.98062	1.318
3850	0.98399	0.537	0.12884	-86.068	0.12884	-86.068	0.98399	0.537
3870	0.98244	0.127	0.12066	-86.297	0.12066	-86.297	0.98244	0.127
3890	0.98714	-0.354	0.11268	-86.195	0.11268	-86.195	0.98714	-0.354
3910	0.99067	-1.016	0.10494	-86.315	0.10494	-86.315	0.99067	-1.016
3930	0.98955	-1.687	0.09718	-86.633	0.09718	-86.633	0.98955	-1.687
3950	0.98422	-1.917	0.08883	-86.551	0.08883	-86.551	0.98422	-1.917
3970	0.98643	-1.883	0.08119	-86.118	0.08119	-86.118	0.98643	-1.883
3990	0.9926	-2.642	0.07351	-86.149	0.07351	-86.149	0.9926	-2.642
4010	0.9913	-3.507	0.06566	-85.803	0.06566	-85.803	0.9913	-3.507
4030	0.98331	-4.128	0.05774	-84.816	0.05774	-84.816	0.98331	-4.128
4050	0.9816	-4.497	0.0501	-83.503	0.0501	-83.503	0.9816	-4.497
4070	0.98899	-4.986	0.04257	-81.747	0.04257	-81.747	0.98899	-4.986
4090	0.99269	-5.748	0.03527	-78.834	0.03527	-78.834	0.99269	-5.748
4110	0.99167	-6.374	0.028	-74.031	0.028	-74.031	0.99167	-6.374
4130	0.98797	-6.601	0.02099	-65.523	0.02099	-65.523	0.98797	-6.601
4150	0.98667	-6.315	0.01484	-50.416	0.01484	-50.416	0.98667	-6.315
4170	0.99259	-7.381	0.0121	-18.626	0.0121	-18.626	0.99259	-7.381
4190	0.99017	-8.005	0.01338	13.492	0.01338	13.492	0.99017	-8.005
4210	0.989	-8.297	0.01781	37.402	0.01781	37.402	0.989	-8.297
4230	0.99024	-8.608	0.02419	50.721	0.02419	50.721	0.99024	-8.608
4250	0.98652	-9.532	0.03097	57.223	0.03097	57.223	0.98652	-9.532
4270	0.98666	-10.218	0.03825	60.255	0.03825	60.255	0.98666	-10.218
4290	0.99247	-10.575	0.04586	62.833	0.04586	62.833	0.99247	-10.575
4310	0.9951	-10.783	0.05337	64.592	0.05337	64.592	0.9951	-10.783
4330	0.99218	-10.972	0.06081	65.648	0.06081	65.648	0.99218	-10.972
4350	0.98787	-11.219	0.0686	66.597	0.0686	66.597	0.98787	-11.219
4370	0.99068	-12.161	0.07612	66.58	0.07612	66.58	0.99068	-12.161
4390	0.98535	-12.792	0.0834	66.852	0.0834	66.852	0.98535	-12.792
4410	0.98259	-13.315	0.09092	67.084	0.09092	67.084	0.98259	-13.315
4430	0.98446	-13.779	0.09859	67.117	0.09859	67.117	0.98446	-13.779
4450	0.98439	-14.076	0.10575	66.963	0.10575	66.963	0.98439	-14.076
4470	0.98732	-14.337	0.11324	67.344	0.11324	67.344	0.98732	-14.337
4490	0.9906	-14.986	0.1207	66.995	0.1207	66.995	0.9906	-14.986
4510	0.98638	-15.29	0.12782	66.814	0.12782	66.814	0.98638	-15.29
4530	0.97979	-15.264	0.13506	67.013	0.13506	67.013	0.97979	-15.264
4550	0.98889	-15.668	0.14367	67.113	0.14367	67.113	0.98889	-15.668
4570	0.98376	-16.807	0.15013	65.999	0.15013	65.999	0.98376	-16.807
4590	0.97021	-17.275	0.15578	65.929	0.15578	65.929	0.97021	-17.275
4610	0.96774	-17.513	0.16287	66.034	0.16287	66.034	0.96774	-17.513
4630	0.97609	-17.96	0.17128	65.707	0.17128	65.707	0.97609	-17.96
4650	0.97528	-19.048	0.17852	64.602	0.17852	64.602	0.97528	-19.048
4670	0.97368	-19.32	0.18527	64.507	0.18527	64.507	0.97368	-19.32
4690	0.97474	-19.417	0.19301	64.335	0.19301	64.335	0.97474	-19.417
4710	0.97282	-19.652	0.2005	64.012	0.2005	64.012	0.97282	-19.652
4730	0.96841	-20.043	0.20725	63.608	0.20725	63.608	0.96841	-20.043
4750	0.96808	-20.309	0.21349	63.34	0.21349	63.34	0.96808	-20.309
4770	0.96204	-21.028	0.22125	62.862	0.22125	62.862	0.96204	-21.028
4790	0.95343	-21.643	0.22848	62.564	0.22848	62.564	0.95343	-21.643
4810	0.95408	-22.329	0.23578	62.033	0.23578	62.033	0.95408	-22.329
4830	0.9615	-22.996	0.24288	61.36	0.24288	61.36	0.9615	-22.996
4850	0.95891	-23.287	0.24867	61.133	0.24867	61.133	0.95891	-23.287
4870	0.96305	-23.407	0.25746	60.749	0.25746	60.749	0.96305	-23.407
4890	0.95803	-23.8	0.26347	60.335	0.26347	60.335	0.95803	-23.8
4910	0.95026	-23.836	0.2702	60.042	0.2702	60.042	0.95026	-23.836
4930	0.94594	-23.809	0.27847	59.688	0.27847	59.688	0.94594	-23.809
4950	0.95101	-24.943	0.28637	58.758	0.28637	58.758	0.95101	-24.943
4970	0.93358	-25.97	0.28892	58.276	0.28892	58.276	0.93358	-25.97
4990	0.93769	-25.996	0.29633	58.46	0.29633	58.46	0.93769	-25.996
5010	0.94293	-26.479	0.30465	58.144	0.30465	58.144	0.94293	-26.479
5030	0.93982	-27.457	0.31116	57.262	0.31116	57.262	0.93982	-27.457
5050	0.92976	-27.553	0.31444	56.843	0.31444	56.843	0.92976	-27.553
5070	0.93171	-27.064	0.32363	57.019	0.32363	57.019	0.93171	-27.064
5090	0.93594	-27.175	0.33142	56.498	0.33142	56.498	0.93594	-27.175
5110	0.93105	-27.92	0.33726	55.755	0.33726	55.755	0.93105	-27.92
5130	0.91786	-28.85	0.34194	55.238	0.34194	55.238	0.91786	-28.85
5150	0.90938	-29.034	0.3475	55.36	0.3475	55.36	0.90938	-29.034
5170	0.92152	-29.803	0.3589	54.715	0.3589	54.715	0.92152	-29.803
5190	0.91922	-30.971	0.36328	53.741	0.36328	53.741	0.91922	-30.971
5210	0.91401	-31.373	0.36643	53.221	0.36643	53.221	0.91401	-31.373
5230	0.91373	-30.985	0.37235	53.219	0.37235	53.219	0.91373	-30.985
5250	0.92255	-30.912	0.38329	53.078	0.38329	53.078	0.92255	-30.912
5270	0.91123	-31.903	0.38593	51.962	0.38593	51.962	0.91123	-31.903
5290	0.89583	-32.009	0.38946	51.77	0.38946	51.77	0.89583	-32.009
5310	0.8914	-32.072	0.39637	51.724	0.39637	51.724	0.8914	-32.072
5330	0.89578	-32.707	0.40473	51.215	0.40473	51.215	0.89578	-32.707
5350	0.8895	-34.302	0.40815	49.798	0.40815	49.798	0.8895	-34.302
5370	0.88013	-34.287	0.41272	49.862	0.41272	49.862	0.88013	-34.287
5390	0.88623	-34.514	0.42087	49.548	0.42087	49.548	0.88623	-34.514
5410	0.89019	-34.99	0.42692	48.829	0.42692	48.829	0.89019	-34.99
5430	0.88579	-35.463	0.4307	48.131	0.4307	48.131	0.88579	-35.463
5450	0.8781	-35.417	0.43754	48.325	0.43754	48.325	0.8781	-35.417
5470	0.87523	-35.693	0.44303	47.64	0.44303	47.64	0.87523	-35.693
5490	0.86614	-36.311	0.44564	47.118	0.44564	47.118	0.86614	-36.311
5510	0.86039	-36.735	0.45154	46.642	0.45154	46.642	0.86039	-36.735
5530	0.85887	-37.11	0.46004	46.093	0.46004	46.093	0.85887	-37.11
5550	0.85373	-38.255	0.46355	45.349	0.46355	45.349	0.85373	-38.255
5570	0.85045	-38.312	0.46758	45.059	0.46758	45.059	0.85045	-38.312
5590	0.84948	-38.561	0.47393	44.628	0.47393	44.628	0.84948	-38.561
5610	0.84787	-39.044	0.47992	44.046	0.47992	44.046	0.84787	-39.044
5630	0.84442	-39.596	0.48436	43.451	0.48436	43.451	0.84442	-39.596
5650	0.83976	-39.849	0.4875	43.125	0.4875	43.125	0.83976	-39.849
5670	0.83917	-40.065	0.49328	42.867	0.49328	42.867	0.83917	-40.065
5690	0.83825	-40.501	0.49951	42.298	0.49951	42.298	0.83825	-40.501
5710	0.83529	-40.9	0.50359	41.725	0.50359	41.725	0.83529	-40.9
5730	0.82857	-41.203	0.5045	41.368	0.5045	41.368	0.82857	-41.203
5750	0.81631	-41.551	0.50288	41.356	0.50288	41.356	0.81631	-41.551
5770	0.81859	-41.535	0.51203	40.81	0.51203	40.81	0.81859	-41.535
5790	0.81792	-41.972	0.51967	40.441	0.51967	40.441	0.81792	-41.972
5810	0.81105	-42.469	0.52338	39.894	0.52338	39.894	0.81105	-42.469
5830	0.8003	-42.83	0.5246	39.278	0.5246	39.278	0.8003	-42.83
5850	0.7936	-43.057	0.52856	39.163	0.52856	39.163	0.7936	-43.057
5870	0.7974	-43.422	0.53475	38.591	0.53475	38.591	0.7974	-43.422
5890	0.7964	-44.156	0.53896	37.804	0.53896	37.804	0.7964	-44.156
5910	0.79084	-44.734	0.54071	37.154	0.54071	37.154	0.79084	-44.734
5930	0.78432	-44.889	0.54226	36.723	0.54226	36.723	0.78432	-44.889
5950	0.78382	-44.609	0.54867	36.325	0.54867	36.325	0.78382	-44.609
5970	0.78206	-45.409	0.55382	35.923	0.55382	35.923	0.78206	-45.409
5990	0.77269	-46.246	0.55692	35.469	0.55692	35.469	0.77269	-46.246
6010	0.76807	-46.75	0.55935	34.979	0.55935	34.979	0.76807	-46.75
6030	0.76871	-46.933	0.56305	34.492	0.56305	34.492	0.76871	-46.933
6050	0.76328	-47.195	0.57046	34.082	0.57046	34.082	0.76328	-47.195
6070	0.75797	-47.47	0.57181	33.828	0.57181	33.828	0.75797	-47.47
6090	0.75453	-47.931	0.57417	33.169	0.57417	33.169	0.75453	-47.931
