# MHZ S MA R 50

50	0.96	176.50	0.05	80.60	0.05	80.60	0.96	176.50
100	0.98	173.50	0.10	79.10	0.10	79.10	0.98	173.50
150	0.99	170.40	0.15	77.60	0.15	77.60	0.99	170.40
200	0.98	167.80	0.19	75.40	0.19	75.40	0.98	167.80
250	0.96	165.10	0.23	73.10	0.23	73.10	0.96	165.10
300	0.95	162.00	0.28	70.10	0.28	70.10	0.95	162.00
350	0.94	158.90	0.32	67.10	0.32	67.10	0.94	158.90
400	0.92	156.60	0.36	64.80	0.36	64.80	0.92	156.60
450	0.90	154.20	0.40	62.50	0.40	62.50	0.90	154.20
500	0.88	149.70	0.45	58.90	0.45	58.90	0.88	149.70
550	0.86	145.30	0.51	55.40	0.51	55.40	0.86	145.30
600	0.84	143.10	0.54	52.90	0.54	52.90	0.84	143.10
650	0.82	140.90	0.56	50.30	0.56	50.30	0.82	140.90
700	0.80	138.30	0.59	48.20	0.59	48.20	0.80	138.30
750	0.78	135.70	0.62	46.00	0.62	46.00	0.78	135.70
800	0.76	133.80	0.64	43.70	0.64	43.70	0.76	133.80
850	0.74	131.90	0.67	41.40	0.67	41.40	0.74	131.90
900	0.72	129.80	0.69	39.30	0.69	39.30	0.72	129.80
950	0.69	127.70	0.71	37.30	0.71	37.30	0.69	127.70
1000	0.68	125.90	0.72	35.30	0.72	35.30	0.68	125.90
1050	0.65	124.00	0.74	33.30	0.74	33.30	0.65	124.00
1100	0.64	121.90	0.76	31.60	0.76	31.60	0.64	121.90
1150	0.62	119.70	0.78	29.90	0.78	29.90	0.62	119.70
1200	0.60	118.10	0.79	28.20	0.79	28.20	0.60	118.10
1250	0.58	116.50	0.80	26.50	0.80	26.50	0.58	116.50
1300	0.57	114.50	0.81	25.00	0.81	25.00	0.57	114.50
1350	0.56	112.50	0.82	23.50	0.82	23.50	0.56	112.50
1400	0.54	111.10	0.83	22.00	0.83	22.00	0.54	111.10
1450	0.52	109.70	0.84	20.50	0.84	20.50	0.52	109.70
1500	0.51	108.10	0.85	19.10	0.85	19.10	0.51	108.10
1550	0.50	106.40	0.86	17.70	0.86	17.70	0.50	106.40
1600	0.49	104.80	0.86	16.40	0.86	16.40	0.49	104.80
1650	0.47	103.20	0.87	15.10	0.87	15.10	0.47	103.20
1700	0.46	102.00	0.88	13.80	0.88	13.80	0.46	102.00
1750	0.45	100.70	0.88	12.50	0.88	12.50	0.45	100.70
1800	0.44	99.60	0.89	11.50	0.89	11.50	0.44	99.60
1850	0.43	98.40	0.89	10.60	0.89	10.60	0.43	98.40
1900	0.42	97.20	0.90	9.40	0.90	9.40	0.42	97.20
1950	0.41	95.90	0.90	8.30	0.90	8.30	0.41	95.90
2000	0.40	94.90	0.91	7.20	0.91	7.20	0.40	94.90
2050	0.39	93.90	0.91	6.00	0.91	6.00	0.39	93.90
2100	0.38	93.20	0.92	5.10	0.92	5.10	0.38	93.20
2150	0.37	92.50	0.92	4.10	0.92	4.10	0.37	92.50
2200	0.36	91.70	0.93	3.10	0.93	3.10	0.36	91.70
2250	0.35	90.80	0.93	2.00	0.93	2.00	0.35	90.80
2300	0.34	90.30	0.93	1.20	0.93	1.20	0.34	90.30
2350	0.32	89.80	0.94	0.30	0.94	0.30	0.32	89.80
2400	0.32	89.30	0.94	-0.70	0.94	-0.70	0.32	89.30
2450	0.31	88.90	0.94	-1.60	0.94	-1.60	0.31	88.90
2500	0.30	88.40	0.95	-2.70	0.95	-2.70	0.30	88.40
2550	0.29	88.00	0.95	-3.70	0.95	-3.70	0.29	88.00
2600	0.28	87.80	0.95	-4.50	0.95	-4.50	0.28	87.80
2650	0.27	87.70	0.96	-5.40	0.96	-5.40	0.27	87.70
2700	0.25	87.50	0.96	-6.30	0.96	-6.30	0.25	87.50
2750	0.25	87.20	0.96	-7.10	0.96	-7.10	0.25	87.20
2800	0.23	87.00	0.96	-8.00	0.96	-8.00	0.23	87.00
2850	0.22	86.80	0.97	-8.80	0.97	-8.80	0.22	86.80
2900	0.21	86.70	0.97	-10.00	0.97	-10.00	0.21	86.70
2950	0.21	86.70	0.97	-11.10	0.97	-11.10	0.21	86.70
3000	0.19	86.10	0.97	-11.90	0.97	-11.90	0.19	86.10
3050	0.19	85.60	0.97	-12.60	0.97	-12.60	0.19	85.60
3100	0.18	85.50	0.97	-13.70	0.97	-13.70	0.18	85.50
3150	0.17	85.40	0.97	-14.70	0.97	-14.70	0.17	85.40
3200	0.16	84.40	0.97	-15.40	0.97	-15.40	0.16	84.40
3250	0.16	83.30	0.98	-16.00	0.98	-16.00	0.16	83.30
3300	0.15	84.00	0.98	-17.00	0.98	-17.00	0.15	84.00
3350	0.14	84.80	0.98	-17.90	0.98	-17.90	0.14	84.80
3400	0.14	83.60	0.98	-18.70	0.98	-18.70	0.14	83.60
3450	0.14	82.50	0.98	-19.40	0.98	-19.40	0.14	82.50
3500	0.13	82.60	0.98	-20.10	0.98	-20.10	0.13	82.60
3550	0.13	82.70	0.98	-20.90	0.98	-20.90	0.13	82.70
3600	0.13	83.20	0.98	-21.60	0.98	-21.60	0.13	83.20
3650	0.12	83.80	0.99	-22.30	0.99	-22.30	0.12	83.80
3700	0.12	82.50	0.99	-23.20	0.99	-23.20	0.12	82.50
3750	0.12	81.30	0.98	-24.00	0.98	-24.00	0.12	81.30
3800	0.11	81.80	0.98	-24.70	0.98	-24.70	0.11	81.80
3850	0.11	82.40	0.98	-25.30	0.98	-25.30	0.11	82.40
3900	0.11	82.10	0.99	-26.20	0.99	-26.20	0.11	82.10
3950	0.11	81.80	0.99	-27.10	0.99	-27.10	0.11	81.80
4000	0.10	82.20	0.99	-27.70	0.99	-27.70	0.10	82.20
4050	0.10	82.60	0.99	-28.40	0.99	-28.40	0.10	82.60
4100	0.10	82.40	0.99	-29.10	0.99	-29.10	0.10	82.40
4150	0.09	82.20	0.99	-29.90	0.99	-29.90	0.09	82.20
4200	0.09	82.70	0.99	-30.60	0.99	-30.60	0.09	82.70
4250	0.09	83.30	0.99	-31.30	0.99	-31.30	0.09	83.30
4300	0.08	83.60	0.99	-31.90	0.99	-31.90	0.08	83.60
4350	0.08	84.00	0.99	-32.50	0.99	-32.50	0.08	84.00
4400	0.07	86.50	0.99	-33.30	0.99	-33.30	0.07	86.50
4450	0.06	89.10	0.99	-34.10	0.99	-34.10	0.06	89.10
4500	0.06	89.60	0.99	-34.90	0.99	-34.90	0.06	89.60
4550	0.05	90.10	0.99	-35.80	0.99	-35.80	0.05	90.10
4600	0.05	95.80	0.99	-36.60	0.99	-36.60	0.05	95.80
4650	0.04	101.40	0.99	-37.40	0.99	-37.40	0.04	101.40
4700	0.03	110.00	0.99	-38.10	0.99	-38.10	0.03	110.00
4750	0.03	118.60	0.99	-38.80	0.99	-38.80	0.03	118.60
4800	0.02	137.90	0.99	-39.60	0.99	-39.60	0.02	137.90
4850	0.02	157.20	0.99	-40.30	0.99	-40.30	0.02	157.20
4900	0.02	-5.40	0.99	-41.10	0.99	-41.10	0.02	-5.40
4950	0.03	-168.10	0.99	-41.80	0.99	-41.80	0.03	-168.10
5000	0.03	-159.70	0.99	-42.60	0.99	-42.60	0.03	-159.70
5050	0.04	-151.30	0.99	-43.40	0.99	-43.40	0.04	-151.30
5100	0.04	-147.10	0.99	-44.10	0.99	-44.10	0.04	-147.10
5150	0.05	-142.90	0.99	-44.80	0.99	-44.80	0.05	-142.90
5200	0.05	-143.10	0.99	-45.40	0.99	-45.40	0.05	-143.10
5250	0.06	-143.20	0.99	-46.00	0.99	-46.00	0.06	-143.20
5300	0.06	-142.90	0.99	-46.80	0.99	-46.80	0.06	-142.90
5350	0.06	-142.50	0.99	-47.70	0.99	-47.70	0.06	-142.50
5400	0.07	-143.20	0.99	-48.40	0.99	-48.40	0.07	-143.20
5450	0.07	-143.90	0.99	-49.20	0.99	-49.20	0.07	-143.90
5500	0.07	-146.70	0.99	-49.90	0.99	-49.90	0.07	-146.70
5550	0.08	-149.40	0.99	-50.60	0.99	-50.60	0.08	-149.40
5600	0.08	-150.90	0.99	-51.30	0.99	-51.30	0.08	-150.90
5650	0.08	-152.50	0.99	-52.10	0.99	-52.10	0.08	-152.50
5700	0.09	-156.20	0.99	-52.80	0.99	-52.80	0.09	-156.20
5750	0.09	-160.00	0.99	-53.60	0.99	-53.60	0.09	-160.00
5800	0.09	-162.20	0.99	-54.30	0.99	-54.30	0.09	-162.20
5850	0.09	-164.50	0.98	-55.00	0.98	-55.00	0.09	-164.50
5900	0.10	-168.40	0.98	-55.70	0.98	-55.70	0.10	-168.40
5950	0.11	-172.20	0.98	-56.30	0.98	-56.30	0.11	-172.20
6000	0.12	-170.70	0.98	-57.20	0.98	-57.20	0.12	-170.70
6050	0.14	-169.10	0.98	-58.10	0.98	-58.10	0.14	-169.10
6100	0.15	-171.30	0.98	-58.70	0.98	-58.70	0.15	-171.30
6150	0.15	-173.60	0.98	-59.20	0.98	-59.20	0.15	-173.60
6200	0.16	3.10	0.98	-60.00	0.98	-60.00	0.16	3.10
6250	0.17	179.80	0.97	-60.80	0.97	-60.80	0.17	179.80
6300	0.18	178.90	0.97	-61.40	0.97	-61.40	0.18	178.90
6350	0.19	178.00	0.97	-62.10	0.97	-62.10	0.19	178.00
6400	0.20	176.90	0.96	-62.80	0.96	-62.80	0.20	176.90
6450	0.21	175.90	0.96	-63.50	0.96	-63.50	0.21	175.90
6500	0.22	175.20	0.96	-64.20	0.96	-64.20	0.22	175.20
6550	0.23	174.60	0.95	-64.90	0.95	-64.90	0.23	174.60
6600	0.24	173.90	0.95	-65.60	0.95	-65.60	0.24	173.90
6650	0.25	173.20	0.95	-66.20	0.95	-66.20	0.25	173.20
6700	0.25	173.30	0.95	-66.70	0.95	-66.70	0.25	173.30
6750	0.26	173.40	0.95	-67.10	0.95	-67.10	0.26	173.40
6800	0.27	172.40	0.95	-67.80	0.95	-67.80	0.27	172.40
6850	0.27	171.40	0.95	-68.50	0.95	-68.50	0.27	171.40
6900	0.27	171.40	0.94	-69.10	0.94	-69.10	0.27	171.40
6950	0.28	171.40	0.94	-69.70	0.94	-69.70	0.28	171.40
7000	0.28	170.40	0.94	-70.40	0.94	-70.40	0.28	170.40
7050	0.29	169.40	0.94	-71.10	0.94	-71.10	0.29	169.40
7100	0.29	168.90	0.94	-71.70	0.94	-71.70	0.29	168.90
7150	0.28	168.40	0.94	-72.20	0.94	-72.20	0.28	168.40
7200	0.29	167.90	0.94	-73.00	0.94	-73.00	0.29	167.90
7250	0.30	167.40	0.95	-73.80	0.95	-73.80	0.30	167.40
7300	0.29	165.80	0.94	-74.50	0.94	-74.50	0.29	165.80
7350	0.29	164.30	0.94	-75.10	0.94	-75.10	0.29	164.30
7400	0.29	163.90	0.94	-75.90	0.94	-75.90	0.29	163.90
7450	0.29	163.50	0.94	-76.60	0.94	-76.60	0.29	163.50
7500	0.29	161.40	0.94	-77.40	0.94	-77.40	0.29	161.40
7550	0.29	159.20	0.94	-78.30	0.94	-78.30	0.29	159.20
7600	0.28	158.50	0.94	-79.00	0.94	-79.00	0.28	158.50
7650	0.28	157.70	0.94	-79.70	0.94	-79.70	0.28	157.70
7700	0.28	155.90	0.94	-80.60	0.94	-80.60	0.28	155.90
7750	0.28	154.10	0.94	-81.40	0.94	-81.40	0.28	154.10
7800	0.28	151.70	0.94	-82.40	0.94	-82.40	0.28	151.70
7850	0.28	149.30	0.94	-83.30	0.94	-83.30	0.28	149.30
7900	0.28	148.60	0.94	-84.20	0.94	-84.20	0.28	148.60
7950	0.29	147.80	0.94	-85.00	0.94	-85.00	0.29	147.80
8000	0.29	145.60	0.93	-86.00	0.93	-86.00	0.29	145.60
8050	0.30	143.40	0.93	-86.90	0.93	-86.90	0.30	143.40
8100	0.30	142.40	0.93	-87.90	0.93	-87.90	0.30	142.40
8150	0.31	141.50	0.93	-88.90	0.93	-88.90	0.31	141.50
8200	0.32	140.80	0.92	-89.80	0.92	-89.80	0.32	140.80
8250	0.33	140.10	0.92	-90.70	0.92	-90.70	0.33	140.10
8300	0.33	139.80	0.92	-91.70	0.92	-91.70	0.33	139.80
8350	0.34	139.50	0.92	-92.60	0.92	-92.60	0.34	139.50
8400	0.35	139.40	0.91	-93.60	0.91	-93.60	0.35	139.40
8450	0.37	139.30	0.90	-94.50	0.90	-94.50	0.37	139.30
8500	0.37	139.70	0.90	-95.50	0.90	-95.50	0.37	139.70
8550	0.38	140.00	0.90	-96.50	0.90	-96.50	0.38	140.00
8600	0.39	139.90	0.89	-97.40	0.89	-97.40	0.39	139.90
8650	0.40	139.80	0.89	-98.30	0.89	-98.30	0.40	139.80
8700	0.41	140.50	0.88	-99.20	0.88	-99.20	0.41	140.50
8750	0.42	141.20	0.88	-100.10	0.88	-100.10	0.42	141.20
8800	0.43	140.90	0.87	-100.80	0.87	-100.80	0.43	140.90
8850	0.44	140.60	0.87	-101.40	0.87	-101.40	0.44	140.60
8900	0.44	141.10	0.86	-102.50	0.86	-102.50	0.44	141.10
8950	0.45	141.50	0.86	-103.70	0.86	-103.70	0.45	141.50
9000	0.46	141.80	0.85	-104.60	0.85	-104.60	0.46	141.80
9050	0.47	142.10	0.85	-105.50	0.85	-105.50	0.47	142.10
9100	0.48	141.90	0.85	-106.50	0.85	-106.50	0.48	141.90
9150	0.49	141.70	0.85	-107.50	0.85	-107.50	0.49	141.70
9200	0.49	140.70	0.84	-109.00	0.84	-109.00	0.49	140.70
9250	0.50	139.70	0.83	-110.60	0.83	-110.60	0.50	139.70
9300	0.50	139.70	0.82	-111.40	0.82	-111.40	0.50	139.70
9350	0.50	139.70	0.81	-112.30	0.81	-112.30	0.50	139.70
9400	0.51	138.40	0.81	-113.70	0.81	-113.70	0.51	138.40
9450	0.52	137.10	0.80	-115.10	0.80	-115.10	0.52	137.10
9500	0.52	135.80	0.79	-116.50	0.79	-116.50	0.52	135.80
9550	0.52	134.40	0.77	-117.90	0.77	-117.90	0.52	134.40
9600	0.53	132.80	0.76	-119.30	0.76	-119.30	0.53	132.80
9650	0.55	131.20	0.75	-120.70	0.75	-120.70	0.55	131.20
9700	0.55	129.20	0.74	-122.10	0.74	-122.10	0.55	129.20
9750	0.55	127.30	0.72	-123.60	0.72	-123.60	0.55	127.30
9800	0.56	126.20	0.70	-124.80	0.70	-124.80	0.56	126.20
9850	0.57	125.10	0.69	-126.00	0.69	-126.00	0.57	125.10
9900	0.59	122.80	0.67	-127.40	0.67	-127.40	0.59	122.80
9950	0.61	120.40	0.66	-128.90	0.66	-128.90	0.61	120.40
10000	0.62	118.70	0.63	-130.30	0.63	-130.30	0.62	118.70
10050	0.63	116.90	0.61	-131.80	0.61	-131.80	0.63	116.90
10100	0.65	115.60	0.59	-132.70	0.59	-132.70	0.65	115.60
10150	0.68	114.40	0.57	-133.70	0.57	-133.70	0.68	114.40
10200	0.69	112.50	0.55	-135.00	0.55	-135.00	0.69	112.50
10250	0.70	110.60	0.52	-136.30	0.52	-136.30	0.70	110.60
10300	0.72	109.00	0.49	-137.10	0.49	-137.10	0.72	109.00
10350	0.75	107.30	0.46	-137.90	0.46	-137.90	0.75	107.30
10400	0.75	105.80	0.44	-137.80	0.44	-137.80	0.75	105.80
10450	0.75	104.30	0.41	-137.70	0.41	-137.70	0.75	104.30
10500	0.76	102.70	0.39	-137.30	0.39	-137.30	0.76	102.70
10550	0.77	101.10	0.37	-136.90	0.37	-136.90	0.77	101.10
10600	0.77	99.90	0.35	-134.80	0.35	-134.80	0.77	99.90
10650	0.77	98.60	0.33	-132.80	0.33	-132.80	0.77	98.60
10700	0.78	98.30	0.32	-133.20	0.32	-133.20	0.78	98.30
10750	0.79	97.90	0.31	-133.70	0.31	-133.70	0.79	97.90
10800	0.81	97.20	0.29	-134.00	0.29	-134.00	0.81	97.20
10850	0.83	96.40	0.27	-134.30	0.27	-134.30	0.83	96.40
10900	0.83	93.70	0.24	-133.10	0.24	-133.10	0.83	93.70
10950	0.84	90.90	0.20	-131.90	0.20	-131.90	0.84	90.90
11000	0.85	87.90	0.18	-126.00	0.18	-126.00	0.85	87.90
11050	0.87	84.90	0.15	-120.00	0.15	-120.00	0.87	84.90
11100	0.86	80.80	0.14	-104.30	0.14	-104.30	0.86	80.80
11150	0.86	76.70	0.13	-88.60	0.13	-88.60	0.86	76.70
11200	0.85	72.20	0.15	-76.20	0.15	-76.20	0.85	72.20
11250	0.84	67.80	0.17	-63.80	0.17	-63.80	0.84	67.80
11300	0.82	63.10	0.20	-59.00	0.20	-59.00	0.82	63.10
11350	0.81	58.50	0.24	-54.20	0.24	-54.20	0.81	58.50
11400	0.79	53.90	0.27	-53.50	0.27	-53.50	0.79	53.90
11450	0.76	49.30	0.30	-52.90	0.30	-52.90	0.76	49.30
11500	0.75	45.00	0.34	-53.40	0.34	-53.40	0.75	45.00
11550	0.74	40.60	0.37	-53.90	0.37	-53.90	0.74	40.60
11600	0.73	37.00	0.40	-55.00	0.40	-55.00	0.73	37.00
11650	0.71	33.40	0.43	-56.20	0.43	-56.20	0.71	33.40
11700	0.70	30.10	0.46	-57.60	0.46	-57.60	0.70	30.10
11750	0.68	26.70	0.48	-59.00	0.48	-59.00	0.68	26.70
11800	0.68	24.80	0.51	-60.00	0.51	-60.00	0.68	24.80
11850	0.67	22.80	0.53	-61.00	0.53	-61.00	0.67	22.80
11900	0.65	21.30	0.55	-62.40	0.55	-62.40	0.65	21.30
11950	0.63	19.80	0.57	-63.80	0.57	-63.80	0.63	19.80
12000	0.63	18.00	0.60	-64.90	0.60	-64.90	0.63	18.00
12050	0.63	16.30	0.62	-66.00	0.62	-66.00	0.63	16.30
12100	0.62	15.40	0.64	-67.40	0.64	-67.40	0.62	15.40
12150	0.60	14.50	0.65	-68.90	0.65	-68.90	0.60	14.50
12200	0.59	13.70	0.68	-70.10	0.68	-70.10	0.59	13.70
12250	0.58	12.90	0.70	-71.30	0.70	-71.30	0.58	12.90
12300	0.57	13.50	0.71	-72.40	0.71	-72.40	0.57	13.50
12350	0.55	14.10	0.73	-73.50	0.73	-73.50	0.55	14.10
12400	0.54	13.10	0.75	-75.30	0.75	-75.30	0.54	13.10
12450	0.53	12.20	0.77	-77.20	0.77	-77.20	0.53	12.20
12500	0.51	13.10	0.78	-78.50	0.78	-78.50	0.51	13.10
12550	0.50	14.00	0.80	-79.70	0.80	-79.70	0.50	14.00
12600	0.48	14.20	0.81	-81.40	0.81	-81.40	0.48	14.20
12650	0.46	14.30	0.82	-83.10	0.82	-83.10	0.46	14.30
12700	0.44	14.40	0.83	-84.70	0.83	-84.70	0.44	14.40
12750	0.43	14.50	0.85	-86.40	0.85	-86.40	0.43	14.50
12800	0.40	15.00	0.85	-88.00	0.85	-88.00	0.40	15.00
12850	0.38	15.50	0.86	-89.70	0.86	-89.70	0.38	15.50
12900	0.36	15.20	0.86	-91.40	0.86	-91.40	0.36	15.20
12950	0.34	14.80	0.87	-93.00	0.87	-93.00	0.34	14.80
13000	0.32	14.60	0.87	-94.50	0.87	-94.50	0.32	14.60
13050	0.30	14.30	0.87	-95.90	0.87	-95.90	0.30	14.30
13100	0.27	12.70	0.87	-97.30	0.87	-97.30	0.27	12.70
13150	0.25	11.10	0.87	-98.80	0.87	-98.80	0.25	11.10
13200	0.24	9.60	0.87	-99.90	0.87	-99.90	0.24	9.60
13250	0.22	8.20	0.86	-100.90	0.86	-100.90	0.22	8.20
13300	0.20	6.10	0.86	-102.40	0.86	-102.40	0.20	6.10
13350	0.18	4.00	0.85	-103.80	0.85	-103.80	0.18	4.00
13400	0.17	-0.60	0.85	-104.80	0.85	-104.80	0.17	-0.60
13450	0.17	-5.20	0.84	-105.80	0.84	-105.80	0.17	-5.20
13500	0.17	-10.60	0.83	-106.50	0.83	-106.50	0.17	-10.60
13550	0.17	-16.00	0.83	-107.20	0.83	-107.20	0.17	-16.00
13600	0.17	-21.40	0.82	-107.80	0.82	-107.80	0.17	-21.40
13650	0.17	-26.80	0.82	-108.40	0.82	-108.40	0.17	-26.80
13700	0.18	-29.60	0.81	-108.70	0.81	-108.70	0.18	-29.60
13750	0.20	-32.30	0.81	-109.00	0.81	-109.00	0.20	-32.30
13800	0.21	-36.00	0.81	-109.10	0.81	-109.10	0.21	-36.00
13850	0.21	-39.80	0.80	-109.30	0.80	-109.30	0.21	-39.80
13900	0.23	-39.90	0.81	-109.40	0.81	-109.40	0.23	-39.90
13950	0.25	-39.90	0.81	-109.50	0.81	-109.50	0.25	-39.90
14000	0.26	-40.90	0.82	-109.80	0.82	-109.80	0.26	-40.90
14050	0.28	-41.80	0.82	-110.00	0.82	-110.00	0.28	-41.80
14100	0.28	-41.60	0.83	-110.40	0.83	-110.40	0.28	-41.60
14150	0.29	-41.50	0.83	-110.80	0.83	-110.80	0.29	-41.50
14200	0.31	-40.80	0.84	-111.40	0.84	-111.40	0.31	-40.80
14250	0.32	-40.00	0.85	-112.10	0.85	-112.10	0.32	-40.00
14300	0.32	-39.50	0.85	-112.70	0.85	-112.70	0.32	-39.50
14350	0.31	-38.90	0.86	-113.40	0.86	-113.40	0.31	-38.90
14400	0.32	-38.00	0.87	-114.30	0.87	-114.30	0.32	-38.00
14450	0.33	-37.10	0.87	-115.20	0.87	-115.20	0.33	-37.10
14500	0.32	-36.10	0.88	-115.80	0.88	-115.80	0.32	-36.10
14550	0.31	-35.10	0.88	-116.40	0.88	-116.40	0.31	-35.10
14600	0.31	-33.50	0.88	-117.30	0.88	-117.30	0.31	-33.50
14650	0.30	-31.90	0.89	-118.10	0.89	-118.10	0.30	-31.90
14700	0.29	-31.50	0.89	-118.90	0.89	-118.90	0.29	-31.50
14750	0.28	-31.10	0.90	-119.70	0.90	-119.70	0.28	-31.10
14800	0.27	-29.00	0.90	-120.60	0.90	-120.60	0.27	-29.00
14850	0.26	-27.00	0.90	-121.40	0.90	-121.40	0.26	-27.00
14900	0.24	-26.10	0.90	-122.00	0.90	-122.00	0.24	-26.10
14950	0.22	-25.20	0.91	-122.60	0.91	-122.60	0.22	-25.20
15000	0.21	-24.80	0.91	-123.50	0.91	-123.50	0.21	-24.80
15050	0.20	-24.30	0.91	-124.40	0.91	-124.40	0.20	-24.30
15100	0.19	-24.70	0.91	-124.90	0.91	-124.90	0.19	-24.70
15150	0.18	-25.10	0.92	-125.40	0.92	-125.40	0.18	-25.10
15200	0.17	-24.90	0.92	-126.00	0.92	-126.00	0.17	-24.90
15250	0.16	-24.80	0.92	-126.60	0.92	-126.60	0.16	-24.80
15300	0.16	-28.70	0.92	-127.50	0.92	-127.50	0.16	-28.70
15350	0.15	-32.50	0.92	-128.30	0.92	-128.30	0.15	-32.50
15400	0.15	-33.80	0.92	-128.80	0.92	-128.80	0.15	-33.80
15450	0.14	-35.10	0.92	-129.30	0.92	-129.30	0.14	-35.10
15500	0.15	-37.90	0.92	-129.80	0.92	-129.80	0.15	-37.90
15550	0.16	-40.60	0.92	-130.40	0.92	-130.40	0.16	-40.60
15600	0.16	-45.20	0.92	-130.70	0.92	-130.70	0.16	-45.20
15650	0.16	-49.90	0.92	-131.10	0.92	-131.10	0.16	-49.90
15700	0.17	-49.80	0.92	-131.70	0.92	-131.70	0.17	-49.80
15750	0.18	-49.70	0.92	-132.20	0.92	-132.20	0.18	-49.70
15800	0.18	-55.00	0.92	-132.60	0.92	-132.60	0.18	-55.00
15850	0.17	-60.30	0.93	-133.00	0.93	-133.00	0.17	-60.30
15900	0.18	-58.60	0.93	-133.60	0.93	-133.60	0.18	-58.60
15950	0.18	-56.90	0.93	-134.20	0.93	-134.20	0.18	-56.90
16000	0.17	-60.40	0.93	-134.80	0.93	-134.80	0.17	-60.40
16050	0.17	-64.00	0.94	-135.40	0.94	-135.40	0.17	-64.00
16100	0.15	-66.00	0.94	-136.30	0.94	-136.30	0.15	-66.00
16150	0.14	-68.00	0.93	-137.20	0.93	-137.20	0.14	-68.00
16200	0.13	-69.10	0.94	-137.90	0.94	-137.90	0.13	-69.10
16250	0.13	-70.10	0.94	-138.60	0.94	-138.60	0.13	-70.10
16300	0.11	-77.00	0.94	-139.50	0.94	-139.50	0.11	-77.00
16350	0.09	-83.80	0.94	-140.30	0.94	-140.30	0.09	-83.80
16400	0.08	-86.70	0.93	-140.90	0.93	-140.90	0.08	-86.70
16450	0.07	-89.60	0.93	-141.50	0.93	-141.50	0.07	-89.60
16500	0.07	-104.40	0.93	-142.00	0.93	-142.00	0.07	-104.40
16550	0.07	-119.20	0.92	-142.60	0.92	-142.60	0.07	-119.20
16600	0.06	-137.70	0.93	-143.40	0.93	-143.40	0.06	-137.70
16650	0.05	-156.30	0.93	-144.20	0.93	-144.20	0.05	-156.30
16700	0.06	10.20	0.93	-144.80	0.93	-144.80	0.06	10.20
16750	0.06	176.70	0.93	-145.50	0.93	-145.50	0.06	176.70
16800	0.08	162.30	0.93	-146.10	0.93	-146.10	0.08	162.30
16850	0.09	147.80	0.93	-146.70	0.93	-146.70	0.09	147.80
16900	0.10	139.20	0.93	-147.40	0.93	-147.40	0.10	139.20
16950	0.11	130.60	0.92	-148.10	0.92	-148.10	0.11	130.60
17000	0.12	126.90	0.92	-148.70	0.92	-148.70	0.12	126.90
17050	0.13	123.10	0.92	-149.20	0.92	-149.20	0.13	123.10
17100	0.15	117.00	0.92	-149.90	0.92	-149.90	0.15	117.00
17150	0.16	110.90	0.92	-150.70	0.92	-150.70	0.16	110.90
17200	0.17	107.40	0.92	-151.00	0.92	-151.00	0.17	107.40
17250	0.18	103.80	0.91	-151.40	0.91	-151.40	0.18	103.80
17300	0.20	102.70	0.91	-152.10	0.91	-152.10	0.20	102.70
17350	0.22	101.60	0.92	-152.80	0.92	-152.80	0.22	101.60
17400	0.22	99.30	0.91	-153.20	0.91	-153.20	0.22	99.30
17450	0.22	97.00	0.91	-153.60	0.91	-153.60	0.22	97.00
17500	0.22	96.60	0.91	-154.20	0.91	-154.20	0.22	96.60
17550	0.22	96.30	0.91	-154.70	0.91	-154.70	0.22	96.30
17600	0.22	94.20	0.91	-155.20	0.91	-155.20	0.22	94.20
17650	0.23	92.20	0.90	-155.80	0.90	-155.80	0.23	92.20
17700	0.22	92.40	0.90	-156.10	0.90	-156.10	0.22	92.40
17750	0.21	92.70	0.91	-156.50	0.91	-156.50	0.21	92.70
17800	0.21	92.50	0.91	-157.00	0.91	-157.00	0.21	92.50
17850	0.20	92.30	0.91	-157.50	0.91	-157.50	0.20	92.30
17900	0.19	91.10	0.91	-157.90	0.91	-157.90	0.19	91.10
17950	0.18	89.90	0.91	-158.30	0.91	-158.30	0.18	89.90
18000	0.16	90.00	0.91	-158.90	0.91	-158.90	0.16	90.00
18050	0.15	90.10	0.91	-159.50	0.91	-159.50	0.15	90.10
18100	0.14	84.40	0.91	-159.80	0.91	-159.80	0.14	84.40
18150	0.12	78.60	0.91	-160.00	0.91	-160.00	0.12	78.60
18200	0.10	69.60	0.91	-160.20	0.91	-160.20	0.10	69.60
18250	0.08	60.50	0.91	-160.30	0.91	-160.30	0.08	60.50
18300	0.07	41.50	0.92	-160.50	0.92	-160.50	0.07	41.50
18350	0.06	22.40	0.93	-160.60	0.93	-160.60	0.06	22.40
18400	0.06	10.30	0.94	-161.30	0.94	-161.30	0.06	10.30
18450	0.06	-1.70	0.95	-162.00	0.95	-162.00	0.06	-1.70
18500	0.08	-4.70	0.95	-162.60	0.95	-162.60	0.08	-4.70
18550	0.09	-7.60	0.96	-163.20	0.96	-163.20	0.09	-7.60
18600	0.09	-12.80	0.96	-164.00	0.96	-164.00	0.09	-12.80
18650	0.08	-17.90	0.97	-164.80	0.97	-164.80	0.08	-17.90
18700	0.09	-14.30	0.97	-165.40	0.97	-165.40	0.09	-14.30
18750	0.09	-10.60	0.97	-165.90	0.97	-165.90	0.09	-10.60
