# MHZ S MA R 50

      50  0.01   71.70    0.99    1.00    0.99    1.00    0.01   71.70
     100  0.02   77.20    0.99    0.20    0.99    0.20    0.02   77.20
     150  0.03   82.80    0.99   -0.60    0.99   -0.60    0.03   82.80
     200  0.04   80.60    0.99   -1.30    0.99   -1.30    0.04   80.60
     250  0.05   78.50    0.99   -2.00    0.99   -2.00    0.05   78.50
     300  0.06   79.60    0.99   -2.70    0.99   -2.70    0.06   79.60
     350  0.06   80.80    0.99   -3.50    0.99   -3.50    0.06   80.80
     400  0.07   78.50    0.99   -4.20    0.99   -4.20    0.07   78.50
     450  0.08   76.30    0.99   -4.90    0.99   -4.90    0.08   76.30
     500  0.10   78.10    0.99   -5.90    0.99   -5.90    0.10   78.10
     550  0.11   80.00    0.99   -6.90    0.99   -6.90    0.11   80.00
     600  0.12   79.20    0.99   -7.60    0.99   -7.60    0.12   79.20
     650  0.13   78.50    0.99   -8.30    0.99   -8.30    0.13   78.50
     700  0.14   78.40    0.98   -9.00    0.98   -9.00    0.14   78.40
     750  0.15   78.30    0.98   -9.80    0.98   -9.80    0.15   78.30
     800  0.16   76.10    0.98   -10.60   0.98   -10.60   0.16   76.10
     850  0.17   74.00    0.98   -11.40   0.98   -11.40   0.17   74.00
     900  0.18   74.10    0.98   -12.00   0.98   -12.00   0.18   74.10
     950  0.19   74.20    0.97   -12.70   0.97   -12.70   0.19   74.20
    1000  0.20   73.10    0.97   -13.50   0.97   -13.50   0.20   73.10
    1050  0.21   72.10    0.97   -14.20   0.97   -14.20   0.21   72.10
    1100  0.22   71.80    0.97   -15.00   0.97   -15.00   0.22   71.80
    1150  0.23   71.60    0.96   -15.70   0.96   -15.70   0.23   71.60
    1200  0.24   71.10    0.96   -16.40   0.96   -16.40   0.24   71.10
    1250  0.25   70.60    0.96   -17.00   0.96   -17.00   0.25   70.60
    1300  0.26   69.90    0.96   -17.70   0.96   -17.70   0.26   69.90
    1350  0.26   69.10    0.96   -18.50   0.96   -18.50   0.26   69.10
    1400  0.28   68.20    0.95   -19.20   0.95   -19.20   0.28   68.20
    1450  0.28   67.20    0.95   -19.90   0.95   -19.90   0.28   67.20
    1500  0.29   66.50    0.94   -20.60   0.94   -20.60   0.29   66.50
    1550  0.31   65.80    0.94   -21.40   0.94   -21.40   0.31   65.80
    1600  0.32   65.00    0.94   -22.10   0.94   -22.10   0.32   65.00
    1650  0.33   64.30    0.94   -22.90   0.94   -22.90   0.33   64.30
    1700  0.34   63.80    0.93   -23.50   0.93   -23.50   0.34   63.80
    1750  0.34   63.30    0.93   -24.10   0.93   -24.10   0.34   63.30
    1800  0.35   62.50    0.93   -24.80   0.93   -24.80   0.35   62.50
    1850  0.37   61.80    0.92   -25.50   0.92   -25.50   0.37   61.80
    1900  0.37   61.00    0.92   -26.30   0.92   -26.30   0.37   61.00
    1950  0.38   60.30    0.91   -27.10   0.91   -27.10   0.38   60.30
    2000  0.39   59.30    0.91   -27.80   0.91   -27.80   0.39   59.30
    2050  0.40   58.40    0.90   -28.50   0.90   -28.50   0.40   58.40
    2100  0.41   58.10    0.90   -29.20   0.90   -29.20   0.41   58.10
    2150  0.42   57.80    0.90   -29.80   0.90   -29.80   0.42   57.80
    2200  0.43   56.60    0.89   -30.50   0.89   -30.50   0.43   56.60
    2250  0.44   55.40    0.89   -31.30   0.89   -31.30   0.44   55.40
    2300  0.45   55.20    0.88   -31.90   0.88   -31.90   0.45   55.20
    2350  0.46   55.00    0.88   -32.60   0.88   -32.60   0.46   55.00
    2400  0.47   54.40    0.87   -33.30   0.87   -33.30   0.47   54.40
    2450  0.48   53.80    0.86   -34.00   0.86   -34.00   0.48   53.80
    2500  0.49   53.00    0.86   -34.80   0.86   -34.80   0.49   53.00
    2550  0.50   52.10    0.86   -35.60   0.86   -35.60   0.50   52.10
    2600  0.51   51.50    0.85   -36.20   0.85   -36.20   0.51   51.50
    2650  0.51   50.80    0.85   -36.80   0.85   -36.80   0.51   50.80
    2700  0.52   50.20    0.84   -37.70   0.84   -37.70   0.52   50.20
    2750  0.54   49.60    0.83   -38.50   0.83   -38.50   0.54   49.60
    2800  0.54   48.90    0.83   -39.10   0.83   -39.10   0.54   48.90
    2850  0.55   48.30    0.82   -39.80   0.82   -39.80   0.55   48.30
    2900  0.56   47.40    0.82   -40.60   0.82   -40.60   0.56   47.40
    2950  0.57   46.60    0.81   -41.50   0.81   -41.50   0.57   46.60
    3000  0.58   46.00    0.80   -42.20   0.80   -42.20   0.58   46.00
    3050  0.59   45.30    0.80   -43.00   0.80   -43.00   0.59   45.30
    3100  0.60   44.60    0.79   -43.70   0.79   -43.70   0.60   44.60
    3150  0.61   43.80    0.78   -44.40   0.78   -44.40   0.61   43.80
    3200  0.62   43.20    0.77   -45.10   0.77   -45.10   0.62   43.20
    3250  0.63   42.70    0.77   -45.80   0.77   -45.80   0.63   42.70
    3300  0.64   41.90    0.76   -46.70   0.76   -46.70   0.64   41.90
    3350  0.65   41.20    0.75   -47.60   0.75   -47.60   0.65   41.20
    3400  0.66   40.40    0.74   -48.30   0.74   -48.30   0.66   40.40
    3450  0.66   39.60    0.73   -49.00   0.73   -49.00   0.66   39.60
    3500  0.67   39.00    0.73   -49.60   0.73   -49.60   0.67   39.00
    3550  0.68   38.30    0.72   -50.30   0.72   -50.30   0.68   38.30
    3600  0.69   37.30    0.71   -51.30   0.71   -51.30   0.69   37.30
    3650  0.70   36.40    0.70   -52.40   0.70   -52.40   0.70   36.40
    3700  0.71   35.60    0.69   -53.00   0.69   -53.00   0.71   35.60
    3750  0.72   34.90    0.69   -53.70   0.69   -53.70   0.72   34.90
    3800  0.73   34.00    0.68   -54.70   0.68   -54.70   0.73   34.00
    3850  0.74   33.00    0.67   -55.80   0.67   -55.80   0.74   33.00
    3900  0.74   32.10    0.66   -56.40   0.66   -56.40   0.74   32.10
    3950  0.75   31.20    0.65   -57.10   0.65   -57.10   0.75   31.20
    4000  0.76   30.30    0.64   -58.10   0.64   -58.10   0.76   30.30
    4050  0.77   29.30    0.63   -59.10   0.63   -59.10   0.77   29.30
    4100  0.77   28.30    0.62   -60.00   0.62   -60.00   0.77   28.30
    4150  0.78   27.20    0.61   -61.00   0.61   -61.00   0.78   27.20
    4200  0.79   26.20    0.60   -61.70   0.60   -61.70   0.79   26.20
    4250  0.80   25.20    0.58   -62.40   0.58   -62.40   0.80   25.20
    4300  0.80   24.10    0.57   -63.30   0.57   -63.30   0.80   24.10
    4350  0.81   23.00    0.56   -64.20   0.56   -64.20   0.81   23.00
    4400  0.82   21.70    0.55   -65.30   0.55   -65.30   0.82   21.70
    4450  0.83   20.40    0.54   -66.30   0.54   -66.30   0.83   20.40
    4500  0.83   19.40    0.53   -67.30   0.53   -67.30   0.83   19.40
    4550  0.83   18.30    0.51   -68.30   0.51   -68.30   0.83   18.30
    4600  0.85   17.20    0.50   -68.90   0.50   -68.90   0.85   17.20
    4650  0.87   16.10    0.49   -69.60   0.49   -69.60   0.87   16.10
    4700  0.87   14.70    0.48   -70.60   0.48   -70.60   0.87   14.70
    4750  0.87   13.40    0.47   -71.70   0.47   -71.70   0.87   13.40
    4800  0.88   12.00    0.46   -72.70   0.46   -72.70   0.88   12.00
    4850  0.89   10.50    0.44   -73.70   0.44   -73.70   0.89   10.50
    4900  0.89    9.60    0.43   -74.40   0.43   -74.40   0.89    9.60
    4950  0.90    8.80    0.41   -75.00   0.41   -75.00   0.90    8.80
    5000  0.91    7.00    0.40   -76.10   0.40   -76.10   0.91    7.00
    5050  0.92    5.30    0.39   -77.10   0.39   -77.10   0.92    5.30
    5100  0.91    3.90    0.38   -78.40   0.38   -78.40   0.91    3.90
    5150  0.91    2.60    0.36   -79.60   0.36   -79.60   0.91    2.60
    5200  0.92    1.80    0.35   -80.20   0.35   -80.20   0.92    1.80
    5250  0.92    1.00    0.33   -80.90   0.33   -80.90   0.92    1.00
    5300  0.94   -0.50    0.32   -81.70   0.32   -81.70   0.94   -0.50
    5350  0.95   -2.00    0.31   -82.50   0.31   -82.50   0.95   -2.00
    5400  0.95   -3.40    0.29   -83.50   0.29   -83.50   0.95   -3.40
    5450  0.95   -4.70    0.28   -84.50   0.28   -84.50   0.95   -4.70
    5500  0.95   -5.80    0.26   -85.50   0.26   -85.50   0.95   -5.80
    5550  0.96   -7.00    0.25   -86.40   0.25   -86.40   0.96   -7.00
    5600  0.96   -8.40    0.24   -87.30   0.24   -87.30   0.96   -8.40
    5650  0.96   -9.80    0.22   -88.10   0.22   -88.10   0.96   -9.80
    5700  0.97   -10.90   0.21   -89.10   0.21   -89.10   0.97   -10.90
    5750  0.97   -11.90   0.20   -90.00   0.20   -90.00   0.97   -11.90
    5800  0.97   -12.90   0.18   -90.50   0.18   -90.50   0.97   -12.90
    5850  0.96   -14.00   0.17   -91.10   0.17   -91.10   0.96   -14.00
    5900  0.97   -14.60   0.15   -91.30   0.15   -91.30   0.97   -14.60
    5950  0.97   -15.30   0.14   -91.60   0.14   -91.60   0.97   -15.30
    6000  0.98   -16.00   0.13   -92.40   0.13   -92.40   0.98   -16.00
    6050  0.98   -16.70   0.12   -93.10   0.12   -93.10   0.98   -16.70
    6100  0.98   -17.30   0.10   -93.00   0.10   -93.00   0.98   -17.30
    6150  0.98   -17.80   0.09   -92.90   0.09   -92.90   0.98   -17.80
    6200  0.99   -18.30   0.08   -92.30   0.08   -92.30   0.99   -18.30
    6250  0.99   -18.70   0.06   -91.60   0.06   -91.60   0.99   -18.70
    6300  0.99   -19.10   0.05   -88.40   0.05   -88.40   0.99   -19.10
    6350  0.99   -19.50   0.04   -85.20   0.04   -85.20   0.99   -19.50
    6400  0.99   -20.00   0.02   -63.50   0.02   -63.50   0.99   -20.00
    6450  0.99   -20.50   0.01   -41.90   0.01   -41.90   0.99   -20.50
    6500  0.99   -20.80   0.02    1.70    0.02    1.70    0.99   -20.80
    6550  0.98   -21.10   0.03   45.40    0.03   45.40    0.98   -21.10
    6600  0.98   -21.60   0.04   51.40    0.04   51.40    0.98   -21.60
    6650  0.98   -22.10   0.05   57.50    0.05   57.50    0.98   -22.10
    6700  0.98   -22.00   0.06   58.80    0.06   58.80    0.98   -22.00
    6750  0.98   -22.00   0.08   60.10    0.08   60.10    0.98   -22.00
    6800  0.98   -22.40   0.09   60.30    0.09   60.30    0.98   -22.40
    6850  0.98   -22.80   0.10   60.50    0.10   60.50    0.98   -22.80
    6900  0.97   -23.30   0.12   60.00    0.12   60.00    0.97   -23.30
    6950  0.97   -23.70   0.13   59.60    0.13   59.60    0.97   -23.70
    7000  0.97   -23.90   0.14   59.20    0.14   59.20    0.97   -23.90
    7050  0.97   -24.10   0.15   58.90    0.15   58.90    0.97   -24.10
    7100  0.96   -24.40   0.17   58.20    0.17   58.20    0.96   -24.40
    7150  0.95   -24.70   0.18   57.60    0.18   57.60    0.95   -24.70
    7200  0.95   -24.80   0.19   57.20    0.19   57.20    0.95   -24.80
    7250  0.95   -25.00   0.20   56.70    0.20   56.70    0.95   -25.00
    7300  0.96   -25.70   0.22   56.00    0.22   56.00    0.96   -25.70
    7350  0.97   -26.40   0.23   55.40    0.23   55.40    0.97   -26.40
    7400  0.96   -27.10   0.24   54.50    0.24   54.50    0.96   -27.10
    7450  0.94   -27.80   0.25   53.60    0.25   53.60    0.94   -27.80
    7500  0.95   -28.20   0.27   53.10    0.27   53.10    0.95   -28.20
    7550  0.95   -28.70   0.28   52.50    0.28   52.50    0.95   -28.70
    7600  0.94   -30.00   0.29   51.50    0.29   51.50    0.94   -30.00
    7650  0.93   -31.20   0.30   50.50    0.30   50.50    0.93   -31.20
    7700  0.93   -31.90   0.31   49.90    0.31   49.90    0.93   -31.90
    7750  0.92   -32.50   0.32   49.40    0.32   49.40    0.92   -32.50
    7800  0.92   -33.40   0.34   48.60    0.34   48.60    0.92   -33.40
    7850  0.91   -34.40   0.35   47.90    0.35   47.90    0.91   -34.40
    7900  0.91   -35.50   0.36   46.90    0.36   46.90    0.91   -35.50
    7950  0.90   -36.60   0.37   45.90    0.37   45.90    0.90   -36.60
    8000  0.90   -38.20   0.38   45.00    0.38   45.00    0.90   -38.20
    8050  0.89   -39.70   0.40   44.20    0.40   44.20    0.89   -39.70
    8100  0.88   -40.30   0.41   43.80    0.41   43.80    0.88   -40.30
    8150  0.86   -40.80   0.41   43.50    0.41   43.50    0.86   -40.80
    8200  0.86   -42.20   0.43   42.60    0.43   42.60    0.86   -42.20
    8250  0.86   -43.50   0.44   41.70    0.44   41.70    0.86   -43.50
    8300  0.85   -44.20   0.45   41.10    0.45   41.10    0.85   -44.20
    8350  0.83   -45.00   0.46   40.60    0.46   40.60    0.83   -45.00
    8400  0.83   -46.40   0.47   39.60    0.47   39.60    0.83   -46.40
    8450  0.83   -47.70   0.49   38.60    0.49   38.60    0.83   -47.70
    8500  0.82   -48.40   0.50   37.80    0.50   37.80    0.82   -48.40
    8550  0.81   -49.10   0.51   37.10    0.51   37.10    0.81   -49.10
    8600  0.81   -50.40   0.52   36.00    0.52   36.00    0.81   -50.40
    8650  0.80   -51.60   0.53   34.90    0.53   34.90    0.80   -51.60
    8700  0.79   -52.20   0.54   33.60    0.54   33.60    0.79   -52.20
    8750  0.78   -52.80   0.56   32.30    0.56   32.30    0.78   -52.80
    8800  0.77   -54.00   0.56   31.60    0.56   31.60    0.77   -54.00
    8850  0.76   -55.30   0.56   30.90    0.56   30.90    0.76   -55.30
    8900  0.75   -55.90   0.57   30.00    0.57   30.00    0.75   -55.90
    8950  0.75   -56.40   0.58   29.20    0.58   29.20    0.75   -56.40
    9000  0.74   -57.10   0.59   28.80    0.59   28.80    0.74   -57.10
    9050  0.73   -57.80   0.60   28.30    0.60   28.30    0.73   -57.80
    9100  0.72   -58.90   0.60   27.60    0.60   27.60    0.72   -58.90
    9150  0.72   -60.00   0.61   26.90    0.61   26.90    0.72   -60.00
    9200  0.71   -60.90   0.62   26.60    0.62   26.60    0.71   -60.90
    9250  0.70   -61.80   0.63   26.30    0.63   26.30    0.70   -61.80
    9300  0.69   -62.50   0.65   25.40    0.65   25.40    0.69   -62.50
    9350  0.68   -63.30   0.66   24.60    0.66   24.60    0.68   -63.30
    9400  0.67   -64.40   0.66   24.30    0.66   24.30    0.67   -64.40
    9450  0.66   -65.60   0.67   24.00    0.67   24.00    0.66   -65.60
    9500  0.65   -66.70   0.68   23.00    0.68   23.00    0.65   -66.70
    9550  0.64   -67.80   0.70   22.00    0.70   22.00    0.64   -67.80
    9600  0.64   -68.60   0.70   21.20    0.70   21.20    0.64   -68.60
    9650  0.63   -69.50   0.71   20.40    0.71   20.40    0.63   -69.50
    9700  0.62   -70.70   0.72   19.70    0.72   19.70    0.62   -70.70
    9750  0.61   -72.00   0.73   18.90    0.73   18.90    0.61   -72.00
    9800  0.59   -72.80   0.74   18.00    0.74   18.00    0.59   -72.80
    9850  0.58   -73.60   0.75   17.00    0.75   17.00    0.58   -73.60
    9900  0.57   -74.50   0.75   16.30    0.75   16.30    0.57   -74.50
    9950  0.56   -75.40   0.76   15.60    0.76   15.60    0.56   -75.40
   10000  0.55   -77.10   0.77   15.00    0.77   15.00    0.55   -77.10
   10050  0.54   -78.70   0.78   14.40    0.78   14.40    0.54   -78.70
   10100  0.54   -79.70   0.78   13.50    0.78   13.50    0.54   -79.70
   10150  0.53   -80.70   0.78   12.70    0.78   12.70    0.53   -80.70
   10200  0.52   -82.10   0.79   12.10    0.79   12.10    0.52   -82.10
   10250  0.51   -83.50   0.80   11.60    0.80   11.60    0.51   -83.50
   10300  0.51   -84.40   0.81   10.90    0.81   10.90    0.51   -84.40
   10350  0.50   -85.30   0.82   10.20    0.82   10.20    0.50   -85.30
   10400  0.49   -87.40   0.82    9.10    0.82    9.10    0.49   -87.40
   10450  0.47   -89.60   0.83    8.10    0.83    8.10    0.47   -89.60
   10500  0.47   -90.10   0.83    7.70    0.83    7.70    0.47   -90.10
   10550  0.46   -90.60   0.84    7.30    0.84    7.30    0.46   -90.60
   10600  0.45   -93.10   0.84    6.10    0.84    6.10    0.45   -93.10
   10650  0.44   -95.70   0.85    4.90    0.85    4.90    0.44   -95.70
   10700  0.43   -96.10   0.85    4.50    0.85    4.50    0.43   -96.10
   10750  0.42   -96.40   0.86    4.00    0.86    4.00    0.42   -96.40
   10800  0.42   -98.00   0.86    3.10    0.86    3.10    0.42   -98.00
   10850  0.41   -99.60   0.87    2.30    0.87    2.30    0.41   -99.60
   10900  0.40  -101.70   0.87    1.30    0.87    1.30    0.40  -101.70
   10950  0.39  -103.80   0.87    0.40    0.87    0.40    0.39  -103.80
   11000  0.38  -104.10   0.88    0.00    0.88    0.00    0.38  -104.10
   11050  0.37  -104.40   0.88   -0.50    0.88   -0.50    0.37  -104.40
   11100  0.36  -106.50   0.88   -1.30    0.88   -1.30    0.36  -106.50
   11150  0.36  -108.60   0.89   -2.20    0.89   -2.20    0.36  -108.60
   11200  0.35  -109.20   0.89   -2.70    0.89   -2.70    0.35  -109.20
   11250  0.34  -109.80   0.89   -3.10    0.89   -3.10    0.34  -109.80
   11300  0.33  -111.00   0.90   -3.90    0.90   -3.90    0.33  -111.00
   11350  0.33  -112.30   0.90   -4.70    0.90   -4.70    0.33  -112.30
   11400  0.32  -112.50   0.90   -5.30    0.90   -5.30    0.32  -112.50
   11450  0.31  -112.70   0.91   -5.90    0.91   -5.90    0.31  -112.70
   11500  0.31  -113.20   0.91   -6.80    0.91   -6.80    0.31  -113.20
   11550  0.30  -113.70   0.91   -7.60    0.91   -7.60    0.30  -113.70
   11600  0.29  -113.50   0.92   -8.30    0.92   -8.30    0.29  -113.50
   11650  0.28  -113.20   0.92   -9.00    0.92   -9.00    0.28  -113.20
   11700  0.26  -113.20   0.92   -9.70    0.92   -9.70    0.26  -113.20
   11750  0.25  -113.10   0.92   -10.40   0.92   -10.40   0.25  -113.10
   11800  0.25  -113.80   0.92   -11.20   0.92   -11.20   0.25  -113.80
   11850  0.24  -114.40   0.93   -11.90   0.93   -11.90   0.24  -114.40
   11900  0.23  -113.30   0.93   -12.60   0.93   -12.60   0.23  -113.30
   11950  0.22  -112.20   0.93   -13.20   0.93   -13.20   0.22  -112.20
   12000  0.21  -113.20   0.93   -14.10   0.93   -14.10   0.21  -113.20
   12050  0.20  -114.30   0.93   -14.90   0.93   -14.90   0.20  -114.30
   12100  0.20  -113.20   0.93   -15.50   0.93   -15.50   0.20  -113.20
   12150  0.19  -112.10   0.93   -16.00   0.93   -16.00   0.19  -112.10
   12200  0.19  -113.10   0.93   -16.80   0.93   -16.80   0.19  -113.10
   12250  0.18  -114.00   0.92   -17.50   0.92   -17.50   0.18  -114.00
   12300  0.17  -113.10   0.92   -18.00   0.92   -18.00   0.17  -113.10
   12350  0.17  -112.20   0.92   -18.50   0.92   -18.50   0.17  -112.20
   12400  0.16  -113.20   0.92   -18.70   0.92   -18.70   0.16  -113.20
   12450  0.15  -114.20   0.92   -18.90   0.92   -18.90   0.15  -114.20
   12500  0.14  -113.60   0.92   -19.80   0.92   -19.80   0.14  -113.60
   12550  0.14  -113.10   0.92   -20.60   0.92   -20.60   0.14  -113.10
   12600  0.13  -112.20   0.92   -21.00   0.92   -21.00   0.13  -112.20
   12650  0.12  -111.30   0.92   -21.40   0.92   -21.40   0.12  -111.30
   12700  0.11  -109.10   0.92   -21.80   0.92   -21.80   0.11  -109.10
   12750  0.10  -107.00   0.92   -22.30   0.92   -22.30   0.10  -107.00
   12800  0.09  -101.30   0.92   -22.70   0.92   -22.70   0.09  -101.30
   12850  0.08   -95.50   0.92   -23.10   0.92   -23.10   0.08   -95.50
   12900  0.07   -91.90   0.92   -23.70   0.92   -23.70   0.07   -91.90
   12950  0.06   -88.30   0.92   -24.40   0.92   -24.40   0.06   -88.30
   13000  0.06   -78.80   0.92   -24.70   0.92   -24.70   0.06   -78.80
   13050  0.06   -69.30   0.93   -25.10   0.93   -25.10   0.06   -69.30
   13100  0.06   -64.30   0.93   -25.70   0.93   -25.70   0.06   -64.30
   13150  0.06   -59.30   0.93   -26.30   0.93   -26.30   0.06   -59.30
   13200  0.06   -50.60   0.92   -26.90   0.92   -26.90   0.06   -50.60
   13250  0.06   -41.90   0.92   -27.40   0.92   -27.40   0.06   -41.90
   13300  0.06   -36.70   0.92   -28.00   0.92   -28.00   0.06   -36.70
   13350  0.05   -31.50   0.93   -28.60   0.93   -28.60   0.05   -31.50
   13400  0.06   -23.40   0.93   -29.30   0.93   -29.30   0.06   -23.40
   13450  0.07   -15.20   0.93   -30.00   0.93   -30.00   0.07   -15.20
   13500  0.06   -11.20   0.93   -30.50   0.93   -30.50   0.06   -11.20
   13550  0.06   -7.10    0.93   -31.00   0.93   -31.00   0.06   -7.10
   13600  0.07   -0.50    0.93   -31.60   0.93   -31.60   0.07   -0.50
   13650  0.08    6.20    0.93   -32.30   0.93   -32.30   0.08    6.20
   13700  0.08   11.50    0.93   -32.80   0.93   -32.80   0.08   11.50
   13750  0.09   16.90    0.93   -33.30   0.93   -33.30   0.09   16.90
   13800  0.10   19.70    0.93   -34.00   0.93   -34.00   0.10   19.70
   13850  0.11   22.50    0.93   -34.80   0.93   -34.80   0.11   22.50
   13900  0.11   24.00    0.93   -35.30   0.93   -35.30   0.11   24.00
   13950  0.12   25.50    0.93   -35.90   0.93   -35.90   0.12   25.50
