# MHZ S MA R 50

      50  0.01   71.80    0.99    0.70    0.99    0.70    0.01   71.80
     100  0.03   77.50    0.99   -0.30    0.99   -0.30    0.03   77.50
     150  0.04   83.20    0.99   -1.30    0.99   -1.30    0.04   83.20
     200  0.05   81.30    0.99   -2.20    0.99   -2.20    0.05   81.30
     250  0.07   79.40    0.99   -3.10    0.99   -3.10    0.07   79.40
     300  0.08   79.80    0.99   -4.10    0.99   -4.10    0.08   79.80
     350  0.09   80.20    0.99   -5.10    0.99   -5.10    0.09   80.20
     400  0.10   78.20    0.99   -6.00    0.99   -6.00    0.10   78.20
     450  0.12   76.20    0.98   -6.90    0.98   -6.90    0.12   76.20
     500  0.14   77.10    0.98   -8.20    0.98   -8.20    0.14   77.10
     550  0.16   78.00    0.98   -9.60    0.98   -9.60    0.16   78.00
     600  0.17   77.20    0.98   -10.60   0.98   -10.60   0.17   77.20
     650  0.19   76.30    0.98   -11.50   0.98   -11.50   0.19   76.30
     700  0.20   75.70    0.97   -12.50   0.97   -12.50   0.20   75.70
     750  0.21   75.10    0.97   -13.40   0.97   -13.40   0.21   75.10
     800  0.22   73.10    0.97   -14.50   0.97   -14.50   0.22   73.10
     850  0.24   71.10    0.96   -15.50   0.96   -15.50   0.24   71.10
     900  0.25   70.70    0.96   -16.40   0.96   -16.40   0.25   70.70
     950  0.27   70.40    0.95   -17.30   0.95   -17.30   0.27   70.40
    1000  0.28   69.30    0.95   -18.30   0.95   -18.30   0.28   69.30
    1050  0.29   68.20    0.95   -19.30   0.95   -19.30   0.29   68.20
    1100  0.31   67.50    0.94   -20.20   0.94   -20.20   0.31   67.50
    1150  0.32   66.90    0.94   -21.20   0.94   -21.20   0.32   66.90
    1200  0.33   66.20    0.93   -22.10   0.93   -22.10   0.33   66.20
    1250  0.35   65.50    0.93   -22.90   0.93   -22.90   0.35   65.50
    1300  0.36   64.40    0.92   -23.90   0.92   -23.90   0.36   64.40
    1350  0.37   63.40    0.92   -24.80   0.92   -24.80   0.37   63.40
    1400  0.38   62.30    0.91   -25.80   0.91   -25.80   0.38   62.30
    1450  0.40   61.20    0.91   -26.70   0.91   -26.70   0.40   61.20
    1500  0.41   60.20    0.90   -27.70   0.90   -27.70   0.41   60.20
    1550  0.42   59.30    0.90   -28.60   0.90   -28.60   0.42   59.30
    1600  0.44   58.30    0.89   -29.60   0.89   -29.60   0.44   58.30
    1650  0.45   57.40    0.88   -30.60   0.88   -30.60   0.45   57.40
    1700  0.46   56.60    0.88   -31.40   0.88   -31.40   0.46   56.60
    1750  0.47   55.90    0.87   -32.20   0.87   -32.20   0.47   55.90
    1800  0.49   54.90    0.87   -33.10   0.87   -33.10   0.49   54.90
    1850  0.50   54.00    0.86   -34.00   0.86   -34.00   0.50   54.00
    1900  0.51   52.90    0.85   -35.00   0.85   -35.00   0.51   52.90
    1950  0.52   51.80    0.84   -36.00   0.84   -36.00   0.52   51.80
    2000  0.53   50.80    0.83   -36.90   0.83   -36.90   0.53   50.80
    2050  0.54   49.70    0.83   -37.80   0.83   -37.80   0.54   49.70
    2100  0.56   49.10    0.82   -38.70   0.82   -38.70   0.56   49.10
    2150  0.57   48.60    0.81   -39.50   0.81   -39.50   0.57   48.60
    2200  0.58   47.20    0.80   -40.50   0.80   -40.50   0.58   47.20
    2250  0.59   45.90    0.80   -41.50   0.80   -41.50   0.59   45.90
    2300  0.60   45.40    0.79   -42.20   0.79   -42.20   0.60   45.40
    2350  0.61   45.00    0.78   -43.00   0.78   -43.00   0.61   45.00
    2400  0.62   44.10    0.77   -44.00   0.77   -44.00   0.62   44.10
    2450  0.63   43.30    0.76   -44.90   0.76   -44.90   0.63   43.30
    2500  0.65   42.20    0.75   -45.90   0.75   -45.90   0.65   42.20
    2550  0.66   41.10    0.74   -46.90   0.74   -46.90   0.66   41.10
    2600  0.67   40.30    0.73   -47.70   0.73   -47.70   0.67   40.30
    2650  0.68   39.50    0.72   -48.40   0.72   -48.40   0.68   39.50
    2700  0.69   38.60    0.71   -49.50   0.71   -49.50   0.69   38.60
    2750  0.70   37.70    0.70   -50.50   0.70   -50.50   0.70   37.70
    2800  0.71   36.80    0.69   -51.40   0.69   -51.40   0.71   36.80
    2850  0.72   36.00    0.68   -52.20   0.68   -52.20   0.72   36.00
    2900  0.73   34.90    0.67   -53.30   0.67   -53.30   0.73   34.90
    2950  0.74   33.80    0.66   -54.30   0.66   -54.30   0.74   33.80
    3000  0.75   32.90    0.65   -55.20   0.65   -55.20   0.75   32.90
    3050  0.76   32.10    0.64   -56.10   0.64   -56.10   0.76   32.10
    3100  0.77   31.20    0.63   -56.90   0.63   -56.90   0.77   31.20
    3150  0.78   30.30    0.61   -57.80   0.61   -57.80   0.78   30.30
    3200  0.79   29.40    0.60   -58.70   0.60   -58.70   0.79   29.40
    3250  0.80   28.50    0.59   -59.70   0.59   -59.70   0.80   28.50
    3300  0.81   27.60    0.58   -60.70   0.58   -60.70   0.81   27.60
    3350  0.82   26.70    0.57   -61.70   0.57   -61.70   0.82   26.70
    3400  0.82   25.70    0.55   -62.60   0.55   -62.60   0.82   25.70
    3450  0.83   24.70    0.54   -63.40   0.54   -63.40   0.83   24.70
    3500  0.84   23.80    0.53   -64.20   0.53   -64.20   0.84   23.80
    3550  0.85   22.90    0.52   -65.00   0.52   -65.00   0.85   22.90
    3600  0.85   21.80    0.51   -66.20   0.51   -66.20   0.85   21.80
    3650  0.86   20.60    0.49   -67.50   0.49   -67.50   0.86   20.60
    3700  0.87   19.60    0.48   -68.20   0.48   -68.20   0.87   19.60
    3750  0.88   18.70    0.47   -69.00   0.47   -69.00   0.88   18.70
    3800  0.88   17.60    0.45   -70.20   0.45   -70.20   0.88   17.60
    3850  0.89   16.50    0.44   -71.40   0.44   -71.40   0.89   16.50
    3900  0.90   15.30    0.43   -72.20   0.43   -72.20   0.90   15.30
    3950  0.90   14.10    0.41   -73.00   0.41   -73.00   0.90   14.10
    4000  0.91   13.10    0.40   -74.10   0.40   -74.10   0.91   13.10
    4050  0.92   12.00    0.38   -75.10   0.38   -75.10   0.92   12.00
    4100  0.92   10.80    0.37   -76.20   0.37   -76.20   0.92   10.80
    4150  0.92    9.60    0.35   -77.30   0.35   -77.30   0.92    9.60
    4200  0.93    8.50    0.34   -77.90   0.34   -77.90   0.93    8.50
    4250  0.93    7.40    0.32   -78.60   0.32   -78.60   0.93    7.40
    4300  0.94    6.10    0.31   -79.60   0.31   -79.60   0.94    6.10
    4350  0.94    4.80    0.29   -80.70   0.29   -80.70   0.94    4.80
    4400  0.95    3.40    0.28   -81.70   0.28   -81.70   0.95    3.40
    4450  0.96    2.00    0.26   -82.70   0.26   -82.70   0.96    2.00
    4500  0.95    1.00    0.25   -83.60   0.25   -83.60   0.95    1.00
    4550  0.95   -0.10    0.23   -84.50   0.23   -84.50   0.95   -0.10
    4600  0.96   -1.30    0.22   -85.10   0.22   -85.10   0.96   -1.30
    4650  0.98   -2.50    0.20   -85.70   0.20   -85.70   0.98   -2.50
    4700  0.97   -3.90    0.19   -86.60   0.19   -86.60   0.97   -3.90
    4750  0.97   -5.40    0.17   -87.50   0.17   -87.50   0.97   -5.40
    4800  0.98   -6.80    0.16   -88.20   0.16   -88.20   0.98   -6.80
    4850  0.98   -8.30    0.14   -89.00   0.14   -89.00   0.98   -8.30
    4900  0.98   -9.20    0.13   -89.10   0.13   -89.10   0.98   -9.20
    4950  0.98   -10.00   0.12   -89.30   0.12   -89.30   0.98   -10.00
    5000  0.99   -11.90   0.10   -89.60   0.10   -89.60   0.99   -11.90
    5050  0.99   -13.70   0.09   -90.00   0.09   -90.00   0.99   -13.70
    5100  0.98   -14.90   0.07   -89.50   0.07   -89.50   0.98   -14.90
    5150  0.97   -16.10   0.06   -88.90   0.06   -88.90   0.97   -16.10
    5200  0.97   -16.80   0.04   -84.40   0.04   -84.40   0.97   -16.80
    5250  0.98   -17.50   0.03   -79.80   0.03   -79.80   0.98   -17.50
    5300  0.99   -19.20   0.02   -43.30   0.02   -43.30   0.99   -19.20
    5350  1.00   -20.80   0.01   -6.70    0.01   -6.70    1.00   -20.80
    5400  0.99   -21.90   0.02   24.30    0.02   24.30    0.99   -21.90
    5450  0.98   -23.00   0.03   55.20    0.03   55.20    0.98   -23.00
    5500  0.99   -24.20   0.04   58.80    0.04   58.80    0.99   -24.20
    5550  0.99   -25.40   0.06   62.40    0.06   62.40    0.99   -25.40
    5600  0.99   -26.60   0.07   63.10    0.07   63.10    0.99   -26.60
    5650  0.98   -27.80   0.08   63.80    0.08   63.80    0.98   -27.80
    5700  0.98   -28.80   0.10   63.70    0.10   63.70    0.98   -28.80
    5750  0.98   -29.80   0.11   63.60    0.11   63.60    0.98   -29.80
    5800  0.97   -30.70   0.12   63.20    0.12   63.20    0.97   -30.70
    5850  0.96   -31.50   0.14   62.80    0.14   62.80    0.96   -31.50
    5900  0.97   -32.00   0.15   62.70    0.15   62.70    0.97   -32.00
    5950  0.97   -32.50   0.16   62.50    0.16   62.50    0.97   -32.50
    6000  0.97   -33.50   0.18   61.20    0.18   61.20    0.97   -33.50
    6050  0.97   -34.40   0.19   59.90    0.19   59.90    0.97   -34.40
    6100  0.96   -34.80   0.20   59.40    0.20   59.40    0.96   -34.80
    6150  0.96   -35.30   0.22   59.00    0.22   59.00    0.96   -35.30
    6200  0.96   -35.60   0.23   58.20    0.23   58.20    0.96   -35.60
    6250  0.96   -36.00   0.24   57.40    0.24   57.40    0.96   -36.00
    6300  0.96   -36.20   0.25   56.70    0.25   56.70    0.96   -36.20
    6350  0.95   -36.50   0.27   56.10    0.27   56.10    0.95   -36.50
    6400  0.95   -36.80   0.28   55.20    0.28   55.20    0.95   -36.80
    6450  0.95   -37.20   0.29   54.30    0.29   54.30    0.95   -37.20
    6500  0.94   -37.40   0.30   53.40    0.30   53.40    0.94   -37.40
    6550  0.93   -37.60   0.31   52.50    0.31   52.50    0.93   -37.60
    6600  0.92   -37.80   0.32   51.90    0.32   51.90    0.92   -37.80
    6650  0.92   -38.10   0.33   51.20    0.33   51.20    0.92   -38.10
    6700  0.92   -37.90   0.34   50.50    0.34   50.50    0.92   -37.90
    6750  0.91   -37.60   0.36   49.80    0.36   49.80    0.91   -37.60
    6800  0.91   -37.90   0.37   49.00    0.37   49.00    0.91   -37.90
    6850  0.90   -38.20   0.38   48.30    0.38   48.30    0.90   -38.20
    6900  0.89   -38.40   0.38   47.50    0.38   47.50    0.89   -38.40
    6950  0.89   -38.60   0.39   46.60    0.39   46.60    0.89   -38.60
    7000  0.88   -38.70   0.40   46.00    0.40   46.00    0.88   -38.70
    7050  0.88   -38.70   0.41   45.30    0.41   45.30    0.88   -38.70
    7100  0.87   -38.80   0.42   44.60    0.42   44.60    0.87   -38.80
    7150  0.86   -38.90   0.43   43.80    0.43   43.80    0.86   -38.90
    7200  0.86   -38.90   0.44   43.30    0.44   43.30    0.86   -38.90
    7250  0.86   -39.00   0.45   42.70    0.45   42.70    0.86   -39.00
    7300  0.86   -39.60   0.46   41.90    0.46   41.90    0.86   -39.60
    7350  0.86   -40.20   0.47   41.20    0.47   41.20    0.86   -40.20
    7400  0.85   -40.70   0.48   40.40    0.48   40.40    0.85   -40.70
    7450  0.84   -41.20   0.49   39.50    0.49   39.50    0.84   -41.20
    7500  0.84   -41.60   0.50   38.90    0.50   38.90    0.84   -41.60
    7550  0.84   -42.00   0.51   38.40    0.51   38.40    0.84   -42.00
    7600  0.83   -43.10   0.52   37.40    0.52   37.40    0.83   -43.10
    7650  0.82   -44.20   0.53   36.50    0.53   36.50    0.82   -44.20
    7700  0.81   -44.60   0.54   36.00    0.54   36.00    0.81   -44.60
    7750  0.80   -45.10   0.55   35.50    0.55   35.50    0.80   -45.10
    7800  0.80   -46.00   0.56   34.80    0.56   34.80    0.80   -46.00
    7850  0.79   -46.90   0.57   34.00    0.57   34.00    0.79   -46.90
    7900  0.78   -47.80   0.57   33.10    0.57   33.10    0.78   -47.80
    7950  0.77   -48.80   0.58   32.20    0.58   32.20    0.77   -48.80
    8000  0.77   -50.20   0.59   31.40    0.59   31.40    0.77   -50.20
    8050  0.76   -51.60   0.60   30.60    0.60   30.60    0.76   -51.60
    8100  0.75   -52.10   0.61   30.30    0.61   30.30    0.75   -52.10
    8150  0.73   -52.60   0.62   30.10    0.62   30.10    0.73   -52.60
    8200  0.73   -53.80   0.63   29.20    0.63   29.20    0.73   -53.80
    8250  0.72   -55.10   0.64   28.30    0.64   28.30    0.72   -55.10
    8300  0.71   -55.80   0.64   27.90    0.64   27.90    0.71   -55.80
    8350  0.69   -56.40   0.65   27.40    0.65   27.40    0.69   -56.40
    8400  0.69   -57.70   0.66   26.40    0.66   26.40    0.69   -57.70
    8450  0.69   -59.00   0.67   25.50    0.67   25.50    0.69   -59.00
    8500  0.68   -59.70   0.68   24.80    0.68   24.80    0.68   -59.70
    8550  0.67   -60.30   0.69   24.10    0.69   24.10    0.67   -60.30
    8600  0.66   -61.40   0.70   23.20    0.70   23.20    0.66   -61.40
    8650  0.65   -62.60   0.71   22.30    0.71   22.30    0.65   -62.60
    8700  0.64   -63.00   0.72   21.10    0.72   21.10    0.64   -63.00
    8750  0.63   -63.50   0.73   20.00    0.73   20.00    0.63   -63.50
    8800  0.62   -64.80   0.73   19.40    0.73   19.40    0.62   -64.80
    8850  0.61   -66.10   0.73   18.80    0.73   18.80    0.61   -66.10
    8900  0.60   -66.60   0.74   17.90    0.74   17.90    0.60   -66.60
    8950  0.59   -67.20   0.75   17.10    0.75   17.10    0.59   -67.20
    9000  0.58   -67.80   0.75   16.60    0.75   16.60    0.58   -67.80
    9050  0.57   -68.50   0.76   16.10    0.76   16.10    0.57   -68.50
    9100  0.56   -69.50   0.76   15.40    0.76   15.40    0.56   -69.50
    9150  0.55   -70.60   0.77   14.60    0.77   14.60    0.55   -70.60
    9200  0.54   -71.60   0.78   14.20    0.78   14.20    0.54   -71.60
    9250  0.53   -72.70   0.79   13.70    0.79   13.70    0.53   -72.70
    9300  0.52   -73.50   0.80   12.90    0.80   12.90    0.52   -73.50
    9350  0.50   -74.20   0.81   12.10    0.81   12.10    0.50   -74.20
    9400  0.50   -75.40   0.81   11.70    0.81   11.70    0.50   -75.40
    9450  0.49   -76.70   0.81   11.40    0.81   11.40    0.49   -76.70
    9500  0.47   -77.80   0.82   10.40    0.82   10.40    0.47   -77.80
    9550  0.46   -79.00   0.83    9.40    0.83    9.40    0.46   -79.00
    9600  0.46   -79.80   0.83    8.70    0.83    8.70    0.46   -79.80
    9650  0.45   -80.50   0.84    7.90    0.84    7.90    0.45   -80.50
    9700  0.43   -81.90   0.85    7.20    0.85    7.20    0.43   -81.90
    9750  0.42   -83.30   0.86    6.50    0.86    6.50    0.42   -83.30
    9800  0.41   -83.90   0.86    5.60    0.86    5.60    0.41   -83.90
    9850  0.40   -84.60   0.87    4.80    0.87    4.80    0.40   -84.60
    9900  0.39   -85.60   0.87    4.20    0.87    4.20    0.39   -85.60
    9950  0.38   -86.50   0.87    3.50    0.87    3.50    0.38   -86.50
   10000  0.37   -88.50   0.88    2.90    0.88    2.90    0.37   -88.50
   10050  0.35   -90.40   0.88    2.30    0.88    2.30    0.35   -90.40
   10100  0.35   -91.30   0.88    1.60    0.88    1.60    0.35   -91.30
   10150  0.35   -92.10   0.88    0.80    0.88    0.80    0.35   -92.10
   10200  0.34   -93.90   0.89    0.30    0.89    0.30    0.34   -93.90
   10250  0.32   -95.70   0.90   -0.20    0.90   -0.20    0.32   -95.70
   10300  0.32   -96.40   0.90   -0.90    0.90   -0.90    0.32   -96.40
   10350  0.32   -97.20   0.91   -1.60    0.91   -1.60    0.32   -97.20
   10400  0.30   -99.70   0.91   -2.50    0.91   -2.50    0.30   -99.70
   10450  0.29  -102.10   0.91   -3.40    0.91   -3.40    0.29  -102.10
   10500  0.28  -102.70   0.92   -3.80    0.92   -3.80    0.28  -102.70
   10550  0.27  -103.30   0.92   -4.30    0.92   -4.30    0.27  -103.30
   10600  0.27  -106.10   0.92   -5.30    0.92   -5.30    0.27  -106.10
   10650  0.26  -108.80   0.92   -6.20    0.92   -6.20    0.26  -108.80
   10700  0.25  -109.40   0.93   -6.80    0.93   -6.80    0.25  -109.40
   10750  0.24  -109.90   0.93   -7.30    0.93   -7.30    0.24  -109.90
   10800  0.23  -111.70   0.93   -8.10    0.93   -8.10    0.23  -111.70
   10850  0.23  -113.50   0.93   -8.80    0.93   -8.80    0.23  -113.50
   10900  0.22  -116.10   0.94   -9.70    0.94   -9.70    0.22  -116.10
   10950  0.21  -118.70   0.94   -10.60   0.94   -10.60   0.21  -118.70
   11000  0.20  -119.30   0.94   -11.10   0.94   -11.10   0.20  -119.30
   11050  0.19  -120.00   0.94   -11.60   0.94   -11.60   0.19  -120.00
   11100  0.18  -122.90   0.94   -12.40   0.94   -12.40   0.18  -122.90
   11150  0.18  -125.90   0.94   -13.20   0.94   -13.20   0.18  -125.90
   11200  0.17  -126.70   0.94   -13.60   0.94   -13.60   0.17  -126.70
   11250  0.16  -127.50   0.95   -14.10   0.95   -14.10   0.16  -127.50
   11300  0.15  -129.10   0.95   -14.80   0.95   -14.80   0.15  -129.10
   11350  0.15  -130.70   0.95   -15.50   0.95   -15.50   0.15  -130.70
   11400  0.14  -131.10   0.95   -16.20   0.95   -16.20   0.14  -131.10
   11450  0.13  -131.50   0.95   -16.90   0.95   -16.90   0.13  -131.50
   11500  0.12  -131.10   0.96   -17.70   0.96   -17.70   0.12  -131.10
   11550  0.11  -130.80   0.96   -18.50   0.96   -18.50   0.11  -130.80
   11600  0.10  -130.70   0.96   -19.20   0.96   -19.20   0.10  -130.70
   11650  0.09  -130.50   0.96   -19.90   0.96   -19.90   0.09  -130.50
   11700  0.08  -129.00   0.95   -20.60   0.95   -20.60   0.08  -129.00
   11750  0.07  -127.50   0.95   -21.30   0.95   -21.30   0.07  -127.50
   11800  0.06  -129.40   0.95   -22.00   0.95   -22.00   0.06  -129.40
   11850  0.05  -131.20   0.96   -22.60   0.96   -22.60   0.05  -131.20
   11900  0.05  -124.40   0.96   -23.40   0.96   -23.40   0.05  -124.40
   11950  0.04  -117.60   0.96   -24.10   0.96   -24.10   0.04  -117.60
   12000  0.03  -121.40   0.95   -24.80   0.95   -24.80   0.03  -121.40
   12050  0.02  -125.30   0.95   -25.50   0.95   -25.50   0.02  -125.30
   12100  0.02  -110.00   0.95   -26.10   0.95   -26.10   0.02  -110.00
   12150  0.02   -94.60   0.95   -26.80   0.95   -26.80   0.02   -94.60
   12200  0.01   -65.70   0.95   -27.50   0.95   -27.50   0.01   -65.70
   12250  0.00   -36.80   0.94   -28.30   0.94   -28.30   0.00   -36.80
   12300  0.01   -13.70   0.94   -28.80   0.94   -28.80   0.01   -13.70
   12350  0.01    9.40    0.94   -29.30   0.94   -29.30   0.01    9.40
   12400  0.02   28.30    0.94   -29.60   0.94   -29.60   0.02   28.30
   12450  0.03   47.10    0.93   -30.00   0.93   -30.00   0.03   47.10
   12500  0.04   45.90    0.93   -30.80   0.93   -30.80   0.04   45.90
   12550  0.04   44.70    0.93   -31.60   0.93   -31.60   0.04   44.70
   12600  0.05   45.30    0.93   -32.10   0.93   -32.10   0.05   45.30
   12650  0.07   45.80    0.92   -32.60   0.92   -32.60   0.07   45.80
   12700  0.08   44.10    0.92   -33.00   0.92   -33.00   0.08   44.10
   12750  0.08   42.40    0.92   -33.50   0.92   -33.50   0.08   42.40
   12800  0.10   41.50    0.92   -33.90   0.92   -33.90   0.10   41.50
   12850  0.11   40.60    0.92   -34.30   0.92   -34.30   0.11   40.60
   12900  0.12   40.30    0.92   -34.90   0.92   -34.90   0.12   40.30
   12950  0.13   40.10    0.92   -35.60   0.92   -35.60   0.13   40.10
   13000  0.14   38.30    0.92   -36.00   0.92   -36.00   0.14   38.30
   13050  0.15   36.50    0.92   -36.30   0.92   -36.30   0.15   36.50
   13100  0.15   36.20    0.92   -37.00   0.92   -37.00   0.15   36.20
   13150  0.16   35.90    0.92   -37.60   0.92   -37.60   0.16   35.90
   13200  0.17   35.10    0.91   -38.20   0.91   -38.20   0.17   35.10
   13250  0.18   34.30    0.91   -38.80   0.91   -38.80   0.18   34.30
   13300  0.19   35.20    0.91   -39.50   0.91   -39.50   0.19   35.20
   13350  0.19   36.00    0.91   -40.20   0.91   -40.20   0.19   36.00
   13400  0.20   34.90    0.91   -40.90   0.91   -40.90   0.20   34.90
   13450  0.22   33.70    0.91   -41.60   0.91   -41.60   0.22   33.70
   13500  0.22   34.90    0.91   -42.20   0.91   -42.20   0.22   34.90
   13550  0.22   36.00    0.90   -42.80   0.90   -42.80   0.22   36.00
   13600  0.24   35.30    0.91   -43.60   0.91   -43.60   0.24   35.30
   13650  0.25   34.50    0.91   -44.50   0.91   -44.50   0.25   34.50
   13700  0.26   35.50    0.90   -45.00   0.90   -45.00   0.26   35.50
   13750  0.26   36.50    0.90   -45.50   0.90   -45.50   0.26   36.50
   13800  0.28   35.70    0.90   -46.40   0.90   -46.40   0.28   35.70
   13850  0.29   34.90    0.89   -47.20   0.89   -47.20   0.29   34.90
   13900  0.30   34.60    0.89   -47.80   0.89   -47.80   0.30   34.60
   13950  0.30   34.30    0.89   -48.50   0.89   -48.50   0.30   34.30
