#	mhz	s	ma	r	50
50	0.62501	48.206	0.74715	-37.459	0.74715	-37.459	0.62501	48.206
70	0.73107	37.87	0.62209	-48.683	0.62209	-48.683	0.73107	37.87
90	0.80731	31.221	0.52088	-55.52	0.52088	-55.52	0.80731	31.221
110	0.86628	25.778	0.43783	-61.021	0.43783	-61.021	0.86628	25.778
130	0.9084	20.797	0.36683	-66.152	0.36683	-66.152	0.9084	20.797
150	0.92197	17.276	0.30133	-69.799	0.30133	-69.799	0.92197	17.276
170	0.94039	14.358	0.25091	-72.282	0.25091	-72.282	0.94039	14.358
190	0.95279	11.339	0.20348	-75.132	0.20348	-75.132	0.95279	11.339
210	0.96196	9.028	0.1618	-77.309	0.1618	-77.309	0.96196	9.028
230	0.97107	7.144	0.12597	-78.746	0.12597	-78.746	0.97107	7.144
250	0.98363	4.32	0.09342	-80.348	0.09342	-80.348	0.98363	4.32
270	0.97327	2.536	0.06286	-79.616	0.06286	-79.616	0.97327	2.536
290	0.97966	1.206	0.03506	-73.859	0.03506	-73.859	0.97966	1.206
310	0.98773	-0.481	0.01836	-19.016	0.01836	-19.016	0.98773	-0.481
330	0.98854	-2.344	0.01899	61.793	0.01899	61.793	0.98854	-2.344
350	0.97925	-3.205	0.04107	78.27	0.04107	78.27	0.97925	-3.205
370	0.98741	-4.556	0.06402	79.655	0.06402	79.655	0.98741	-4.556
390	0.98918	-5.878	0.08536	80.221	0.08536	80.221	0.98918	-5.878
410	0.98797	-6.868	0.10592	80.136	0.10592	80.136	0.98797	-6.868
430	0.98597	-7.788	0.12611	79.543	0.12611	79.543	0.98597	-7.788
450	0.98417	-9.468	0.14589	78.565	0.14589	78.565	0.98417	-9.468
470	0.97502	-10.148	0.16363	78.139	0.16363	78.139	0.97502	-10.148
490	0.99818	-11.617	0.18043	75.571	0.18043	75.571	0.99818	-11.617
510	1.01279	-12.942	0.19829	74.263	0.19829	74.263	1.01279	-12.942
530	1.00479	-13.717	0.21653	75.064	0.21653	75.064	1.00479	-13.717
550	0.98691	-14.061	0.2318	76.272	0.2318	76.272	0.98691	-14.061
570	0.97523	-15.286	0.24324	76.575	0.24324	76.575	0.97523	-15.286
590	0.96494	-16.097	0.25146	76.839	0.25146	76.839	0.96494	-16.097
610	0.95835	-17.195	0.25813	76.186	0.25813	76.186	0.95835	-17.195
630	0.95328	-18.692	0.2649	74.558	0.2649	74.558	0.95328	-18.692
650	0.94306	-20.1	0.27339	72.72	0.27339	72.72	0.94306	-20.1
670	0.94654	-20.799	0.28961	70.93	0.28961	70.93	0.94654	-20.799
690	0.94734	-21.487	0.3071	69.415	0.3071	69.415	0.94734	-21.487
710	0.94401	-22.188	0.32368	68.325	0.32368	68.325	0.94401	-22.188
730	0.93738	-22.884	0.33908	67.792	0.33908	67.792	0.93738	-22.884
750	0.93048	-23.51	0.35499	67.929	0.35499	67.929	0.93048	-23.51
770	0.92202	-24.135	0.36418	67.831	0.36418	67.831	0.92202	-24.135
790	0.91131	-25.05	0.37098	67.537	0.37098	67.537	0.91131	-25.05
810	0.90293	-26.298	0.37661	66.822	0.37661	66.822	0.90293	-26.298
830	0.89546	-27.68	0.38143	65.59	0.38143	65.59	0.89546	-27.68
850	0.88144	-28.756	0.38489	63.868	0.38489	63.868	0.88144	-28.756
870	0.88145	-29.852	0.39862	62.558	0.39862	62.558	0.88145	-29.852
890	0.88123	-31.188	0.41389	60.473	0.41389	60.473	0.88123	-31.188
910	0.8802	-32.335	0.42954	58.948	0.42954	58.948	0.8802	-32.335
930	0.8788	-33.112	0.44598	58.285	0.44598	58.285	0.8788	-33.112
950	0.8785	-33.59	0.46512	57.745	0.46512	57.745	0.8785	-33.59
970	0.88152	-34.166	0.47829	57.473	0.47829	57.473	0.88152	-34.166
990	0.87779	-34.531	0.48969	57.459	0.48969	57.459	0.87779	-34.531
1010	0.87224	-34.801	0.49855	57.284	0.49855	57.284	0.87224	-34.801
1030	0.86584	-35.083	0.50503	56.795	0.50503	56.795	0.86584	-35.083
1050	0.85562	-35.477	0.51026	56.107	0.51026	56.107	0.85562	-35.477
1070	0.84552	-36.256	0.51945	54.693	0.51945	54.693	0.84552	-36.256
1090	0.83315	-37.285	0.53102	53.347	0.53102	53.347	0.83315	-37.285
1110	0.82312	-38.172	0.54494	52.257	0.54494	52.257	0.82312	-38.172
1130	0.81649	-38.915	0.56028	51.459	0.56028	51.459	0.81649	-38.915
1150	0.81079	-39.9	0.57522	50.835	0.57522	50.835	0.81079	-39.9
1170	0.81053	-40.709	0.58882	50.798	0.58882	50.798	0.81053	-40.709
1190	0.8077	-41.259	0.59925	50.615	0.59925	50.615	0.8077	-41.259
1210	0.80119	-41.719	0.60551	50.494	0.60551	50.494	0.80119	-41.719
1230	0.7927	-42.134	0.60908	50.343	0.60908	50.343	0.7927	-42.134
1250	0.78677	-42.423	0.61383	49.773	0.61383	49.773	0.78677	-42.423
1270	0.77795	-43.119	0.61903	48.237	0.61903	48.237	0.77795	-43.119
1290	0.76177	-43.856	0.62425	47.075	0.62425	47.075	0.76177	-43.856
1310	0.74762	-44.694	0.63324	45.994	0.63324	45.994	0.74762	-44.694
1330	0.73708	-45.759	0.64649	44.79	0.64649	44.79	0.73708	-45.759
1350	0.72389	-47.238	0.66122	43.349	0.66122	43.349	0.72389	-47.238
1370	0.71279	-48.096	0.66992	42.769	0.66992	42.769	0.71279	-48.096
1390	0.70475	-48.949	0.68083	41.815	0.68083	41.815	0.70475	-48.949
1410	0.69417	-49.805	0.69027	40.698	0.69027	40.698	0.69417	-49.805
1430	0.68003	-50.535	0.69757	39.519	0.69757	39.519	0.68003	-50.535
1450	0.66588	-50.88	0.70507	38.265	0.70507	38.265	0.66588	-50.88
1470	0.64308	-51.537	0.71281	36.158	0.71281	36.158	0.64308	-51.537
1490	0.6125	-51.972	0.71743	33.558	0.71743	33.558	0.6125	-51.972
1510	0.57503	-51.997	0.72487	30.677	0.72487	30.677	0.57503	-51.997
1530	0.5314	-51.205	0.73246	27.342	0.73246	27.342	0.5314	-51.205
1550	0.48218	-48.97	0.72897	22.994	0.72897	22.994	0.48218	-48.97
1570	0.43752	-41.503	0.69497	17.712	0.69497	17.712	0.43752	-41.503
1590	0.44864	-30.434	0.62209	13.162	0.62209	13.162	0.44864	-30.434
1610	0.51815	-22.531	0.52589	12.958	0.52589	12.958	0.51815	-22.531
1630	0.62284	-20.884	0.43884	18.884	0.43884	18.884	0.62284	-20.884
1650	0.71377	-24.909	0.41029	30.894	0.41029	30.894	0.71377	-24.909
1670	0.74125	-29.636	0.44191	38.884	0.44191	38.884	0.74125	-29.636
1690	0.75487	-33.224	0.48465	42.557	0.48465	42.557	0.75487	-33.224
1710	0.75703	-36.365	0.5268	43.65	0.5268	43.65	0.75703	-36.365
1730	0.75163	-39.208	0.56219	43.53	0.56219	43.53	0.75163	-39.208
1750	0.74404	-41.358	0.59025	43.192	0.59025	43.192	0.74404	-41.358
1770	0.73678	-43.235	0.61671	42.91	0.61671	42.91	0.73678	-43.235
1790	0.72943	-44.809	0.63706	42.305	0.63706	42.305	0.72943	-44.809
1810	0.72205	-46.024	0.65315	41.848	0.65315	41.848	0.72205	-46.024
1830	0.71563	-47.055	0.66652	41.548	0.66652	41.548	0.71563	-47.055
1850	0.71205	-48.308	0.67841	40.954	0.67841	40.954	0.71205	-48.308
1870	0.70416	-49.089	0.68468	40.39	0.68468	40.39	0.70416	-49.089
1890	0.69241	-49.545	0.69188	39.521	0.69188	39.521	0.69241	-49.545
1910	0.68516	-49.887	0.70275	38.62	0.70275	38.62	0.68516	-49.887
1930	0.68204	-50.54	0.71506	37.757	0.71506	37.757	0.68204	-50.54
1950	0.67391	-52.146	0.72162	36.792	0.72162	36.792	0.67391	-52.146
1970	0.65781	-52.506	0.72976	36.365	0.72976	36.365	0.65781	-52.506
1990	0.65326	-53.146	0.7397	36.092	0.7397	36.092	0.65326	-53.146
2010	0.65229	-53.912	0.74834	35.894	0.74834	35.894	0.65229	-53.912
2030	0.65032	-54.613	0.75369	35.647	0.75369	35.647	0.65032	-54.613
2050	0.64613	-55.017	0.75489	35.181	0.75489	35.181	0.64613	-55.017
2070	0.63952	-55.185	0.75825	34.854	0.75825	34.854	0.63952	-55.185
2090	0.63228	-55.267	0.76257	34.379	0.76257	34.379	0.63228	-55.267
2110	0.62412	-55.527	0.76667	33.521	0.76667	33.521	0.62412	-55.527
2130	0.61527	-55.944	0.77056	32.56	0.77056	32.56	0.61527	-55.944
2150	0.60648	-56.208	0.77542	32.297	0.77542	32.297	0.60648	-56.208
2170	0.59912	-56.927	0.7831	31.696	0.7831	31.696	0.59912	-56.927
2190	0.59264	-57.735	0.78855	31.024	0.78855	31.024	0.59264	-57.735
2210	0.58789	-58.33	0.7932	30.533	0.7932	30.533	0.58789	-58.33
2230	0.5839	-58.774	0.79758	30.207	0.79758	30.207	0.5839	-58.774
2250	0.57782	-59.488	0.80134	29.756	0.80134	29.756	0.57782	-59.488
2270	0.57138	-59.406	0.79952	29.391	0.79952	29.391	0.57138	-59.406
2290	0.5672	-59.259	0.80562	28.851	0.80562	28.851	0.5672	-59.259
2310	0.56067	-59.441	0.81031	28.331	0.81031	28.331	0.56067	-59.441
2330	0.55007	-59.912	0.8119	27.868	0.8119	27.868	0.55007	-59.912
2350	0.53652	-60.197	0.81638	27.345	0.81638	27.345	0.53652	-60.197
2370	0.53297	-60.603	0.82704	26.757	0.82704	26.757	0.53297	-60.603
2390	0.52632	-61.412	0.83275	26.226	0.83275	26.226	0.52632	-61.412
2410	0.52188	-62.271	0.83688	25.914	0.83688	25.914	0.52188	-62.271
2430	0.51961	-62.818	0.84046	25.733	0.84046	25.733	0.51961	-62.818
2450	0.51404	-62.685	0.84213	25.339	0.84213	25.339	0.51404	-62.685
2470	0.51024	-63.22	0.84441	25.24	0.84441	25.24	0.51024	-63.22
2490	0.50363	-63.238	0.84611	24.634	0.84611	24.634	0.50363	-63.238
2510	0.49644	-63.241	0.84792	23.984	0.84792	23.984	0.49644	-63.241
2530	0.48852	-63.456	0.85126	23.39	0.85126	23.39	0.48852	-63.456
2550	0.47739	-63.837	0.85831	22.586	0.85831	22.586	0.47739	-63.837
2570	0.46731	-64.448	0.85916	22.407	0.85916	22.407	0.46731	-64.448
2590	0.45968	-65.265	0.86282	21.963	0.86282	21.963	0.45968	-65.265
2610	0.45379	-66.09	0.86569	21.42	0.86569	21.42	0.45379	-66.09
2630	0.44894	-66.661	0.86719	21.026	0.86719	21.026	0.44894	-66.661
2650	0.44445	-66.654	0.86976	21.109	0.86976	21.109	0.44445	-66.654
2670	0.43948	-66.696	0.87355	20.415	0.87355	20.415	0.43948	-66.696
2690	0.43202	-66.882	0.87465	19.679	0.87465	19.679	0.43202	-66.882
2710	0.42119	-66.884	0.87383	18.997	0.87383	18.997	0.42119	-66.884
2730	0.40825	-66.769	0.87419	18.346	0.87419	18.346	0.40825	-66.769
2750	0.39658	-67.0	0.88111	17.592	0.88111	17.592	0.39658	-67.0
2770	0.38421	-67.056	0.87649	16.808	0.87649	16.808	0.38421	-67.056
2790	0.37438	-67.129	0.87444	15.965	0.87444	15.965	0.37438	-67.129
2810	0.36354	-66.808	0.87498	15.297	0.87498	15.297	0.36354	-66.808
2830	0.35049	-65.833	0.8745	14.631	0.8745	14.631	0.35049	-65.833
2850	0.33642	-64.101	0.86572	13.379	0.86572	13.379	0.33642	-64.101
2870	0.32468	-61.201	0.85365	12.217	0.85365	12.217	0.32468	-61.201
2890	0.31304	-57.204	0.83684	11.408	0.83684	11.408	0.31304	-57.204
2910	0.31014	-52.244	0.81387	10.645	0.81387	10.645	0.31014	-52.244
2930	0.32042	-47.14	0.78527	10.111	0.78527	10.111	0.32042	-47.14
2950	0.34405	-43.396	0.75345	10.481	0.75345	10.481	0.34405	-43.396
2970	0.38299	-42.962	0.73131	12.637	0.73131	12.637	0.38299	-42.962
2990	0.41758	-45.174	0.72333	15.348	0.72333	15.348	0.41758	-45.174
3010	0.44335	-48.288	0.7324	17.876	0.7324	17.876	0.44335	-48.288
3030	0.45872	-51.394	0.75426	19.692	0.75426	19.692	0.45872	-51.394
3050	0.46499	-54.415	0.77751	20.475	0.77751	20.475	0.46499	-54.415
3070	0.46184	-56.983	0.79697	20.764	0.79697	20.764	0.46184	-56.983
3090	0.45473	-58.919	0.81189	20.769	0.81189	20.769	0.45473	-58.919
3110	0.44834	-60.565	0.82576	20.391	0.82576	20.391	0.44834	-60.565
3130	0.44319	-61.98	0.83879	19.768	0.83879	19.768	0.44319	-61.98
3150	0.43563	-62.935	0.84783	19.278	0.84783	19.278	0.43563	-62.935
3170	0.43001	-64.441	0.85696	18.68	0.85696	18.68	0.43001	-64.441
3190	0.42272	-65.393	0.86339	18.262	0.86339	18.262	0.42272	-65.393
3210	0.41513	-66.375	0.86911	17.854	0.86911	17.854	0.41513	-66.375
3230	0.40785	-67.454	0.8742	17.422	0.8742	17.422	0.40785	-67.454
3250	0.4008	-68.187	0.87684	17.074	0.87684	17.074	0.4008	-68.187
3270	0.39766	-68.881	0.88167	16.829	0.88167	16.829	0.39766	-68.881
3290	0.392	-69.41	0.88472	16.435	0.88472	16.435	0.392	-69.41
3310	0.38799	-69.816	0.88772	16.081	0.88772	16.081	0.38799	-69.816
3330	0.38598	-70.153	0.89129	15.722	0.89129	15.722	0.38598	-70.153
3350	0.38257	-70.488	0.89496	15.081	0.89496	15.081	0.38257	-70.488
3370	0.37413	-70.491	0.89107	14.95	0.89107	14.95	0.37413	-70.491
3390	0.36645	-70.621	0.89569	14.663	0.89569	14.663	0.36645	-70.621
3410	0.36156	-70.999	0.90234	14.408	0.90234	14.408	0.36156	-70.999
3430	0.35802	-71.705	0.90668	14.138	0.90668	14.138	0.35802	-71.705
3450	0.35092	-72.781	0.90649	13.575	0.90649	13.575	0.35092	-72.781
3470	0.34681	-73.072	0.90477	13.305	0.90477	13.305	0.34681	-73.072
3490	0.34424	-73.063	0.90879	13.139	0.90879	13.139	0.34424	-73.063
3510	0.34189	-73.256	0.91067	12.769	0.91067	12.769	0.34189	-73.256
3530	0.33838	-73.6	0.90979	12.269	0.90979	12.269	0.33838	-73.6
3550	0.33225	-73.495	0.91283	12.092	0.91283	12.092	0.33225	-73.495
3570	0.32672	-73.354	0.9175	11.669	0.9175	11.669	0.32672	-73.354
3590	0.3196	-73.713	0.91716	11.206	0.91716	11.206	0.3196	-73.713
3610	0.31404	-74.291	0.91758	10.957	0.91758	10.957	0.31404	-74.291
3630	0.31089	-74.92	0.92022	10.872	0.92022	10.872	0.31089	-74.92
3650	0.3087	-75.537	0.92216	10.595	0.92216	10.595	0.3087	-75.537
3670	0.3063	-75.69	0.9222	10.274	0.9222	10.274	0.3063	-75.69
3690	0.30348	-75.418	0.92442	10.213	0.92442	10.213	0.30348	-75.418
3710	0.30025	-75.17	0.9247	9.873	0.9247	9.873	0.30025	-75.17
3730	0.2959	-75.101	0.92338	9.271	0.92338	9.271	0.2959	-75.101
3750	0.28902	-75.076	0.92534	8.978	0.92534	8.978	0.28902	-75.076
3770	0.28323	-75.525	0.92385	8.515	0.92385	8.515	0.28323	-75.525
3790	0.27718	-75.985	0.92527	8.133	0.92527	8.133	0.27718	-75.985
3810	0.27276	-76.516	0.92831	7.914	0.92831	7.914	0.27276	-76.516
3830	0.27024	-77.016	0.93145	7.743	0.93145	7.743	0.27024	-77.016
3850	0.26828	-77.224	0.93287	7.307	0.93287	7.307	0.26828	-77.224
3870	0.26452	-77.047	0.93263	7.022	0.93263	7.022	0.26452	-77.047
3890	0.26124	-76.919	0.93368	6.743	0.93368	6.743	0.26124	-76.919
3910	0.25572	-76.652	0.93338	6.394	0.93338	6.394	0.25572	-76.652
3930	0.24819	-76.247	0.93201	6.045	0.93201	6.045	0.24819	-76.247
3950	0.24184	-75.891	0.93284	5.922	0.93284	5.922	0.24184	-75.891
3970	0.23612	-76.182	0.9309	5.485	0.9309	5.485	0.23612	-76.182
3990	0.23107	-76.711	0.92897	4.839	0.92897	4.839	0.23107	-76.711
4010	0.22628	-76.874	0.92878	4.383	0.92878	4.383	0.22628	-76.874
4030	0.22198	-76.482	0.92941	4.086	0.92941	4.086	0.22198	-76.482
4050	0.21898	-75.755	0.92729	3.491	0.92729	3.491	0.21898	-75.755
4070	0.21426	-74.43	0.923	3.014	0.923	3.014	0.21426	-74.43
4090	0.20822	-72.993	0.92164	2.538	0.92164	2.538	0.20822	-72.993
4110	0.2011	-70.978	0.91814	1.988	0.91814	1.988	0.2011	-70.978
4130	0.19341	-68.331	0.91099	1.461	0.91099	1.461	0.19341	-68.331
4150	0.1859	-65.403	0.90227	1.221	0.90227	1.221	0.1859	-65.403
4170	0.18236	-62.805	0.89636	0.499	0.89636	0.499	0.18236	-62.805
4190	0.18252	-59.118	0.88455	0.216	0.88455	0.216	0.18252	-59.118
4210	0.1888	-55.438	0.87153	0.008	0.87153	0.008	0.1888	-55.438
4230	0.20109	-52.394	0.85648	-0.074	0.85648	-0.074	0.20109	-52.394
4250	0.21675	-50.152	0.83306	0.432	0.83306	0.432	0.21675	-50.152
4270	0.2386	-49.631	0.82377	1.57	0.82377	1.57	0.2386	-49.631
4290	0.25933	-50.593	0.81856	2.699	0.81856	2.699	0.25933	-50.593
4310	0.27476	-52.345	0.82017	3.962	0.82017	3.962	0.27476	-52.345
4330	0.28376	-54.74	0.82803	5.208	0.82803	5.208	0.28376	-54.74
4350	0.28829	-58.185	0.83823	5.994	0.83823	5.994	0.28829	-58.185
4370	0.28934	-61.778	0.851	6.182	0.851	6.182	0.28934	-61.778
4390	0.28778	-64.642	0.8635	6.197	0.8635	6.197	0.28778	-64.642
4410	0.28516	-66.976	0.87521	6.027	0.87521	6.027	0.28516	-66.976
4430	0.28238	-68.77	0.88531	5.8	0.88531	5.8	0.28238	-68.77
4450	0.27961	-69.795	0.89271	5.79	0.89271	5.79	0.27961	-69.795
4470	0.27545	-70.535	0.89959	5.479	0.89959	5.479	0.27545	-70.535
4490	0.26904	-71.249	0.90191	5.003	0.90191	5.003	0.26904	-71.249
4510	0.26129	-71.693	0.90556	4.758	0.90556	4.758	0.26129	-71.693
4530	0.25324	-72.2	0.91278	4.649	0.91278	4.649	0.25324	-72.2
4550	0.24605	-73.677	0.92214	4.086	0.92214	4.086	0.24605	-73.677
4570	0.23915	-75.175	0.91972	3.772	0.91972	3.772	0.23915	-75.175
4590	0.23542	-76.179	0.92005	3.523	0.92005	3.523	0.23542	-76.179
4610	0.23375	-76.73	0.92303	3.222	0.92303	3.222	0.23375	-76.73
4630	0.23296	-76.879	0.9266	2.864	0.9266	2.864	0.23296	-76.879
4650	0.23182	-76.69	0.9267	2.554	0.9267	2.554	0.23182	-76.69
4670	0.22708	-76.299	0.92998	2.11	0.92998	2.11	0.22708	-76.299
4690	0.22214	-75.442	0.93184	2.019	0.93184	2.019	0.22214	-75.442
4710	0.21544	-75.073	0.93311	1.732	0.93311	1.732	0.21544	-75.073
4730	0.20726	-75.448	0.93311	1.303	0.93311	1.303	0.20726	-75.448
4750	0.19979	-76.131	0.92963	1.39	0.92963	1.39	0.19979	-76.131
4770	0.19786	-76.971	0.93727	0.91	0.93727	0.91	0.19786	-76.971
4790	0.19545	-77.503	0.93786	0.632	0.93786	0.632	0.19545	-77.503
4810	0.19475	-77.499	0.9364	0.273	0.9364	0.273	0.19475	-77.499
4830	0.19489	-76.917	0.93626	-0.189	0.93626	-0.189	0.19489	-76.917
4850	0.19196	-75.899	0.93922	-0.518	0.93922	-0.518	0.19196	-75.899
4870	0.18584	-74.831	0.93914	-0.622	0.93914	-0.622	0.18584	-74.831
4890	0.17833	-74.2	0.93696	-0.84	0.93696	-0.84	0.17833	-74.2
4910	0.17212	-73.973	0.93832	-1.17	0.93832	-1.17	0.17212	-73.973
4930	0.16742	-74.257	0.94133	-1.595	0.94133	-1.595	0.16742	-74.257
4950	0.16192	-75.293	0.93659	-2.08	0.93659	-2.08	0.16192	-75.293
4970	0.16012	-76.255	0.93621	-2.178	0.93621	-2.178	0.16012	-76.255
4990	0.16128	-75.678	0.93885	-2.215	0.93885	-2.215	0.16128	-75.678
5010	0.16089	-74.482	0.93918	-2.271	0.93918	-2.271	0.16089	-74.482
5030	0.15791	-73.059	0.93658	-2.421	0.93658	-2.421	0.15791	-73.059
5050	0.1548	-71.268	0.93512	-2.733	0.93512	-2.733	0.1548	-71.268
5070	0.14952	-69.628	0.93648	-3.13	0.93648	-3.13	0.14952	-69.628
5090	0.14359	-69.096	0.9342	-3.437	0.9342	-3.437	0.14359	-69.096
5110	0.1374	-69.148	0.93239	-3.747	0.93239	-3.747	0.1374	-69.148
5130	0.13245	-69.43	0.93231	-4.025	0.93231	-4.025	0.13245	-69.43
5150	0.13133	-69.756	0.93237	-4.116	0.93237	-4.116	0.13133	-69.756
5170	0.13202	-69.517	0.93385	-4.646	0.93385	-4.646	0.13202	-69.517
5190	0.13343	-68.731	0.9304	-5.273	0.9304	-5.273	0.13343	-68.731
5210	0.13284	-66.609	0.9273	-5.449	0.9273	-5.449	0.13284	-66.609
5230	0.13007	-63.487	0.92705	-5.321	0.92705	-5.321	0.13007	-63.487
5250	0.12745	-60.835	0.92944	-5.725	0.92944	-5.725	0.12745	-60.835
5270	0.12182	-58.91	0.92537	-6.202	0.92537	-6.202	0.12182	-58.91
5290	0.11768	-57.762	0.92506	-6.456	0.92506	-6.456	0.11768	-57.762
5310	0.11477	-56.879	0.9229	-6.742	0.9229	-6.742	0.11477	-56.879
5330	0.11343	-56.009	0.91829	-7.119	0.91829	-7.119	0.11343	-56.009
5350	0.11452	-55.162	0.91559	-7.448	0.91559	-7.448	0.11452	-55.162
5370	0.11673	-52.44	0.91312	-7.745	0.91312	-7.745	0.11673	-52.44
5390	0.11915	-49.441	0.90709	-8.147	0.90709	-8.147	0.11915	-49.441
5410	0.12164	-45.341	0.903	-8.443	0.903	-8.443	0.12164	-45.341
5430	0.12377	-40.521	0.90084	-8.596	0.90084	-8.596	0.12377	-40.521
5450	0.12486	-36.57	0.895	-8.739	0.895	-8.739	0.12486	-36.57
5470	0.12688	-34.108	0.88546	-9.133	0.88546	-9.133	0.12688	-34.108
5490	0.13093	-32.39	0.87638	-9.399	0.87638	-9.399	0.13093	-32.39
5510	0.13703	-31.339	0.86874	-9.405	0.86874	-9.405	0.13703	-31.339
5530	0.1452	-31.1	0.86171	-9.194	0.86171	-9.194	0.1452	-31.1
5550	0.15553	-32.044	0.85265	-8.984	0.85265	-8.984	0.15553	-32.044
5570	0.16566	-33.469	0.84338	-8.463	0.84338	-8.463	0.16566	-33.469
5590	0.17478	-34.805	0.84249	-8.053	0.84249	-8.053	0.17478	-34.805
5610	0.18083	-36.545	0.84431	-7.695	0.84431	-7.695	0.18083	-36.545
5630	0.1833	-38.767	0.84559	-7.39	0.84559	-7.39	0.1833	-38.767
5650	0.18317	-41.133	0.84551	-7.205	0.84551	-7.205	0.18317	-41.133
5670	0.1824	-43.483	0.85322	-6.814	0.85322	-6.814	0.1824	-43.483
5690	0.1809	-45.311	0.85739	-6.621	0.85739	-6.621	0.1809	-45.311
5710	0.17815	-46.678	0.85955	-6.624	0.85955	-6.624	0.17815	-46.678
5730	0.17483	-47.641	0.86052	-6.805	0.86052	-6.805	0.17483	-47.641
5750	0.17279	-48.252	0.86048	-7.135	0.86048	-7.135	0.17279	-48.252
5770	0.17024	-47.726	0.87057	-7.425	0.87057	-7.425	0.17024	-47.726
5790	0.1667	-47.22	0.87398	-7.377	0.87398	-7.377	0.1667	-47.22
5810	0.1629	-46.818	0.87514	-7.607	0.87514	-7.607	0.1629	-46.818
5830	0.15925	-46.547	0.87469	-8.063	0.87469	-8.063	0.15925	-46.547
5850	0.15584	-46.377	0.86947	-8.024	0.86947	-8.024	0.15584	-46.377
5870	0.15455	-46.083	0.87307	-8.424	0.87307	-8.424	0.15455	-46.083
5890	0.15416	-45.7	0.87221	-8.808	0.87221	-8.808	0.15416	-45.7
5910	0.15362	-45.247	0.87113	-9.261	0.87113	-9.261	0.15362	-45.247
5930	0.15272	-44.496	0.87101	-9.64	0.87101	-9.64	0.15272	-44.496
5950	0.15201	-42.976	0.87	-9.575	0.87	-9.575	0.15201	-42.976
5970	0.15127	-42.028	0.86939	-9.77	0.86939	-9.77	0.15127	-42.028
5990	0.15044	-41.419	0.86653	-9.8	0.86653	-9.8	0.15044	-41.419
6010	0.14974	-40.755	0.86388	-10.021	0.86388	-10.021	0.14974	-40.755
6030	0.14933	-39.96	0.8628	-10.388	0.8628	-10.388	0.14933	-39.96
6050	0.14933	-39.278	0.86359	-10.459	0.86359	-10.459	0.14933	-39.278
6070	0.14933	-38.956	0.86204	-10.623	0.86204	-10.623	0.14933	-38.956
6090	0.1498	-38.425	0.86126	-10.734	0.86126	-10.734	0.1498	-38.425
6110	0.15033	-37.719	0.85774	-10.831	0.85774	-10.831	0.15033	-37.719
6130	0.15107	-36.885	0.85251	-10.981	0.85251	-10.981	0.15107	-36.885
