#	mhz	s	ma	r	50			
50	0.95	173.40	0.11	79.30	0.11	79.30	0.95	173.40
100	0.94	167.00	0.22	73.70	0.22	73.70	0.94	167.00
150	0.94	160.60	0.32	68.10	0.32	68.10	0.94	160.60
200	0.89	155.30	0.41	63.20	0.41	63.20	0.89	155.30
250	0.85	150.00	0.49	58.30	0.49	58.30	0.85	150.00
300	0.81	145.10	0.55	53.30	0.55	53.30	0.81	145.10
350	0.77	140.20	0.62	48.30	0.62	48.30	0.77	140.20
400	0.72	136.50	0.66	44.60	0.66	44.60	0.72	136.50
450	0.68	132.80	0.71	40.90	0.71	40.90	0.68	132.80
500	0.63	127.90	0.76	36.20	0.76	36.20	0.63	127.90
550	0.57	123.10	0.81	31.60	0.81	31.60	0.57	123.10
600	0.54	120.50	0.83	29.10	0.83	29.10	0.54	120.50
650	0.51	117.80	0.86	26.60	0.86	26.60	0.51	117.80
700	0.48	115.90	0.87	24.40	0.87	24.40	0.48	115.90
750	0.45	114.00	0.88	22.20	0.88	22.20	0.45	114.00
800	0.43	112.00	0.90	20.10	0.90	20.10	0.43	112.00
850	0.40	110.00	0.91	18.10	0.91	18.10	0.40	110.00
900	0.38	108.90	0.92	16.50	0.92	16.50	0.38	108.90
950	0.36	107.80	0.92	14.90	0.92	14.90	0.36	107.80
1000	0.34	106.00	0.93	13.30	0.93	13.30	0.34	106.00
1050	0.32	104.10	0.94	11.80	0.94	11.80	0.32	104.10
1100	0.31	102.90	0.94	10.40	0.94	10.40	0.31	102.90
1150	0.30	101.80	0.95	9.00	0.95	9.00	0.30	101.80
1200	0.28	100.80	0.95	7.80	0.95	7.80	0.28	100.80
1250	0.27	99.80	0.96	6.70	0.96	6.70	0.27	99.80
1300	0.26	98.90	0.96	5.50	0.96	5.50	0.26	98.90
1350	0.25	98.10	0.97	4.40	0.97	4.40	0.25	98.10
1400	0.23	97.10	0.97	3.30	0.97	3.30	0.23	97.10
1450	0.22	96.10	0.97	2.20	0.97	2.20	0.22	96.10
1500	0.21	95.40	0.97	1.20	0.97	1.20	0.21	95.40
1550	0.20	94.60	0.98	0.10	0.98	0.10	0.20	94.60
1600	0.19	93.60	0.98	-0.90	0.98	-0.90	0.19	93.60
1650	0.18	92.60	0.98	-1.90	0.98	-1.90	0.18	92.60
1700	0.17	92.10	0.98	-2.70	0.98	-2.70	0.17	92.10
1750	0.16	91.60	0.98	-3.60	0.98	-3.60	0.16	91.60
1800	0.16	91.00	0.98	-4.50	0.98	-4.50	0.16	91.00
1850	0.15	90.50	0.99	-5.40	0.99	-5.40	0.15	90.50
1900	0.14	90.20	0.99	-6.30	0.99	-6.30	0.14	90.20
1950	0.13	89.90	0.99	-7.20	0.99	-7.20	0.13	89.90
2000	0.12	89.50	0.99	-8.00	0.99	-8.00	0.12	89.50
2050	0.12	89.20	0.99	-8.90	0.99	-8.90	0.12	89.20
2100	0.11	89.30	0.99	-9.70	0.99	-9.70	0.11	89.30
2150	0.10	89.50	0.99	-10.50	0.99	-10.50	0.10	89.50
2200	0.09	89.30	0.99	-11.30	0.99	-11.30	0.09	89.30
2250	0.09	89.20	0.99	-12.00	0.99	-12.00	0.09	89.20
2300	0.08	89.70	0.99	-12.80	0.99	-12.80	0.08	89.70
2350	0.08	90.30	0.99	-13.70	0.99	-13.70	0.08	90.30
2400	0.07	91.50	0.99	-14.40	0.99	-14.40	0.07	91.50
2450	0.06	92.70	0.99	-15.20	0.99	-15.20	0.06	92.70
2500	0.06	94.60	0.99	-15.90	0.99	-15.90	0.06	94.60
2550	0.05	96.50	0.99	-16.70	0.99	-16.70	0.05	96.50
2600	0.05	98.50	0.99	-17.40	0.99	-17.40	0.05	98.50
2650	0.04	100.50	0.99	-18.10	0.99	-18.10	0.04	100.50
2700	0.04	106.80	0.99	-18.90	0.99	-18.90	0.04	106.80
2750	0.03	113.10	0.99	-19.60	0.99	-19.60	0.03	113.10
2800	0.03	120.30	1.00	-20.30	1.00	-20.30	0.03	120.30
2850	0.03	127.50	1.00	-21.00	1.00	-21.00	0.03	127.50
2900	0.02	138.90	0.99	-21.80	0.99	-21.80	0.02	138.90
2950	0.02	150.20	0.99	-22.70	0.99	-22.70	0.02	150.20
3000	0.02	161.60	0.99	-23.30	0.99	-23.30	0.02	161.60
3050	0.02	173.10	1.00	-23.90	1.00	-23.90	0.02	173.10
3100	0.03	2.20	1.00	-24.60	1.00	-24.60	0.03	2.20
3150	0.03	-168.70	1.00	-25.20	1.00	-25.20	0.03	-168.70
3200	0.03	-163.00	0.99	-26.00	0.99	-26.00	0.03	-163.00
3250	0.04	-157.30	0.99	-26.70	0.99	-26.70	0.04	-157.30
3300	0.04	-154.70	0.99	-27.40	0.99	-27.40	0.04	-154.70
3350	0.04	-152.10	0.99	-28.10	0.99	-28.10	0.04	-152.10
3400	0.05	-150.00	0.99	-28.80	0.99	-28.80	0.05	-150.00
3450	0.05	-148.00	0.99	-29.50	0.99	-29.50	0.05	-148.00
3500	0.06	-147.10	0.99	-30.20	0.99	-30.20	0.06	-147.10
3550	0.06	-146.30	0.99	-30.90	0.99	-30.90	0.06	-146.30
3600	0.07	-144.50	0.99	-31.60	0.99	-31.60	0.07	-144.50
3650	0.07	-142.80	0.99	-32.30	0.99	-32.30	0.07	-142.80
3700	0.08	-143.50	0.99	-33.00	0.99	-33.00	0.08	-143.50
3750	0.08	-144.20	0.99	-33.70	0.99	-33.70	0.08	-144.20
3800	0.08	-144.10	0.99	-34.50	0.99	-34.50	0.08	-144.10
3850	0.09	-144.00	0.99	-35.30	0.99	-35.30	0.09	-144.00
3900	0.09	-144.60	0.99	-35.80	0.99	-35.80	0.09	-144.60
3950	0.10	-145.20	0.99	-36.30	0.99	-36.30	0.10	-145.20
4000	0.10	-145.40	0.99	-37.00	0.99	-37.00	0.10	-145.40
4050	0.10	-145.70	0.99	-37.60	0.99	-37.60	0.10	-145.70
4100	0.11	-146.10	0.99	-38.30	0.99	-38.30	0.11	-146.10
4150	0.11	-146.50	0.99	-38.90	0.99	-38.90	0.11	-146.50
4200	0.11	-146.90	0.99	-39.60	0.99	-39.60	0.11	-146.90
4250	0.12	-147.20	0.99	-40.30	0.99	-40.30	0.12	-147.20
4300	0.12	-148.20	0.99	-40.80	0.99	-40.80	0.12	-148.20
4350	0.13	-149.20	0.99	-41.40	0.99	-41.40	0.13	-149.20
4400	0.13	-149.20	0.99	-42.20	0.99	-42.20	0.13	-149.20
4450	0.13	-149.10	0.99	-43.10	0.99	-43.10	0.13	-149.10
4500	0.14	-150.30	0.99	-43.80	0.99	-43.80	0.14	-150.30
4550	0.14	-151.40	0.99	-44.40	0.99	-44.40	0.14	-151.40
4600	0.15	-151.60	0.98	-45.20	0.98	-45.20	0.15	-151.60
4650	0.15	-151.90	0.98	-45.90	0.98	-45.90	0.15	-151.90
4700	0.15	-152.60	0.98	-46.50	0.98	-46.50	0.15	-152.60
4750	0.16	-153.30	0.98	-47.10	0.98	-47.10	0.16	-153.30
4800	0.16	-154.00	0.98	-47.70	0.98	-47.70	0.16	-154.00
4850	0.16	-154.70	0.98	-48.40	0.98	-48.40	0.16	-154.70
4900	0.17	-155.20	0.98	-49.10	0.98	-49.10	0.17	-155.20
4950	0.17	-155.70	0.98	-49.80	0.98	-49.80	0.17	-155.70
5000	0.18	-156.40	0.98	-50.30	0.98	-50.30	0.18	-156.40
5050	0.18	-157.00	0.98	-50.70	0.98	-50.70	0.18	-157.00
5100	0.18	-157.60	0.97	-51.50	0.97	-51.50	0.18	-157.60
5150	0.19	-158.20	0.97	-52.30	0.97	-52.30	0.19	-158.20
5200	0.19	-158.40	0.98	-53.10	0.98	-53.10	0.19	-158.40
5250	0.20	-158.60	0.98	-53.90	0.98	-53.90	0.20	-158.60
5300	0.20	-159.20	0.98	-54.50	0.98	-54.50	0.20	-159.20
5350	0.21	-159.90	0.97	-55.10	0.97	-55.10	0.21	-159.90
5400	0.21	-160.10	0.97	-55.70	0.97	-55.70	0.21	-160.10
5450	0.22	-160.30	0.97	-56.30	0.97	-56.30	0.22	-160.30
5500	0.22	-160.60	0.97	-57.10	0.97	-57.10	0.22	-160.60
5550	0.23	-160.90	0.96	-57.90	0.96	-57.90	0.23	-160.90
5600	0.23	-161.30	0.96	-58.50	0.96	-58.50	0.23	-161.30
5650	0.24	-161.80	0.96	-59.10	0.96	-59.10	0.24	-161.80
5700	0.24	-162.20	0.96	-60.00	0.96	-60.00	0.24	-162.20
5750	0.25	-162.60	0.96	-60.80	0.96	-60.80	0.25	-162.60
5800	0.25	-162.80	0.96	-61.50	0.96	-61.50	0.25	-162.80
5850	0.26	-162.90	0.95	-62.20	0.95	-62.20	0.26	-162.90
5900	0.26	-163.40	0.95	-62.70	0.95	-62.70	0.26	-163.40
5950	0.26	-163.90	0.95	-63.20	0.95	-63.20	0.26	-163.90
6000	0.29	-165.10	0.95	-64.20	0.95	-64.20	0.29	-165.10
6050	0.31	-166.20	0.94	-65.20	0.94	-65.20	0.31	-166.20
6100	0.31	-166.80	0.94	-65.90	0.94	-65.90	0.31	-166.80
6150	0.31	-167.40	0.94	-66.60	0.94	-66.60	0.31	-167.40
6200	0.32	-168.40	0.94	-67.20	0.94	-67.20	0.32	-168.40
6250	0.33	-169.40	0.93	-67.90	0.93	-67.90	0.33	-169.40
6300	0.34	-170.20	0.93	-68.50	0.93	-68.50	0.34	-170.20
6350	0.34	-171.10	0.93	-69.10	0.93	-69.10	0.34	-171.10
6400	0.35	-171.60	0.93	-69.80	0.93	-69.80	0.35	-171.60
6450	0.35	-172.10	0.92	-70.60	0.92	-70.60	0.35	-172.10
6500	0.36	-173.30	0.92	-71.30	0.92	-71.30	0.36	-173.30
6550	0.36	-174.40	0.91	-72.00	0.91	-72.00	0.36	-174.40
6600	0.37	-174.70	0.92	-72.50	0.92	-72.50	0.37	-174.70
6650	0.37	-175.00	0.92	-73.10	0.92	-73.10	0.37	-175.00
6700	0.38	-175.70	0.92	-73.80	0.92	-73.80	0.38	-175.70
6750	0.38	-176.50	0.92	-74.50	0.92	-74.50	0.38	-176.50
6800	0.38	-177.30	0.91	-75.30	0.91	-75.30	0.38	-177.30
6850	0.39	-178.20	0.91	-76.10	0.91	-76.10	0.39	-178.20
6900	0.39	-179.00	0.90	-76.70	0.90	-76.70	0.39	-179.00
6950	0.40	-179.80	0.90	-77.30	0.90	-77.30	0.40	-179.80
7000	0.40	-0.60	0.90	-78.10	0.90	-78.10	0.40	-0.60
7050	0.41	178.50	0.90	-79.00	0.90	-79.00	0.41	178.50
7100	0.41	177.60	0.90	-79.70	0.90	-79.70	0.41	177.60
7150	0.41	176.60	0.89	-80.40	0.89	-80.40	0.41	176.60
7200	0.42	175.50	0.89	-81.50	0.89	-81.50	0.42	175.50
7250	0.42	174.30	0.89	-82.50	0.89	-82.50	0.42	174.30
7300	0.43	172.90	0.89	-83.30	0.89	-83.30	0.43	172.90
7350	0.44	171.60	0.88	-84.20	0.88	-84.20	0.44	171.60
7400	0.44	170.40	0.88	-85.10	0.88	-85.10	0.44	170.40
7450	0.45	169.20	0.88	-86.10	0.88	-86.10	0.45	169.20
7500	0.45	168.00	0.87	-87.10	0.87	-87.10	0.45	168.00
7550	0.46	166.80	0.87	-88.10	0.87	-88.10	0.46	166.80
7600	0.47	165.60	0.86	-89.00	0.86	-89.00	0.47	165.60
7650	0.47	164.40	0.86	-89.80	0.86	-89.80	0.47	164.40
7700	0.48	162.90	0.85	-90.80	0.85	-90.80	0.48	162.90
7750	0.48	161.40	0.85	-91.80	0.85	-91.80	0.48	161.40
7800	0.49	160.10	0.84	-93.10	0.84	-93.10	0.49	160.10
7850	0.50	158.80	0.84	-94.30	0.84	-94.30	0.50	158.80
7900	0.51	156.90	0.83	-95.50	0.83	-95.50	0.51	156.90
7950	0.52	155.00	0.82	-96.70	0.82	-96.70	0.52	155.00
8000	0.53	153.80	0.81	-98.00	0.81	-98.00	0.53	153.80
8050	0.55	152.70	0.81	-99.30	0.81	-99.30	0.55	152.70
8100	0.56	150.60	0.80	-100.70	0.80	-100.70	0.56	150.60
8150	0.57	148.50	0.79	-102.20	0.79	-102.20	0.57	148.50
8200	0.58	147.30	0.78	-103.70	0.78	-103.70	0.58	147.30
8250	0.59	146.00	0.76	-105.10	0.76	-105.10	0.59	146.00
8300	0.60	143.60	0.75	-106.90	0.75	-106.90	0.60	143.60
8350	0.62	141.20	0.74	-108.70	0.74	-108.70	0.62	141.20
8400	0.63	139.80	0.72	-110.30	0.72	-110.30	0.63	139.80
8450	0.65	138.30	0.70	-112.00	0.70	-112.00	0.65	138.30
8500	0.66	135.70	0.68	-114.00	0.68	-114.00	0.66	135.70
8550	0.68	133.10	0.66	-116.00	0.66	-116.00	0.68	133.10
8600	0.69	131.10	0.63	-117.70	0.63	-117.70	0.69	131.10
8650	0.71	129.00	0.60	-119.40	0.60	-119.40	0.71	129.00
8700	0.73	126.60	0.57	-121.20	0.57	-121.20	0.73	126.60
8750	0.75	124.20	0.54	-123.00	0.54	-123.00	0.75	124.20
8800	0.77	121.30	0.50	-124.50	0.50	-124.50	0.77	121.30
8850	0.79	118.30	0.47	-126.00	0.47	-126.00	0.79	118.30
8900	0.80	115.50	0.43	-126.90	0.43	-126.90	0.80	115.50
8950	0.81	112.60	0.39	-127.90	0.39	-127.90	0.81	112.60
9000	0.82	109.70	0.34	-126.60	0.34	-126.60	0.82	109.70
9050	0.83	106.80	0.30	-125.30	0.30	-125.30	0.83	106.80
9100	0.84	103.00	0.26	-118.90	0.26	-118.90	0.84	103.00
9150	0.85	99.20	0.23	-112.60	0.23	-112.60	0.85	99.20
9200	0.81	96.20	0.24	-103.10	0.24	-103.10	0.81	96.20
9250	0.78	93.20	0.25	-93.50	0.25	-93.50	0.78	93.20
9300	0.79	94.50	0.23	-94.60	0.23	-94.60	0.79	94.50
9350	0.80	95.80	0.22	-95.70	0.22	-95.70	0.80	95.80
9400	0.81	92.40	0.20	-84.90	0.20	-84.90	0.81	92.40
9450	0.83	89.00	0.19	-74.00	0.19	-74.00	0.83	89.00
9500	0.82	86.50	0.21	-63.60	0.21	-63.60	0.82	86.50
9550	0.81	83.90	0.23	-53.20	0.23	-53.20	0.81	83.90
9600	0.80	81.30	0.26	-49.40	0.26	-49.40	0.80	81.30
9650	0.80	78.60	0.29	-45.70	0.29	-45.70	0.80	78.60
9700	0.78	76.40	0.33	-44.60	0.33	-44.60	0.78	76.40
9750	0.76	74.30	0.36	-43.40	0.36	-43.40	0.76	74.30
9800	0.75	72.50	0.40	-43.50	0.40	-43.50	0.75	72.50
9850	0.73	70.70	0.43	-43.60	0.43	-43.60	0.73	70.70
9900	0.72	68.80	0.46	-44.60	0.46	-44.60	0.72	68.80
9950	0.71	66.80	0.49	-45.50	0.49	-45.50	0.71	66.80
10000	0.70	64.50	0.51	-45.90	0.51	-45.90	0.70	64.50
10050	0.68	62.30	0.54	-46.30	0.54	-46.30	0.68	62.30
10100	0.67	60.20	0.57	-47.50	0.57	-47.50	0.67	60.20
10150	0.65	58.10	0.60	-48.80	0.60	-48.80	0.65	58.10
10200	0.63	56.10	0.62	-49.90	0.62	-49.90	0.63	56.10
10250	0.62	54.00	0.65	-51.10	0.65	-51.10	0.62	54.00
10300	0.59	51.40	0.67	-52.90	0.67	-52.90	0.59	51.40
10350	0.57	48.70	0.69	-54.60	0.69	-54.60	0.57	48.70
10400	0.55	47.30	0.71	-55.90	0.71	-55.90	0.55	47.30
10450	0.52	45.80	0.73	-57.20	0.73	-57.20	0.52	45.80
10500	0.51	44.00	0.75	-58.90	0.75	-58.90	0.51	44.00
10550	0.49	42.20	0.76	-60.50	0.76	-60.50	0.49	42.20
10600	0.47	41.00	0.77	-61.60	0.77	-61.60	0.47	41.00
10650	0.45	39.90	0.79	-62.70	0.79	-62.70	0.45	39.90
10700	0.44	38.00	0.80	-63.90	0.80	-63.90	0.44	38.00
10750	0.43	36.20	0.81	-65.20	0.81	-65.20	0.43	36.20
10800	0.42	34.20	0.82	-66.20	0.82	-66.20	0.42	34.20
10850	0.40	32.20	0.84	-67.20	0.84	-67.20	0.40	32.20
10900	0.39	29.80	0.86	-68.40	0.86	-68.40	0.39	29.80
10950	0.38	27.50	0.87	-69.70	0.87	-69.70	0.38	27.50
11000	0.35	25.70	0.89	-71.40	0.89	-71.40	0.35	25.70
11050	0.33	23.80	0.90	-73.10	0.90	-73.10	0.33	23.80
11100	0.32	23.00	0.91	-74.30	0.91	-74.30	0.32	23.00
11150	0.31	22.10	0.92	-75.50	0.92	-75.50	0.31	22.10
11200	0.29	20.60	0.92	-76.90	0.92	-76.90	0.29	20.60
11250	0.27	19.10	0.93	-78.20	0.93	-78.20	0.27	19.10
11300	0.26	18.40	0.94	-79.50	0.94	-79.50	0.26	18.40
11350	0.24	17.60	0.94	-80.70	0.94	-80.70	0.24	17.60
11400	0.23	17.40	0.94	-81.90	0.94	-81.90	0.23	17.40
11450	0.22	17.20	0.94	-83.20	0.94	-83.20	0.22	17.20
11500	0.21	16.00	0.95	-84.40	0.95	-84.40	0.21	16.00
11550	0.19	14.90	0.96	-85.60	0.96	-85.60	0.19	14.90
11600	0.19	16.70	0.96	-86.60	0.96	-86.60	0.19	16.70
11650	0.18	18.40	0.96	-87.60	0.96	-87.60	0.18	18.40
11700	0.16	18.60	0.96	-88.70	0.96	-88.70	0.16	18.60
11750	0.15	18.80	0.96	-89.80	0.96	-89.80	0.15	18.80
11800	0.14	20.70	0.96	-90.70	0.96	-90.70	0.14	20.70
11850	0.14	22.70	0.97	-91.60	0.97	-91.60	0.14	22.70
11900	0.13	23.70	0.97	-92.70	0.97	-92.70	0.13	23.70
11950	0.12	24.70	0.97	-93.70	0.97	-93.70	0.12	24.70
12000	0.12	30.70	0.97	-94.60	0.97	-94.60	0.12	30.70
12050	0.11	36.70	0.97	-95.40	0.97	-95.40	0.11	36.70
12100	0.10	37.20	0.97	-96.40	0.97	-96.40	0.10	37.20
12150	0.09	37.70	0.97	-97.40	0.97	-97.40	0.09	37.70
12200	0.09	42.80	0.97	-98.30	0.97	-98.30	0.09	42.80
12250	0.09	47.90	0.97	-99.30	0.97	-99.30	0.09	47.90
12300	0.09	49.40	0.97	-100.00	0.97	-100.00	0.09	49.40
12350	0.08	51.00	0.97	-100.70	0.97	-100.70	0.08	51.00
12400	0.08	52.90	0.97	-101.30	0.97	-101.30	0.08	52.90
12450	0.08	54.90	0.97	-101.80	0.97	-101.80	0.08	54.90
12500	0.08	56.80	0.97	-102.90	0.97	-102.90	0.08	56.80
12550	0.07	58.70	0.97	-104.10	0.97	-104.10	0.07	58.70
12600	0.07	59.60	0.97	-104.70	0.97	-104.70	0.07	59.60
12650	0.06	60.60	0.97	-105.40	0.97	-105.40	0.06	60.60
12700	0.06	61.60	0.97	-106.10	0.97	-106.10	0.06	61.60
12750	0.05	62.50	0.97	-106.70	0.97	-106.70	0.05	62.50
12800	0.05	63.90	0.97	-107.40	0.97	-107.40	0.05	63.90
12850	0.06	65.30	0.97	-108.00	0.97	-108.00	0.06	65.30
12900	0.05	73.90	0.97	-108.90	0.97	-108.90	0.05	73.90
12950	0.05	82.50	0.97	-109.70	0.97	-109.70	0.05	82.50
13000	0.05	80.00	0.97	-110.30	0.97	-110.30	0.05	80.00
13050	0.04	77.50	0.98	-110.80	0.98	-110.80	0.04	77.50
13100	0.05	80.20	0.98	-111.50	0.98	-111.50	0.05	80.20
13150	0.05	82.90	0.98	-112.30	0.98	-112.30	0.05	82.90
13200	0.05	79.90	0.98	-112.90	0.98	-112.90	0.05	79.90
13250	0.05	77.00	0.97	-113.60	0.97	-113.60	0.05	77.00
13300	0.05	79.40	0.98	-114.40	0.98	-114.40	0.05	79.40
13350	0.05	81.90	0.98	-115.10	0.98	-115.10	0.05	81.90
13400	0.05	73.90	0.98	-115.90	0.98	-115.90	0.05	73.90
13450	0.06	65.90	0.98	-116.70	0.98	-116.70	0.06	65.90
13500	0.05	68.70	0.98	-117.30	0.98	-117.30	0.05	68.70
13550	0.05	71.50	0.98	-118.00	0.98	-118.00	0.05	71.50
13600	0.05	64.10	0.99	-118.80	0.99	-118.80	0.05	64.10
13650	0.06	56.60	0.99	-119.60	0.99	-119.60	0.06	56.60
13700	0.05	59.10	0.99	-120.20	0.99	-120.20	0.05	59.10
13750	0.05	61.60	0.99	-120.90	0.99	-120.90	0.05	61.60
13800	0.05	53.30	0.99	-121.70	0.99	-121.70	0.05	53.30
13850	0.05	45.00	0.99	-122.50	0.99	-122.50	0.05	45.00
13900	0.05	40.90	0.99	-123.20	0.99	-123.20	0.05	40.90
13950	0.04	36.70	0.99	-123.90	0.99	-123.90	0.04	36.70
14000	0.04	38.40	0.98	-124.60	0.98	-124.60	0.04	38.40
14050	0.05	40.20	0.98	-125.30	0.98	-125.30	0.05	40.20
14100	0.04	31.10	0.98	-126.00	0.98	-126.00	0.04	31.10
14150	0.04	22.00	0.98	-126.70	0.98	-126.70	0.04	22.00
14200	0.04	25.80	0.98	-127.50	0.98	-127.50	0.04	25.80
14250	0.04	29.60	0.99	-128.30	0.99	-128.30	0.04	29.60
14300	0.04	25.40	0.98	-129.10	0.98	-129.10	0.04	25.40
14350	0.04	21.20	0.98	-129.90	0.98	-129.90	0.04	21.20
14400	0.04	22.80	0.98	-130.60	0.98	-130.60	0.04	22.80
14450	0.04	24.40	0.98	-131.20	0.98	-131.20	0.04	24.40
14500	0.04	24.20	0.98	-132.20	0.98	-132.20	0.04	24.20
14550	0.05	23.90	0.98	-133.20	0.98	-133.20	0.05	23.90
14600	0.05	27.50	0.98	-133.80	0.98	-133.80	0.05	27.50
14650	0.05	31.10	0.98	-134.50	0.98	-134.50	0.05	31.10
14700	0.05	36.70	0.97	-135.30	0.97	-135.30	0.05	36.70
14750	0.06	42.30	0.97	-136.10	0.97	-136.10	0.06	42.30
14800	0.06	46.80	0.97	-136.90	0.97	-136.90	0.06	46.80
14850	0.06	51.30	0.97	-137.70	0.97	-137.70	0.06	51.30
14900	0.07	54.80	0.97	-138.50	0.97	-138.50	0.07	54.80
14950	0.08	58.30	0.97	-139.30	0.97	-139.30	0.08	58.30
15000	0.08	61.90	0.97	-140.10	0.97	-140.10	0.08	61.90
15050	0.09	65.50	0.97	-141.00	0.97	-141.00	0.09	65.50
15100	0.09	68.70	0.96	-141.90	0.96	-141.90	0.09	68.70
15150	0.10	71.90	0.96	-142.90	0.96	-142.90	0.10	71.90
15200	0.11	72.80	0.96	-143.80	0.96	-143.80	0.11	72.80
15250	0.12	73.80	0.96	-144.70	0.96	-144.70	0.12	73.80
15300	0.13	75.20	0.95	-145.70	0.95	-145.70	0.13	75.20
15350	0.15	76.60	0.95	-146.70	0.95	-146.70	0.15	76.60
15400	0.16	77.60	0.94	-147.60	0.94	-147.60	0.16	77.60
15450	0.17	78.60	0.94	-148.50	0.94	-148.50	0.17	78.60
15500	0.19	80.80	0.94	-149.50	0.94	-149.50	0.19	80.80
15550	0.20	83.00	0.93	-150.50	0.93	-150.50	0.20	83.00
15600	0.21	82.60	0.93	-151.40	0.93	-151.40	0.21	82.60
15650	0.22	82.10	0.92	-152.30	0.92	-152.30	0.22	82.10
15700	0.24	83.20	0.91	-153.30	0.91	-153.30	0.24	83.20
15750	0.26	84.40	0.90	-154.30	0.90	-154.30	0.26	84.40
15800	0.28	83.60	0.90	-155.50	0.90	-155.50	0.28	83.60
15850	0.30	82.80	0.89	-156.80	0.89	-156.80	0.30	82.80
15900	0.32	82.90	0.88	-158.00	0.88	-158.00	0.32	82.90
15950	0.35	83.10	0.87	-159.20	0.87	-159.20	0.35	83.10
16000	0.37	82.60	0.85	-160.20	0.85	-160.20	0.37	82.60
16050	0.38	82.10	0.83	-161.20	0.83	-161.20	0.38	82.10
16100	0.40	81.20	0.81	-162.30	0.81	-162.30	0.40	81.20
16150	0.43	80.30	0.79	-163.40	0.79	-163.40	0.43	80.30
16200	0.44	78.20	0.76	-164.10	0.76	-164.10	0.44	78.20
16250	0.46	76.20	0.74	-164.80	0.74	-164.80	0.46	76.20
16300	0.46	74.50	0.72	-164.30	0.72	-164.30	0.46	74.50
16350	0.46	72.70	0.70	-163.80	0.70	-163.80	0.46	72.70
16400	0.47	72.90	0.69	-164.00	0.69	-164.00	0.47	72.90
16450	0.48	73.10	0.68	-164.10	0.68	-164.10	0.48	73.10
16500	0.50	72.40	0.67	-164.90	0.67	-164.90	0.50	72.40
16550	0.51	71.60	0.65	-165.70	0.65	-165.70	0.51	71.60
16600	0.54	70.60	0.63	-167.30	0.63	-167.30	0.54	70.60
16650	0.57	69.60	0.60	-168.90	0.60	-168.90	0.57	69.60
16700	0.59	66.30	0.56	-169.30	0.56	-169.30	0.59	66.30
16750	0.61	63.10	0.51	-169.70	0.51	-169.70	0.61	63.10
16800	0.63	57.90	0.47	-167.10	0.47	-167.10	0.63	57.90
16850	0.65	52.60	0.42	-164.40	0.42	-164.40	0.65	52.60
16900	0.65	46.70	0.39	-156.30	0.39	-156.30	0.65	46.70
16950	0.65	40.70	0.36	-148.10	0.36	-148.10	0.65	40.70
17000	0.64	34.50	0.38	-138.90	0.38	-138.90	0.64	34.50
17050	0.62	28.20	0.41	-129.60	0.41	-129.60	0.62	28.20
17100	0.58	21.80	0.46	-125.80	0.46	-125.80	0.58	21.80
17150	0.55	15.40	0.52	-121.90	0.52	-121.90	0.55	15.40
17200	0.51	9.30	0.58	-122.10	0.58	-122.10	0.51	9.30
17250	0.46	3.20	0.65	-122.30	0.65	-122.30	0.46	3.20
17300	0.42	-2.00	0.70	-124.20	0.70	-124.20	0.42	-2.00
17350	0.38	-7.30	0.75	-126.10	0.75	-126.10	0.38	-7.30
17400	0.34	-11.80	0.79	-128.30	0.79	-128.30	0.34	-11.80
17450	0.29	-16.40	0.83	-130.40	0.83	-130.40	0.29	-16.40
17500	0.26	-19.40	0.85	-132.80	0.85	-132.80	0.26	-19.40
17550	0.22	-22.40	0.87	-135.30	0.87	-135.30	0.22	-22.40
17600	0.19	-27.00	0.89	-137.40	0.89	-137.40	0.19	-27.00
17650	0.16	-31.60	0.91	-139.40	0.91	-139.40	0.16	-31.60
17700	0.14	-30.90	0.92	-141.10	0.92	-141.10	0.14	-30.90
17750	0.11	-30.30	0.93	-142.80	0.93	-142.80	0.11	-30.30
17800	0.09	-36.60	0.93	-144.50	0.93	-144.50	0.09	-36.60
17850	0.08	-42.90	0.94	-146.20	0.94	-146.20	0.08	-42.90
17900	0.06	-50.00	0.94	-147.60	0.94	-147.60	0.06	-50.00
17950	0.04	-57.10	0.94	-149.00	0.94	-149.00	0.04	-57.10
18000	0.04	-57.80	0.95	-150.00	0.95	-150.00	0.04	-57.80
18050	0.04	-58.50	0.96	-151.10	0.96	-151.10	0.04	-58.50
18100	0.03	-68.70	0.96	-152.20	0.96	-152.20	0.03	-68.70
18150	0.02	-79.00	0.96	-153.20	0.96	-153.20	0.02	-79.00
18200	0.02	-81.10	0.96	-154.20	0.96	-154.20	0.02	-81.10
18250	0.02	-83.20	0.97	-155.10	0.97	-155.10	0.02	-83.20
18300	0.02	-96.70	0.97	-156.30	0.97	-156.30	0.02	-96.70
18350	0.02	-110.10	0.96	-157.50	0.96	-157.50	0.02	-110.10
18400	0.03	-89.10	0.97	-158.30	0.97	-158.30	0.03	-89.10
18450	0.03	-68.20	0.97	-159.10	0.97	-159.10	0.03	-68.20
18500	0.04	-66.80	0.97	-160.00	0.97	-160.00	0.04	-66.80
18550	0.04	-65.40	0.96	-161.00	0.96	-161.00	0.04	-65.40
18600	0.05	-59.40	0.96	-161.80	0.96	-161.80	0.05	-59.40
18650	0.06	-53.40	0.96	-162.60	0.96	-162.60	0.06	-53.40
18700	0.07	-58.70	0.96	-163.00	0.96	-163.00	0.07	-58.70
