#	mhz	s	ma	r	50			
50	0.96	178.80	0.02	83.40	0.02	83.40	0.96	178.80
100	0.99	177.30	0.04	83.30	0.04	83.30	0.99	177.30
150	1.01	175.80	0.06	83.20	0.06	83.20	1.01	175.80
200	1.00	174.70	0.07	82.60	0.07	82.60	1.00	174.70
250	0.99	173.50	0.09	81.90	0.09	81.90	0.99	173.50
300	0.99	171.70	0.11	80.30	0.11	80.30	0.99	171.70
350	1.00	169.90	0.13	78.70	0.13	78.70	1.00	169.90
400	0.99	168.80	0.14	77.60	0.14	77.60	0.99	168.80
450	0.98	167.70	0.16	76.60	0.16	76.60	0.98	167.70
500	0.98	165.30	0.19	74.70	0.19	74.70	0.98	165.30
550	0.98	162.90	0.22	72.90	0.22	72.90	0.98	162.90
600	0.98	161.50	0.23	71.80	0.23	71.80	0.98	161.50
650	0.97	160.10	0.25	70.80	0.25	70.80	0.97	160.10
700	0.96	158.70	0.27	69.20	0.27	69.20	0.96	158.70
750	0.96	157.30	0.28	67.60	0.28	67.60	0.96	157.30
800	0.95	155.80	0.30	66.20	0.30	66.20	0.95	155.80
850	0.95	154.30	0.32	64.80	0.32	64.80	0.95	154.30
900	0.94	153.00	0.33	63.30	0.33	63.30	0.94	153.00
950	0.93	151.80	0.35	61.80	0.35	61.80	0.93	151.80
1000	0.92	150.20	0.36	60.60	0.36	60.60	0.92	150.20
1050	0.92	148.60	0.38	59.30	0.38	59.30	0.92	148.60
1100	0.91	147.20	0.39	57.90	0.39	57.90	0.91	147.20
1150	0.91	145.80	0.41	56.60	0.41	56.60	0.91	145.80
1200	0.90	144.50	0.42	55.40	0.42	55.40	0.90	144.50
1250	0.89	143.20	0.43	54.20	0.43	54.20	0.89	143.20
1300	0.89	142.10	0.45	53.10	0.45	53.10	0.89	142.10
1350	0.89	140.90	0.46	52.00	0.46	52.00	0.89	140.90
1400	0.88	139.50	0.47	50.60	0.47	50.60	0.88	139.50
1450	0.87	138.00	0.48	49.30	0.48	49.30	0.87	138.00
1500	0.86	136.80	0.50	48.20	0.50	48.20	0.86	136.80
1550	0.86	135.60	0.51	47.10	0.51	47.10	0.86	135.60
1600	0.85	134.30	0.52	45.90	0.52	45.90	0.85	134.30
1650	0.84	132.90	0.53	44.80	0.53	44.80	0.84	132.90
1700	0.83	131.70	0.54	43.60	0.54	43.60	0.83	131.70
1750	0.83	130.40	0.55	42.40	0.55	42.40	0.83	130.40
1800	0.82	129.30	0.56	41.40	0.56	41.40	0.82	129.30
1850	0.81	128.20	0.57	40.50	0.57	40.50	0.81	128.20
1900	0.81	126.90	0.58	39.30	0.58	39.30	0.81	126.90
1950	0.80	125.70	0.59	38.00	0.59	38.00	0.80	125.70
2000	0.79	124.50	0.60	37.00	0.60	37.00	0.79	124.50
2050	0.78	123.30	0.61	35.90	0.61	35.90	0.78	123.30
2100	0.77	122.50	0.61	34.90	0.61	34.90	0.77	122.50
2150	0.77	121.70	0.62	33.90	0.62	33.90	0.77	121.70
2200	0.76	120.40	0.63	32.90	0.63	32.90	0.76	120.40
2250	0.76	119.00	0.64	31.90	0.64	31.90	0.76	119.00
2300	0.75	118.10	0.65	30.80	0.65	30.80	0.75	118.10
2350	0.73	117.20	0.65	29.80	0.65	29.80	0.73	117.20
2400	0.73	116.60	0.66	28.90	0.66	28.90	0.73	116.60
2450	0.72	116.00	0.67	28.00	0.67	28.00	0.72	116.00
2500	0.72	114.70	0.68	27.10	0.68	27.10	0.72	114.70
2550	0.72	113.50	0.68	26.10	0.68	26.10	0.72	113.50
2600	0.71	112.60	0.69	25.10	0.69	25.10	0.71	112.60
2650	0.69	111.70	0.70	24.20	0.70	24.20	0.69	111.70
2700	0.69	111.00	0.70	23.30	0.70	23.30	0.69	111.00
2750	0.69	110.20	0.71	22.40	0.71	22.40	0.69	110.20
2800	0.68	109.20	0.72	21.50	0.72	21.50	0.68	109.20
2850	0.67	108.30	0.73	20.50	0.73	20.50	0.67	108.30
2900	0.67	107.30	0.73	19.50	0.73	19.50	0.67	107.30
2950	0.66	106.30	0.74	18.50	0.74	18.50	0.66	106.30
3000	0.65	105.50	0.74	17.70	0.74	17.70	0.65	105.50
3050	0.65	104.70	0.75	16.90	0.75	16.90	0.65	104.70
3100	0.64	103.60	0.75	15.90	0.75	15.90	0.64	103.60
3150	0.64	102.50	0.76	14.90	0.76	14.90	0.64	102.50
3200	0.63	102.00	0.76	14.10	0.76	14.10	0.63	102.00
3250	0.62	101.50	0.77	13.30	0.77	13.30	0.62	101.50
3300	0.62	100.60	0.77	12.40	0.77	12.40	0.62	100.60
3350	0.61	99.80	0.78	11.40	0.78	11.40	0.61	99.80
3400	0.61	99.10	0.78	10.50	0.78	10.50	0.61	99.10
3450	0.60	98.40	0.79	9.60	0.79	9.60	0.60	98.40
3500	0.59	97.70	0.79	8.90	0.79	8.90	0.59	97.70
3550	0.58	97.10	0.80	8.20	0.80	8.20	0.58	97.10
3600	0.58	96.30	0.80	7.20	0.80	7.20	0.58	96.30
3650	0.57	95.60	0.81	6.20	0.81	6.20	0.57	95.60
3700	0.57	94.80	0.81	5.40	0.81	5.40	0.57	94.80
3750	0.56	94.00	0.81	4.60	0.81	4.60	0.56	94.00
3800	0.56	93.30	0.82	3.60	0.82	3.60	0.56	93.30
3850	0.55	92.60	0.82	2.60	0.82	2.60	0.55	92.60
3900	0.54	91.90	0.83	2.00	0.83	2.00	0.54	91.90
3950	0.54	91.30	0.83	1.40	0.83	1.40	0.54	91.30
4000	0.53	90.60	0.83	0.40	0.83	0.40	0.53	90.60
4050	0.52	89.80	0.84	-0.50	0.84	-0.50	0.52	89.80
4100	0.52	89.20	0.84	-1.40	0.84	-1.40	0.52	89.20
4150	0.52	88.60	0.85	-2.20	0.85	-2.20	0.52	88.60
4200	0.51	87.60	0.85	-3.00	0.85	-3.00	0.51	87.60
4250	0.50	86.70	0.85	-3.80	0.85	-3.80	0.50	86.70
4300	0.50	86.10	0.86	-4.50	0.86	-4.50	0.50	86.10
4350	0.49	85.50	0.86	-5.20	0.86	-5.20	0.49	85.50
4400	0.49	84.50	0.86	-6.10	0.86	-6.10	0.49	84.50
4450	0.48	83.50	0.87	-7.10	0.87	-7.10	0.48	83.50
4500	0.48	83.10	0.87	-8.00	0.87	-8.00	0.48	83.10
4550	0.47	82.60	0.87	-9.00	0.87	-9.00	0.47	82.60
4600	0.47	81.70	0.87	-9.60	0.87	-9.60	0.47	81.70
4650	0.47	80.80	0.87	-10.20	0.87	-10.20	0.47	80.80
4700	0.46	80.40	0.88	-11.00	0.88	-11.00	0.46	80.40
4750	0.45	79.90	0.88	-11.80	0.88	-11.80	0.45	79.90
4800	0.45	78.90	0.88	-12.50	0.88	-12.50	0.45	78.90
4850	0.44	77.80	0.89	-13.30	0.89	-13.30	0.44	77.80
4900	0.44	77.40	0.89	-14.00	0.89	-14.00	0.44	77.40
4950	0.43	77.00	0.89	-14.80	0.89	-14.80	0.43	77.00
5000	0.43	76.20	0.89	-15.30	0.89	-15.30	0.43	76.20
5050	0.43	75.40	0.90	-15.80	0.90	-15.80	0.43	75.40
5100	0.42	74.70	0.90	-16.90	0.90	-16.90	0.42	74.70
5150	0.41	74.00	0.90	-17.90	0.90	-17.90	0.41	74.00
5200	0.41	73.40	0.91	-18.80	0.91	-18.80	0.41	73.40
5250	0.40	72.80	0.91	-19.70	0.91	-19.70	0.40	72.80
5300	0.40	72.10	0.91	-20.10	0.91	-20.10	0.40	72.10
5350	0.39	71.40	0.91	-20.60	0.91	-20.60	0.39	71.40
5400	0.39	70.50	0.92	-21.40	0.92	-21.40	0.39	70.50
5450	0.38	69.70	0.92	-22.30	0.92	-22.30	0.38	69.70
5500	0.38	68.90	0.92	-23.00	0.92	-23.00	0.38	68.90
5550	0.37	68.10	0.92	-23.80	0.92	-23.80	0.37	68.10
5600	0.36	67.30	0.92	-24.50	0.92	-24.50	0.36	67.30
5650	0.36	66.50	0.93	-25.20	0.93	-25.20	0.36	66.50
5700	0.35	65.40	0.93	-26.20	0.93	-26.20	0.35	65.40
5750	0.35	64.30	0.93	-27.20	0.93	-27.20	0.35	64.30
5800	0.34	63.80	0.93	-27.80	0.93	-27.80	0.34	63.80
5850	0.33	63.30	0.93	-28.40	0.93	-28.40	0.33	63.30
5900	0.33	62.10	0.93	-29.00	0.93	-29.00	0.33	62.10
5950	0.32	60.90	0.94	-29.60	0.94	-29.60	0.32	60.90
6000	0.31	61.80	0.94	-30.20	0.94	-30.20	0.31	61.80
6050	0.30	62.70	0.95	-30.70	0.95	-30.70	0.30	62.70
6100	0.29	62.00	0.95	-31.40	0.95	-31.40	0.29	62.00
6150	0.29	61.20	0.95	-32.20	0.95	-32.20	0.29	61.20
6200	0.28	61.40	0.95	-32.80	0.95	-32.80	0.28	61.40
6250	0.28	61.60	0.95	-33.40	0.95	-33.40	0.28	61.60
6300	0.27	61.70	0.95	-34.10	0.95	-34.10	0.27	61.70
6350	0.26	61.70	0.95	-34.70	0.95	-34.70	0.26	61.70
6400	0.26	61.50	0.96	-35.50	0.96	-35.50	0.26	61.50
6450	0.25	61.30	0.96	-36.30	0.96	-36.30	0.25	61.30
6500	0.25	61.20	0.96	-37.10	0.96	-37.10	0.25	61.20
6550	0.24	61.20	0.96	-37.90	0.96	-37.90	0.24	61.20
6600	0.24	61.40	0.96	-38.50	0.96	-38.50	0.24	61.40
6650	0.23	61.60	0.96	-39.10	0.96	-39.10	0.23	61.60
6700	0.23	61.20	0.97	-39.80	0.97	-39.80	0.23	61.20
6750	0.22	60.70	0.97	-40.50	0.97	-40.50	0.22	60.70
6800	0.22	60.70	0.97	-41.20	0.97	-41.20	0.22	60.70
6850	0.22	60.60	0.97	-41.80	0.97	-41.80	0.22	60.60
6900	0.21	60.50	0.97	-42.60	0.97	-42.60	0.21	60.50
6950	0.21	60.30	0.97	-43.30	0.97	-43.30	0.21	60.30
7000	0.21	59.90	0.97	-44.00	0.97	-44.00	0.21	59.90
7050	0.20	59.50	0.97	-44.60	0.97	-44.60	0.20	59.50
7100	0.20	59.30	0.97	-45.30	0.97	-45.30	0.20	59.30
7150	0.20	59.00	0.97	-46.00	0.97	-46.00	0.20	59.00
7200	0.20	58.60	0.97	-46.70	0.97	-46.70	0.20	58.60
7250	0.20	58.20	0.97	-47.40	0.97	-47.40	0.20	58.20
7300	0.20	57.90	0.97	-48.00	0.97	-48.00	0.20	57.90
7350	0.20	57.60	0.97	-48.50	0.97	-48.50	0.20	57.60
7400	0.19	57.10	0.97	-49.30	0.97	-49.30	0.19	57.10
7450	0.19	56.60	0.97	-50.10	0.97	-50.10	0.19	56.60
7500	0.19	55.80	0.97	-50.60	0.97	-50.60	0.19	55.80
7550	0.19	55.00	0.97	-51.10	0.97	-51.10	0.19	55.00
7600	0.19	54.30	0.97	-51.80	0.97	-51.80	0.19	54.30
7650	0.19	53.60	0.97	-52.50	0.97	-52.50	0.19	53.60
7700	0.19	52.00	0.97	-53.00	0.97	-53.00	0.19	52.00
7750	0.19	50.30	0.97	-53.60	0.97	-53.60	0.19	50.30
7800	0.19	49.90	0.97	-54.30	0.97	-54.30	0.19	49.90
7850	0.19	49.40	0.97	-54.90	0.97	-54.90	0.19	49.40
7900	0.19	47.70	0.97	-55.60	0.97	-55.60	0.19	47.70
7950	0.20	46.10	0.98	-56.30	0.98	-56.30	0.20	46.10
8000	0.19	44.60	0.98	-56.90	0.98	-56.90	0.19	44.60
8050	0.19	43.10	0.98	-57.60	0.98	-57.60	0.19	43.10
8100	0.19	41.60	0.97	-58.10	0.97	-58.10	0.19	41.60
8150	0.19	40.10	0.97	-58.60	0.97	-58.60	0.19	40.10
8200	0.19	38.00	0.97	-59.10	0.97	-59.10	0.19	38.00
8250	0.19	35.90	0.97	-59.60	0.97	-59.60	0.19	35.90
8300	0.19	34.90	0.97	-60.20	0.97	-60.20	0.19	34.90
8350	0.19	33.80	0.97	-60.80	0.97	-60.80	0.19	33.80
8400	0.19	31.50	0.97	-61.30	0.97	-61.30	0.19	31.50
8450	0.19	29.20	0.97	-61.80	0.97	-61.80	0.19	29.20
8500	0.20	28.10	0.97	-62.40	0.97	-62.40	0.20	28.10
8550	0.20	27.00	0.97	-62.90	0.97	-62.90	0.20	27.00
8600	0.20	25.60	0.97	-63.40	0.97	-63.40	0.20	25.60
8650	0.20	24.10	0.97	-63.90	0.97	-63.90	0.20	24.10
8700	0.20	23.70	0.97	-64.60	0.97	-64.60	0.20	23.70
8750	0.20	23.20	0.97	-65.30	0.97	-65.30	0.20	23.20
8800	0.20	21.00	0.97	-65.80	0.97	-65.80	0.20	21.00
8850	0.20	18.70	0.97	-66.20	0.97	-66.20	0.20	18.70
8900	0.20	17.90	0.97	-66.90	0.97	-66.90	0.20	17.90
8950	0.20	17.00	0.97	-67.60	0.97	-67.60	0.20	17.00
9000	0.20	16.20	0.97	-67.90	0.97	-67.90	0.20	16.20
9050	0.20	15.40	0.97	-68.30	0.97	-68.30	0.20	15.40
9100	0.20	14.30	0.97	-69.00	0.97	-69.00	0.20	14.30
9150	0.20	13.20	0.97	-69.70	0.97	-69.70	0.20	13.20
9200	0.20	12.90	0.97	-70.30	0.97	-70.30	0.20	12.90
9250	0.20	12.60	0.97	-71.00	0.97	-71.00	0.20	12.60
9300	0.19	12.30	0.97	-71.20	0.97	-71.20	0.19	12.30
9350	0.19	12.00	0.98	-71.50	0.98	-71.50	0.19	12.00
9400	0.19	10.30	0.97	-71.90	0.97	-71.90	0.19	10.30
9450	0.18	8.70	0.97	-72.40	0.97	-72.40	0.18	8.70
9500	0.18	8.30	0.97	-73.00	0.97	-73.00	0.18	8.30
9550	0.18	7.90	0.97	-73.50	0.97	-73.50	0.18	7.90
9600	0.18	6.30	0.97	-74.10	0.97	-74.10	0.18	6.30
9650	0.18	4.80	0.97	-74.70	0.97	-74.70	0.18	4.80
9700	0.17	4.60	0.97	-75.20	0.97	-75.20	0.17	4.60
9750	0.16	4.40	0.98	-75.60	0.98	-75.60	0.16	4.40
9800	0.16	3.40	0.98	-76.10	0.98	-76.10	0.16	3.40
9850	0.16	2.40	0.98	-76.60	0.98	-76.60	0.16	2.40
9900	0.15	1.00	0.98	-77.30	0.98	-77.30	0.15	1.00
9950	0.14	-0.40	0.99	-78.00	0.99	-78.00	0.14	-0.40
10000	0.14	-0.40	0.98	-78.30	0.98	-78.30	0.14	-0.40
10050	0.13	-0.30	0.98	-78.70	0.98	-78.70	0.13	-0.30
10100	0.13	-4.50	0.98	-79.40	0.98	-79.40	0.13	-4.50
10150	0.12	-8.60	0.99	-80.10	0.99	-80.10	0.12	-8.60
10200	0.12	-7.80	0.99	-80.50	0.99	-80.50	0.12	-7.80
10250	0.11	-7.00	0.99	-80.90	0.99	-80.90	0.11	-7.00
10300	0.11	-9.40	0.99	-81.50	0.99	-81.50	0.11	-9.40
10350	0.11	-11.70	0.99	-82.20	0.99	-82.20	0.11	-11.70
10400	0.10	-13.30	0.99	-82.80	0.99	-82.80	0.10	-13.30
10450	0.09	-14.80	0.99	-83.40	0.99	-83.40	0.09	-14.80
10500	0.09	-13.80	0.99	-83.80	0.99	-83.80	0.09	-13.80
10550	0.09	-12.80	0.99	-84.30	0.99	-84.30	0.09	-12.80
10600	0.07	-16.80	0.99	-84.90	0.99	-84.90	0.07	-16.80
10650	0.06	-20.70	0.99	-85.50	0.99	-85.50	0.06	-20.70
10700	0.06	-18.50	0.99	-86.10	0.99	-86.10	0.06	-18.50
10750	0.07	-16.40	0.99	-86.70	0.99	-86.70	0.07	-16.40
10800	0.06	-19.00	0.99	-87.30	0.99	-87.30	0.06	-19.00
10850	0.05	-21.60	0.99	-87.90	0.99	-87.90	0.05	-21.60
10900	0.05	-19.30	0.99	-88.50	0.99	-88.50	0.05	-19.30
10950	0.05	-17.00	0.99	-89.20	0.99	-89.20	0.05	-17.00
11000	0.04	-18.10	1.00	-89.80	1.00	-89.80	0.04	-18.10
11050	0.04	-19.20	1.00	-90.40	1.00	-90.40	0.04	-19.20
11100	0.04	-13.30	1.00	-90.90	1.00	-90.90	0.04	-13.30
11150	0.03	-7.30	1.00	-91.50	1.00	-91.50	0.03	-7.30
11200	0.03	-8.80	1.00	-92.00	1.00	-92.00	0.03	-8.80
11250	0.03	-10.40	1.00	-92.50	1.00	-92.50	0.03	-10.40
11300	0.02	-7.10	1.00	-93.00	1.00	-93.00	0.02	-7.10
11350	0.02	-3.70	1.00	-93.60	1.00	-93.60	0.02	-3.70
11400	0.02	4.20	1.00	-94.30	1.00	-94.30	0.02	4.20
11450	0.01	12.10	1.00	-94.90	1.00	-94.90	0.01	12.10
11500	0.01	16.60	1.00	-95.50	1.00	-95.50	0.01	16.60
11550	0.01	21.10	1.00	-96.20	1.00	-96.20	0.01	21.10
11600	0.02	42.50	1.00	-96.70	1.00	-96.70	0.02	42.50
11650	0.02	63.80	1.00	-97.30	1.00	-97.30	0.02	63.80
11700	0.02	80.20	0.99	-97.90	0.99	-97.90	0.02	80.20
11750	0.02	96.70	0.99	-98.50	0.99	-98.50	0.02	96.70
11800	0.03	94.30	0.99	-99.00	0.99	-99.00	0.03	94.30
11850	0.03	91.80	0.99	-99.40	0.99	-99.40	0.03	91.80
11900	0.03	95.90	0.99	-100.10	0.99	-100.10	0.03	95.90
11950	0.03	100.00	0.99	-100.70	0.99	-100.70	0.03	100.00
12000	0.04	100.90	0.99	-101.20	0.99	-101.20	0.04	100.90
12050	0.05	101.90	0.99	-101.70	0.99	-101.70	0.05	101.90
12100	0.05	105.60	0.99	-102.20	0.99	-102.20	0.05	105.60
12150	0.05	109.30	0.99	-102.80	0.99	-102.80	0.05	109.30
12200	0.05	108.00	0.99	-103.40	0.99	-103.40	0.05	108.00
12250	0.06	106.70	0.99	-104.00	0.99	-104.00	0.06	106.70
12300	0.05	107.10	0.99	-104.50	0.99	-104.50	0.05	107.10
12350	0.05	107.50	0.99	-104.90	0.99	-104.90	0.05	107.50
12400	0.05	107.60	0.99	-105.10	0.99	-105.10	0.05	107.60
12450	0.05	107.60	0.98	-105.30	0.98	-105.30	0.05	107.60
12500	0.05	106.00	0.99	-106.20	0.99	-106.20	0.05	106.00
12550	0.05	104.40	0.99	-107.20	0.99	-107.20	0.05	104.40
12600	0.04	106.90	0.99	-107.60	0.99	-107.60	0.04	106.90
12650	0.04	109.30	0.99	-108.00	0.99	-108.00	0.04	109.30
12700	0.03	109.80	0.98	-108.40	0.98	-108.40	0.03	109.80
12750	0.03	110.30	0.98	-108.90	0.98	-108.90	0.03	110.30
12800	0.03	105.10	0.98	-109.30	0.98	-109.30	0.03	105.10
12850	0.03	99.80	0.98	-109.70	0.98	-109.70	0.03	99.80
12900	0.03	110.30	0.98	-110.30	0.98	-110.30	0.03	110.30
12950	0.03	120.70	0.98	-110.90	0.98	-110.90	0.03	120.70
13000	0.03	116.60	0.98	-111.30	0.98	-111.30	0.03	116.60
13050	0.02	112.40	0.99	-111.60	0.99	-111.60	0.02	112.40
13100	0.02	106.10	0.99	-112.20	0.99	-112.20	0.02	106.10
13150	0.02	99.80	0.99	-112.70	0.99	-112.70	0.02	99.80
13200	0.02	86.70	0.98	-113.20	0.98	-113.20	0.02	86.70
13250	0.02	73.60	0.98	-113.70	0.98	-113.70	0.02	73.60
13300	0.02	70.00	0.99	-114.30	0.99	-114.30	0.02	70.00
13350	0.02	66.40	0.99	-114.80	0.99	-114.80	0.02	66.40
13400	0.03	48.50	0.99	-115.50	0.99	-115.50	0.03	48.50
13450	0.03	30.60	0.99	-116.10	0.99	-116.10	0.03	30.60
13500	0.03	23.30	0.99	-116.50	0.99	-116.50	0.03	23.30
13550	0.03	16.10	0.99	-117.00	0.99	-117.00	0.03	16.10
13600	0.03	11.80	0.99	-117.60	0.99	-117.60	0.03	11.80
13650	0.04	7.50	1.00	-118.30	1.00	-118.30	0.04	7.50
13700	0.04	-0.80	1.00	-118.70	1.00	-118.70	0.04	-0.80
13750	0.04	-9.10	0.99	-119.20	0.99	-119.20	0.04	-9.10
13800	0.05	-13.20	0.99	-119.80	0.99	-119.80	0.05	-13.20
13850	0.05	-17.40	1.00	-120.50	1.00	-120.50	0.05	-17.40
13900	0.06	-23.70	0.99	-121.00	0.99	-121.00	0.06	-23.70
13950	0.06	-30.00	0.99	-121.50	0.99	-121.50	0.06	-30.00
14000	0.06	-28.90	0.99	-122.00	0.99	-122.00	0.06	-28.90
14050	0.07	-27.90	0.99	-122.50	0.99	-122.50	0.07	-27.90
14100	0.07	-34.90	0.99	-123.00	0.99	-123.00	0.07	-34.90
14150	0.08	-41.90	0.99	-123.60	0.99	-123.60	0.08	-41.90
14200	0.08	-41.10	0.99	-124.20	0.99	-124.20	0.08	-41.10
14250	0.08	-40.30	0.99	-124.70	0.99	-124.70	0.08	-40.30
14300	0.09	-42.20	0.99	-125.30	0.99	-125.30	0.09	-42.20
14350	0.09	-44.10	0.99	-125.90	0.99	-125.90	0.09	-44.10
14400	0.09	-46.20	0.99	-126.40	0.99	-126.40	0.09	-46.20
14450	0.10	-48.30	0.98	-126.80	0.98	-126.80	0.10	-48.30
14500	0.10	-46.80	0.99	-127.50	0.99	-127.50	0.10	-46.80
14550	0.11	-45.40	0.99	-128.30	0.99	-128.30	0.11	-45.40
14600	0.11	-45.70	0.99	-128.70	0.99	-128.70	0.11	-45.70
14650	0.11	-46.00	0.98	-129.10	0.98	-129.10	0.11	-46.00
14700	0.11	-44.80	0.98	-129.60	0.98	-129.60	0.11	-44.80
14750	0.11	-43.60	0.98	-130.10	0.98	-130.10	0.11	-43.60
14800	0.10	-44.60	0.98	-130.60	0.98	-130.60	0.10	-44.60
14850	0.10	-45.50	0.98	-131.10	0.98	-131.10	0.10	-45.50
14900	0.10	-44.60	0.98	-131.60	0.98	-131.60	0.10	-44.60
14950	0.10	-43.60	0.98	-132.10	0.98	-132.10	0.10	-43.60
15000	0.10	-44.90	0.98	-132.50	0.98	-132.50	0.10	-44.90
15050	0.10	-46.20	0.98	-132.90	0.98	-132.90	0.10	-46.20
15100	0.09	-44.70	0.98	-133.50	0.98	-133.50	0.09	-44.70
15150	0.09	-43.20	0.99	-134.10	0.99	-134.10	0.09	-43.20
15200	0.09	-44.40	0.99	-134.60	0.99	-134.60	0.09	-44.40
15250	0.09	-45.50	0.99	-135.10	0.99	-135.10	0.09	-45.50
15300	0.08	-40.90	0.98	-135.70	0.98	-135.70	0.08	-40.90
15350	0.08	-36.30	0.98	-136.40	0.98	-136.40	0.08	-36.30
15400	0.07	-36.70	0.98	-136.80	0.98	-136.80	0.07	-36.70
15450	0.07	-37.20	0.99	-137.10	0.99	-137.10	0.07	-37.20
15500	0.06	-33.50	0.99	-137.80	0.99	-137.80	0.06	-33.50
15550	0.05	-29.80	0.99	-138.40	0.99	-138.40	0.05	-29.80
15600	0.05	-26.80	0.99	-138.90	0.99	-138.90	0.05	-26.80
15650	0.05	-23.90	0.99	-139.30	0.99	-139.30	0.05	-23.90
15700	0.04	-17.00	0.99	-139.70	0.99	-139.70	0.04	-17.00
15750	0.03	-10.10	0.99	-140.20	0.99	-140.20	0.03	-10.10
15800	0.03	5.60	0.99	-140.90	0.99	-140.90	0.03	5.60
15850	0.03	21.20	0.99	-141.50	0.99	-141.50	0.03	21.20
15900	0.03	50.40	0.99	-142.00	0.99	-142.00	0.03	50.40
15950	0.03	79.60	0.99	-142.40	0.99	-142.40	0.03	79.60
16000	0.04	85.60	0.99	-143.00	0.99	-143.00	0.04	85.60
16050	0.04	91.60	0.99	-143.50	0.99	-143.50	0.04	91.60
16100	0.06	99.70	0.99	-144.00	0.99	-144.00	0.06	99.70
16150	0.07	107.90	0.99	-144.50	0.99	-144.50	0.07	107.90
16200	0.08	110.20	0.99	-145.20	0.99	-145.20	0.08	110.20
16250	0.08	112.50	0.98	-145.80	0.98	-145.80	0.08	112.50
16300	0.09	113.40	0.98	-146.20	0.98	-146.20	0.09	113.40
16350	0.10	114.30	0.98	-146.70	0.98	-146.70	0.10	114.30
16400	0.11	116.20	0.98	-147.20	0.98	-147.20	0.11	116.20
16450	0.12	118.10	0.99	-147.70	0.99	-147.70	0.12	118.10
16500	0.13	118.00	0.98	-148.10	0.98	-148.10	0.13	118.00
16550	0.13	117.80	0.98	-148.40	0.98	-148.40	0.13	117.80
16600	0.15	119.00	0.98	-149.20	0.98	-149.20	0.15	119.00
16650	0.16	120.20	0.98	-150.00	0.98	-150.00	0.16	120.20
16700	0.17	122.30	0.98	-150.50	0.98	-150.50	0.17	122.30
16750	0.17	124.30	0.98	-151.00	0.98	-151.00	0.17	124.30
16800	0.17	124.20	0.98	-151.60	0.98	-151.60	0.17	124.20
16850	0.17	124.00	0.98	-152.10	0.98	-152.10	0.17	124.00
16900	0.18	122.50	0.98	-152.70	0.98	-152.70	0.18	122.50
16950	0.19	121.00	0.98	-153.20	0.98	-153.20	0.19	121.00
17000	0.20	121.60	0.98	-153.80	0.98	-153.80	0.20	121.60
17050	0.20	122.10	0.98	-154.40	0.98	-154.40	0.20	122.10
17100	0.20	122.10	0.97	-155.00	0.97	-155.00	0.20	122.10
17150	0.21	122.10	0.97	-155.60	0.97	-155.60	0.21	122.10
17200	0.21	121.70	0.97	-156.00	0.97	-156.00	0.21	121.70
17250	0.22	121.30	0.97	-156.50	0.97	-156.50	0.22	121.30
17300	0.22	120.70	0.97	-157.20	0.97	-157.20	0.22	120.70
17350	0.22	120.10	0.97	-157.90	0.97	-157.90	0.22	120.10
17400	0.22	119.80	0.97	-158.30	0.97	-158.30	0.22	119.80
17450	0.23	119.40	0.96	-158.60	0.96	-158.60	0.23	119.40
17500	0.22	118.90	0.96	-159.10	0.96	-159.10	0.22	118.90
17550	0.22	118.40	0.96	-159.50	0.96	-159.50	0.22	118.40
17600	0.22	119.40	0.96	-160.00	0.96	-160.00	0.22	119.40
17650	0.22	120.50	0.97	-160.60	0.97	-160.60	0.22	120.50
17700	0.22	118.90	0.96	-160.90	0.96	-160.90	0.22	118.90
17750	0.22	117.30	0.96	-161.30	0.96	-161.30	0.22	117.30
17800	0.22	118.60	0.96	-161.80	0.96	-161.80	0.22	118.60
17850	0.21	120.00	0.96	-162.40	0.96	-162.40	0.21	120.00
17900	0.21	121.40	0.96	-163.00	0.96	-163.00	0.21	121.40
17950	0.21	122.80	0.96	-163.50	0.96	-163.50	0.21	122.80
18000	0.20	122.20	0.97	-163.90	0.97	-163.90	0.20	122.20
18050	0.19	121.70	0.97	-164.20	0.97	-164.20	0.19	121.70
18100	0.19	122.10	0.97	-164.60	0.97	-164.60	0.19	122.10
18150	0.19	122.50	0.97	-165.00	0.97	-165.00	0.19	122.50
18200	0.18	122.80	0.98	-165.40	0.98	-165.40	0.18	122.80
18250	0.17	123.20	0.98	-165.90	0.98	-165.90	0.17	123.20
18300	0.16	124.70	0.98	-166.50	0.98	-166.50	0.16	124.70
18350	0.16	126.30	0.98	-167.00	0.98	-167.00	0.16	126.30
18400	0.14	125.10	0.98	-167.50	0.98	-167.50	0.14	125.10
18450	0.13	123.80	0.99	-168.00	0.99	-168.00	0.13	123.80
18500	0.12	124.90	0.98	-168.50	0.98	-168.50	0.12	124.90
18550	0.11	125.90	0.98	-169.00	0.98	-169.00	0.11	125.90
18600	0.10	123.30	0.98	-169.50	0.98	-169.50	0.10	123.30
18650	0.09	120.80	0.99	-170.10	0.99	-170.10	0.09	120.80
18700	0.08	122.00	0.99	-170.60	0.99	-170.60	0.08	122.00
18750	0.07	123.20	0.99	-171.10	0.99	-171.10	0.07	123.20
18800	0.06	122.60	0.99	-171.70	0.99	-171.70	0.06	122.60
18850	0.06	121.90	0.99	-172.30	0.99	-172.30	0.06	121.90
18900	0.04	118.70	0.99	-172.80	0.99	-172.80	0.04	118.70
18950	0.03	115.40	0.99	-173.40	0.99	-173.40	0.03	115.40
