# MHZ S MA R 50

50	0.96	176.40	0.06	82.60	0.06	82.60	0.96	176.40
100	0.97	172.70	0.12	79.80	0.12	79.80	0.97	172.70
150	0.99	169.10	0.18	76.90	0.18	76.90	0.99	169.10
200	0.97	166.00	0.23	74.10	0.23	74.10	0.97	166.00
250	0.95	162.80	0.28	71.30	0.28	71.30	0.95	162.80
300	0.93	159.20	0.33	67.70	0.33	67.70	0.93	159.20
350	0.92	155.60	0.38	64.10	0.38	64.10	0.92	155.60
400	0.89	152.80	0.42	61.30	0.42	61.30	0.89	152.80
450	0.87	149.90	0.47	58.50	0.47	58.50	0.87	149.90
500	0.84	145.40	0.52	54.30	0.52	54.30	0.84	145.40
550	0.81	140.90	0.58	50.10	0.58	50.10	0.81	140.90
600	0.79	138.30	0.62	47.70	0.62	47.70	0.79	138.30
650	0.76	135.60	0.65	45.30	0.65	45.30	0.76	135.60
700	0.74	133.40	0.67	42.90	0.67	42.90	0.74	133.40
750	0.71	131.20	0.69	40.40	0.69	40.40	0.71	131.20
800	0.69	128.90	0.72	38.10	0.72	38.10	0.69	128.90
850	0.66	126.60	0.74	35.80	0.74	35.80	0.66	126.60
900	0.64	124.90	0.76	33.80	0.76	33.80	0.64	124.90
950	0.62	123.30	0.77	31.80	0.77	31.80	0.62	123.30
1000	0.60	121.10	0.79	30.00	0.79	30.00	0.60	121.10
1050	0.58	119.00	0.81	28.10	0.81	28.10	0.58	119.00
1100	0.56	117.40	0.82	26.40	0.82	26.40	0.56	117.40
1150	0.55	115.70	0.83	24.70	0.83	24.70	0.55	115.70
1200	0.53	114.30	0.84	23.20	0.84	23.20	0.53	114.30
1250	0.51	112.80	0.85	21.80	0.85	21.80	0.51	112.80
1300	0.50	111.50	0.86	20.40	0.86	20.40	0.50	111.50
1350	0.48	110.20	0.87	19.00	0.87	19.00	0.48	110.20
1400	0.47	108.80	0.88	17.60	0.88	17.60	0.47	108.80
1450	0.45	107.30	0.88	16.10	0.88	16.10	0.45	107.30
1500	0.44	106.10	0.89	14.90	0.89	14.90	0.44	106.10
1550	0.42	104.90	0.90	13.60	0.90	13.60	0.42	104.90
1600	0.41	103.50	0.91	12.40	0.91	12.40	0.41	103.50
1650	0.40	102.20	0.91	11.20	0.91	11.20	0.40	102.20
1700	0.39	101.10	0.92	10.10	0.92	10.10	0.39	101.10
1750	0.37	100.10	0.92	9.00	0.92	9.00	0.37	100.10
1800	0.36	99.00	0.93	7.90	0.93	7.90	0.36	99.00
1850	0.35	97.90	0.93	6.90	0.93	6.90	0.35	97.90
1900	0.34	97.00	0.93	5.80	0.93	5.80	0.34	97.00
1950	0.33	96.00	0.94	4.70	0.94	4.70	0.33	96.00
2000	0.32	95.00	0.94	3.60	0.94	3.60	0.32	95.00
2050	0.31	94.00	0.94	2.60	0.94	2.60	0.31	94.00
2100	0.30	93.40	0.95	1.70	0.95	1.70	0.30	93.40
2150	0.29	92.70	0.95	0.70	0.95	0.70	0.29	92.70
2200	0.28	91.60	0.95	-0.20	0.95	-0.20	0.28	91.60
2250	0.27	90.50	0.95	-1.10	0.95	-1.10	0.27	90.50
2300	0.26	89.90	0.96	-2.00	0.96	-2.00	0.26	89.90
2350	0.26	89.30	0.96	-2.90	0.96	-2.90	0.26	89.30
2400	0.25	88.80	0.96	-3.80	0.96	-3.80	0.25	88.80
2450	0.24	88.40	0.96	-4.70	0.96	-4.70	0.24	88.40
2500	0.23	87.60	0.96	-5.60	0.96	-5.60	0.23	87.60
2550	0.23	86.70	0.97	-6.50	0.97	-6.50	0.23	86.70
2600	0.22	86.00	0.97	-7.30	0.97	-7.30	0.22	86.00
2650	0.21	85.30	0.97	-8.00	0.97	-8.00	0.21	85.30
2700	0.20	85.00	0.97	-8.90	0.97	-8.90	0.20	85.00
2750	0.19	84.80	0.97	-9.80	0.97	-9.80	0.19	84.80
2800	0.19	84.00	0.98	-10.60	0.98	-10.60	0.19	84.00
2850	0.18	83.20	0.98	-11.30	0.98	-11.30	0.18	83.20
2900	0.17	82.50	0.98	-12.30	0.98	-12.30	0.17	82.50
2950	0.17	81.90	0.98	-13.20	0.98	-13.20	0.17	81.90
3000	0.16	81.50	0.98	-13.90	0.98	-13.90	0.16	81.50
3050	0.16	81.10	0.98	-14.60	0.98	-14.60	0.16	81.10
3100	0.15	80.60	0.98	-15.30	0.98	-15.30	0.15	80.60
3150	0.14	80.00	0.98	-16.10	0.98	-16.10	0.14	80.00
3200	0.14	80.10	0.98	-16.90	0.98	-16.90	0.14	80.10
3250	0.13	80.30	0.98	-17.70	0.98	-17.70	0.13	80.30
3300	0.13	79.90	0.98	-18.40	0.98	-18.40	0.13	79.90
3350	0.12	79.50	0.98	-19.20	0.98	-19.20	0.12	79.50
3400	0.12	79.90	0.99	-20.00	0.99	-20.00	0.12	79.90
3450	0.11	80.30	0.99	-20.70	0.99	-20.70	0.11	80.30
3500	0.10	80.50	0.99	-21.40	0.99	-21.40	0.10	80.50
3550	0.10	80.70	0.99	-22.10	0.99	-22.10	0.10	80.70
3600	0.09	80.70	0.99	-22.90	0.99	-22.90	0.09	80.70
3650	0.09	80.60	0.99	-23.70	0.99	-23.70	0.09	80.60
3700	0.08	81.50	0.99	-24.40	0.99	-24.40	0.08	81.50
3750	0.08	82.30	0.99	-25.10	0.99	-25.10	0.08	82.30
3800	0.07	82.90	0.99	-25.90	0.99	-25.90	0.07	82.90
3850	0.07	83.60	0.99	-26.80	0.99	-26.80	0.07	83.60
3900	0.06	85.80	0.99	-27.40	0.99	-27.40	0.06	85.80
3950	0.06	88.00	0.99	-28.00	0.99	-28.00	0.06	88.00
4000	0.06	89.20	0.99	-28.70	0.99	-28.70	0.06	89.20
4050	0.05	90.50	0.99	-29.30	0.99	-29.30	0.05	90.50
4100	0.05	94.50	0.99	-30.00	0.99	-30.00	0.05	94.50
4150	0.05	98.60	0.99	-30.70	0.99	-30.70	0.05	98.60
4200	0.05	100.30	0.99	-31.40	0.99	-31.40	0.05	100.30
4250	0.04	102.10	0.99	-32.10	0.99	-32.10	0.04	102.10
4300	0.04	108.50	0.99	-32.70	0.99	-32.70	0.04	108.50
4350	0.04	114.90	0.99	-33.20	0.99	-33.20	0.04	114.90
4400	0.04	117.20	0.99	-34.10	0.99	-34.10	0.04	117.20
4450	0.03	119.50	1.00	-35.00	1.00	-35.00	0.03	119.50
4500	0.04	128.30	0.99	-35.70	0.99	-35.70	0.04	128.30
4550	0.04	137.00	0.99	-36.40	0.99	-36.40	0.04	137.00
4600	0.04	141.50	0.99	-37.10	0.99	-37.10	0.04	141.50
4650	0.03	146.00	0.99	-37.80	0.99	-37.80	0.03	146.00
4700	0.04	151.90	0.99	-38.40	0.99	-38.40	0.04	151.90
4750	0.04	157.70	0.99	-39.00	0.99	-39.00	0.04	157.70
4800	0.04	160.50	0.99	-39.70	0.99	-39.70	0.04	160.50
4850	0.04	163.30	0.99	-40.30	0.99	-40.30	0.04	163.30
4900	0.04	167.90	0.99	-41.00	0.99	-41.00	0.04	167.90
4950	0.05	172.50	0.99	-41.70	0.99	-41.70	0.05	172.50
5000	0.05	174.40	0.99	-42.10	0.99	-42.10	0.05	174.40
5050	0.05	176.30	0.99	-42.60	0.99	-42.60	0.05	176.30
5100	0.06	-1.30	0.99	-43.40	0.99	-43.40	0.06	-1.30
5150	0.06	-178.80	0.99	-44.20	0.99	-44.20	0.06	-178.80
5200	0.06	-177.00	1.00	-45.00	1.00	-45.00	0.06	-177.00
5250	0.06	-175.10	1.00	-45.80	1.00	-45.80	0.06	-175.10
5300	0.07	-173.30	1.00	-46.30	1.00	-46.30	0.07	-173.30
5350	0.07	-171.40	0.99	-46.90	0.99	-46.90	0.07	-171.40
5400	0.08	-170.10	0.99	-47.50	0.99	-47.50	0.08	-170.10
5450	0.08	-168.70	0.99	-48.10	0.99	-48.10	0.08	-168.70
5500	0.08	-167.20	0.99	-48.90	0.99	-48.90	0.08	-167.20
5550	0.09	-165.70	0.99	-49.60	0.99	-49.60	0.09	-165.70
5600	0.09	-165.10	0.99	-50.20	0.99	-50.20	0.09	-165.10
5650	0.10	-164.60	0.99	-50.80	0.99	-50.80	0.10	-164.60
5700	0.10	-163.90	0.99	-51.60	0.99	-51.60	0.10	-163.90
5750	0.10	-163.30	0.99	-52.40	0.99	-52.40	0.10	-163.30
5800	0.11	-162.20	0.99	-53.10	0.99	-53.10	0.11	-162.20
5850	0.12	-161.10	0.98	-53.70	0.98	-53.70	0.12	-161.10
5900	0.12	-161.00	0.98	-54.20	0.98	-54.20	0.12	-161.00
5950	0.12	-160.80	0.98	-54.70	0.98	-54.70	0.12	-160.80
6000	0.14	-161.60	0.98	-55.60	0.98	-55.60	0.14	-161.60
6050	0.16	-162.30	0.98	-56.40	0.98	-56.40	0.16	-162.30
6100	0.16	-162.50	0.98	-57.00	0.98	-57.00	0.16	-162.50
6150	0.16	-162.70	0.98	-57.70	0.98	-57.70	0.16	-162.70
6200	0.17	-163.80	0.98	-58.30	0.98	-58.30	0.17	-163.80
6250	0.18	-164.80	0.98	-58.90	0.98	-58.90	0.18	-164.80
6300	0.18	-165.70	0.98	-59.40	0.98	-59.40	0.18	-165.70
6350	0.19	-166.60	0.97	-59.90	0.97	-59.90	0.19	-166.60
6400	0.19	-166.80	0.97	-60.60	0.97	-60.60	0.19	-166.80
6450	0.20	-167.00	0.97	-61.30	0.97	-61.30	0.20	-167.00
6500	0.20	-168.20	0.97	-62.00	0.97	-62.00	0.20	-168.20
6550	0.20	-169.40	0.96	-62.60	0.96	-62.60	0.20	-169.40
6600	0.21	-169.50	0.97	-63.10	0.97	-63.10	0.21	-169.50
6650	0.22	-169.60	0.97	-63.50	0.97	-63.50	0.22	-169.60
6700	0.22	-170.20	0.97	-64.10	0.97	-64.10	0.22	-170.20
6750	0.22	-170.70	0.97	-64.70	0.97	-64.70	0.22	-170.70
6800	0.22	-171.40	0.97	-65.40	0.97	-65.40	0.22	-171.40
6850	0.22	-172.00	0.97	-66.00	0.97	-66.00	0.22	-172.00
6900	0.23	-172.80	0.96	-66.60	0.96	-66.60	0.23	-172.80
6950	0.23	-173.60	0.96	-67.10	0.96	-67.10	0.23	-173.60
7000	0.23	-174.20	0.96	-67.70	0.96	-67.70	0.23	-174.20
7050	0.23	-174.70	0.96	-68.40	0.96	-68.40	0.23	-174.70
7100	0.23	-175.50	0.96	-68.90	0.96	-68.90	0.23	-175.50
7150	0.24	-176.40	0.96	-69.50	0.96	-69.50	0.24	-176.40
7200	0.24	-177.30	0.96	-70.30	0.96	-70.30	0.24	-177.30
7250	0.24	-178.30	0.97	-71.00	0.97	-71.00	0.24	-178.30
7300	0.24	0.50	0.96	-71.70	0.96	-71.70	0.24	0.50
7350	0.24	179.30	0.96	-72.30	0.96	-72.30	0.24	179.30
7400	0.24	178.30	0.96	-73.00	0.96	-73.00	0.24	178.30
7450	0.25	177.30	0.96	-73.60	0.96	-73.60	0.25	177.30
7500	0.25	176.60	0.96	-74.30	0.96	-74.30	0.25	176.60
7550	0.25	175.80	0.96	-75.00	0.96	-75.00	0.25	175.80
7600	0.25	174.90	0.96	-75.60	0.96	-75.60	0.25	174.90
7650	0.25	174.00	0.95	-76.20	0.95	-76.20	0.25	174.00
7700	0.25	173.10	0.96	-76.80	0.96	-76.80	0.25	173.10
7750	0.25	172.20	0.96	-77.40	0.96	-77.40	0.25	172.20
7800	0.25	171.50	0.96	-78.20	0.96	-78.20	0.25	171.50
7850	0.25	170.70	0.96	-79.00	0.96	-79.00	0.25	170.70
7900	0.25	169.30	0.96	-79.70	0.96	-79.70	0.25	169.30
7950	0.25	167.90	0.96	-80.40	0.96	-80.40	0.25	167.90
8000	0.26	168.00	0.96	-81.20	0.96	-81.20	0.26	168.00
8050	0.26	168.10	0.95	-81.90	0.95	-81.90	0.26	168.10
8100	0.26	167.00	0.96	-82.60	0.96	-82.60	0.26	167.00
8150	0.26	165.90	0.96	-83.30	0.96	-83.30	0.26	165.90
8200	0.26	166.30	0.95	-84.10	0.95	-84.10	0.26	166.30
8250	0.26	166.70	0.95	-84.80	0.95	-84.80	0.26	166.70
8300	0.27	165.50	0.95	-85.70	0.95	-85.70	0.27	165.50
8350	0.27	164.30	0.95	-86.50	0.95	-86.50	0.27	164.30
8400	0.27	164.90	0.95	-87.30	0.95	-87.30	0.27	164.90
8450	0.28	165.50	0.95	-88.10	0.95	-88.10	0.28	165.50
8500	0.28	164.50	0.95	-89.10	0.95	-89.10	0.28	164.50
8550	0.28	163.50	0.95	-90.00	0.95	-90.00	0.28	163.50
8600	0.28	163.50	0.94	-90.80	0.94	-90.80	0.28	163.50
8650	0.29	163.50	0.94	-91.60	0.94	-91.60	0.29	163.50
8700	0.30	162.90	0.94	-92.60	0.94	-92.60	0.30	162.90
8750	0.30	162.30	0.94	-93.70	0.94	-93.70	0.30	162.30
8800	0.31	162.30	0.94	-94.50	0.94	-94.50	0.31	162.30
8850	0.32	162.30	0.93	-95.20	0.93	-95.20	0.32	162.30
8900	0.32	161.90	0.93	-96.40	0.93	-96.40	0.32	161.90
8950	0.33	161.50	0.93	-97.60	0.93	-97.60	0.33	161.50
9000	0.33	161.40	0.92	-98.30	0.92	-98.30	0.33	161.40
9050	0.34	161.40	0.92	-99.10	0.92	-99.10	0.34	161.40
9100	0.35	160.80	0.91	-100.20	0.91	-100.20	0.35	160.80
9150	0.37	160.30	0.91	-101.20	0.91	-101.20	0.37	160.30
9200	0.38	159.10	0.91	-102.60	0.91	-102.60	0.38	159.10
9250	0.39	157.80	0.90	-104.00	0.90	-104.00	0.39	157.80
9300	0.40	158.30	0.89	-104.80	0.89	-104.80	0.40	158.30
9350	0.41	158.80	0.88	-105.60	0.88	-105.60	0.41	158.80
9400	0.42	158.20	0.88	-106.60	0.88	-106.60	0.42	158.20
9450	0.44	157.70	0.87	-107.70	0.87	-107.70	0.44	157.70
9500	0.44	157.00	0.86	-108.90	0.86	-108.90	0.44	157.00
9550	0.45	156.30	0.85	-110.20	0.85	-110.20	0.45	156.30
9600	0.47	155.90	0.84	-111.30	0.84	-111.30	0.47	155.90
9650	0.48	155.50	0.83	-112.30	0.83	-112.30	0.48	155.50
9700	0.49	154.30	0.82	-113.50	0.82	-113.50	0.49	154.30
9750	0.51	153.00	0.81	-114.60	0.81	-114.60	0.51	153.00
9800	0.51	152.50	0.79	-115.50	0.79	-115.50	0.51	152.50
9850	0.52	152.00	0.78	-116.40	0.78	-116.40	0.52	152.00
9900	0.54	151.60	0.77	-117.40	0.77	-117.40	0.54	151.60
9950	0.56	151.10	0.77	-118.40	0.77	-118.40	0.56	151.10
10000	0.58	148.90	0.75	-119.60	0.75	-119.60	0.58	148.90
10050	0.59	146.60	0.73	-120.90	0.73	-120.90	0.59	146.60
10100	0.60	146.80	0.72	-121.80	0.72	-121.80	0.60	146.80
10150	0.62	147.00	0.71	-122.70	0.71	-122.70	0.62	147.00
10200	0.64	145.00	0.69	-123.90	0.69	-123.90	0.64	145.00
10250	0.65	142.90	0.68	-125.10	0.68	-125.10	0.65	142.90
10300	0.67	140.80	0.66	-126.60	0.66	-126.60	0.67	140.80
10350	0.68	138.70	0.64	-128.00	0.64	-128.00	0.68	138.70
10400	0.68	137.00	0.62	-128.80	0.62	-128.80	0.68	137.00
10450	0.69	135.30	0.60	-129.50	0.60	-129.50	0.69	135.30
10500	0.70	132.90	0.58	-130.50	0.58	-130.50	0.70	132.90
10550	0.72	130.40	0.56	-131.40	0.56	-131.40	0.72	130.40
10600	0.72	129.10	0.54	-131.50	0.54	-131.50	0.72	129.10
10650	0.72	127.70	0.52	-131.50	0.52	-131.50	0.72	127.70
10700	0.73	125.60	0.51	-132.80	0.51	-132.80	0.73	125.60
10750	0.74	123.60	0.50	-134.10	0.50	-134.10	0.74	123.60
10800	0.76	122.20	0.48	-135.60	0.48	-135.60	0.76	122.20
10850	0.78	120.80	0.46	-137.10	0.46	-137.10	0.78	120.80
10900	0.79	118.20	0.43	-138.90	0.43	-138.90	0.79	118.20
10950	0.80	115.60	0.40	-140.70	0.40	-140.70	0.80	115.60
11000	0.82	113.00	0.37	-142.20	0.37	-142.20	0.82	113.00
11050	0.84	110.30	0.34	-143.70	0.34	-143.70	0.84	110.30
11100	0.86	107.10	0.29	-143.10	0.29	-143.10	0.86	107.10
11150	0.87	103.90	0.25	-142.50	0.25	-142.50	0.87	103.90
11200	0.88	100.70	0.22	-138.30	0.22	-138.30	0.88	100.70
11250	0.88	97.50	0.18	-134.10	0.18	-134.10	0.88	97.50
11300	0.88	94.50	0.16	-122.20	0.16	-122.20	0.88	94.50
11350	0.88	91.50	0.13	-110.30	0.13	-110.30	0.88	91.50
11400	0.88	88.10	0.14	-93.80	0.14	-93.80	0.88	88.10
11450	0.87	84.60	0.14	-77.30	0.14	-77.30	0.87	84.60
11500	0.87	81.40	0.17	-67.60	0.17	-67.60	0.87	81.40
11550	0.86	78.20	0.20	-58.00	0.20	-58.00	0.86	78.20
11600	0.85	75.40	0.24	-54.90	0.24	-54.90	0.85	75.40
11650	0.84	72.70	0.27	-51.80	0.27	-51.80	0.84	72.70
11700	0.83	69.80	0.31	-51.40	0.31	-51.40	0.83	69.80
11750	0.81	66.80	0.35	-51.00	0.35	-51.00	0.81	66.80
11800	0.80	64.30	0.39	-51.50	0.39	-51.50	0.80	64.30
11850	0.79	61.80	0.43	-52.10	0.43	-52.10	0.79	61.80
11900	0.76	59.00	0.47	-54.10	0.47	-54.10	0.76	59.00
11950	0.74	56.20	0.50	-56.00	0.50	-56.00	0.74	56.20
12000	0.73	54.70	0.54	-57.20	0.54	-57.20	0.73	54.70
12050	0.72	53.20	0.57	-58.30	0.57	-58.30	0.72	53.20
12100	0.69	50.30	0.60	-60.70	0.60	-60.70	0.69	50.30
12150	0.66	47.40	0.63	-63.10	0.63	-63.10	0.66	47.40
12200	0.64	45.90	0.65	-65.00	0.65	-65.00	0.64	45.90
12250	0.62	44.40	0.68	-66.90	0.68	-66.90	0.62	44.40
12300	0.60	42.80	0.70	-68.50	0.70	-68.50	0.60	42.80
12350	0.57	41.20	0.72	-70.10	0.72	-70.10	0.57	41.20
12400	0.55	39.00	0.74	-72.00	0.74	-72.00	0.55	39.00
12450	0.53	36.80	0.76	-73.90	0.76	-73.90	0.53	36.80
12500	0.51	35.60	0.77	-75.70	0.77	-75.70	0.51	35.60
12550	0.49	34.30	0.79	-77.50	0.79	-77.50	0.49	34.30
12600	0.47	32.50	0.80	-79.10	0.80	-79.10	0.47	32.50
12650	0.45	30.70	0.81	-80.80	0.81	-80.80	0.45	30.70
12700	0.44	29.00	0.82	-82.20	0.82	-82.20	0.44	29.00
12750	0.42	27.20	0.84	-83.70	0.84	-83.70	0.42	27.20
12800	0.41	26.20	0.85	-84.90	0.85	-84.90	0.41	26.20
12850	0.39	25.20	0.85	-86.20	0.85	-86.20	0.39	25.20
12900	0.38	24.00	0.86	-87.70	0.86	-87.70	0.38	24.00
12950	0.36	22.80	0.87	-89.30	0.87	-89.30	0.36	22.80
13000	0.35	21.00	0.88	-90.30	0.88	-90.30	0.35	21.00
13050	0.33	19.10	0.88	-91.30	0.88	-91.30	0.33	19.10
13100	0.32	18.50	0.89	-92.70	0.89	-92.70	0.32	18.50
13150	0.31	17.90	0.90	-94.10	0.90	-94.10	0.31	17.90
13200	0.31	16.60	0.90	-95.20	0.90	-95.20	0.31	16.60
13250	0.30	15.20	0.90	-96.30	0.90	-96.30	0.30	15.20
13300	0.29	14.40	0.91	-97.60	0.91	-97.60	0.29	14.40
13350	0.28	13.50	0.92	-98.90	0.92	-98.90	0.28	13.50
13400	0.28	12.00	0.92	-100.00	0.92	-100.00	0.28	12.00
13450	0.28	10.50	0.93	-101.20	0.93	-101.20	0.28	10.50
13500	0.27	9.20	0.93	-102.20	0.93	-102.20	0.27	9.20
13550	0.26	7.90	0.93	-103.20	0.93	-103.20	0.26	7.90
13600	0.26	6.80	0.93	-104.30	0.93	-104.30	0.26	6.80
13650	0.26	5.60	0.94	-105.40	0.94	-105.40	0.26	5.60
13700	0.26	3.90	0.94	-106.10	0.94	-106.10	0.26	3.90
13750	0.25	2.20	0.94	-106.90	0.94	-106.90	0.25	2.20
13800	0.25	0.00	0.94	-108.00	0.94	-108.00	0.25	0.00
13850	0.25	-2.10	0.94	-109.10	0.94	-109.10	0.25	-2.10
13900	0.25	-4.60	0.94	-109.90	0.94	-109.90	0.25	-4.60
13950	0.24	-7.00	0.94	-110.70	0.94	-110.70	0.24	-7.00
14000	0.24	-7.70	0.94	-111.40	0.94	-111.40	0.24	-7.70
14050	0.24	-8.30	0.94	-112.20	0.94	-112.20	0.24	-8.30
14100	0.24	-12.10	0.94	-113.10	0.94	-113.10	0.24	-12.10
14150	0.23	-15.90	0.95	-114.00	0.95	-114.00	0.23	-15.90
14200	0.23	-16.70	0.95	-114.90	0.95	-114.90	0.23	-16.70
14250	0.23	-17.40	0.95	-115.70	0.95	-115.70	0.23	-17.40
14300	0.23	-19.60	0.95	-116.60	0.95	-116.60	0.23	-19.60
14350	0.23	-21.80	0.95	-117.50	0.95	-117.50	0.23	-21.80
14400	0.22	-23.30	0.95	-118.20	0.95	-118.20	0.22	-23.30
14450	0.22	-24.90	0.95	-118.90	0.95	-118.90	0.22	-24.90
14500	0.22	-25.50	0.95	-119.90	0.95	-119.90	0.22	-25.50
14550	0.22	-26.10	0.95	-121.00	0.95	-121.00	0.22	-26.10
14600	0.22	-26.70	0.95	-121.70	0.95	-121.70	0.22	-26.70
14650	0.21	-27.30	0.95	-122.40	0.95	-122.40	0.21	-27.30
14700	0.21	-26.80	0.95	-123.30	0.95	-123.30	0.21	-26.80
14750	0.20	-26.40	0.95	-124.20	0.95	-124.20	0.20	-26.40
14800	0.19	-26.60	0.95	-125.10	0.95	-125.10	0.19	-26.60
14850	0.19	-26.80	0.95	-126.00	0.95	-126.00	0.19	-26.80
14900	0.18	-24.90	0.95	-127.00	0.95	-127.00	0.18	-24.90
14950	0.17	-23.00	0.95	-128.00	0.95	-128.00	0.17	-23.00
15000	0.16	-20.50	0.94	-129.10	0.94	-129.10	0.16	-20.50
15050	0.15	-18.00	0.93	-130.20	0.93	-130.20	0.15	-18.00
15100	0.14	-8.70	0.92	-131.60	0.92	-131.60	0.14	-8.70
15150	0.14	0.60	0.90	-132.90	0.90	-132.90	0.14	0.60
15200	0.17	7.20	0.87	-133.50	0.87	-133.50	0.17	7.20
15250	0.19	13.80	0.84	-134.00	0.84	-134.00	0.19	13.80
15300	0.23	10.80	0.82	-131.90	0.82	-131.90	0.23	10.80
15350	0.28	7.70	0.80	-129.70	0.80	-129.70	0.28	7.70
15400	0.27	0.90	0.82	-128.20	0.82	-128.20	0.27	0.90
15450	0.27	-5.90	0.85	-126.70	0.85	-126.70	0.27	-5.90
15500	0.26	-7.90	0.87	-127.30	0.87	-127.30	0.26	-7.90
15550	0.24	-9.90	0.89	-128.00	0.89	-128.00	0.24	-9.90
15600	0.24	-11.50	0.90	-128.60	0.90	-128.60	0.24	-11.50
15650	0.23	-13.00	0.92	-129.10	0.92	-129.10	0.23	-13.00
15700	0.21	-13.30	0.92	-129.80	0.92	-129.80	0.21	-13.30
15750	0.20	-13.50	0.93	-130.50	0.93	-130.50	0.20	-13.50
15800	0.19	-12.50	0.94	-131.40	0.94	-131.40	0.19	-12.50
15850	0.18	-11.40	0.95	-132.30	0.95	-132.30	0.18	-11.40
15900	0.17	-10.20	0.95	-132.90	0.95	-132.90	0.17	-10.20
15950	0.15	-9.00	0.96	-133.50	0.96	-133.50	0.15	-9.00
16000	0.14	-6.20	0.96	-134.30	0.96	-134.30	0.14	-6.20
16050	0.13	-3.50	0.96	-135.00	0.96	-135.00	0.13	-3.50
16100	0.11	2.00	0.96	-135.80	0.96	-135.80	0.11	2.00
16150	0.10	7.40	0.97	-136.60	0.97	-136.60	0.10	7.40
16200	0.09	13.40	0.97	-137.40	0.97	-137.40	0.09	13.40
16250	0.08	19.40	0.97	-138.20	0.97	-138.20	0.08	19.40
16300	0.08	26.80	0.97	-138.70	0.97	-138.70	0.08	26.80
16350	0.08	34.30	0.97	-139.30	0.97	-139.30	0.08	34.30
16400	0.08	43.80	0.97	-139.90	0.97	-139.90	0.08	43.80
16450	0.08	53.40	0.97	-140.60	0.97	-140.60	0.08	53.40
16500	0.08	56.40	0.97	-140.90	0.97	-140.90	0.08	56.40
16550	0.08	59.40	0.97	-141.20	0.97	-141.20	0.08	59.40
16600	0.08	69.90	0.97	-142.00	0.97	-142.00	0.08	69.90
16650	0.09	80.30	0.98	-142.90	0.98	-142.90	0.09	80.30
16700	0.09	87.50	0.98	-143.60	0.98	-143.60	0.09	87.50
16750	0.09	94.70	0.98	-144.30	0.98	-144.30	0.09	94.70
16800	0.09	97.10	0.98	-145.00	0.98	-145.00	0.09	97.10
16850	0.09	99.50	0.99	-145.70	0.99	-145.70	0.09	99.50
16900	0.10	100.70	0.98	-146.40	0.98	-146.40	0.10	100.70
16950	0.11	101.80	0.98	-147.10	0.98	-147.10	0.11	101.80
17000	0.12	104.40	0.98	-147.90	0.98	-147.90	0.12	104.40
17050	0.12	107.00	0.98	-148.60	0.98	-148.60	0.12	107.00
17100	0.13	108.10	0.98	-149.30	0.98	-149.30	0.13	108.10
17150	0.13	109.30	0.98	-150.10	0.98	-150.10	0.13	109.30
17200	0.14	109.90	0.98	-150.60	0.98	-150.60	0.14	109.90
17250	0.14	110.50	0.98	-151.20	0.98	-151.20	0.14	110.50
17300	0.15	110.10	0.98	-152.00	0.98	-152.00	0.15	110.10
17350	0.15	109.70	0.98	-152.80	0.98	-152.80	0.15	109.70
17400	0.16	110.20	0.98	-153.30	0.98	-153.30	0.16	110.20
17450	0.16	110.70	0.97	-153.80	0.97	-153.80	0.16	110.70
17500	0.16	110.10	0.97	-154.40	0.97	-154.40	0.16	110.10
17550	0.16	109.60	0.97	-154.90	0.97	-154.90	0.16	109.60
17600	0.16	111.00	0.98	-155.60	0.98	-155.60	0.16	111.00
17650	0.16	112.40	0.98	-156.20	0.98	-156.20	0.16	112.40
17700	0.16	110.70	0.97	-156.70	0.97	-156.70	0.16	110.70
17750	0.17	108.90	0.97	-157.20	0.97	-157.20	0.17	108.90
17800	0.16	110.60	0.97	-157.80	0.97	-157.80	0.16	110.60
17850	0.16	112.30	0.97	-158.50	0.97	-158.50	0.16	112.30
17900	0.16	114.10	0.97	-159.20	0.97	-159.20	0.16	114.10
17950	0.16	116.00	0.97	-159.80	0.97	-159.80	0.16	116.00
18000	0.15	114.50	0.97	-160.30	0.97	-160.30	0.15	114.50
18050	0.14	113.00	0.98	-160.70	0.98	-160.70	0.14	113.00
18100	0.14	113.60	0.98	-161.10	0.98	-161.10	0.14	113.60
18150	0.14	114.10	0.98	-161.60	0.98	-161.60	0.14	114.10
18200	0.14	113.90	0.98	-162.10	0.98	-162.10	0.14	113.90
18250	0.13	113.80	0.98	-162.70	0.98	-162.70	0.13	113.80
18300	0.12	115.30	0.98	-163.30	0.98	-163.30	0.12	115.30
18350	0.12	116.90	0.98	-164.00	0.98	-164.00	0.12	116.90
18400	0.10	113.40	0.98	-164.50	0.98	-164.50	0.10	113.40
18450	0.09	110.00	0.99	-165.00	0.99	-165.00	0.09	110.00
18500	0.08	110.10	0.98	-165.60	0.98	-165.60	0.08	110.10
18550	0.08	110.20	0.98	-166.10	0.98	-166.10	0.08	110.20
18600	0.07	104.00	0.99	-166.80	0.99	-166.80	0.07	104.00
18650	0.06	97.80	0.99	-167.40	0.99	-167.40	0.06	97.80
18700	0.05	91.40	0.99	-167.90	0.99	-167.90	0.05	91.40
