# MHZ S MA R 50

50	0.21	107.60	0.96	13.30	0.96	13.30	0.21	107.60
100	0.13	104.50	0.98	8.40	0.98	8.40	0.13	104.50
150	0.06	101.40	1.00	3.50	1.00	3.50	0.06	101.40
200	0.04	113.00	1.00	1.70	1.00	1.70	0.04	113.00
250	0.02	124.70	1.00	0.00	1.00	0.00	0.02	124.70
300	0.02	0.00	1.00	-1.20	1.00	-1.20	0.02	0.00
350	0.02	-124.70	1.00	-2.40	1.00	-2.40	0.02	-124.70
400	0.03	-115.10	1.00	-3.40	1.00	-3.40	0.03	-115.10
450	0.04	-105.40	1.00	-4.30	1.00	-4.30	0.04	-105.40
500	0.05	-109.50	1.00	-5.20	1.00	-5.20	0.05	-109.50
550	0.05	-113.60	1.00	-6.10	1.00	-6.10	0.05	-113.60
600	0.06	-113.30	1.00	-7.00	1.00	-7.00	0.06	-113.30
650	0.07	-113.00	1.00	-7.90	1.00	-7.90	0.07	-113.00
700	0.08	-112.60	1.00	-8.80	1.00	-8.80	0.08	-112.60
750	0.08	-112.20	0.99	-9.70	0.99	-9.70	0.08	-112.20
800	0.09	-112.60	0.99	-10.60	0.99	-10.60	0.09	-112.60
850	0.10	-112.90	0.99	-11.50	0.99	-11.50	0.10	-112.90
900	0.11	-112.70	0.99	-12.30	0.99	-12.30	0.11	-112.70
950	0.11	-112.60	0.99	-13.00	0.99	-13.00	0.11	-112.60
1000	0.12	-112.90	0.99	-13.90	0.99	-13.90	0.12	-112.90
1050	0.13	-113.30	0.99	-14.80	0.99	-14.80	0.13	-113.30
1100	0.14	-113.90	0.99	-15.70	0.99	-15.70	0.14	-113.90
1150	0.15	-114.50	0.98	-16.60	0.98	-16.60	0.15	-114.50
1200	0.16	-115.30	0.98	-17.70	0.98	-17.70	0.16	-115.30
1250	0.17	-116.00	0.98	-18.70	0.98	-18.70	0.17	-116.00
1300	0.18	-118.20	0.97	-19.80	0.97	-19.80	0.18	-118.20
1350	0.19	-120.40	0.97	-20.90	0.97	-20.90	0.19	-120.40
1400	0.21	-125.80	0.94	-22.10	0.94	-22.10	0.21	-125.80
1450	0.23	-131.30	0.92	-23.40	0.92	-23.40	0.23	-131.30
1500	0.19	-139.00	0.92	-21.00	0.92	-21.00	0.19	-139.00
1550	0.16	-146.70	0.92	-18.70	0.92	-18.70	0.16	-146.70
1600	0.16	-137.60	0.94	-20.20	0.94	-20.20	0.16	-137.60
1650	0.16	-128.50	0.97	-21.70	0.97	-21.70	0.16	-128.50
1700	0.17	-128.10	0.97	-23.10	0.97	-23.10	0.17	-128.10
1750	0.19	-127.70	0.97	-24.40	0.97	-24.40	0.19	-127.70
1800	0.20	-127.60	0.97	-25.50	0.97	-25.50	0.20	-127.60
1850	0.21	-127.60	0.97	-26.60	0.97	-26.60	0.21	-127.60
1900	0.22	-128.60	0.97	-27.60	0.97	-27.60	0.22	-128.60
1950	0.23	-129.60	0.97	-28.50	0.97	-28.50	0.23	-129.60
2000	0.24	-130.40	0.96	-29.60	0.96	-29.60	0.24	-130.40
2050	0.25	-131.10	0.96	-30.70	0.96	-30.70	0.25	-131.10
2100	0.26	-132.20	0.96	-31.70	0.96	-31.70	0.26	-132.20
2150	0.27	-133.30	0.96	-32.70	0.96	-32.70	0.27	-133.30
2200	0.28	-134.20	0.95	-33.70	0.95	-33.70	0.28	-134.20
2250	0.29	-135.20	0.95	-34.70	0.95	-34.70	0.29	-135.20
2300	0.30	-135.70	0.94	-35.70	0.94	-35.70	0.30	-135.70
2350	0.31	-136.30	0.94	-36.70	0.94	-36.70	0.31	-136.30
2400	0.32	-137.70	0.93	-37.90	0.93	-37.90	0.32	-137.70
2450	0.34	-139.20	0.92	-39.00	0.92	-39.00	0.34	-139.20
2500	0.35	-140.00	0.92	-40.10	0.92	-40.10	0.35	-140.00
2550	0.37	-140.80	0.91	-41.10	0.91	-41.10	0.37	-140.80
2600	0.38	-142.90	0.89	-42.10	0.89	-42.10	0.38	-142.90
2650	0.40	-145.00	0.88	-43.10	0.88	-43.10	0.40	-145.00
2700	0.40	-148.30	0.85	-42.90	0.85	-42.90	0.40	-148.30
2750	0.40	-151.60	0.83	-42.70	0.83	-42.70	0.40	-151.60
2800	0.38	-150.80	0.85	-41.50	0.85	-41.50	0.38	-150.80
2850	0.35	-150.00	0.86	-40.30	0.86	-40.30	0.35	-150.00
2900	0.36	-147.20	0.88	-41.70	0.88	-41.70	0.36	-147.20
2950	0.37	-144.40	0.89	-43.10	0.89	-43.10	0.37	-144.40
3000	0.38	-143.20	0.89	-44.40	0.89	-44.40	0.38	-143.20
3050	0.40	-142.00	0.89	-45.60	0.89	-45.60	0.40	-142.00
3100	0.41	-142.70	0.89	-46.90	0.89	-46.90	0.41	-142.70
3150	0.42	-143.30	0.89	-48.20	0.89	-48.20	0.42	-143.30
3200	0.43	-143.20	0.88	-49.20	0.88	-49.20	0.43	-143.20
3250	0.44	-143.00	0.88	-50.20	0.88	-50.20	0.44	-143.00
3300	0.45	-143.50	0.88	-51.30	0.88	-51.30	0.45	-143.50
3350	0.46	-144.00	0.88	-52.40	0.88	-52.40	0.46	-144.00
3400	0.47	-144.90	0.87	-53.40	0.87	-53.40	0.47	-144.90
3450	0.47	-145.70	0.87	-54.50	0.87	-54.50	0.47	-145.70
3500	0.48	-146.20	0.86	-55.60	0.86	-55.60	0.48	-146.20
3550	0.48	-146.70	0.86	-56.70	0.86	-56.70	0.48	-146.70
3600	0.49	-147.30	0.85	-57.60	0.85	-57.60	0.49	-147.30
3650	0.50	-148.00	0.85	-58.60	0.85	-58.60	0.50	-148.00
3700	0.51	-149.10	0.84	-60.00	0.84	-60.00	0.51	-149.10
3750	0.52	-150.20	0.83	-61.30	0.83	-61.30	0.52	-150.20
3800	0.53	-151.30	0.82	-62.30	0.82	-62.30	0.53	-151.30
3850	0.54	-152.50	0.81	-63.30	0.81	-63.30	0.54	-152.50
3900	0.54	-154.40	0.79	-64.50	0.79	-64.50	0.54	-154.40
3950	0.55	-156.30	0.78	-65.80	0.78	-65.80	0.55	-156.30
4000	0.55	-158.40	0.76	-65.90	0.76	-65.90	0.55	-158.40
4050	0.55	-160.50	0.74	-66.10	0.74	-66.10	0.55	-160.50
4100	0.53	-162.00	0.73	-64.90	0.73	-64.90	0.53	-162.00
4150	0.51	-163.50	0.73	-63.80	0.73	-63.80	0.51	-163.50
4200	0.51	-162.40	0.75	-64.30	0.75	-64.30	0.51	-162.40
4250	0.51	-161.30	0.77	-64.90	0.77	-64.90	0.51	-161.30
4300	0.52	-160.50	0.77	-66.40	0.77	-66.40	0.52	-160.50
4350	0.53	-159.70	0.78	-67.90	0.78	-67.90	0.53	-159.70
4400	0.55	-160.30	0.77	-69.60	0.77	-69.60	0.55	-160.30
4450	0.57	-160.80	0.77	-71.40	0.77	-71.40	0.57	-160.80
4500	0.59	-161.70	0.76	-72.90	0.76	-72.90	0.59	-161.70
4550	0.61	-162.50	0.75	-74.50	0.75	-74.50	0.61	-162.50
4600	0.62	-164.30	0.74	-76.00	0.74	-76.00	0.62	-164.30
4650	0.63	-166.00	0.73	-77.50	0.73	-77.50	0.63	-166.00
4700	0.64	-167.10	0.72	-78.60	0.72	-78.60	0.64	-167.10
4750	0.65	-168.20	0.70	-79.60	0.70	-79.60	0.65	-168.20
4800	0.66	-169.50	0.69	-80.70	0.69	-80.70	0.66	-169.50
4850	0.67	-170.80	0.68	-81.70	0.68	-81.70	0.67	-170.80
4900	0.69	-172.50	0.67	-83.00	0.67	-83.00	0.69	-172.50
4950	0.70	-174.30	0.66	-84.30	0.66	-84.30	0.70	-174.30
5000	0.71	-175.90	0.64	-85.10	0.64	-85.10	0.71	-175.90
5050	0.71	-177.50	0.62	-85.90	0.62	-85.90	0.71	-177.50
5100	0.72	0.50	0.60	-86.50	0.60	-86.50	0.72	0.50
5150	0.72	178.40	0.59	-87.10	0.59	-87.10	0.72	178.40
5200	0.72	175.90	0.57	-87.10	0.57	-87.10	0.72	175.90
5250	0.73	173.50	0.55	-87.10	0.55	-87.10	0.73	173.50
5300	0.71	171.00	0.54	-85.40	0.54	-85.40	0.71	171.00
5350	0.69	168.50	0.52	-83.80	0.52	-83.80	0.69	168.50
5400	0.67	168.30	0.54	-82.70	0.54	-82.70	0.67	168.30
5450	0.65	168.10	0.56	-81.60	0.56	-81.60	0.65	168.10
5500	0.66	168.60	0.57	-83.20	0.57	-83.20	0.66	168.60
5550	0.66	169.00	0.59	-84.90	0.59	-84.90	0.66	169.00
5600	0.68	168.40	0.59	-87.40	0.59	-87.40	0.68	168.40
5650	0.70	167.80	0.59	-89.90	0.59	-89.90	0.70	167.80
5700	0.72	166.30	0.58	-92.10	0.58	-92.10	0.72	166.30
5750	0.74	164.80	0.57	-94.40	0.57	-94.40	0.74	164.80
5800	0.75	162.70	0.55	-96.30	0.55	-96.30	0.75	162.70
5850	0.76	160.50	0.54	-98.20	0.54	-98.20	0.76	160.50
5900	0.77	158.60	0.52	-99.80	0.52	-99.80	0.77	158.60
5950	0.79	156.70	0.50	-101.50	0.50	-101.50	0.79	156.70
6000	0.80	155.20	0.48	-102.50	0.48	-102.50	0.80	155.20
6050	0.82	153.70	0.45	-103.60	0.45	-103.60	0.82	153.70
6100	0.83	152.00	0.44	-104.60	0.44	-104.60	0.83	152.00
6150	0.83	150.30	0.42	-105.60	0.42	-105.60	0.83	150.30
6200	0.84	148.50	0.39	-106.30	0.39	-106.30	0.84	148.50
6250	0.85	146.60	0.37	-106.90	0.37	-106.90	0.85	146.60
6300	0.86	145.20	0.35	-106.80	0.35	-106.80	0.86	145.20
6350	0.86	143.70	0.33	-106.60	0.33	-106.60	0.86	143.70
6400	0.86	142.20	0.31	-105.00	0.31	-105.00	0.86	142.20
6450	0.86	140.70	0.28	-103.30	0.28	-103.30	0.86	140.70
6500	0.85	139.50	0.27	-99.60	0.27	-99.60	0.85	139.50
6550	0.84	138.20	0.26	-95.90	0.26	-95.90	0.84	138.20
6600	0.83	137.70	0.27	-92.70	0.27	-92.70	0.83	137.70
6650	0.82	137.10	0.28	-89.60	0.28	-89.60	0.82	137.10
6700	0.81	137.80	0.29	-90.60	0.29	-90.60	0.81	137.80
6750	0.81	138.50	0.30	-91.60	0.30	-91.60	0.81	138.50
6800	0.82	138.10	0.29	-94.80	0.29	-94.80	0.82	138.10
6850	0.84	137.70	0.29	-98.00	0.29	-98.00	0.84	137.70
6900	0.85	136.90	0.27	-100.00	0.27	-100.00	0.85	136.90
6950	0.87	136.20	0.25	-102.10	0.25	-102.10	0.87	136.20
7000	0.88	134.50	0.23	-102.70	0.23	-102.70	0.88	134.50
7050	0.89	132.80	0.21	-103.20	0.21	-103.20	0.89	132.80
7100	0.89	131.10	0.19	-101.90	0.19	-101.90	0.89	131.10
7150	0.90	129.40	0.17	-100.60	0.17	-100.60	0.90	129.40
7200	0.90	127.50	0.15	-98.00	0.15	-98.00	0.90	127.50
7250	0.91	125.70	0.13	-95.40	0.13	-95.40	0.91	125.70
7300	0.92	123.40	0.12	-87.50	0.12	-87.50	0.92	123.40
7350	0.92	121.10	0.10	-79.60	0.10	-79.60	0.92	121.10
7400	0.92	118.60	0.09	-65.00	0.09	-65.00	0.92	118.60
7450	0.92	116.10	0.09	-50.40	0.09	-50.40	0.92	116.10
7500	0.92	113.40	0.10	-38.20	0.10	-38.20	0.92	113.40
7550	0.92	110.80	0.12	-26.10	0.12	-26.10	0.92	110.80
7600	0.91	108.00	0.14	-20.70	0.14	-20.70	0.91	108.00
7650	0.90	105.20	0.16	-15.30	0.16	-15.30	0.90	105.20
7700	0.90	102.30	0.18	-13.80	0.18	-13.80	0.90	102.30
7750	0.89	99.40	0.21	-12.40	0.21	-12.40	0.89	99.40
7800	0.88	96.60	0.23	-12.30	0.23	-12.30	0.88	96.60
7850	0.88	93.80	0.25	-12.20	0.25	-12.20	0.88	93.80
7900	0.87	91.40	0.28	-12.80	0.28	-12.80	0.87	91.40
7950	0.87	89.10	0.30	-13.40	0.30	-13.40	0.87	89.10
8000	0.86	86.60	0.32	-14.40	0.32	-14.40	0.86	86.60
8050	0.86	84.20	0.34	-15.50	0.34	-15.50	0.86	84.20
8100	0.85	81.80	0.36	-17.00	0.36	-17.00	0.85	81.80
8150	0.83	79.40	0.38	-18.50	0.38	-18.50	0.83	79.40
8200	0.82	78.00	0.40	-19.40	0.40	-19.40	0.82	78.00
8250	0.82	76.60	0.42	-20.30	0.42	-20.30	0.82	76.60
8300	0.80	74.90	0.44	-21.90	0.44	-21.90	0.80	74.90
8350	0.79	73.20	0.46	-23.50	0.46	-23.50	0.79	73.20
8400	0.78	72.20	0.47	-24.70	0.47	-24.70	0.78	72.20
8450	0.77	71.20	0.49	-26.00	0.49	-26.00	0.77	71.20
8500	0.75	70.00	0.51	-27.60	0.51	-27.60	0.75	70.00
8550	0.74	68.80	0.52	-29.20	0.52	-29.20	0.74	68.80
8600	0.72	68.00	0.54	-30.90	0.54	-30.90	0.72	68.00
8650	0.71	67.20	0.56	-32.60	0.56	-32.60	0.71	67.20
8700	0.70	66.70	0.57	-34.50	0.57	-34.50	0.70	66.70
8750	0.68	66.20	0.58	-36.30	0.58	-36.30	0.68	66.20
8800	0.67	65.50	0.59	-38.30	0.59	-38.30	0.67	65.50
8850	0.65	64.80	0.60	-40.20	0.60	-40.20	0.65	64.80
8900	0.63	65.20	0.60	-41.80	0.60	-41.80	0.63	65.20
8950	0.62	65.60	0.60	-43.30	0.60	-43.30	0.62	65.60
9000	0.62	65.20	0.60	-44.30	0.60	-44.30	0.62	65.20
9050	0.62	64.80	0.60	-45.20	0.60	-45.20	0.62	64.80
9100	0.62	63.50	0.60	-45.70	0.60	-45.70	0.62	63.50
9150	0.62	62.30	0.61	-46.20	0.61	-46.20	0.62	62.30
9200	0.60	59.80	0.61	-46.90	0.61	-46.90	0.60	59.80
9250	0.59	57.40	0.62	-47.70	0.62	-47.70	0.59	57.40
9300	0.58	56.60	0.63	-48.20	0.63	-48.20	0.58	56.60
9350	0.57	55.70	0.64	-48.70	0.64	-48.70	0.57	55.70
9400	0.56	53.40	0.65	-50.00	0.65	-50.00	0.56	53.40
9450	0.55	51.10	0.65	-51.30	0.65	-51.30	0.55	51.10
9500	0.54	50.00	0.66	-52.30	0.66	-52.30	0.54	50.00
9550	0.53	48.90	0.67	-53.20	0.67	-53.20	0.53	48.90
9600	0.53	48.00	0.67	-54.50	0.67	-54.50	0.53	48.00
9650	0.52	47.20	0.68	-55.90	0.68	-55.90	0.52	47.20
9700	0.52	46.00	0.68	-56.90	0.68	-56.90	0.52	46.00
9750	0.51	44.80	0.68	-57.90	0.68	-57.90	0.51	44.80
9800	0.50	45.60	0.68	-58.70	0.68	-58.70	0.50	45.60
9850	0.50	46.30	0.68	-59.60	0.68	-59.60	0.50	46.30
9900	0.51	46.10	0.68	-60.60	0.68	-60.60	0.51	46.10
9950	0.52	46.00	0.67	-61.50	0.67	-61.50	0.52	46.00
10000	0.51	46.00	0.67	-61.30	0.67	-61.30	0.51	46.00
10050	0.51	46.10	0.66	-61.10	0.66	-61.10	0.51	46.10
10100	0.52	46.50	0.67	-61.00	0.67	-61.00	0.52	46.50
10150	0.54	46.90	0.67	-60.90	0.67	-60.90	0.54	46.90
10200	0.53	45.60	0.68	-61.00	0.68	-61.00	0.53	45.60
10250	0.52	44.30	0.69	-61.10	0.69	-61.10	0.52	44.30
10300	0.52	44.50	0.69	-61.60	0.69	-61.60	0.52	44.50
10350	0.51	44.60	0.70	-62.10	0.70	-62.10	0.51	44.60
10400	0.50	43.80	0.71	-62.50	0.71	-62.50	0.50	43.80
10450	0.49	42.90	0.73	-63.00	0.73	-63.00	0.49	42.90
10500	0.47	42.90	0.73	-64.00	0.73	-64.00	0.47	42.90
10550	0.46	42.90	0.74	-65.00	0.74	-65.00	0.46	42.90
10600	0.45	43.40	0.75	-65.50	0.75	-65.50	0.45	43.40
10650	0.44	43.90	0.75	-66.00	0.75	-66.00	0.44	43.90
10700	0.43	43.00	0.76	-66.70	0.76	-66.70	0.43	43.00
10750	0.42	42.10	0.76	-67.40	0.76	-67.40	0.42	42.10
10800	0.41	41.50	0.78	-67.70	0.78	-67.70	0.41	41.50
10850	0.39	41.00	0.79	-68.10	0.79	-68.10	0.39	41.00
10900	0.37	37.80	0.81	-69.30	0.81	-69.30	0.37	37.80
10950	0.35	34.70	0.82	-70.50	0.82	-70.50	0.35	34.70
11000	0.33	33.80	0.83	-72.20	0.83	-72.20	0.33	33.80
11050	0.30	32.80	0.84	-73.90	0.84	-73.90	0.30	32.80
11100	0.29	30.10	0.84	-75.00	0.84	-75.00	0.29	30.10
11150	0.28	27.40	0.84	-76.10	0.84	-76.10	0.28	27.40
11200	0.26	25.00	0.84	-77.40	0.84	-77.40	0.26	25.00
11250	0.24	22.60	0.85	-78.70	0.85	-78.70	0.24	22.60
11300	0.24	18.90	0.85	-79.70	0.85	-79.70	0.24	18.90
11350	0.23	15.20	0.86	-80.80	0.86	-80.80	0.23	15.20
11400	0.22	12.20	0.86	-81.90	0.86	-81.90	0.22	12.20
11450	0.22	9.20	0.86	-83.00	0.86	-83.00	0.22	9.20
11500	0.21	7.20	0.86	-84.20	0.86	-84.20	0.21	7.20
11550	0.20	5.30	0.86	-85.30	0.86	-85.30	0.20	5.30
11600	0.20	4.90	0.86	-86.30	0.86	-86.30	0.20	4.90
11650	0.20	4.60	0.86	-87.30	0.86	-87.30	0.20	4.60
11700	0.20	4.30	0.86	-88.20	0.86	-88.20	0.20	4.30
11750	0.21	3.90	0.86	-89.10	0.86	-89.10	0.21	3.90
11800	0.21	5.20	0.86	-89.70	0.86	-89.70	0.21	5.20
11850	0.22	6.50	0.86	-90.20	0.86	-90.20	0.22	6.50
11900	0.21	7.50	0.86	-91.10	0.86	-91.10	0.21	7.50
11950	0.21	8.60	0.86	-91.90	0.86	-91.90	0.21	8.60
12000	0.21	9.00	0.87	-92.90	0.87	-92.90	0.21	9.00
12050	0.21	9.50	0.88	-93.80	0.88	-93.80	0.21	9.50
12100	0.20	13.00	0.88	-95.00	0.88	-95.00	0.20	13.00
12150	0.20	16.60	0.88	-96.10	0.88	-96.10	0.20	16.60
12200	0.20	20.00	0.88	-97.20	0.88	-97.20	0.20	20.00
12250	0.20	23.40	0.88	-98.30	0.88	-98.30	0.20	23.40
12300	0.20	29.90	0.87	-99.40	0.87	-99.40	0.20	29.90
12350	0.20	36.40	0.87	-100.60	0.87	-100.60	0.20	36.40
12400	0.21	40.00	0.86	-101.80	0.86	-101.80	0.21	40.00
12450	0.22	43.50	0.86	-103.00	0.86	-103.00	0.22	43.50
12500	0.23	49.20	0.85	-104.00	0.85	-104.00	0.23	49.20
12550	0.24	54.80	0.83	-104.90	0.83	-104.90	0.24	54.80
12600	0.26	57.40	0.82	-105.50	0.82	-105.50	0.26	57.40
12650	0.28	59.90	0.80	-106.10	0.80	-106.10	0.28	59.90
12700	0.29	60.30	0.79	-106.10	0.79	-106.10	0.29	60.30
12750	0.31	60.70	0.78	-106.10	0.78	-106.10	0.31	60.70
12800	0.31	60.40	0.78	-106.00	0.78	-106.00	0.31	60.40
12850	0.32	60.00	0.77	-105.90	0.77	-105.90	0.32	60.00
12900	0.31	59.50	0.78	-105.80	0.78	-105.80	0.31	59.50
12950	0.31	58.90	0.79	-105.80	0.79	-105.80	0.31	58.90
13000	0.29	59.10	0.79	-106.50	0.79	-106.50	0.29	59.10
13050	0.28	59.30	0.80	-107.30	0.80	-107.30	0.28	59.30
13100	0.26	60.50	0.80	-108.30	0.80	-108.30	0.26	60.50
13150	0.25	61.70	0.81	-109.30	0.81	-109.30	0.25	61.70
13200	0.24	62.50	0.80	-110.20	0.80	-110.20	0.24	62.50
13250	0.24	63.40	0.80	-111.20	0.80	-111.20	0.24	63.40
13300	0.22	65.40	0.79	-112.60	0.79	-112.60	0.22	65.40
13350	0.21	67.30	0.78	-114.00	0.78	-114.00	0.21	67.30
13400	0.21	64.50	0.77	-114.70	0.77	-114.70	0.21	64.50
13450	0.22	61.70	0.75	-115.40	0.75	-115.40	0.22	61.70
13500	0.22	57.00	0.74	-115.40	0.74	-115.40	0.22	57.00
13550	0.21	52.30	0.73	-115.50	0.73	-115.50	0.21	52.30
13600	0.21	46.60	0.72	-115.10	0.72	-115.10	0.21	46.60
13650	0.20	41.00	0.71	-114.70	0.71	-114.70	0.20	41.00
13700	0.21	32.90	0.70	-113.90	0.70	-113.90	0.21	32.90
13750	0.21	24.90	0.70	-113.10	0.70	-113.10	0.21	24.90
13800	0.21	17.30	0.70	-112.30	0.70	-112.30	0.21	17.30
13850	0.21	9.70	0.71	-111.60	0.71	-111.60	0.21	9.70
13900	0.23	4.70	0.72	-111.20	0.72	-111.20	0.23	4.70
13950	0.24	-0.30	0.73	-110.80	0.73	-110.80	0.24	-0.30
14000	0.25	-4.80	0.74	-110.90	0.74	-110.90	0.25	-4.80
14050	0.26	-9.40	0.75	-111.00	0.75	-111.00	0.26	-9.40
14100	0.27	-11.00	0.76	-111.40	0.76	-111.40	0.27	-11.00
14150	0.28	-12.70	0.77	-111.70	0.77	-111.70	0.28	-12.70
14200	0.29	-14.20	0.78	-112.20	0.78	-112.20	0.29	-14.20
14250	0.30	-15.70	0.79	-112.80	0.79	-112.80	0.30	-15.70
14300	0.30	-15.90	0.80	-113.40	0.80	-113.40	0.30	-15.90
14350	0.30	-16.10	0.81	-113.90	0.81	-113.90	0.30	-16.10
14400	0.31	-16.70	0.82	-114.80	0.82	-114.80	0.31	-16.70
14450	0.32	-17.20	0.83	-115.70	0.83	-115.70	0.32	-17.20
14500	0.31	-16.80	0.83	-116.20	0.83	-116.20	0.31	-16.80
14550	0.30	-16.30	0.84	-116.80	0.84	-116.80	0.30	-16.30
14600	0.30	-15.20	0.85	-117.80	0.85	-117.80	0.30	-15.20
14650	0.30	-14.10	0.85	-118.70	0.85	-118.70	0.30	-14.10
14700	0.28	-14.20	0.86	-119.60	0.86	-119.60	0.28	-14.20
14750	0.27	-14.40	0.87	-120.40	0.87	-120.40	0.27	-14.40
14800	0.26	-12.50	0.87	-121.40	0.87	-121.40	0.26	-12.50
14850	0.25	-10.70	0.88	-122.40	0.88	-122.40	0.25	-10.70
14900	0.23	-9.70	0.88	-123.10	0.88	-123.10	0.23	-9.70
14950	0.22	-8.70	0.89	-123.80	0.89	-123.80	0.22	-8.70
15000	0.20	-7.70	0.89	-125.00	0.89	-125.00	0.20	-7.70
15050	0.19	-6.60	0.89	-126.10	0.89	-126.10	0.19	-6.60
15100	0.18	-6.30	0.89	-126.70	0.89	-126.70	0.18	-6.30
15150	0.16	-5.90	0.89	-127.40	0.89	-127.40	0.16	-5.90
15200	0.16	-4.30	0.90	-128.20	0.90	-128.20	0.16	-4.30
15250	0.15	-2.80	0.90	-129.00	0.90	-129.00	0.15	-2.80
15300	0.14	-5.70	0.90	-130.00	0.90	-130.00	0.14	-5.70
15350	0.12	-8.60	0.90	-131.10	0.90	-131.10	0.12	-8.60
15400	0.12	-8.40	0.89	-131.90	0.89	-131.90	0.12	-8.40
15450	0.11	-8.10	0.89	-132.60	0.89	-132.60	0.11	-8.10
15500	0.11	-11.20	0.88	-133.40	0.88	-133.40	0.11	-11.20
15550	0.11	-14.20	0.88	-134.20	0.88	-134.20	0.11	-14.20
15600	0.11	-16.40	0.88	-134.80	0.88	-134.80	0.11	-16.40
15650	0.11	-18.70	0.87	-135.40	0.87	-135.40	0.11	-18.70
15700	0.12	-18.50	0.86	-136.00	0.86	-136.00	0.12	-18.50
15750	0.14	-18.20	0.86	-136.60	0.86	-136.60	0.14	-18.20
15800	0.13	-22.20	0.85	-136.60	0.85	-136.60	0.13	-22.20
15850	0.13	-26.20	0.85	-136.70	0.85	-136.70	0.13	-26.20
15900	0.14	-24.80	0.84	-136.90	0.84	-136.90	0.14	-24.80
15950	0.15	-23.30	0.84	-137.00	0.84	-137.00	0.15	-23.30
16000	0.15	-26.60	0.85	-137.20	0.85	-137.20	0.15	-26.60
16050	0.14	-29.90	0.85	-137.30	0.85	-137.30	0.14	-29.90
16100	0.13	-29.10	0.85	-138.00	0.85	-138.00	0.13	-29.10
16150	0.12	-28.30	0.86	-138.70	0.86	-138.70	0.12	-28.30
16200	0.11	-28.10	0.86	-139.50	0.86	-139.50	0.11	-28.10
16250	0.10	-28.00	0.86	-140.20	0.86	-140.20	0.10	-28.00
16300	0.08	-20.50	0.87	-141.20	0.87	-141.20	0.08	-20.50
16350	0.06	-13.10	0.87	-142.10	0.87	-142.10	0.06	-13.10
16400	0.05	0.80	0.87	-143.00	0.87	-143.00	0.05	0.80
16450	0.05	14.60	0.87	-143.80	0.87	-143.80	0.05	14.60
16500	0.05	35.40	0.86	-144.60	0.86	-144.60	0.05	35.40
16550	0.04	56.10	0.85	-145.40	0.85	-145.40	0.04	56.10
16600	0.07	64.70	0.85	-146.40	0.85	-146.40	0.07	64.70
16650	0.09	73.40	0.85	-147.30	0.85	-147.30	0.09	73.40
16700	0.10	76.20	0.85	-148.10	0.85	-148.10	0.10	76.20
16750	0.12	79.10	0.84	-148.90	0.84	-148.90	0.12	79.10
16800	0.14	78.80	0.83	-149.70	0.83	-149.70	0.14	78.80
16850	0.17	78.50	0.82	-150.40	0.82	-150.40	0.17	78.50
16900	0.19	75.00	0.81	-151.20	0.81	-151.20	0.19	75.00
16950	0.20	71.50	0.80	-151.90	0.80	-151.90	0.20	71.50
17000	0.22	68.60	0.79	-152.20	0.79	-152.20	0.22	68.60
17050	0.23	65.80	0.78	-152.50	0.78	-152.50	0.23	65.80
17100	0.24	61.60	0.76	-152.60	0.76	-152.60	0.24	61.60
17150	0.25	57.50	0.75	-152.60	0.75	-152.60	0.25	57.50
17200	0.25	53.20	0.74	-151.70	0.74	-151.70	0.25	53.20
17250	0.25	48.90	0.73	-150.80	0.73	-150.80	0.25	48.90
17300	0.24	48.70	0.73	-149.90	0.73	-149.90	0.24	48.70
17350	0.23	48.50	0.74	-149.00	0.74	-149.00	0.23	48.50
17400	0.22	46.20	0.75	-148.20	0.75	-148.20	0.22	46.20
17450	0.20	43.90	0.76	-147.40	0.76	-147.40	0.20	43.90
17500	0.19	45.60	0.77	-147.50	0.77	-147.50	0.19	45.60
17550	0.17	47.30	0.79	-147.50	0.79	-147.50	0.17	47.30
17600	0.17	50.10	0.81	-148.20	0.81	-148.20	0.17	50.10
17650	0.17	52.90	0.82	-148.90	0.82	-148.90	0.17	52.90
17700	0.16	55.30	0.83	-149.70	0.83	-149.70	0.16	55.30
17750	0.14	57.70	0.84	-150.40	0.84	-150.40	0.14	57.70
17800	0.14	59.20	0.85	-151.40	0.85	-151.40	0.14	59.20
17850	0.14	60.80	0.86	-152.40	0.86	-152.40	0.14	60.80
17900	0.13	58.50	0.86	-153.20	0.86	-153.20	0.13	58.50
17950	0.13	56.30	0.87	-154.00	0.87	-154.00	0.13	56.30
18000	0.12	55.30	0.87	-155.00	0.87	-155.00	0.12	55.30
18050	0.11	54.40	0.87	-156.10	0.87	-156.10	0.11	54.40
18100	0.11	46.70	0.87	-156.70	0.87	-156.70	0.11	46.70
18150	0.11	39.10	0.87	-157.40	0.87	-157.40	0.11	39.10
18200	0.10	31.80	0.87	-158.30	0.87	-158.30	0.10	31.80
18250	0.10	24.60	0.88	-159.10	0.88	-159.10	0.10	24.60
18300	0.11	15.70	0.88	-159.70	0.88	-159.70	0.11	15.70
18350	0.13	6.70	0.88	-160.20	0.88	-160.20	0.13	6.70
18400	0.13	2.70	0.87	-160.70	0.87	-160.70	0.13	2.70
18450	0.14	-1.30	0.87	-161.30	0.87	-161.30	0.14	-1.30
18500	0.16	-2.60	0.88	-161.60	0.88	-161.60	0.16	-2.60
18550	0.17	-3.90	0.88	-162.00	0.88	-162.00	0.17	-3.90
18600	0.17	-6.20	0.88	-162.70	0.88	-162.70	0.17	-6.20
18650	0.16	-8.50	0.88	-163.30	0.88	-163.30	0.16	-8.50
