# MHZ S MA R 50

      50  0.25   71.90    0.95   -12.80   0.95   -12.80   0.25   71.90
     100  0.43   60.90    0.86   -24.40   0.86   -24.40   0.43   60.90
     150  0.61   50.00    0.77   -36.00   0.77   -36.00   0.61   50.00
     200  0.71   42.10    0.68   -44.20   0.68   -44.20   0.71   42.10
     250  0.81   34.20    0.58   -52.30   0.58   -52.30   0.81   34.20
     300  0.85   28.70    0.50   -57.80   0.50   -57.80   0.85   28.70
     350  0.89   23.10    0.41   -63.40   0.41   -63.40   0.89   23.10
     400  0.93   18.70    0.35   -67.50   0.35   -67.50   0.93   18.70
     450  0.96   14.30    0.28   -71.60   0.28   -71.60   0.96   14.30
     500  0.99   13.60    0.22   -75.70   0.22   -75.70   0.99   13.60
     550  1.02   13.00    0.16   -79.80   0.16   -79.80   1.02   13.00
     600  1.01   10.60    0.12   -81.30   0.12   -81.30   1.01   10.60
     650  1.00    8.10    0.08   -82.80   0.08   -82.80   1.00    8.10
     700  1.01    6.40    0.05   -77.00   0.05   -77.00   1.01    6.40
     750  1.02    4.70    0.01   -71.20   0.01   -71.20   1.02    4.70
     800  1.00    2.40    0.03    4.20    0.03    4.20    1.00    2.40
     850  0.99    0.20    0.05   79.70    0.05   79.70    0.99    0.20
     900  1.00   -1.40    0.08   79.60    0.08   79.60    1.00   -1.40
     950  1.01   -3.10    0.10   79.50    0.10   79.50    1.01   -3.10
    1000  1.00   -4.80    0.13   78.40    0.13   78.40    1.00   -4.80
    1050  0.99   -6.50    0.15   77.40    0.15   77.40    0.99   -6.50
    1100  0.99   -8.00    0.18   75.80    0.18   75.80    0.99   -8.00
    1150  0.99   -9.50    0.20   74.30    0.20   74.30    0.99   -9.50
    1200  0.98   -10.80   0.22   73.20    0.22   73.20    0.98   -10.80
    1250  0.98   -12.10   0.24   72.10    0.24   72.10    0.98   -12.10
    1300  0.97   -13.90   0.26   70.60    0.26   70.60    0.97   -13.90
    1350  0.96   -15.70   0.28   69.00    0.28   69.00    0.96   -15.70
    1400  0.96   -16.90   0.30   68.10    0.30   68.10    0.96   -16.90
    1450  0.95   -18.10   0.32   67.10    0.32   67.10    0.95   -18.10
    1500  0.94   -19.80   0.34   65.60    0.34   65.60    0.94   -19.80
    1550  0.93   -21.50   0.36   64.20    0.36   64.20    0.93   -21.50
    1600  0.92   -23.00   0.38   63.00    0.38   63.00    0.92   -23.00
    1650  0.92   -24.60   0.40   61.70    0.40   61.70    0.92   -24.60
    1700  0.91   -25.90   0.41   60.60    0.41   60.60    0.91   -25.90
    1750  0.89   -27.20   0.43   59.50    0.43   59.50    0.89   -27.20
    1800  0.89   -28.90   0.45   58.00    0.45   58.00    0.89   -28.90
    1850  0.88   -30.60   0.47   56.60    0.47   56.60    0.88   -30.60
    1900  0.87   -32.00   0.48   55.60    0.48   55.60    0.87   -32.00
    1950  0.86   -33.50   0.50   54.60    0.50   54.60    0.86   -33.50
    2000  0.85   -35.00   0.51   53.30    0.51   53.30    0.85   -35.00
    2050  0.84   -36.50   0.53   52.10    0.53   52.10    0.84   -36.50
    2100  0.83   -37.70   0.55   51.00    0.55   51.00    0.83   -37.70
    2150  0.82   -38.90   0.56   49.90    0.56   49.90    0.82   -38.90
    2200  0.80   -40.60   0.57   48.70    0.57   48.70    0.80   -40.60
    2250  0.79   -42.20   0.59   47.40    0.59   47.40    0.79   -42.20
    2300  0.78   -43.30   0.60   46.30    0.60   46.30    0.78   -43.30
    2350  0.77   -44.30   0.62   45.30    0.62   45.30    0.77   -44.30
    2400  0.76   -46.00   0.63   43.80    0.63   43.80    0.76   -46.00
    2450  0.74   -47.70   0.64   42.30    0.64   42.30    0.74   -47.70
    2500  0.73   -48.80   0.66   41.10    0.66   41.10    0.73   -48.80
    2550  0.72   -50.00   0.67   39.90    0.67   39.90    0.72   -50.00
    2600  0.71   -51.20   0.68   38.80    0.68   38.80    0.71   -51.20
    2650  0.69   -52.50   0.70   37.60    0.70   37.60    0.69   -52.50
    2700  0.68   -53.60   0.71   36.30    0.71   36.30    0.68   -53.60
    2750  0.66   -54.70   0.72   35.00    0.72   35.00    0.66   -54.70
    2800  0.65   -56.30   0.73   33.70    0.73   33.70    0.65   -56.30
    2850  0.63   -57.90   0.75   32.40    0.75   32.40    0.63   -57.90
    2900  0.62   -59.00   0.76   30.70    0.76   30.70    0.62   -59.00
    2950  0.60   -60.10   0.77   29.00    0.77   29.00    0.60   -60.10
    3000  0.57   -61.50   0.78   27.30    0.78   27.30    0.57   -61.50
    3050  0.55   -63.00   0.79   25.50    0.79   25.50    0.55   -63.00
    3100  0.52   -64.80   0.80   23.20    0.80   23.20    0.52   -64.80
    3150  0.49   -66.60   0.82   21.00    0.82   21.00    0.49   -66.60
    3200  0.44   -67.10   0.83   17.70    0.83   17.70    0.44   -67.10
    3250  0.39   -67.60   0.85   14.40    0.85   14.40    0.39   -67.60
    3300  0.31   -62.00   0.84    8.60    0.84    8.60    0.31   -62.00
    3350  0.23   -56.30   0.84    2.80    0.84    2.80    0.23   -56.30
    3400  0.29   -25.10   0.75   -7.00    0.75   -7.00    0.29   -25.10
    3450  0.34    6.20    0.67   -16.70   0.67   -16.70   0.34    6.20
    3500  0.53   -2.80    0.47   -11.20   0.47   -11.20   0.53   -2.80
    3550  0.72   -11.70   0.28   -5.70    0.28   -5.70    0.72   -11.70
    3600  0.75   -22.20   0.33   17.00    0.33   17.00    0.75   -22.20
    3650  0.79   -32.60   0.39   39.70    0.39   39.70    0.79   -32.60
    3700  0.78   -38.50   0.46   40.00    0.46   40.00    0.78   -38.50
    3750  0.77   -44.30   0.54   40.30    0.54   40.30    0.77   -44.30
    3800  0.74   -47.60   0.58   39.00    0.58   39.00    0.74   -47.60
    3850  0.72   -50.80   0.62   37.60    0.62   37.60    0.72   -50.80
    3900  0.70   -53.30   0.65   35.90    0.65   35.90    0.70   -53.30
    3950  0.68   -55.70   0.68   34.20    0.68   34.20    0.68   -55.70
    4000  0.67   -57.50   0.70   33.10    0.70   33.10    0.67   -57.50
    4050  0.65   -59.30   0.71   32.00    0.71   32.00    0.65   -59.30
    4100  0.64   -60.60   0.73   30.90    0.73   30.90    0.64   -60.60
    4150  0.62   -61.90   0.74   29.90    0.74   29.90    0.62   -61.90
    4200  0.61   -63.60   0.75   28.90    0.75   28.90    0.61   -63.60
    4250  0.60   -65.20   0.77   27.90    0.77   27.90    0.60   -65.20
    4300  0.59   -66.30   0.77   27.10    0.77   27.10    0.59   -66.30
    4350  0.57   -67.30   0.78   26.30    0.78   26.30    0.57   -67.30
    4400  0.56   -68.70   0.79   25.30    0.79   25.30    0.56   -68.70
    4450  0.55   -70.00   0.80   24.30    0.80   24.30    0.55   -70.00
    4500  0.54   -70.50   0.81   23.60    0.81   23.60    0.54   -70.50
    4550  0.53   -71.00   0.81   22.90    0.81   22.90    0.53   -71.00
    4600  0.53   -72.50   0.82   21.80    0.82   21.80    0.53   -72.50
    4650  0.52   -74.10   0.83   20.70    0.83   20.70    0.52   -74.10
    4700  0.51   -74.60   0.83   19.90    0.83   19.90    0.51   -74.60
    4750  0.50   -75.20   0.83   19.10    0.83   19.10    0.50   -75.20
    4800  0.49   -76.00   0.83   18.40    0.83   18.40    0.49   -76.00
    4850  0.48   -76.80   0.83   17.70    0.83   17.70    0.48   -76.80
    4900  0.48   -77.80   0.84   17.40    0.84   17.40    0.48   -77.80
    4950  0.47   -78.80   0.85   17.10    0.85   17.10    0.47   -78.80
    5000  0.46   -80.00   0.85   16.10    0.85   16.10    0.46   -80.00
    5050  0.45   -81.20   0.85   15.20    0.85   15.20    0.45   -81.20
    5100  0.44   -81.40   0.86   14.60    0.86   14.60    0.44   -81.40
    5150  0.43   -81.70   0.86   14.10    0.86   14.10    0.43   -81.70
    5200  0.42   -82.20   0.87   13.60    0.87   13.60    0.42   -82.20
    5250  0.42   -82.60   0.87   13.20    0.87   13.20    0.42   -82.60
    5300  0.41   -83.40   0.88   12.10    0.88   12.10    0.41   -83.40
    5350  0.41   -84.30   0.88   11.00    0.88   11.00    0.41   -84.30
    5400  0.39   -84.70   0.88   10.30    0.88   10.30    0.39   -84.70
    5450  0.38   -85.20   0.89    9.60    0.89    9.60    0.38   -85.20
    5500  0.37   -85.80   0.89    8.80    0.89    8.80    0.37   -85.80
    5550  0.36   -86.40   0.90    7.90    0.90    7.90    0.36   -86.40
    5600  0.35   -87.00   0.90    7.00    0.90    7.00    0.35   -87.00
    5650  0.33   -87.50   0.90    6.10    0.90    6.10    0.33   -87.50
    5700  0.32   -88.30   0.90    5.20    0.90    5.20    0.32   -88.30
    5750  0.31   -89.10   0.91    4.30    0.91    4.30    0.31   -89.10
    5800  0.29   -88.50   0.91    3.10    0.91    3.10    0.29   -88.50
    5850  0.27   -87.90   0.91    1.80    0.91    1.80    0.27   -87.90
    5900  0.25   -87.90   0.91    0.50    0.91    0.50    0.25   -87.90
    5950  0.23   -87.80   0.91   -0.90    0.91   -0.90    0.23   -87.80
    6000  0.20   -84.70   0.90   -3.20    0.90   -3.20    0.20   -84.70
    6050  0.17   -81.60   0.90   -5.40    0.90   -5.40    0.17   -81.60
    6100  0.15   -66.60   0.88   -7.90    0.88   -7.90    0.15   -66.60
    6150  0.13   -51.70   0.86   -10.40   0.86   -10.40   0.13   -51.70
    6200  0.18   -30.90   0.80   -13.60   0.80   -13.60   0.18   -30.90
    6250  0.23   -10.20   0.74   -16.80   0.74   -16.80   0.23   -10.20
    6300  0.34   -17.50   0.63   -12.70   0.63   -12.70   0.34   -17.50
    6350  0.45   -24.70   0.53   -8.50    0.53   -8.50    0.45   -24.70
    6400  0.49   -35.90   0.56    1.40    0.56    1.40    0.49   -35.90
    6450  0.53   -47.00   0.59   11.30    0.59   11.30    0.53   -47.00
    6500  0.51   -54.00   0.65   12.00    0.65   12.00    0.51   -54.00
    6550  0.50   -61.00   0.71   12.70    0.71   12.70    0.50   -61.00
    6600  0.47   -64.20   0.75   11.40    0.75   11.40    0.47   -64.20
    6650  0.45   -67.40   0.78   10.10    0.78   10.10    0.45   -67.40
    6700  0.44   -69.00   0.80    9.10    0.80    9.10    0.44   -69.00
    6750  0.42   -70.70   0.82    8.10    0.82    8.10    0.42   -70.70
    6800  0.40   -71.20   0.83    7.00    0.83    7.00    0.40   -71.20
    6850  0.38   -71.70   0.84    6.00    0.84    6.00    0.38   -71.70
    6900  0.37   -72.30   0.85    5.10    0.85    5.10    0.37   -72.30
    6950  0.36   -73.00   0.85    4.20    0.85    4.20    0.36   -73.00
    7000  0.35   -73.10   0.85    3.50    0.85    3.50    0.35   -73.10
    7050  0.34   -73.20   0.86    2.80    0.86    2.80    0.34   -73.20
    7100  0.33   -72.80   0.86    2.50    0.86    2.50    0.33   -72.80
    7150  0.32   -72.40   0.86    2.10    0.86    2.10    0.32   -72.40
    7200  0.32   -73.50   0.86    1.80    0.86    1.80    0.32   -73.50
    7250  0.31   -74.60   0.87    1.50    0.87    1.50    0.31   -74.60
    7300  0.31   -75.20   0.87    1.10    0.87    1.10    0.31   -75.20
    7350  0.31   -75.80   0.88    0.70    0.88    0.70    0.31   -75.80
    7400  0.30   -77.00   0.88    0.30    0.88    0.30    0.30   -77.00
    7450  0.30   -78.10   0.88   -0.10    0.88   -0.10    0.30   -78.10
    7500  0.29   -79.80   0.89   -0.60    0.89   -0.60    0.29   -79.80
    7550  0.28   -81.40   0.90   -1.10    0.90   -1.10    0.28   -81.40
    7600  0.28   -81.80   0.90   -1.70    0.90   -1.70    0.28   -81.80
    7650  0.27   -82.30   0.90   -2.20    0.90   -2.20    0.27   -82.30
    7700  0.26   -84.00   0.91   -2.60    0.91   -2.60    0.26   -84.00
    7750  0.25   -85.70   0.91   -3.10    0.91   -3.10    0.25   -85.70
    7800  0.23   -85.50   0.92   -3.70    0.92   -3.70    0.23   -85.50
    7850  0.22   -85.40   0.92   -4.20    0.92   -4.20    0.22   -85.40
    7900  0.21   -86.70   0.93   -4.90    0.93   -4.90    0.21   -86.70
    7950  0.21   -88.00   0.93   -5.60    0.93   -5.60    0.21   -88.00
    8000  0.19   -87.10   0.94   -6.30    0.94   -6.30    0.19   -87.10
    8050  0.18   -86.30   0.94   -7.00    0.94   -7.00    0.18   -86.30
    8100  0.17   -86.40   0.94   -7.60    0.94   -7.60    0.17   -86.40
    8150  0.16   -86.40   0.94   -8.30    0.94   -8.30    0.16   -86.40
    8200  0.14   -84.90   0.94   -9.00    0.94   -9.00    0.14   -84.90
    8250  0.13   -83.40   0.94   -9.80    0.94   -9.80    0.13   -83.40
    8300  0.12   -81.50   0.95   -10.50   0.95   -10.50   0.12   -81.50
    8350  0.12   -79.50   0.95   -11.20   0.95   -11.20   0.12   -79.50
    8400  0.11   -75.60   0.95   -12.10   0.95   -12.10   0.11   -75.60
    8450  0.10   -71.60   0.95   -13.00   0.95   -13.00   0.10   -71.60
    8500  0.09   -65.10   0.95   -13.80   0.95   -13.80   0.09   -65.10
    8550  0.09   -58.70   0.95   -14.70   0.95   -14.70   0.09   -58.70
    8600  0.09   -50.10   0.95   -15.60   0.95   -15.60   0.09   -50.10
    8650  0.08   -41.60   0.94   -16.60   0.94   -16.60   0.08   -41.60
    8700  0.09   -32.00   0.94   -17.70   0.94   -17.70   0.09   -32.00
    8750  0.09   -22.40   0.93   -18.70   0.93   -18.70   0.09   -22.40
    8800  0.10   -15.00   0.92   -19.80   0.92   -19.80   0.10   -15.00
    8850  0.12   -7.60    0.92   -20.80   0.92   -20.80   0.12   -7.60
    8900  0.14   -2.90    0.90   -22.30   0.90   -22.30   0.14   -2.90
    8950  0.16    1.80    0.88   -23.90   0.88   -23.90   0.16    1.80
    9000  0.20    1.40    0.85   -25.50   0.85   -25.50   0.20    1.40
    9050  0.24    1.00    0.82   -27.10   0.82   -27.10   0.24    1.00
    9100  0.28   -4.50    0.76   -27.20   0.76   -27.20   0.28   -4.50
    9150  0.33   -9.90    0.70   -27.20   0.70   -27.20   0.33   -9.90
    9200  0.37   -21.20   0.66   -21.50   0.66   -21.50   0.37   -21.20
    9250  0.40   -32.50   0.62   -15.70   0.62   -15.70   0.40   -32.50
    9300  0.38   -41.80   0.67   -11.10   0.67   -11.10   0.38   -41.80
    9350  0.36   -51.10   0.71   -6.50    0.71   -6.50    0.36   -51.10
    9400  0.34   -56.90   0.76   -6.40    0.76   -6.40    0.34   -56.90
    9450  0.31   -62.80   0.80   -6.20    0.80   -6.20    0.31   -62.80
    9500  0.28   -65.00   0.83   -7.50    0.83   -7.50    0.28   -65.00
    9550  0.25   -67.20   0.86   -8.70    0.86   -8.70    0.25   -67.20
    9600  0.23   -67.40   0.87   -9.80    0.87   -9.80    0.23   -67.40
    9650  0.21   -67.60   0.89   -11.00   0.89   -11.00   0.21   -67.60
    9700  0.19   -67.30   0.90   -11.80   0.90   -11.80   0.19   -67.30
    9750  0.18   -66.90   0.90   -12.60   0.90   -12.60   0.18   -66.90
    9800  0.16   -65.90   0.91   -13.40   0.91   -13.40   0.16   -65.90
    9850  0.14   -64.90   0.92   -14.20   0.92   -14.20   0.14   -64.90
    9900  0.13   -60.80   0.92   -14.80   0.92   -14.80   0.13   -60.80
    9950  0.12   -56.80   0.92   -15.40   0.92   -15.40   0.12   -56.80
   10000  0.11   -57.60   0.93   -16.10   0.93   -16.10   0.11   -57.60
   10050  0.10   -58.40   0.93   -16.70   0.93   -16.70   0.10   -58.40
   10100  0.09   -49.10   0.93   -17.20   0.93   -17.20   0.09   -49.10
   10150  0.07   -39.80   0.94   -17.80   0.94   -17.80   0.07   -39.80
   10200  0.07   -36.30   0.94   -18.40   0.94   -18.40   0.07   -36.30
   10250  0.07   -32.80   0.94   -19.10   0.94   -19.10   0.07   -32.80
   10300  0.06   -22.20   0.94   -19.70   0.94   -19.70   0.06   -22.20
   10350  0.05   -11.50   0.94   -20.30   0.94   -20.30   0.05   -11.50
   10400  0.05   -3.60    0.94   -20.90   0.94   -20.90   0.05   -3.60
   10450  0.06    4.30    0.94   -21.60   0.94   -21.60   0.06    4.30
   10500  0.05   12.00    0.94   -22.00   0.94   -22.00   0.05   12.00
   10550  0.05   19.60    0.94   -22.40   0.94   -22.40   0.05   19.60
   10600  0.07   28.50    0.94   -22.90   0.94   -22.90   0.07   28.50
   10650  0.09   37.50    0.94   -23.30   0.94   -23.30   0.09   37.50
   10700  0.09   36.10    0.95   -24.00   0.95   -24.00   0.09   36.10
   10750  0.09   34.80    0.95   -24.80   0.95   -24.80   0.09   34.80
   10800  0.09   39.00    0.95   -25.10   0.95   -25.10   0.09   39.00
   10850  0.10   43.20    0.95   -25.50   0.95   -25.50   0.10   43.20
   10900  0.11   41.90    0.95   -26.20   0.95   -26.20   0.11   41.90
   10950  0.11   40.60    0.95   -27.00   0.95   -27.00   0.11   40.60
   11000  0.12   43.50    0.95   -27.70   0.95   -27.70   0.12   43.50
   11050  0.12   46.40    0.95   -28.40   0.95   -28.40   0.12   46.40
   11100  0.13   44.90    0.95   -29.00   0.95   -29.00   0.13   44.90
   11150  0.13   43.30    0.94   -29.50   0.94   -29.50   0.13   43.30
   11200  0.14   43.20    0.94   -30.30   0.94   -30.30   0.14   43.20
   11250  0.14   43.10    0.94   -31.10   0.94   -31.10   0.14   43.10
   11300  0.15   42.60    0.94   -31.80   0.94   -31.80   0.15   42.60
   11350  0.16   42.10    0.94   -32.60   0.94   -32.60   0.16   42.10
   11400  0.16   41.50    0.93   -33.30   0.93   -33.30   0.16   41.50
   11450  0.17   40.80    0.93   -34.10   0.93   -34.10   0.17   40.80
   11500  0.19   41.10    0.93   -34.90   0.93   -34.90   0.19   41.10
   11550  0.20   41.30    0.92   -35.80   0.92   -35.80   0.20   41.30
   11600  0.21   40.50    0.92   -36.70   0.92   -36.70   0.21   40.50
   11650  0.22   39.70    0.91   -37.70   0.91   -37.70   0.22   39.70
   11700  0.24   38.70    0.90   -38.70   0.90   -38.70   0.24   38.70
   11750  0.25   37.70    0.89   -39.80   0.89   -39.80   0.25   37.70
   11800  0.27   36.90    0.88   -40.70   0.88   -40.70   0.27   36.90
   11850  0.29   36.10    0.86   -41.60   0.86   -41.60   0.29   36.10
   11900  0.30   33.60    0.84   -42.80   0.84   -42.80   0.30   33.60
   11950  0.31   31.10    0.81   -44.00   0.81   -44.00   0.31   31.10
   12000  0.34   25.50    0.78   -44.50   0.78   -44.50   0.34   25.50
   12050  0.36   19.90    0.75   -44.90   0.75   -44.90   0.36   19.90
   12100  0.36   12.70    0.70   -43.50   0.70   -43.50   0.36   12.70
   12150  0.37    5.50    0.66   -42.00   0.66   -42.00   0.37    5.50
   12200  0.35   -4.00    0.65   -37.10   0.65   -37.10   0.35   -4.00
   12250  0.33   -13.50   0.65   -32.30   0.65   -32.30   0.33   -13.50
   12300  0.28   -18.30   0.69   -30.00   0.69   -30.00   0.28   -18.30
   12350  0.23   -23.10   0.73   -27.80   0.73   -27.80   0.23   -23.10
   12400  0.20   -21.80   0.76   -29.00   0.76   -29.00   0.20   -21.80
   12450  0.17   -20.40   0.80   -30.20   0.80   -30.20   0.17   -20.40
   12500  0.16   -13.10   0.81   -31.90   0.81   -31.90   0.16   -13.10
   12550  0.15   -5.70    0.83   -33.60   0.83   -33.60   0.15   -5.70
   12600  0.17   -2.30    0.82   -35.40   0.82   -35.40   0.17   -2.30
   12650  0.17    1.00    0.82   -37.20   0.82   -37.20   0.17    1.00
   12700  0.19   -1.50    0.80   -38.60   0.80   -38.60   0.19   -1.50
   12750  0.21   -4.00    0.78   -39.90   0.78   -39.90   0.21   -4.00
   12800  0.22   -10.90   0.75   -39.70   0.75   -39.70   0.22   -10.90
   12850  0.23   -17.90   0.71   -39.50   0.71   -39.50   0.23   -17.90
   12900  0.21   -28.60   0.70   -36.20   0.70   -36.20   0.21   -28.60
   12950  0.20   -39.30   0.68   -32.90   0.68   -32.90   0.20   -39.30
   13000  0.15   -50.20   0.72   -30.60   0.72   -30.60   0.15   -50.20
   13050  0.11   -61.10   0.75   -28.30   0.75   -28.30   0.11   -61.10
   13100  0.07   -59.90   0.79   -28.90   0.79   -28.90   0.07   -59.90
   13150  0.03   -58.70   0.82   -29.50   0.82   -29.50   0.03   -58.70
   13200  0.04    3.10    0.84   -30.80   0.84   -30.80   0.04    3.10
   13250  0.05   64.80    0.86   -32.00   0.86   -32.00   0.05   64.80
   13300  0.07   67.00    0.87   -33.80   0.87   -33.80   0.07   67.00
   13350  0.09   69.20    0.88   -35.60   0.88   -35.60   0.09   69.20
   13400  0.12   66.10    0.88   -36.90   0.88   -36.90   0.12   66.10
   13450  0.15   63.10    0.88   -38.20   0.88   -38.20   0.15   63.10
   13500  0.17   59.50    0.88   -39.50   0.88   -39.50   0.17   59.50
   13550  0.19   55.90    0.88   -40.70   0.88   -40.70   0.19   55.90
   13600  0.20   54.50    0.88   -41.90   0.88   -41.90   0.20   54.50
   13650  0.22   53.10    0.88   -43.10   0.88   -43.10   0.22   53.10
   13700  0.24   49.20    0.87   -44.20   0.87   -44.20   0.24   49.20
   13750  0.26   45.40    0.87   -45.20   0.87   -45.20   0.26   45.40
   13800  0.27   42.70    0.86   -46.00   0.86   -46.00   0.27   42.70
   13850  0.28   39.90    0.85   -46.90   0.85   -46.90   0.28   39.90
   13900  0.30   36.60    0.85   -47.70   0.85   -47.70   0.30   36.60
