# MHZ S MA R 50

 50.00    0.10   78.20    0.98   -4.00    0.98   -4.00    0.10   78.20
 100.00   0.19   74.20    0.96   -9.80    0.96   -9.80    0.19   74.20
 150.00   0.29   70.20    0.94   -15.70   0.94   -15.70   0.29   70.20
 200.00   0.37   65.20    0.91   -20.70   0.91   -20.70   0.37   65.20
 250.00   0.45   60.10    0.88   -25.70   0.88   -25.70   0.45   60.10
 300.00   0.52   55.90    0.84   -30.50   0.84   -30.50   0.52   55.90
 350.00   0.58   51.60    0.79   -35.20   0.79   -35.20   0.58   51.60
 400.00   0.63   47.40    0.75   -39.30   0.75   -39.30   0.63   47.40
 450.00   0.69   43.10    0.71   -43.40   0.71   -43.40   0.69   43.10
 500.00   0.73   39.00    0.64   -48.60   0.64   -48.60   0.73   39.00
 550.00   0.78   34.90    0.58   -53.80   0.58   -53.80   0.78   34.90
 600.00   0.82   32.00    0.54   -57.00   0.54   -57.00   0.82   32.00
 650.00   0.85   29.00    0.50   -60.30   0.50   -60.30   0.85   29.00
 700.00   0.87   26.30    0.46   -62.80   0.46   -62.80   0.87   26.30
 750.00   0.88   23.60    0.42   -65.20   0.42   -65.20   0.88   23.60
 800.00   0.90   20.90    0.39   -67.70   0.39   -67.70   0.90   20.90
 850.00   0.92   18.20    0.35   -70.20   0.35   -70.20   0.92   18.20
 900.00   0.93   16.20    0.32   -72.00   0.32   -72.00   0.93   16.20
 950.00   0.95   14.30    0.29   -73.70   0.29   -73.70   0.95   14.30
1000.00  0.96   12.60    0.26   -75.70   0.26   -75.70   0.96   12.60
1050.00  0.97   11.00    0.22   -77.80   0.22   -77.80   0.97   11.00
1100.00  0.97    9.00    0.20   -79.30   0.20   -79.30   0.97    9.00
1150.00  0.97    7.00    0.17   -80.90   0.17   -80.90   0.97    7.00
1200.00  0.98    5.80    0.14   -82.10   0.14   -82.10   0.98    5.80
1250.00  0.99    4.50    0.12   -83.40   0.12   -83.40   0.99    4.50
1300.00  0.99    2.50    0.09   -84.20   0.09   -84.20   0.99    2.50
1350.00  0.98    0.50    0.07   -85.00   0.07   -85.00   0.98    0.50
1400.00  0.99   -0.80    0.05   -82.60   0.05   -82.60   0.99   -0.80
1450.00  1.00   -2.10    0.03   -80.20   0.03   -80.20   1.00   -2.10
1500.00  0.99   -3.70    0.02   -5.50    0.02   -5.50    0.99   -3.70
1550.00  0.99   -5.40    0.02   69.30    0.02   69.30    0.99   -5.40
1600.00  0.99   -6.60    0.04   73.30    0.04   73.30    0.99   -6.60
1650.00  1.00   -7.90    0.06   77.30    0.06   77.30    1.00   -7.90
1700.00  0.99   -9.00    0.08   77.30    0.08   77.30    0.99   -9.00
1750.00  0.99   -10.00   0.10   77.30    0.10   77.30    0.99   -10.00
1800.00  0.99   -11.50   0.12   76.30    0.12   76.30    0.99   -11.50
1850.00  0.99   -12.90   0.14   75.20    0.14   75.20    0.99   -12.90
1900.00  0.98   -14.20   0.15   74.40    0.15   74.40    0.98   -14.20
1950.00  0.98   -15.50   0.17   73.60    0.17   73.60    0.98   -15.50
2000.00  0.97   -16.70   0.19   72.60    0.19   72.60    0.97   -16.70
2050.00  0.97   -17.80   0.20   71.60    0.20   71.60    0.97   -17.80
2100.00  0.97   -18.80   0.22   70.60    0.22   70.60    0.97   -18.80
2150.00  0.96   -19.80   0.24   69.60    0.24   69.60    0.96   -19.80
2200.00  0.96   -21.10   0.25   68.60    0.25   68.60    0.96   -21.10
2250.00  0.95   -22.50   0.27   67.60    0.27   67.60    0.95   -22.50
2300.00  0.95   -23.30   0.29   66.70    0.29   66.70    0.95   -23.30
2350.00  0.94   -24.10   0.30   65.80    0.30   65.80    0.94   -24.10
2400.00  0.94   -25.20   0.32   64.60    0.32   64.60    0.94   -25.20
2450.00  0.94   -26.20   0.33   63.40    0.33   63.40    0.94   -26.20
2500.00  0.93   -27.60   0.34   62.40    0.34   62.40    0.93   -27.60
2550.00  0.93   -28.90   0.36   61.40    0.36   61.40    0.93   -28.90
2600.00  0.92   -29.70   0.37   60.60    0.37   60.60    0.92   -29.70
2650.00  0.91   -30.40   0.39   59.80    0.39   59.80    0.91   -30.40
2700.00  0.91   -31.60   0.40   58.70    0.40   58.70    0.91   -31.60
2750.00  0.90   -32.70   0.41   57.50    0.41   57.50    0.90   -32.70
2800.00  0.89   -33.60   0.43   56.70    0.43   56.70    0.89   -33.60
2850.00  0.89   -34.50   0.44   55.80    0.44   55.80    0.89   -34.50
2900.00  0.88   -35.70   0.45   54.80    0.45   54.80    0.88   -35.70
2950.00  0.88   -36.90   0.46   53.70    0.46   53.70    0.88   -36.90
3000.00  0.87   -37.80   0.47   52.80    0.47   52.80    0.87   -37.80
3050.00  0.86   -38.80   0.49   52.00    0.49   52.00    0.86   -38.80
3100.00  0.85   -39.40   0.50   51.30    0.50   51.30    0.85   -39.40
3150.00  0.85   -40.10   0.51   50.70    0.51   50.70    0.85   -40.10
3200.00  0.84   -41.40   0.52   49.60    0.52   49.60    0.84   -41.40
3250.00  0.83   -42.60   0.53   48.60    0.53   48.60    0.83   -42.60
3300.00  0.82   -43.30   0.54   47.70    0.54   47.70    0.82   -43.30
3350.00  0.81   -43.90   0.55   46.90    0.55   46.90    0.81   -43.90
3400.00  0.81   -45.00   0.56   46.10    0.56   46.10    0.81   -45.00
3450.00  0.81   -46.10   0.57   45.40    0.57   45.40    0.81   -46.10
3500.00  0.80   -47.20   0.58   44.30    0.58   44.30    0.80   -47.20
3550.00  0.79   -48.40   0.59   43.20    0.59   43.20    0.79   -48.40
3600.00  0.78   -49.20   0.59   42.90    0.59   42.90    0.78   -49.20
3650.00  0.78   -50.10   0.60   42.60    0.60   42.60    0.78   -50.10
3700.00  0.77   -51.30   0.61   41.80    0.61   41.80    0.77   -51.30
3750.00  0.76   -52.50   0.63   41.00    0.63   41.00    0.76   -52.50
3800.00  0.75   -53.30   0.64   40.00    0.64   40.00    0.75   -53.30
3850.00  0.74   -54.20   0.64   39.10    0.64   39.10    0.74   -54.20
3900.00  0.73   -55.50   0.65   38.30    0.65   38.30    0.73   -55.50
3950.00  0.72   -56.80   0.66   37.50    0.66   37.50    0.72   -56.80
4000.00  0.71   -57.60   0.67   36.80    0.67   36.80    0.71   -57.60
4050.00  0.70   -58.40   0.68   36.00    0.68   36.00    0.70   -58.40
4100.00  0.69   -59.50   0.68   35.20    0.68   35.20    0.69   -59.50
4150.00  0.68   -60.50   0.69   34.40    0.69   34.40    0.68   -60.50
4200.00  0.68   -61.60   0.70   33.70    0.70   33.70    0.68   -61.60
4250.00  0.67   -62.60   0.71   33.00    0.71   33.00    0.67   -62.60
4300.00  0.66   -63.80   0.72   32.30    0.72   32.30    0.66   -63.80
4350.00  0.65   -65.00   0.72   31.50    0.72   31.50    0.65   -65.00
4400.00  0.64   -66.30   0.73   30.40    0.73   30.40    0.64   -66.30
4450.00  0.63   -67.60   0.74   29.30    0.74   29.30    0.63   -67.60
4500.00  0.62   -68.50   0.75   28.60    0.75   28.60    0.62   -68.50
4550.00  0.61   -69.30   0.75   27.90    0.75   27.90    0.61   -69.30
4600.00  0.60   -70.80   0.76   26.90    0.76   26.90    0.60   -70.80
4650.00  0.60   -72.30   0.78   25.80    0.78   25.80    0.60   -72.30
4700.00  0.58   -73.50   0.78   24.90    0.78   24.90    0.58   -73.50
4750.00  0.57   -74.70   0.79   24.00    0.79   24.00    0.57   -74.70
4800.00  0.56   -76.00   0.79   22.90    0.79   22.90    0.56   -76.00
4850.00  0.54   -77.30   0.80   21.80    0.80   21.80    0.54   -77.30
4900.00  0.53   -78.30   0.81   20.80    0.81   20.80    0.53   -78.30
4950.00  0.52   -79.40   0.82   19.70    0.82   19.70    0.52   -79.40
5000.00  0.50   -81.00   0.83   18.40    0.83   18.40    0.50   -81.00
5050.00  0.48   -82.60   0.83   17.20    0.83   17.20    0.48   -82.60
5100.00  0.45   -83.90   0.84   15.60    0.84   15.60    0.45   -83.90
5150.00  0.43   -85.10   0.85   14.10    0.85   14.10    0.43   -85.10
5200.00  0.41   -86.20   0.86   12.30    0.86   12.30    0.41   -86.20
5250.00  0.38   -87.30   0.88   10.40    0.88   10.40    0.38   -87.30
5300.00  0.35   -88.70   0.88    8.00    0.88    8.00    0.35   -88.70
5350.00  0.31   -90.10   0.88    5.60    0.88    5.60    0.31   -90.10
5400.00  0.27   -88.30   0.88    2.50    0.88    2.50    0.27   -88.30
5450.00  0.22   -86.50   0.88   -0.50    0.88   -0.50    0.22   -86.50
5500.00  0.17   -69.20   0.87   -5.20    0.87   -5.20    0.17   -69.20
5550.00  0.12   -51.80   0.86   -9.80    0.86   -9.80    0.12   -51.80
5600.00  0.18   -23.30   0.81   -16.20   0.81   -16.20   0.18   -23.30
5650.00  0.25    5.30    0.77   -22.60   0.77   -22.60   0.25    5.30
5700.00  0.39    1.80    0.66   -29.80   0.66   -29.80   0.39    1.80
5750.00  0.53   -1.60    0.54   -37.10   0.54   -37.10   0.53   -1.60
5800.00  0.63   -11.50   0.40   -32.30   0.40   -32.30   0.63   -11.50
5850.00  0.74   -21.40   0.26   -27.60   0.26   -27.60   0.74   -21.40
5900.00  0.77   -29.50   0.26   -1.00    0.26   -1.00    0.77   -29.50
5950.00  0.81   -37.60   0.26   25.50    0.26   25.50    0.81   -37.60
6000.00  0.80   -43.50   0.34   30.20    0.34   30.20    0.80   -43.50
6050.00  0.80   -49.40   0.41   34.80    0.41   34.80    0.80   -49.40
6100.00  0.78   -52.90   0.47   34.30    0.47   34.30    0.78   -52.90
6150.00  0.77   -56.40   0.52   33.90    0.52   33.90    0.77   -56.40
6200.00  0.75   -58.60   0.56   32.50    0.56   32.50    0.75   -58.60
6250.00  0.74   -60.70   0.59   31.00    0.59   31.00    0.74   -60.70
6300.00  0.72   -62.20   0.62   29.70    0.62   29.70    0.72   -62.20
6350.00  0.70   -63.70   0.64   28.50    0.64   28.50    0.70   -63.70
6400.00  0.69   -64.60   0.66   27.20    0.66   27.20    0.69   -64.60
6450.00  0.68   -65.50   0.68   25.80    0.68   25.80    0.68   -65.50
6500.00  0.66   -66.00   0.69   24.60    0.69   24.60    0.66   -66.00
6550.00  0.64   -66.60   0.70   23.50    0.70   23.50    0.64   -66.60
6600.00  0.63   -67.00   0.71   22.70    0.71   22.70    0.63   -67.00
6650.00  0.62   -67.40   0.73   21.90    0.73   21.90    0.62   -67.40
6700.00  0.61   -67.10   0.74   21.00    0.74   21.00    0.61   -67.10
6750.00  0.60   -66.80   0.75   20.20    0.75   20.20    0.60   -66.80
6800.00  0.59   -67.00   0.75   19.40    0.75   19.40    0.59   -67.00
6850.00  0.58   -67.10   0.76   18.60    0.76   18.60    0.58   -67.10
6900.00  0.57   -67.10   0.76   17.80    0.76   17.80    0.57   -67.10
6950.00  0.56   -67.00   0.77   17.10    0.77   17.10    0.56   -67.00
7000.00  0.55   -66.80   0.78   16.50    0.78   16.50    0.55   -66.80
7050.00  0.55   -66.60   0.78   15.90    0.78   15.90    0.55   -66.60
7100.00  0.54   -66.50   0.79   15.20    0.79   15.20    0.54   -66.50
7150.00  0.52   -66.30   0.79   14.60    0.79   14.60    0.52   -66.30
7200.00  0.52   -66.10   0.80   14.10    0.80   14.10    0.52   -66.10
7250.00  0.52   -65.90   0.81   13.50    0.81   13.50    0.52   -65.90
7300.00  0.51   -66.30   0.81   12.80    0.81   12.80    0.51   -66.30
7350.00  0.51   -66.80   0.81   12.20    0.81   12.20    0.51   -66.80
7400.00  0.50   -66.90   0.82   11.50    0.82   11.50    0.50   -66.90
7450.00  0.49   -67.10   0.82   10.90    0.82   10.90    0.49   -67.10
7500.00  0.48   -67.30   0.83   10.30    0.83   10.30    0.48   -67.30
7550.00  0.48   -67.50   0.84    9.80    0.84    9.80    0.48   -67.50
7600.00  0.47   -68.20   0.84    9.10    0.84    9.10    0.47   -68.20
7650.00  0.46   -68.90   0.84    8.40    0.84    8.40    0.46   -68.90
7700.00  0.45   -68.90   0.85    7.90    0.85    7.90    0.45   -68.90
7750.00  0.44   -68.90   0.85    7.50    0.85    7.50    0.44   -68.90
7800.00  0.44   -69.50   0.85    6.70    0.85    6.70    0.44   -69.50
7850.00  0.43   -70.10   0.86    5.90    0.86    5.90    0.43   -70.10
7900.00  0.42   -70.80   0.86    5.20    0.86    5.20    0.42   -70.80
7950.00  0.42   -71.40   0.86    4.50    0.86    4.50    0.42   -71.40
8000.00  0.41   -73.20   0.86    4.40    0.86    4.40    0.41   -73.20
8050.00  0.40   -74.90   0.86    4.30    0.86    4.30    0.40   -74.90
8100.00  0.38   -75.40   0.87    4.10    0.87    4.10    0.38   -75.40
8150.00  0.37   -75.90   0.88    3.80    0.88    3.80    0.37   -75.90
8200.00  0.36   -76.60   0.89    3.00    0.89    3.00    0.36   -76.60
8250.00  0.35   -77.30   0.89    2.20    0.89    2.20    0.35   -77.30
8300.00  0.34   -77.70   0.90    1.60    0.90    1.60    0.34   -77.70
8350.00  0.33   -78.10   0.90    1.00    0.90    1.00    0.33   -78.10
8400.00  0.32   -79.00   0.90    0.20    0.90    0.20    0.32   -79.00
8450.00  0.31   -79.80   0.91   -0.60    0.91   -0.60    0.31   -79.80
8500.00  0.30   -80.10   0.92   -1.40    0.92   -1.40    0.30   -80.10
8550.00  0.29   -80.30   0.92   -2.10    0.92   -2.10    0.29   -80.30
8600.00  0.28   -80.80   0.92   -2.80    0.92   -2.80    0.28   -80.80
8650.00  0.27   -81.40   0.92   -3.50    0.92   -3.50    0.27   -81.40
8700.00  0.25   -81.30   0.93   -4.50    0.93   -4.50    0.25   -81.30
8750.00  0.24   -81.30   0.93   -5.50    0.93   -5.50    0.24   -81.30
8800.00  0.23   -82.20   0.93   -6.10    0.93   -6.10    0.23   -82.20
8850.00  0.22   -83.10   0.93   -6.70    0.93   -6.70    0.22   -83.10
8900.00  0.21   -82.70   0.94   -7.60    0.94   -7.60    0.21   -82.70
8950.00  0.19   -82.40   0.94   -8.60    0.94   -8.60    0.19   -82.40
9000.00  0.18   -81.70   0.94   -9.20    0.94   -9.20    0.18   -81.70
9050.00  0.17   -81.00   0.94   -9.80    0.94   -9.80    0.17   -81.00
9100.00  0.15   -80.50   0.94   -10.70   0.94   -10.70   0.15   -80.50
9150.00  0.14   -80.00   0.94   -11.60   0.94   -11.60   0.14   -80.00
9200.00  0.13   -80.00   0.94   -12.50   0.94   -12.50   0.13   -80.00
9250.00  0.11   -79.90   0.94   -13.30   0.94   -13.30   0.11   -79.90
9300.00  0.10   -77.30   0.94   -14.20   0.94   -14.20   0.10   -77.30
9350.00  0.08   -74.70   0.94   -15.00   0.94   -15.00   0.08   -74.70
9400.00  0.07   -68.10   0.94   -15.90   0.94   -15.90   0.07   -68.10
9450.00  0.06   -61.60   0.94   -16.70   0.94   -16.70   0.06   -61.60
9500.00  0.05   -43.40   0.94   -17.90   0.94   -17.90   0.05   -43.40
9550.00  0.04   -25.30   0.93   -19.20   0.93   -19.20   0.04   -25.30
9600.00  0.05   -4.90    0.93   -20.50   0.93   -20.50   0.05   -4.90
9650.00  0.06   15.50    0.92   -21.80   0.92   -21.80   0.06   15.50
9700.00  0.08   23.50    0.92   -23.20   0.92   -23.20   0.08   23.50
9750.00  0.10   31.40    0.91   -24.70   0.91   -24.70   0.10   31.40
9800.00  0.13   32.10    0.90   -26.30   0.90   -26.30   0.13   32.10
9850.00  0.16   32.70    0.89   -28.00   0.89   -28.00   0.16   32.70
9900.00  0.20   30.60    0.87   -30.20   0.87   -30.20   0.20   30.60
9950.00  0.23   28.60    0.85   -32.40   0.85   -32.40   0.23   28.60
10000.0  0.27   24.50    0.81   -34.50   0.81   -34.50   0.27   24.50
10050.0  0.32   20.50    0.77   -36.50   0.77   -36.50   0.32   20.50
10100.0  0.37   12.80    0.71   -38.60   0.71   -38.60   0.37   12.80
10150.0  0.42    5.00    0.64   -40.70   0.64   -40.70   0.42    5.00
10200.0  0.46   -4.10    0.56   -38.30   0.56   -38.30   0.46   -4.10
10250.0  0.51   -13.30   0.48   -36.00   0.48   -36.00   0.51   -13.30
10300.0  0.53   -24.40   0.44   -24.60   0.44   -24.60   0.53   -24.40
10350.0  0.56   -35.50   0.41   -13.20   0.41   -13.20   0.56   -35.50
10400.0  0.54   -46.20   0.46   -5.00    0.46   -5.00    0.54   -46.20
10450.0  0.53   -56.90   0.52    3.10    0.52    3.10    0.53   -56.90
10500.0  0.50   -64.10   0.58    4.20    0.58    4.20    0.50   -64.10
10550.0  0.47   -71.30   0.65    5.40    0.65    5.40    0.47   -71.30
10600.0  0.44   -78.80   0.70    3.60    0.70    3.60    0.44   -78.80
10650.0  0.40   -86.30   0.75    1.80    0.75    1.80    0.40   -86.30
10700.0  0.38   -90.30   0.78    0.40    0.78    0.40    0.38   -90.30
10750.0  0.35   -94.30   0.81   -1.00    0.81   -1.00    0.35   -94.30
10800.0  0.33   -98.40   0.83   -2.70    0.83   -2.70    0.33   -98.40
10850.0  0.31  -102.40   0.85   -4.30    0.85   -4.30    0.31  -102.40
10900.0  0.28  -107.00   0.87   -5.80    0.87   -5.80    0.28  -107.00
10950.0  0.26  -111.50   0.88   -7.40    0.88   -7.40    0.26  -111.50
11000.0  0.24  -113.50   0.89   -8.40    0.89   -8.40    0.24  -113.50
11050.0  0.23  -115.60   0.90   -9.40    0.90   -9.40    0.23  -115.60
11100.0  0.22  -119.60   0.91   -10.70   0.91   -10.70   0.22  -119.60
11150.0  0.20  -123.60   0.91   -11.90   0.91   -11.90   0.20  -123.60
11200.0  0.19  -125.30   0.92   -12.60   0.92   -12.60   0.19  -125.30
11250.0  0.18  -127.10   0.92   -13.40   0.92   -13.40   0.18  -127.10
11300.0  0.17  -129.50   0.93   -14.40   0.93   -14.40   0.17  -129.50
11350.0  0.16  -131.90   0.93   -15.40   0.93   -15.40   0.16  -131.90
11400.0  0.15  -132.90   0.93   -16.30   0.93   -16.30   0.15  -132.90
11450.0  0.14  -133.90   0.94   -17.20   0.94   -17.20   0.14  -133.90
11500.0  0.13  -134.60   0.94   -18.10   0.94   -18.10   0.13  -134.60
11550.0  0.12  -135.40   0.94   -19.00   0.94   -19.00   0.12  -135.40
11600.0  0.11  -136.80   0.94   -19.80   0.94   -19.80   0.11  -136.80
11650.0  0.10  -138.20   0.94   -20.60   0.94   -20.60   0.10  -138.20
11700.0  0.09  -138.50   0.94   -21.40   0.94   -21.40   0.09  -138.50
11750.0  0.08  -138.70   0.94   -22.20   0.94   -22.20   0.08  -138.70
11800.0  0.07  -143.10   0.94   -22.90   0.94   -22.90   0.07  -143.10
11850.0  0.06  -147.60   0.95   -23.70   0.95   -23.70   0.06  -147.60
11900.0  0.05  -146.40   0.94   -24.50   0.94   -24.50   0.05  -146.40
11950.0  0.05  -145.20   0.94   -25.30   0.94   -25.30   0.05  -145.20
12000.0  0.04  -157.00   0.94   -26.10   0.94   -26.10   0.04  -157.00
12050.0  0.04  -168.80   0.94   -26.80   0.94   -26.80   0.04  -168.80
12100.0  0.03  -173.50   0.94   -27.60   0.94   -27.60   0.03  -173.50
12150.0  0.03  -178.10   0.93   -28.40   0.93   -28.40   0.03  -178.10
12200.0  0.03   -16.40   0.92   -29.10   0.92   -29.10   0.03   -16.40
12250.0  0.04   145.40   0.92   -29.80   0.92   -29.80   0.04   145.40
12300.0  0.04   124.60   0.91   -29.80   0.91   -29.80   0.04   124.60
12350.0  0.05   103.90   0.90   -29.90   0.90   -29.90   0.05   103.90
12400.0  0.06   90.60    0.90   -29.80   0.90   -29.80   0.06   90.60
12450.0  0.06   77.30    0.91   -29.80   0.91   -29.80   0.06   77.30
12500.0  0.07   69.90    0.91   -30.60   0.91   -30.60   0.07   69.90
12550.0  0.08   62.60    0.91   -31.50   0.91   -31.50   0.08   62.60
12600.0  0.09   59.90    0.91   -32.10   0.91   -32.10   0.09   59.90
12650.0  0.09   57.20    0.91   -32.70   0.91   -32.70   0.09   57.20
12700.0  0.10   53.60    0.91   -33.20   0.91   -33.20   0.10   53.60
12750.0  0.11   49.90    0.91   -33.80   0.91   -33.80   0.11   49.90
12800.0  0.12   48.00    0.91   -34.30   0.91   -34.30   0.12   48.00
12850.0  0.14   46.20    0.91   -34.80   0.91   -34.80   0.14   46.20
12900.0  0.14   45.30    0.90   -35.50   0.90   -35.50   0.14   45.30
12950.0  0.15   44.50    0.90   -36.20   0.90   -36.20   0.15   44.50
13000.0  0.16   41.90    0.90   -36.60   0.90   -36.60   0.16   41.90
13050.0  0.17   39.20    0.90   -37.10   0.90   -37.10   0.17   39.20
13100.0  0.18   38.10    0.90   -37.80   0.90   -37.80   0.18   38.10
13150.0  0.19   37.00    0.90   -38.50   0.90   -38.50   0.19   37.00
13200.0  0.20   36.10    0.90   -39.10   0.90   -39.10   0.20   36.10
13250.0  0.21   35.10    0.89   -39.80   0.89   -39.80   0.21   35.10
13300.0  0.22   34.70    0.89   -40.60   0.89   -40.60   0.22   34.70
13350.0  0.22   34.30    0.89   -41.40   0.89   -41.40   0.22   34.30
13400.0  0.24   33.30    0.89   -42.20   0.89   -42.20   0.24   33.30
13450.0  0.26   32.30    0.89   -43.00   0.89   -43.00   0.26   32.30
13500.0  0.26   32.40    0.89   -43.80   0.89   -43.80   0.26   32.40
13550.0  0.26   32.50    0.88   -44.50   0.88   -44.50   0.26   32.50
13600.0  0.28   31.60    0.88   -45.50   0.88   -45.50   0.28   31.60
13650.0  0.30   30.60    0.88   -46.40   0.88   -46.40   0.30   30.60
13700.0  0.31   30.30    0.87   -47.10   0.87   -47.10   0.31   30.30
13750.0  0.32   29.90    0.87   -47.80   0.87   -47.80   0.32   29.90
13800.0  0.34   29.00    0.86   -48.80   0.86   -48.80   0.34   29.00
13850.0  0.35   28.10    0.85   -49.90   0.85   -49.90   0.35   28.10
13900.0  0.36   26.40    0.85   -50.70   0.85   -50.70   0.36   26.40
13950.0  0.37   24.70    0.84   -51.60   0.84   -51.60   0.37   24.70
14000.0  0.38   24.00    0.82   -52.40   0.82   -52.40   0.38   24.00
14050.0  0.40   23.30    0.81   -53.30   0.81   -53.30   0.40   23.30
14100.0  0.41   20.60    0.81   -54.30   0.81   -54.30   0.41   20.60
