#	mhz	s	ma	r	50
50	0.85339	154.076	0.43108	60.564	0.43108	60.564	0.85339	154.076
70	0.80415	146.553	0.56727	52.09	0.56727	52.09	0.80415	146.553
90	0.72641	139.892	0.65575	45.08	0.65575	45.08	0.72641	139.892
110	0.65214	134.682	0.72423	39.768	0.72423	39.768	0.65214	134.682
130	0.59277	130.589	0.78296	35.685	0.78296	35.685	0.59277	130.589
150	0.53917	126.361	0.82468	31.65	0.82468	31.65	0.53917	126.361
170	0.49057	123.572	0.8481	28.962	0.8481	28.962	0.49057	123.572
190	0.4523	121.137	0.87454	26.242	0.87454	26.242	0.4523	121.137
210	0.41776	119.012	0.89729	23.805	0.89729	23.805	0.41776	119.012
230	0.38541	117.302	0.91535	21.774	0.91535	21.774	0.38541	117.302
250	0.35868	116.267	0.93345	20.081	0.93345	20.081	0.35868	116.267
270	0.33144	114.978	0.9413	18.645	0.9413	18.645	0.33144	114.978
290	0.30601	113.833	0.94723	17.33	0.94723	17.33	0.30601	113.833
310	0.28416	112.584	0.95457	16.094	0.95457	16.094	0.28416	112.584
330	0.26589	111.181	0.96321	14.926	0.96321	14.926	0.26589	111.181
350	0.24944	109.771	0.96963	13.843	0.96963	13.843	0.24944	109.771
370	0.23572	108.864	0.97238	12.949	0.97238	12.949	0.23572	108.864
390	0.22476	108.256	0.97559	12.152	0.97559	12.152	0.22476	108.256
410	0.2143	108.015	0.97795	11.444	0.97795	11.444	0.2143	108.015
430	0.20358	108.085	0.97924	10.769	0.97924	10.769	0.20358	108.085
450	0.1934	108.282	0.98036	10.025	0.98036	10.025	0.1934	108.282
470	0.18266	108.666	0.98384	9.274	0.98384	9.274	0.18266	108.666
490	0.17326	107.271	0.98965	8.872	0.98965	8.872	0.17326	107.271
510	0.16486	107.283	0.99299	8.185	0.99299	8.185	0.16486	107.283
530	0.15643	109.172	0.99227	7.267	0.99227	7.267	0.15643	109.172
550	0.14627	110.694	0.98907	6.858	0.98907	6.858	0.14627	110.694
570	0.13496	112.245	0.98987	6.127	0.98987	6.127	0.13496	112.245
590	0.12388	112.929	0.99046	5.432	0.99046	5.432	0.12388	112.929
610	0.11338	112.752	0.9913	4.884	0.9913	4.884	0.11338	112.752
630	0.10424	111.902	0.99358	4.479	0.99358	4.479	0.10424	111.902
650	0.09765	110.744	0.99919	4.088	0.99919	4.088	0.09765	110.744
670	0.09398	110.701	1.0054	3.845	1.0054	3.845	0.09398	110.701
690	0.09025	110.666	1.00496	3.576	1.00496	3.576	0.09025	110.666
710	0.08638	111.014	1.00243	3.333	1.00243	3.333	0.08638	111.014
730	0.08211	111.946	1.00064	3.084	1.00064	3.084	0.08211	111.946
750	0.07708	113.491	1.0007	2.72	1.0007	2.72	0.07708	113.491
770	0.07182	114.825	0.99956	2.238	0.99956	2.238	0.07182	114.825
790	0.06651	115.426	1.00231	1.852	1.00231	1.852	0.06651	115.426
810	0.06131	115.648	1.00406	1.554	1.00406	1.554	0.06131	115.648
830	0.0566	115.657	1.00411	1.299	1.00411	1.299	0.0566	115.657
850	0.05301	115.437	1.00595	1.005	1.00595	1.005	0.05301	115.437
870	0.05089	116.408	1.00837	0.692	1.00837	0.692	0.05089	116.408
890	0.04877	118.434	1.00846	0.647	1.00846	0.647	0.04877	118.434
910	0.04627	121.047	1.00688	0.506	1.00688	0.506	0.04627	121.047
930	0.04326	124.235	1.00526	0.212	1.00526	0.212	0.04326	124.235
950	0.03988	128.436	1.00623	0.014	1.00623	0.014	0.03988	128.436
970	0.03583	131.542	1.00569	-0.17	1.00569	-0.17	0.03583	131.542
990	0.03233	134.284	1.00551	-0.422	1.00551	-0.422	0.03233	134.284
1010	0.02939	136.528	1.00596	-0.654	1.00596	-0.654	0.02939	136.528
1030	0.02697	138.827	1.00701	-0.854	1.00701	-0.854	0.02697	138.827
1050	0.02492	142.425	1.0083	-1.086	1.0083	-1.086	0.02492	142.425
1070	0.02449	146.718	1.00647	-1.288	1.00647	-1.288	0.02449	146.718
1090	0.02405	152.911	1.00654	-1.605	1.00654	-1.605	0.02405	152.911
1110	0.02335	161.511	1.00803	-1.84	1.00803	-1.84	0.02335	161.511
1130	0.02255	100.512	1.00819	-1.955	1.00819	-1.955	0.02255	100.512
1150	0.02225	-174.608	1.00206	-2.073	1.00206	-2.073	0.02225	-174.608
1170	0.02205	-164.549	1.00576	-2.4	1.00576	-2.4	0.02205	-164.549
1190	0.02184	-155.257	1.0066	-2.648	1.0066	-2.648	0.02184	-155.257
1210	0.02175	-147.806	1.00737	-2.813	1.00737	-2.813	0.02175	-147.806
1230	0.022	-142.454	1.00856	-2.969	1.00856	-2.969	0.022	-142.454
1250	0.02295	-138.638	1.00836	-3.276	1.00836	-3.276	0.02295	-138.638
1270	0.02504	-136.978	1.00642	-3.48	1.00642	-3.48	0.02504	-136.978
1290	0.02758	-134.432	1.00678	-3.757	1.00678	-3.757	0.02758	-134.432
1310	0.03051	-131.382	1.00663	-3.963	1.00663	-3.963	0.03051	-131.382
1330	0.03364	-127.854	1.0059	-4.106	1.0059	-4.106	0.03364	-127.854
1350	0.03663	-123.528	1.0073	-4.351	1.0073	-4.351	0.03663	-123.528
1370	0.03913	-119.26	1.00582	-4.346	1.00582	-4.346	0.03913	-119.26
1390	0.04101	-115.753	1.00521	-4.539	1.00521	-4.539	0.04101	-115.753
1410	0.04231	-113.267	1.00631	-4.795	1.00631	-4.795	0.04231	-113.267
1430	0.0434	-111.893	1.00803	-5.007	1.00803	-5.007	0.0434	-111.893
1450	0.04498	-111.543	1.00732	-5.086	1.00732	-5.086	0.04498	-111.543
1470	0.04719	-111.803	1.00652	-5.257	1.00652	-5.257	0.04719	-111.803
1490	0.04998	-112.02	1.00459	-5.426	1.00459	-5.426	0.04998	-112.02
1510	0.05301	-111.723	1.00436	-5.575	1.00436	-5.575	0.05301	-111.723
1530	0.05603	-110.925	1.00582	-5.704	1.00582	-5.704	0.05603	-110.925
1550	0.05887	-110.127	1.00623	-5.824	1.00623	-5.824	0.05887	-110.127
1570	0.0612	-109.243	1.00598	-6.24	1.00598	-6.24	0.0612	-109.243
1590	0.06331	-108.472	1.00687	-6.417	1.00687	-6.417	0.06331	-108.472
1610	0.06534	-107.8	1.00711	-6.584	1.00711	-6.584	0.06534	-107.8
1630	0.06741	-107.372	1.00603	-6.794	1.00603	-6.794	0.06741	-107.372
1650	0.06966	-107.489	1.00414	-6.933	1.00414	-6.933	0.06966	-107.489
1670	0.07175	-107.506	1.00671	-7.067	1.00671	-7.067	0.07175	-107.506
1690	0.07415	-107.021	1.00604	-7.162	1.00604	-7.162	0.07415	-107.021
1710	0.07652	-106.633	1.00527	-7.297	1.00527	-7.297	0.07652	-106.633
1730	0.0788	-106.573	1.00555	-7.53	1.00555	-7.53	0.0788	-106.573
1750	0.08125	-106.708	1.00602	-7.904	1.00602	-7.904	0.08125	-106.708
1770	0.08365	-106.844	1.00474	-8.067	1.00474	-8.067	0.08365	-106.844
1790	0.08599	-106.616	1.00455	-8.265	1.00455	-8.265	0.08599	-106.616
1810	0.08839	-106.437	1.00502	-8.394	1.00502	-8.394	0.08839	-106.437
1830	0.09086	-106.385	1.00566	-8.458	1.00566	-8.458	0.09086	-106.385
1850	0.09324	-106.208	1.00584	-8.576	1.00584	-8.576	0.09324	-106.208
1870	0.09617	-106.218	1.00445	-8.746	1.00445	-8.746	0.09617	-106.218
1890	0.0979	-105.938	1.00381	-8.927	1.00381	-8.927	0.0979	-105.938
1910	0.1	-105.639	1.00497	-9.225	1.00497	-9.225	0.1	-105.639
1930	0.10292	-105.583	1.00604	-9.554	1.00604	-9.554	0.10292	-105.583
1950	0.10589	-106.023	1.0023	-9.635	1.0023	-9.635	0.10589	-106.023
1970	0.10783	-105.752	1.00225	-9.832	1.00225	-9.832	0.10783	-105.752
1990	0.11033	-105.23	1.00338	-9.826	1.00338	-9.826	0.11033	-105.23
2010	0.11304	-104.568	1.00269	-9.882	1.00269	-9.882	0.11304	-104.568
2030	0.11532	-103.925	1.00108	-10.075	1.00108	-10.075	0.11532	-103.925
2050	0.11617	-103.501	1.00344	-10.287	1.00344	-10.287	0.11617	-103.501
2070	0.11661	-102.937	1.00257	-10.366	1.00257	-10.366	0.11661	-102.937
2090	0.11721	-102.93	1.00297	-10.63	1.00297	-10.63	0.11721	-102.93
2110	0.11805	-103.273	1.00279	-10.86	1.00279	-10.86	0.11805	-103.273
2130	0.11918	-103.783	1.00144	-10.993	1.00144	-10.993	0.11918	-103.783
2150	0.12057	-104.306	0.99953	-11.126	0.99953	-11.126	0.12057	-104.306
2170	0.1232	-104.736	0.9994	-11.374	0.9994	-11.374	0.1232	-104.736
2190	0.12605	-104.936	1.00151	-11.624	1.00151	-11.624	0.12605	-104.936
2210	0.12882	-104.818	1.00216	-11.76	1.00216	-11.76	0.12882	-104.818
2230	0.13094	-104.397	1.00097	-11.806	1.00097	-11.806	0.13094	-104.397
2250	0.13158	-103.79	1.00088	-11.925	1.00088	-11.925	0.13158	-103.79
2270	0.13228	-103.612	0.9985	-12.283	0.9985	-12.283	0.13228	-103.612
2290	0.13261	-103.528	0.99718	-12.29	0.99718	-12.29	0.13261	-103.528
2310	0.13295	-103.841	0.99499	-12.361	0.99499	-12.361	0.13295	-103.841
2330	0.13349	-104.508	0.99251	-12.609	0.99251	-12.609	0.13349	-104.508
2350	0.13421	-105.135	0.99282	-12.85	0.99282	-12.85	0.13421	-105.135
2370	0.1364	-105.785	0.99694	-13.26	0.99694	-13.26	0.1364	-105.785
2390	0.13897	-106.183	0.99665	-13.395	0.99665	-13.395	0.13897	-106.183
2410	0.14198	-106.233	0.99631	-13.423	0.99631	-13.423	0.14198	-106.233
2430	0.14473	-105.907	0.99679	-13.498	0.99679	-13.498	0.14473	-105.907
2450	0.14571	-105.249	0.99547	-13.762	0.99547	-13.762	0.14571	-105.249
2470	0.14706	-105.288	0.99714	-13.82	0.99714	-13.82	0.14706	-105.288
2490	0.14699	-105.178	0.99535	-13.924	0.99535	-13.924	0.14699	-105.178
2510	0.14687	-105.4	0.99315	-14.056	0.99315	-14.056	0.14687	-105.4
2530	0.14727	-106.038	0.99243	-14.213	0.99243	-14.213	0.14727	-106.038
2550	0.14791	-106.78	0.99387	-14.407	0.99387	-14.407	0.14791	-106.78
2570	0.14989	-107.346	0.9946	-14.619	0.9946	-14.619	0.14989	-107.346
2590	0.15322	-107.812	0.99445	-14.748	0.99445	-14.748	0.15322	-107.812
2610	0.15608	-107.99	0.99453	-14.958	0.99453	-14.958	0.15608	-107.99
2630	0.15782	-107.743	0.9957	-15.217	0.9957	-15.217	0.15782	-107.743
2650	0.15894	-106.981	0.99853	-15.3	0.99853	-15.3	0.15894	-106.981
2670	0.15926	-106.5	0.99482	-15.458	0.99482	-15.458	0.15926	-106.5
2690	0.15865	-106.548	0.99372	-15.61	0.99372	-15.61	0.15865	-106.548
2710	0.15805	-106.987	0.99236	-15.621	0.99236	-15.621	0.15805	-106.987
2730	0.15819	-107.682	0.99102	-15.626	0.99102	-15.626	0.15819	-107.682
2750	0.15954	-108.496	0.99312	-16.026	0.99312	-16.026	0.15954	-108.496
2770	0.16235	-109.276	0.9901	-16.203	0.9901	-16.203	0.16235	-109.276
2790	0.16616	-109.247	0.98908	-16.24	0.98908	-16.24	0.16616	-109.247
2810	0.16906	-108.81	0.99119	-16.359	0.99119	-16.359	0.16906	-108.81
2830	0.17043	-108.229	0.99374	-16.599	0.99374	-16.599	0.17043	-108.229
2850	0.17084	-107.631	0.99019	-16.822	0.99019	-16.822	0.17084	-107.631
2870	0.17051	-107.58	0.98736	-17.252	0.98736	-17.252	0.17051	-107.58
2890	0.16968	-108.111	0.98973	-17.236	0.98973	-17.236	0.16968	-108.111
2910	0.17016	-108.885	0.9938	-17.224	0.9938	-17.224	0.17016	-108.885
2930	0.17191	-109.646	0.99552	-17.439	0.99552	-17.439	0.17191	-109.646
2950	0.1731	-110.226	0.99023	-17.883	0.99023	-17.883	0.1731	-110.226
2970	0.17667	-110.362	0.98935	-18.17	0.98935	-18.17	0.17667	-110.362
2990	0.17934	-110.543	0.98966	-18.414	0.98966	-18.414	0.17934	-110.543
3010	0.18149	-110.329	0.99002	-18.584	0.99002	-18.584	0.18149	-110.329
3030	0.18303	-109.901	0.98991	-18.709	0.98991	-18.709	0.18303	-109.901
3050	0.18338	-110.056	0.9894	-18.882	0.9894	-18.882	0.18338	-110.056
3070	0.183	-110.596	0.99016	-18.876	0.99016	-18.876	0.183	-110.596
3090	0.18361	-111.067	0.99093	-19.071	0.99093	-19.071	0.18361	-111.067
3110	0.18529	-111.424	0.98993	-19.346	0.98993	-19.346	0.18529	-111.424
3130	0.18776	-111.641	0.98673	-19.621	0.98673	-19.621	0.18776	-111.641
3150	0.19043	-111.708	0.9822	-19.862	0.9822	-19.862	0.19043	-111.708
3170	0.19176	-112.052	0.98103	-20.178	0.98103	-20.178	0.19176	-112.052
3190	0.1921	-112.632	0.98208	-20.392	0.98208	-20.392	0.1921	-112.632
3210	0.19166	-113.397	0.98183	-20.582	0.98183	-20.582	0.19166	-113.397
3230	0.19008	-114.363	0.97875	-20.794	0.97875	-20.794	0.19008	-114.363
3250	0.18639	-115.621	0.97338	-21.042	0.97338	-21.042	0.18639	-115.621
3270	0.18484	-113.459	0.97185	-20.654	0.97185	-20.654	0.18484	-113.459
3290	0.19098	-111.473	0.97324	-20.485	0.97324	-20.485	0.19098	-111.473
3310	0.19929	-110.163	0.97636	-20.55	0.97636	-20.55	0.19929	-110.163
3330	0.20604	-109.686	0.97899	-20.863	0.97899	-20.863	0.20604	-109.686
3350	0.2093	-109.86	0.9779	-21.433	0.9779	-21.433	0.2093	-109.86
3370	0.20977	-110.493	0.97864	-21.519	0.97864	-21.519	0.20977	-110.493
3390	0.20967	-110.989	0.97906	-21.569	0.97906	-21.569	0.20967	-110.989
3410	0.21125	-111.637	0.97973	-21.615	0.97973	-21.615	0.21125	-111.637
3430	0.21477	-112.521	0.97927	-21.765	0.97927	-21.765	0.21477	-112.521
3450	0.21852	-113.52	0.97431	-22.208	0.97431	-22.208	0.21852	-113.52
3470	0.22267	-113.722	0.97596	-22.376	0.97596	-22.376	0.22267	-113.722
3490	0.22693	-113.456	0.9765	-22.505	0.9765	-22.505	0.22693	-113.456
3510	0.23041	-113.12	0.97645	-22.602	0.97645	-22.602	0.23041	-113.12
3530	0.23249	-112.907	0.97606	-22.758	0.97606	-22.758	0.23249	-112.907
3550	0.23277	-112.807	0.97525	-23.153	0.97525	-23.153	0.23277	-112.807
3570	0.23343	-113.281	0.97653	-23.619	0.97653	-23.619	0.23343	-113.281
3590	0.23341	-114.122	0.97345	-23.959	0.97345	-23.959	0.23341	-114.122
3610	0.23604	-115.005	0.97213	-24.095	0.97213	-24.095	0.23604	-115.005
3630	0.24153	-115.761	0.97342	-24.149	0.97342	-24.149	0.24153	-115.761
3650	0.24694	-116.373	0.97296	-24.45	0.97296	-24.45	0.24694	-116.373
3670	0.25166	-115.995	0.9763	-24.703	0.9763	-24.703	0.25166	-115.995
3690	0.25534	-115.624	0.97772	-24.515	0.97772	-24.515	0.25534	-115.624
3710	0.25751	-115.309	0.97409	-24.758	0.97409	-24.758	0.25751	-115.309
3730	0.25833	-115.156	0.96775	-25.394	0.96775	-25.394	0.25833	-115.156
3750	0.25857	-115.319	0.96657	-25.475	0.96657	-25.475	0.25857	-115.319
3770	0.25988	-116.072	0.96476	-25.877	0.96476	-25.877	0.25988	-116.072
3790	0.26214	-116.978	0.96426	-26.174	0.96426	-26.174	0.26214	-116.978
3810	0.26643	-117.85	0.96488	-26.391	0.96488	-26.391	0.26643	-117.85
3830	0.2725	-118.48	0.96491	-26.595	0.96491	-26.595	0.2725	-118.48
3850	0.27872	-118.647	0.96113	-26.894	0.96113	-26.894	0.27872	-118.647
3870	0.28336	-118.129	0.961	-27.09	0.961	-27.09	0.28336	-118.129
3890	0.28699	-117.935	0.96079	-27.216	0.96079	-27.216	0.28699	-117.935
3910	0.28851	-117.965	0.95968	-27.465	0.95968	-27.465	0.28851	-117.965
3930	0.28874	-118.088	0.95822	-27.768	0.95822	-27.768	0.28874	-118.088
3950	0.29048	-118.143	0.95832	-27.795	0.95832	-27.795	0.29048	-118.143
3970	0.29322	-118.896	0.9571	-28.174	0.9571	-28.174	0.29322	-118.896
3990	0.29769	-119.913	0.95398	-28.566	0.95398	-28.566	0.29769	-119.913
4010	0.30273	-120.673	0.95202	-28.802	0.95202	-28.802	0.30273	-120.673
4030	0.30831	-120.925	0.95242	-28.953	0.95242	-28.953	0.30831	-120.925
4050	0.3155	-120.689	0.95451	-29.326	0.95451	-29.326	0.3155	-120.689
4070	0.32051	-120.63	0.94733	-29.688	0.94733	-29.688	0.32051	-120.63
4090	0.32311	-120.628	0.94518	-30.03	0.94518	-30.03	0.32311	-120.628
4110	0.3246	-120.623	0.94383	-30.337	0.94383	-30.337	0.3246	-120.623
4130	0.32572	-120.744	0.94138	-30.605	0.94138	-30.605	0.32572	-120.744
4150	0.32666	-121.313	0.93826	-30.835	0.93826	-30.835	0.32666	-121.313
4170	0.3301	-122.4	0.9378	-31.333	0.9378	-31.333	0.3301	-122.4
4190	0.33681	-123.054	0.9368	-31.455	0.9368	-31.455	0.33681	-123.054
4210	0.34395	-123.544	0.936	-31.702	0.936	-31.702	0.34395	-123.544
4230	0.35053	-123.984	0.93375	-32.137	0.93375	-32.137	0.35053	-123.984
4250	0.35748	-124.334	0.92596	-32.391	0.92596	-32.391	0.35748	-124.334
4270	0.36358	-124.192	0.92763	-32.651	0.92763	-32.651	0.36358	-124.192
4290	0.36836	-124.334	0.92457	-33.143	0.92457	-33.143	0.36836	-124.334
4310	0.37188	-124.317	0.92142	-33.448	0.92142	-33.448	0.37188	-124.317
4330	0.37465	-124.38	0.91982	-33.63	0.91982	-33.63	0.37465	-124.38
4350	0.37767	-125.452	0.91835	-34.233	0.91835	-34.233	0.37767	-125.452
4370	0.38394	-126.453	0.91184	-34.69	0.91184	-34.69	0.38394	-126.453
4390	0.39166	-127.026	0.91173	-35.079	0.91173	-35.079	0.39166	-127.026
4410	0.40006	-127.602	0.91037	-35.601	0.91037	-35.601	0.40006	-127.602
4430	0.4088	-128.039	0.90533	-36.161	0.90533	-36.161	0.4088	-128.039
4450	0.41797	-127.623	0.89946	-36.371	0.89946	-36.371	0.41797	-127.623
4470	0.42271	-128.232	0.8948	-36.979	0.8948	-36.979	0.42271	-128.232
4490	0.42779	-128.61	0.88538	-37.553	0.88538	-37.553	0.42779	-128.61
4510	0.43408	-128.973	0.88018	-37.967	0.88018	-37.967	0.43408	-128.973
4530	0.44129	-129.697	0.87956	-38.372	0.87956	-38.372	0.44129	-129.697
4550	0.4479	-131.312	0.87531	-39.2	0.87531	-39.2	0.4479	-131.312
4570	0.45631	-132.199	0.86139	-39.617	0.86139	-39.617	0.45631	-132.199
4590	0.46946	-132.958	0.85553	-40.159	0.85553	-40.159	0.46946	-132.958
4610	0.4832	-133.611	0.85035	-40.899	0.85035	-40.899	0.4832	-133.611
4630	0.49513	-134.182	0.84129	-41.684	0.84129	-41.684	0.49513	-134.182
4650	0.50459	-134.704	0.82661	-42.136	0.82661	-42.136	0.50459	-134.704
4670	0.51442	-135.645	0.81973	-43.258	0.81973	-43.258	0.51442	-135.645
4690	0.52296	-136.646	0.80801	-43.964	0.80801	-43.964	0.52296	-136.646
4710	0.53302	-137.958	0.79199	-44.705	0.79199	-44.705	0.53302	-137.958
4730	0.54608	-139.601	0.77273	-45.647	0.77273	-45.647	0.54608	-139.601
4750	0.5623	-141.365	0.75186	-46.669	0.75186	-46.669	0.5623	-141.365
4770	0.58352	-143.096	0.73593	-47.483	0.73593	-47.483	0.58352	-143.096
4790	0.59714	-145.211	0.70947	-48.572	0.70947	-48.572	0.59714	-145.211
4810	0.61388	-147.229	0.67781	-49.676	0.67781	-49.676	0.61388	-147.229
4830	0.63508	-149.226	0.64401	-50.579	0.64401	-50.579	0.63508	-149.226
4850	0.65268	-151.832	0.60882	-51.11	0.60882	-51.11	0.65268	-151.832
4870	0.66489	-155.536	0.56277	-51.621	0.56277	-51.621	0.66489	-155.536
4890	0.67675	-159.234	0.5113	-50.928	0.5113	-50.928	0.67675	-159.234
4910	0.69008	-163.439	0.45876	-49.268	0.45876	-49.268	0.69008	-163.439
4930	0.70165	-168.196	0.4067	-45.748	0.4067	-45.748	0.70165	-168.196
4950	0.70318	-173.078	0.35388	-38.35	0.35388	-38.35	0.70318	-173.078
4970	0.69867	-178.515	0.33295	-26.184	0.33295	-26.184	0.69867	-178.515
4990	0.6825	31.768	0.34364	-13.501	0.34364	-13.501	0.6825	31.768
5010	0.65027	170.14	0.38425	-2.644	0.38425	-2.644	0.65027	170.14
5030	0.60523	164.674	0.44993	4.739	0.44993	4.739	0.60523	164.674
5050	0.55829	159.151	0.53272	7.697	0.53272	7.697	0.55829	159.151
5070	0.50036	153.824	0.60739	6.754	0.60739	6.754	0.50036	153.824
5090	0.44626	150.283	0.6735	5.479	0.6735	5.479	0.44626	150.283
5110	0.39561	147.782	0.73348	3.527	0.73348	3.527	0.39561	147.782
5130	0.3473	146.236	0.78596	0.971	0.78596	0.971	0.3473	146.236
5150	0.29954	146.216	0.82577	-1.698	0.82577	-1.698	0.29954	146.216
5170	0.25867	148.737	0.85529	-4.037	0.85529	-4.037	0.25867	148.737
5190	0.22165	152.353	0.88044	-6.236	0.88044	-6.236	0.22165	152.353
5210	0.19099	157.259	0.902	-8.261	0.902	-8.261	0.19099	157.259
5230	0.16757	163.37	0.91913	-10.103	0.91913	-10.103	0.16757	163.37
5250	0.15066	170.321	0.92936	-11.77	0.92936	-11.77	0.15066	170.321
5270	0.14342	-109.731	0.93854	-13.278	0.93854	-13.278	0.14342	-109.731
5290	0.14294	-173.786	0.94731	-14.57	0.94731	-14.57	0.14294	-173.786
5310	0.14715	-166.041	0.95194	-15.846	0.95194	-15.846	0.14715	-166.041
5330	0.15435	-158.787	0.95326	-17.137	0.95326	-17.137	0.15435	-158.787
5350	0.16317	-152.405	0.95672	-18.303	0.95672	-18.303	0.16317	-152.405
5370	0.17254	-146.709	0.96072	-19.434	0.96072	-19.434	0.17254	-146.709
5390	0.1818	-142.454	0.96264	-20.28	0.96264	-20.28	0.1818	-142.454
5410	0.18936	-139.299	0.96313	-21.064	0.96313	-21.064	0.18936	-139.299
5430	0.19569	-136.999	0.96363	-21.878	0.96363	-21.878	0.19569	-136.999
5450	0.20338	-135.41	0.96639	-22.68	0.96639	-22.68	0.20338	-135.41
5470	0.21295	-134.797	0.9598	-23.14	0.9598	-23.14	0.21295	-134.797
5490	0.2242	-134.403	0.95945	-23.947	0.95945	-23.947	0.2242	-134.403
5510	0.236	-133.696	0.96011	-24.738	0.96011	-24.738	0.236	-133.696
5530	0.2474	-132.661	0.95845	-25.329	0.95845	-25.329	0.2474	-132.661
5550	0.25761	-131.8	0.95307	-25.716	0.95307	-25.716	0.25761	-131.8
5570	0.26618	-130.834	0.95441	-26.166	0.95441	-26.166	0.26618	-130.834
5590	0.27349	-130.105	0.95399	-26.742	0.95399	-26.742	0.27349	-130.105
5610	0.28031	-129.692	0.95195	-27.461	0.95195	-27.461	0.28031	-129.692
5630	0.28685	-129.549	0.94997	-28.194	0.94997	-28.194	0.28685	-129.549
5650	0.29286	-129.512	0.95128	-28.67	0.95128	-28.67	0.29286	-129.512
5670	0.3028	-129.582	0.94801	-28.937	0.94801	-28.937	0.3028	-129.582
5690	0.31211	-129.49	0.94594	-29.259	0.94594	-29.259	0.31211	-129.49
5710	0.32025	-129.23	0.94194	-29.653	0.94194	-29.653	0.32025	-129.23
5730	0.32711	-128.88	0.93493	-30.079	0.93493	-30.079	0.32711	-128.88
5750	0.33298	-128.602	0.92587	-30.447	0.92587	-30.447	0.33298	-128.602
5770	0.34033	-128.394	0.9365	-30.817	0.9365	-30.817	0.34033	-128.394
5790	0.34539	-128.105	0.93957	-31.044	0.93957	-31.044	0.34539	-128.105
5810	0.34922	-128.035	0.93537	-31.289	0.93537	-31.289	0.34922	-128.035
5830	0.35291	-128.204	0.92829	-31.547	0.92829	-31.547	0.35291	-128.204
5850	0.35762	-128.351	0.92682	-31.643	0.92682	-31.643	0.35762	-128.351
5870	0.36411	-128.673	0.92691	-32.256	0.92691	-32.256	0.36411	-128.673
