# MHZ S MA R 50

      50  0.09   77.40    0.99   -3.80    0.99   -3.80    0.09   77.40
     100  0.17   74.70    0.97   -8.50    0.97   -8.50    0.17   74.70
     150  0.25   72.00    0.95   -13.30   0.95   -13.30   0.25   72.00
     200  0.32   68.00    0.93   -17.80   0.93   -17.80   0.32   68.00
     250  0.40   64.00    0.91   -22.30   0.91   -22.30   0.40   64.00
     300  0.45   59.80    0.87   -26.50   0.87   -26.50   0.45   59.80
     350  0.51   55.70    0.84   -30.80   0.84   -30.80   0.51   55.70
     400  0.57   51.70    0.80   -34.60   0.80   -34.60   0.57   51.70
     450  0.63   47.70    0.77   -38.30   0.77   -38.30   0.63   47.70
     500  0.70   46.30    0.71   -43.70   0.71   -43.70   0.70   46.30
     550  0.78   44.90    0.66   -49.00   0.66   -49.00   0.78   44.90
     600  0.80   41.90    0.62   -51.80   0.62   -51.80   0.80   41.90
     650  0.82   39.00    0.58   -54.70   0.58   -54.70   0.82   39.00
     700  0.85   36.70    0.54   -57.60   0.54   -57.60   0.85   36.70
     750  0.88   34.40    0.50   -60.60   0.50   -60.60   0.88   34.40
     800  0.88   31.60    0.47   -62.80   0.47   -62.80   0.88   31.60
     850  0.89   28.80    0.43   -65.00   0.43   -65.00   0.89   28.80
     900  0.92   26.70    0.40   -67.10   0.40   -67.10   0.92   26.70
     950  0.94   24.60    0.37   -69.10   0.37   -69.10   0.94   24.60
    1000  0.95   22.50    0.34   -71.10   0.34   -71.10   0.95   22.50
    1050  0.95   20.30    0.31   -73.00   0.31   -73.00   0.95   20.30
    1100  0.96   18.50    0.28   -75.00   0.28   -75.00   0.96   18.50
    1150  0.98   16.60    0.25   -77.00   0.25   -77.00   0.98   16.60
    1200  0.98   15.00    0.22   -78.20   0.22   -78.20   0.98   15.00
    1250  0.99   13.40    0.19   -79.50   0.19   -79.50   0.99   13.40
    1300  0.99   11.40    0.17   -81.20   0.17   -81.20   0.99   11.40
    1350  1.00    9.30    0.14   -82.90   0.14   -82.90   1.00    9.30
    1400  1.00    8.00    0.12   -83.50   0.12   -83.50   1.00    8.00
    1450  1.00    6.60    0.10   -84.10   0.10   -84.10   1.00    6.60
    1500  1.00    4.80    0.08   -84.50   0.08   -84.50   1.00    4.80
    1550  1.00    2.90    0.05   -84.90   0.05   -84.90   1.00    2.90
    1600  1.00    1.30    0.03   -75.40   0.03   -75.40   1.00    1.30
    1650  1.00   -0.40    0.01   -65.90   0.01   -65.90   1.00   -0.40
    1700  1.00   -1.70    0.02    4.30    0.02    4.30    1.00   -1.70
    1750  0.99   -3.10    0.03   74.40    0.03   74.40    0.99   -3.10
    1800  1.00   -4.80    0.05   75.80    0.05   75.80    1.00   -4.80
    1850  1.00   -6.50    0.07   77.10    0.07   77.10    1.00   -6.50
    1900  0.99   -8.00    0.09   76.80    0.09   76.80    0.99   -8.00
    1950  0.99   -9.50    0.11   76.50    0.11   76.50    0.99   -9.50
    2000  0.98   -11.00   0.13   75.60    0.13   75.60    0.98   -11.00
    2050  0.98   -12.50   0.14   74.80    0.14   74.80    0.98   -12.50
    2100  0.98   -13.60   0.16   73.80    0.16   73.80    0.98   -13.60
    2150  0.98   -14.80   0.18   72.90    0.18   72.90    0.98   -14.80
    2200  0.97   -16.40   0.20   71.80    0.20   71.80    0.97   -16.40
    2250  0.96   -18.10   0.21   70.70    0.21   70.70    0.96   -18.10
    2300  0.96   -19.10   0.23   69.90    0.23   69.90    0.96   -19.10
    2350  0.96   -20.00   0.25   69.10    0.25   69.10    0.96   -20.00
    2400  0.95   -21.60   0.26   67.80    0.26   67.80    0.95   -21.60
    2450  0.95   -23.20   0.28   66.40    0.28   66.40    0.95   -23.20
    2500  0.94   -24.40   0.29   65.30    0.29   65.30    0.94   -24.40
    2550  0.94   -25.50   0.31   64.20    0.31   64.20    0.94   -25.50
    2600  0.94   -26.60   0.32   63.30    0.32   63.30    0.94   -26.60
    2650  0.93   -27.70   0.34   62.40    0.34   62.40    0.93   -27.70
    2700  0.92   -28.70   0.35   61.30    0.35   61.30    0.92   -28.70
    2750  0.92   -29.70   0.36   60.20    0.36   60.20    0.92   -29.70
    2800  0.91   -31.00   0.38   59.40    0.38   59.40    0.91   -31.00
    2850  0.91   -32.20   0.39   58.50    0.39   58.50    0.91   -32.20
    2900  0.90   -33.00   0.40   57.30    0.40   57.30    0.90   -33.00
    2950  0.89   -33.90   0.42   56.10    0.42   56.10    0.89   -33.90
    3000  0.89   -34.90   0.43   55.20    0.43   55.20    0.89   -34.90
    3050  0.88   -35.90   0.44   54.30    0.44   54.30    0.88   -35.90
    3100  0.88   -37.00   0.45   53.60    0.45   53.60    0.88   -37.00
    3150  0.87   -38.10   0.46   52.80    0.46   52.80    0.87   -38.10
    3200  0.87   -38.60   0.47   52.00    0.47   52.00    0.87   -38.60
    3250  0.86   -39.20   0.48   51.20    0.48   51.20    0.86   -39.20
    3300  0.86   -40.10   0.49   50.40    0.49   50.40    0.86   -40.10
    3350  0.85   -41.00   0.50   49.50    0.50   49.50    0.85   -41.00
    3400  0.84   -41.80   0.51   48.90    0.51   48.90    0.84   -41.80
    3450  0.84   -42.60   0.52   48.20    0.52   48.20    0.84   -42.60
    3500  0.83   -43.50   0.54   47.40    0.54   47.40    0.83   -43.50
    3550  0.82   -44.50   0.55   46.60    0.55   46.60    0.82   -44.50
    3600  0.81   -45.10   0.56   46.00    0.56   46.00    0.81   -45.10
    3650  0.80   -45.80   0.56   45.40    0.56   45.40    0.80   -45.80
    3700  0.80   -46.90   0.57   44.60    0.57   44.60    0.80   -46.90
    3750  0.80   -47.90   0.58   43.80    0.58   43.80    0.80   -47.90
    3800  0.79   -48.70   0.59   43.20    0.59   43.20    0.79   -48.70
    3850  0.78   -49.50   0.60   42.60    0.60   42.60    0.78   -49.50
    3900  0.77   -50.70   0.61   41.60    0.61   41.60    0.77   -50.70
    3950  0.76   -51.80   0.62   40.50    0.62   40.50    0.76   -51.80
    4000  0.74   -52.30   0.63   40.40    0.63   40.40    0.74   -52.30
    4050  0.73   -52.80   0.64   40.30    0.64   40.30    0.73   -52.80
    4100  0.72   -53.50   0.65   39.30    0.65   39.30    0.72   -53.50
    4150  0.72   -54.10   0.65   38.40    0.65   38.40    0.72   -54.10
    4200  0.72   -55.40   0.67   37.60    0.67   37.60    0.72   -55.40
    4250  0.71   -56.70   0.68   36.80    0.68   36.80    0.71   -56.70
    4300  0.70   -57.60   0.68   36.10    0.68   36.10    0.70   -57.60
    4350  0.69   -58.40   0.69   35.40    0.69   35.40    0.69   -58.40
    4400  0.68   -59.60   0.70   34.50    0.70   34.50    0.68   -59.60
    4450  0.68   -60.80   0.71   33.60    0.71   33.60    0.68   -60.80
    4500  0.67   -61.30   0.71   32.90    0.71   32.90    0.67   -61.30
    4550  0.66   -61.80   0.72   32.20    0.72   32.20    0.66   -61.80
    4600  0.65   -63.20   0.73   31.20    0.73   31.20    0.65   -63.20
    4650  0.65   -64.70   0.74   30.10    0.74   30.10    0.65   -64.70
    4700  0.63   -65.50   0.74   29.30    0.74   29.30    0.63   -65.50
    4750  0.62   -66.30   0.75   28.50    0.75   28.50    0.62   -66.30
    4800  0.61   -67.40   0.75   27.60    0.75   27.60    0.61   -67.40
    4850  0.60   -68.40   0.76   26.70    0.76   26.70    0.60   -68.40
    4900  0.60   -69.10   0.77   26.00    0.77   26.00    0.60   -69.10
    4950  0.59   -69.70   0.78   25.30    0.78   25.30    0.59   -69.70
    5000  0.58   -71.00   0.78   24.10    0.78   24.10    0.58   -71.00
    5050  0.57   -72.30   0.78   22.90    0.78   22.90    0.57   -72.30
    5100  0.55   -72.80   0.79   22.20    0.79   22.20    0.55   -72.80
    5150  0.54   -73.20   0.79   21.50    0.79   21.50    0.54   -73.20
    5200  0.53   -73.70   0.80   20.90    0.80   20.90    0.53   -73.70
    5250  0.52   -74.20   0.81   20.30    0.81   20.30    0.52   -74.20
    5300  0.51   -75.30   0.82   18.90    0.82   18.90    0.51   -75.30
    5350  0.51   -76.40   0.83   17.50    0.83   17.50    0.51   -76.40
    5400  0.49   -77.00   0.83   16.50    0.83   16.50    0.49   -77.00
    5450  0.47   -77.60   0.84   15.50    0.84   15.50    0.47   -77.60
    5500  0.46   -78.40   0.85   14.30    0.85   14.30    0.46   -78.40
    5550  0.44   -79.20   0.85   13.10    0.85   13.10    0.44   -79.20
    5600  0.42   -80.10   0.86   11.70    0.86   11.70    0.42   -80.10
    5650  0.40   -80.90   0.87   10.40    0.87   10.40    0.40   -80.90
    5700  0.38   -81.90   0.87    8.90    0.87    8.90    0.38   -81.90
    5750  0.36   -82.90   0.88    7.40    0.88    7.40    0.36   -82.90
    5800  0.33   -82.70   0.88    5.70    0.88    5.70    0.33   -82.70
    5850  0.31   -82.60   0.89    4.00    0.89    4.00    0.31   -82.60
    5900  0.28   -82.70   0.89    2.00    0.89    2.00    0.28   -82.70
    5950  0.24   -82.90   0.90   -0.10    0.90   -0.10    0.24   -82.90
    6000  0.20   -80.10   0.90   -3.00    0.90   -3.00    0.20   -80.10
    6050  0.17   -77.30   0.90   -6.00    0.90   -6.00    0.17   -77.30
    6100  0.13   -60.10   0.90   -9.10    0.90   -9.10    0.13   -60.10
    6150  0.10   -42.90   0.89   -12.30   0.89   -12.30   0.10   -42.90
    6200  0.13   -11.60   0.87   -16.90   0.87   -16.90   0.13   -11.60
    6250  0.17   19.70    0.85   -21.40   0.85   -21.40   0.17   19.70
    6300  0.26   21.60    0.79   -27.00   0.79   -27.00   0.26   21.60
    6350  0.35   23.60    0.74   -32.60   0.74   -32.60   0.35   23.60
    6400  0.46   18.20    0.64   -38.40   0.64   -38.40   0.46   18.20
    6450  0.57   12.70    0.54   -44.10   0.54   -44.10   0.57   12.70
    6500  0.66    4.40    0.41   -43.10   0.41   -43.10   0.66    4.40
    6550  0.74   -4.00    0.29   -42.10   0.29   -42.10   0.74   -4.00
    6600  0.78   -11.30   0.24   -17.60   0.24   -17.60   0.78   -11.30
    6650  0.81   -18.60   0.20    6.90    0.20    6.90    0.81   -18.60
    6700  0.81   -24.20   0.26   19.20    0.26   19.20    0.81   -24.20
    6750  0.81   -29.70   0.32   31.50    0.32   31.50    0.81   -29.70
    6800  0.80   -33.40   0.39   32.10    0.39   32.10    0.80   -33.40
    6850  0.79   -37.00   0.45   32.80    0.45   32.80    0.79   -37.00
    6900  0.76   -40.10   0.49   31.40    0.49   31.40    0.76   -40.10
    6950  0.74   -43.20   0.53   30.10    0.53   30.10    0.74   -43.20
    7000  0.72   -44.90   0.56   28.70    0.56   28.70    0.72   -44.90
    7050  0.70   -46.60   0.59   27.30    0.59   27.30    0.70   -46.60
    7100  0.68   -47.90   0.61   26.10    0.61   26.10    0.68   -47.90
    7150  0.67   -49.20   0.63   24.90    0.63   24.90    0.67   -49.20
    7200  0.65   -50.50   0.64   24.10    0.64   24.10    0.65   -50.50
    7250  0.63   -51.90   0.66   23.20    0.66   23.20    0.63   -51.90
    7300  0.63   -53.10   0.68   22.30    0.68   22.30    0.63   -53.10
    7350  0.62   -54.30   0.69   21.40    0.69   21.40    0.62   -54.30
    7400  0.61   -55.70   0.70   20.60    0.70   20.60    0.61   -55.70
    7450  0.60   -57.10   0.71   19.90    0.71   19.90    0.60   -57.10
    7500  0.59   -58.50   0.73   19.10    0.73   19.10    0.59   -58.50
    7550  0.58   -59.90   0.74   18.20    0.74   18.20    0.58   -59.90
    7600  0.57   -61.10   0.75   17.40    0.75   17.40    0.57   -61.10
    7650  0.56   -62.40   0.76   16.60    0.76   16.60    0.56   -62.40
    7700  0.55   -63.80   0.77   15.90    0.77   15.90    0.55   -63.80
    7750  0.53   -65.20   0.78   15.30    0.78   15.30    0.53   -65.20
    7800  0.52   -65.90   0.79   14.50    0.79   14.50    0.52   -65.90
    7850  0.51   -66.60   0.80   13.70    0.80   13.70    0.51   -66.60
    7900  0.50   -68.50   0.81   12.80    0.81   12.80    0.50   -68.50
    7950  0.49   -70.30   0.82   11.90    0.82   11.90    0.49   -70.30
    8000  0.48   -71.00   0.83   11.00    0.83   11.00    0.48   -71.00
    8050  0.46   -71.70   0.83   10.10    0.83   10.10    0.46   -71.70
    8100  0.45   -72.70   0.84    9.50    0.84    9.50    0.45   -72.70
    8150  0.44   -73.70   0.85    9.00    0.85    9.00    0.44   -73.70
    8200  0.42   -74.50   0.86    8.00    0.86    8.00    0.42   -74.50
    8250  0.41   -75.20   0.86    7.00    0.86    7.00    0.41   -75.20
    8300  0.40   -75.90   0.87    6.30    0.87    6.30    0.40   -75.90
    8350  0.39   -76.60   0.88    5.60    0.88    5.60    0.39   -76.60
    8400  0.38   -77.00   0.88    4.60    0.88    4.60    0.38   -77.00
    8450  0.37   -77.40   0.88    3.50    0.88    3.50    0.37   -77.40
    8500  0.36   -77.60   0.89    2.70    0.89    2.70    0.36   -77.60
    8550  0.35   -77.80   0.89    1.90    0.89    1.90    0.35   -77.80
    8600  0.34   -77.70   0.90    0.90    0.90    0.90    0.34   -77.70
    8650  0.33   -77.60   0.90    0.00    0.90    0.00    0.33   -77.60
    8700  0.32   -77.40   0.90   -0.90    0.90   -0.90    0.32   -77.40
    8750  0.32   -77.20   0.90   -1.80    0.90   -1.80    0.32   -77.20
    8800  0.31   -76.90   0.89   -2.30    0.89   -2.30    0.31   -76.90
    8850  0.31   -76.60   0.89   -2.70    0.89   -2.70    0.31   -76.60
    8900  0.30   -76.80   0.89   -3.60    0.89   -3.60    0.30   -76.80
    8950  0.30   -77.00   0.89   -4.40    0.89   -4.40    0.30   -77.00
    9000  0.29   -78.40   0.88   -4.30    0.88   -4.30    0.29   -78.40
    9050  0.29   -79.80   0.88   -4.10    0.88   -4.10    0.29   -79.80
    9100  0.28   -80.00   0.89   -4.60    0.89   -4.60    0.28   -80.00
    9150  0.26   -80.10   0.90   -5.00    0.90   -5.00    0.26   -80.10
    9200  0.25   -79.90   0.90   -5.70    0.90   -5.70    0.25   -79.90
    9250  0.25   -79.60   0.91   -6.40    0.91   -6.40    0.25   -79.60
    9300  0.24   -78.70   0.91   -7.10    0.91   -7.10    0.24   -78.70
    9350  0.22   -77.80   0.92   -7.90    0.92   -7.90    0.22   -77.80
    9400  0.22   -76.90   0.92   -8.40    0.92   -8.40    0.22   -76.90
    9450  0.22   -76.00   0.92   -8.90    0.92   -8.90    0.22   -76.00
    9500  0.21   -74.60   0.92   -9.70    0.92   -9.70    0.21   -74.60
    9550  0.20   -73.20   0.92   -10.50   0.92   -10.50   0.20   -73.20
    9600  0.19   -71.50   0.92   -11.20   0.92   -11.20   0.19   -71.50
    9650  0.18   -69.70   0.93   -11.80   0.93   -11.80   0.18   -69.70
    9700  0.17   -68.00   0.93   -12.40   0.93   -12.40   0.17   -68.00
    9750  0.16   -66.30   0.93   -12.90   0.93   -12.90   0.16   -66.30
    9800  0.15   -64.40   0.93   -13.50   0.93   -13.50   0.15   -64.40
    9850  0.14   -62.50   0.93   -14.20   0.93   -14.20   0.14   -62.50
    9900  0.13   -57.50   0.93   -14.70   0.93   -14.70   0.13   -57.50
    9950  0.12   -52.60   0.93   -15.30   0.93   -15.30   0.12   -52.60
   10000  0.12   -51.90   0.93   -15.90   0.93   -15.90   0.12   -51.90
   10050  0.11   -51.20   0.93   -16.60   0.93   -16.60   0.11   -51.20
   10100  0.10   -40.70   0.93   -17.20   0.93   -17.20   0.10   -40.70
   10150  0.09   -30.10   0.94   -17.80   0.94   -17.80   0.09   -30.10
   10200  0.09   -25.10   0.94   -18.60   0.94   -18.60   0.09   -25.10
   10250  0.09   -20.00   0.94   -19.40   0.94   -19.40   0.09   -20.00
   10300  0.09   -9.50    0.94   -20.20   0.94   -20.20   0.09   -9.50
   10350  0.09    1.00    0.93   -21.00   0.93   -21.00   0.09    1.00
   10400  0.10    6.10    0.93   -22.00   0.93   -22.00   0.10    6.10
   10450  0.11   11.10    0.94   -22.90   0.94   -22.90   0.11   11.10
   10500  0.11   14.10    0.94   -23.80   0.94   -23.80   0.11   14.10
   10550  0.12   17.10    0.93   -24.80   0.93   -24.80   0.12   17.10
   10600  0.13   22.00    0.93   -25.70   0.93   -25.70   0.13   22.00
   10650  0.15   26.90    0.93   -26.70   0.93   -26.70   0.15   26.90
   10700  0.16   26.20    0.93   -27.80   0.93   -27.80   0.16   26.20
   10750  0.17   25.50    0.92   -29.00   0.92   -29.00   0.17   25.50
   10800  0.19   27.70    0.92   -30.00   0.92   -30.00   0.19   27.70
   10850  0.20   29.80    0.91   -30.90   0.91   -30.90   0.20   29.80
   10900  0.22   28.20    0.90   -32.30   0.90   -32.30   0.22   28.20
   10950  0.23   26.60    0.90   -33.70   0.90   -33.70   0.23   26.60
   11000  0.25   26.50    0.88   -35.40   0.88   -35.40   0.25   26.50
   11050  0.26   26.50    0.87   -37.10   0.87   -37.10   0.26   26.50
   11100  0.29   24.40    0.86   -38.60   0.86   -38.60   0.29   24.40
   11150  0.32   22.40    0.84   -40.10   0.84   -40.10   0.32   22.40
   11200  0.35   20.00    0.82   -42.20   0.82   -42.20   0.35   20.00
   11250  0.37   17.60    0.80   -44.30   0.80   -44.30   0.37   17.60
   11300  0.41   14.40    0.77   -46.50   0.77   -46.50   0.41   14.40
   11350  0.44   11.10    0.73   -48.70   0.73   -48.70   0.44   11.10
   11400  0.48    7.30    0.68   -50.50   0.68   -50.50   0.48    7.30
   11450  0.52    3.40    0.63   -52.30   0.63   -52.30   0.52    3.40
   11500  0.55   -2.10    0.57   -53.10   0.57   -53.10   0.55   -2.10
   11550  0.59   -7.50    0.50   -53.90   0.50   -53.90   0.59   -7.50
   11600  0.62   -13.80   0.44   -49.30   0.44   -49.30   0.62   -13.80
   11650  0.64   -20.20   0.37   -44.80   0.37   -44.80   0.64   -20.20
   11700  0.65   -27.30   0.34   -31.90   0.34   -31.90   0.65   -27.30
   11750  0.65   -34.40   0.32   -19.10   0.32   -19.10   0.65   -34.40
   11800  0.63   -41.30   0.37   -9.50    0.37   -9.50    0.63   -41.30
   11850  0.62   -48.20   0.42    0.10    0.42    0.10    0.62   -48.20
   11900  0.57   -54.20   0.48    2.00    0.48    2.00    0.57   -54.20
   11950  0.54   -60.20   0.55    3.80    0.55    3.80    0.54   -60.20
   12000  0.51   -66.40   0.61    2.10    0.61    2.10    0.51   -66.40
   12050  0.48   -72.60   0.66    0.50    0.66    0.50    0.48   -72.60
   12100  0.44   -76.80   0.70   -1.30    0.70   -1.30    0.44   -76.80
   12150  0.40   -81.00   0.74   -3.10    0.74   -3.10    0.40   -81.00
   12200  0.37   -84.60   0.76   -5.00    0.76   -5.00    0.37   -84.60
   12250  0.34   -88.20   0.79   -7.00    0.79   -7.00    0.34   -88.20
   12300  0.31   -91.30   0.81   -8.70    0.81   -8.70    0.31   -91.30
   12350  0.28   -94.40   0.82   -10.40   0.82   -10.40   0.28   -94.40
   12400  0.26   -96.10   0.83   -11.80   0.83   -11.80   0.26   -96.10
   12450  0.24   -97.90   0.85   -13.20   0.85   -13.20   0.24   -97.90
   12500  0.22   -99.70   0.86   -14.60   0.86   -14.60   0.22   -99.70
   12550  0.20  -101.50   0.87   -15.90   0.87   -15.90   0.20  -101.50
   12600  0.19  -102.20   0.87   -17.00   0.87   -17.00   0.19  -102.20
   12650  0.17  -102.90   0.88   -18.10   0.88   -18.10   0.17  -102.90
   12700  0.15  -101.70   0.88   -19.20   0.88   -19.20   0.15  -101.70
   12750  0.14  -100.50   0.89   -20.30   0.89   -20.30   0.14  -100.50
   12800  0.12  -100.60   0.89   -21.40   0.89   -21.40   0.12  -100.60
   12850  0.11  -100.80   0.90   -22.40   0.90   -22.40   0.11  -100.80
   12900  0.09   -95.80   0.90   -23.40   0.90   -23.40   0.09   -95.80
   12950  0.08   -90.90   0.90   -24.40   0.90   -24.40   0.08   -90.90
   13000  0.07   -88.80   0.91   -25.30   0.91   -25.30   0.07   -88.80
   13050  0.06   -86.60   0.91   -26.30   0.91   -26.30   0.06   -86.60
   13100  0.05   -76.30   0.91   -27.20   0.91   -27.20   0.05   -76.30
   13150  0.05   -65.90   0.91   -28.20   0.91   -28.20   0.05   -65.90
   13200  0.04   -42.10   0.91   -29.00   0.91   -29.00   0.04   -42.10
   13250  0.04   -18.30   0.91   -29.80   0.91   -29.80   0.04   -18.30
   13300  0.04   -8.70    0.91   -31.20   0.91   -31.20   0.04   -8.70
   13350  0.05    0.90    0.90   -32.50   0.90   -32.50   0.05    0.90
   13400  0.06    8.90    0.90   -33.60   0.90   -33.60   0.06    8.90
   13450  0.07   16.80    0.89   -34.80   0.89   -34.80   0.07   16.80
   13500  0.09   13.80    0.89   -35.90   0.89   -35.90   0.09   13.80
   13550  0.10   10.80    0.88   -37.10   0.88   -37.10   0.10   10.80
   13600  0.11    8.20    0.86   -38.30   0.86   -38.30   0.11    8.20
   13650  0.12    5.50    0.84   -39.50   0.84   -39.50   0.12    5.50
   13700  0.13   -2.80    0.82   -39.70   0.82   -39.70   0.13   -2.80
   13750  0.13   -11.00   0.79   -39.90   0.79   -39.90   0.13   -11.00
   13800  0.10   -19.20   0.78   -37.90   0.78   -37.90   0.10   -19.20
   13850  0.08   -27.30   0.76   -35.90   0.76   -35.90   0.08   -27.30
   13900  0.07   -1.00    0.79   -34.90   0.79   -34.90   0.07   -1.00
