#	mhz	s	ma	r	50
50	0.28597	109.565	0.93704	16.803	0.93704	16.803	0.28597	109.565
70	0.21227	104.651	0.96878	11.707	0.96878	11.707	0.21227	104.651
90	0.16105	100.624	0.98234	8.507	0.98234	8.507	0.16105	100.624
110	0.12509	97.71	0.98996	6.525	0.98996	6.525	0.12509	97.71
130	0.09917	95.478	0.99645	5.188	0.99645	5.188	0.09917	95.478
150	0.08007	92.843	0.99922	4.021	0.99922	4.021	0.08007	92.843
170	0.06569	92.309	0.99759	3.429	0.99759	3.429	0.06569	92.309
190	0.05321	91.328	0.99752	2.682	0.99752	2.682	0.05321	91.328
210	0.04169	91.375	1.00011	1.945	1.00011	1.945	0.04169	91.375
230	0.0307	92.867	1.00261	1.304	1.00261	1.304	0.0307	92.867
250	0.02027	95.158	0.99838	0.764	0.99838	0.764	0.02027	95.158
270	0.00922	99.539	1.00417	0.178	1.00417	0.178	0.00922	99.539
290	0.00613	-3.75	1.00417	-0.28	1.00417	-0.28	0.00613	-3.75
310	0.00948	-72.714	1.00372	-0.775	1.00372	-0.775	0.00948	-72.714
330	0.01626	-72.06	1.00448	-1.317	1.00448	-1.317	0.01626	-72.06
350	0.02193	-73.198	1.00444	-1.765	1.00444	-1.765	0.02193	-73.198
370	0.02592	-73.747	1.00349	-2.046	1.00349	-2.046	0.02592	-73.747
390	0.02966	-76.678	1.00288	-2.22	1.00288	-2.22	0.02966	-76.678
410	0.03367	-80.403	1.00314	-2.508	1.00314	-2.508	0.03367	-80.403
430	0.03812	-84.005	1.00439	-2.959	1.00439	-2.959	0.03812	-84.005
450	0.04282	-87.232	1.00628	-3.446	1.00628	-3.446	0.04282	-87.232
470	0.04765	-89.328	1.00408	-3.761	1.00408	-3.761	0.04765	-89.328
490	0.05215	-93.527	1.00128	-4.079	1.00128	-4.079	0.05215	-93.527
510	0.05741	-95.276	1.0009	-4.543	1.0009	-4.543	0.05741	-95.276
530	0.06335	-93.968	1.00345	-5.005	1.00345	-5.005	0.06335	-93.968
550	0.06877	-92.944	1.00686	-5.022	1.00686	-5.022	0.06877	-92.944
570	0.07221	-92.049	1.01151	-5.356	1.01151	-5.356	0.07221	-92.049
590	0.07588	-91.212	1.00946	-5.493	1.00946	-5.493	0.07588	-91.212
610	0.07899	-91.454	1.00773	-5.627	1.00773	-5.627	0.07899	-91.454
630	0.08167	-92.558	1.00754	-5.786	1.00754	-5.786	0.08167	-92.558
650	0.08499	-93.075	1.00432	-5.834	1.00432	-5.834	0.08499	-93.075
670	0.0897	-94.027	1.00133	-6.297	1.00133	-6.297	0.0897	-94.027
690	0.09438	-94.799	1.00124	-6.664	1.00124	-6.664	0.09438	-94.799
710	0.09922	-95.082	1.00132	-6.949	1.00132	-6.949	0.09922	-95.082
730	0.10424	-94.975	1.00104	-7.219	1.00104	-7.219	0.10424	-94.975
750	0.10925	-94.984	1.00213	-7.591	1.00213	-7.591	0.10925	-94.984
770	0.11328	-94.504	1.00242	-7.735	1.00242	-7.735	0.11328	-94.504
790	0.1168	-94.417	1.00427	-7.941	1.00427	-7.941	0.1168	-94.417
810	0.11886	-94.554	1.00441	-8.157	1.00441	-8.157	0.11886	-94.554
830	0.12018	-94.934	1.00188	-8.328	1.00188	-8.328	0.12018	-94.934
850	0.12315	-95.764	0.99806	-8.394	0.99806	-8.394	0.12315	-95.764
870	0.1272	-97.217	0.99852	-8.693	0.99852	-8.693	0.1272	-97.217
890	0.1321	-98.433	0.99508	-9.193	0.99508	-9.193	0.1321	-98.433
910	0.13784	-99.194	0.99128	-9.621	0.99128	-9.621	0.13784	-99.194
930	0.14441	-99.43	0.98906	-9.953	0.98906	-9.953	0.14441	-99.43
950	0.15172	-99.216	0.98873	-10.422	0.98873	-10.422	0.15172	-99.216
970	0.15765	-99.032	0.98863	-10.762	0.98863	-10.762	0.15765	-99.032
990	0.16128	-99.001	0.99154	-10.975	0.99154	-10.975	0.16128	-99.001
1010	0.16351	-98.897	0.99437	-11.158	0.99437	-11.158	0.16351	-98.897
1030	0.16533	-98.851	0.99496	-11.36	0.99496	-11.36	0.16533	-98.851
1050	0.16783	-99.34	0.99205	-11.595	0.99205	-11.595	0.16783	-99.34
1070	0.17071	-100.453	0.9898	-11.911	0.9898	-11.911	0.17071	-100.453
1090	0.17671	-101.395	0.98998	-12.445	0.98998	-12.445	0.17671	-101.395
1110	0.18368	-102.156	0.98827	-12.843	0.98827	-12.843	0.18368	-102.156
1130	0.19092	-102.597	0.98465	-13.093	0.98465	-13.093	0.19092	-102.597
1150	0.19921	-102.45	0.9834	-13.528	0.9834	-13.528	0.19921	-102.45
1170	0.20547	-102.057	0.98714	-13.921	0.98714	-13.921	0.20547	-102.057
1190	0.21016	-101.762	0.98937	-14.211	0.98937	-14.211	0.21016	-101.762
1210	0.2132	-101.502	0.98939	-14.273	0.98939	-14.273	0.2132	-101.502
1230	0.21548	-101.469	0.98819	-14.266	0.98819	-14.266	0.21548	-101.469
1250	0.21882	-102.104	0.98844	-14.63	0.98844	-14.63	0.21882	-102.104
1270	0.22093	-103.012	0.9835	-14.905	0.9835	-14.905	0.22093	-103.012
1290	0.2257	-103.764	0.98029	-15.346	0.98029	-15.346	0.2257	-103.764
1310	0.23276	-104.499	0.97681	-15.778	0.97681	-15.778	0.23276	-104.499
1330	0.24099	-105.257	0.97279	-16.22	0.97279	-16.22	0.24099	-105.257
1350	0.24847	-105.984	0.96967	-16.887	0.96967	-16.887	0.24847	-105.984
1370	0.257	-106.388	0.96696	-17.269	0.96696	-17.269	0.257	-106.388
1390	0.26318	-106.97	0.9654	-17.692	0.9654	-17.692	0.26318	-106.97
1410	0.26838	-107.654	0.96251	-18.11	0.96251	-18.11	0.26838	-107.654
1430	0.27389	-108.553	0.95747	-18.504	0.95747	-18.504	0.27389	-108.553
1450	0.28093	-109.97	0.95108	-18.871	0.95108	-18.871	0.28093	-109.97
1470	0.28885	-112.261	0.94136	-19.516	0.94136	-19.516	0.28885	-112.261
1490	0.29884	-115.182	0.92766	-20.196	0.92766	-20.196	0.29884	-115.182
1510	0.31042	-118.759	0.91016	-20.977	0.91016	-20.977	0.31042	-118.759
1530	0.32256	-123.372	0.88645	-21.8	0.88645	-21.8	0.32256	-123.372
1550	0.33376	-129.758	0.85155	-22.486	0.85155	-22.486	0.33376	-129.758
1570	0.3274	-139.608	0.8012	-21.169	0.8012	-21.169	0.3274	-139.608
1590	0.2854	-150.702	0.77412	-16.978	0.77412	-16.978	0.2854	-150.702
1610	0.21777	-155.966	0.79158	-12.514	0.79158	-12.514	0.21777	-155.966
1630	0.14997	-149.756	0.84595	-9.809	0.84595	-9.809	0.14997	-149.756
1650	0.12283	-127.855	0.90065	-10.33	0.90065	-10.33	0.12283	-127.855
1670	0.14078	-113.268	0.92478	-11.271	0.92478	-11.271	0.14078	-113.268
1690	0.16159	-106.23	0.94185	-12.424	0.94185	-12.424	0.16159	-106.23
1710	0.18146	-103.487	0.95044	-13.668	0.95044	-13.668	0.18146	-103.487
1730	0.19889	-102.787	0.95339	-14.801	0.95339	-14.801	0.19889	-102.787
1750	0.21472	-102.877	0.9578	-15.545	0.9578	-15.545	0.21472	-102.877
1770	0.22759	-103.244	0.96255	-16.387	0.96255	-16.387	0.22759	-103.244
1790	0.23767	-103.223	0.96346	-16.992	0.96346	-16.992	0.23767	-103.223
1810	0.24718	-103.25	0.96416	-17.408	0.96416	-17.408	0.24718	-103.25
1830	0.25621	-103.527	0.96534	-17.82	0.96534	-17.82	0.25621	-103.527
1850	0.26275	-104.014	0.96476	-18.555	0.96476	-18.555	0.26275	-104.014
1870	0.27023	-104.289	0.96101	-18.905	0.96101	-18.905	0.27023	-104.289
1890	0.27532	-104.744	0.95907	-19.183	0.95907	-19.183	0.27532	-104.744
1910	0.28115	-105.19	0.958	-19.49	0.958	-19.49	0.28115	-105.19
1930	0.28884	-105.76	0.95673	-19.92	0.95673	-19.92	0.28884	-105.76
1950	0.29757	-106.906	0.95406	-20.562	0.95406	-20.562	0.29757	-106.906
1970	0.3008	-106.915	0.95301	-20.933	0.95301	-20.933	0.3008	-106.915
1990	0.30698	-106.932	0.95504	-21.438	0.95504	-21.438	0.30698	-106.932
2010	0.31379	-107.0	0.95498	-21.727	0.95498	-21.727	0.31379	-107.0
2030	0.31898	-107.124	0.9526	-21.836	0.9526	-21.836	0.31898	-107.124
2050	0.32042	-107.275	0.95258	-22.186	0.95258	-22.186	0.32042	-107.275
2070	0.32256	-107.284	0.9524	-22.316	0.9524	-22.316	0.32256	-107.284
2090	0.32539	-107.813	0.94815	-22.675	0.94815	-22.675	0.32539	-107.813
2110	0.32823	-108.456	0.94385	-23.095	0.94385	-23.095	0.32823	-108.456
2130	0.33126	-109.053	0.94091	-23.411	0.94091	-23.411	0.33126	-109.053
2150	0.33552	-109.691	0.93805	-23.466	0.93805	-23.466	0.33552	-109.691
2170	0.34165	-110.387	0.93481	-24.03	0.93481	-24.03	0.34165	-110.387
2190	0.34761	-110.925	0.93816	-24.717	0.93816	-24.717	0.34761	-110.925
2210	0.35372	-111.245	0.93948	-25.063	0.93948	-25.063	0.35372	-111.245
2230	0.3589	-111.388	0.93576	-25.147	0.93576	-25.147	0.3589	-111.388
2250	0.36067	-111.495	0.92953	-25.59	0.92953	-25.59	0.36067	-111.495
2270	0.36232	-111.571	0.92692	-25.691	0.92692	-25.691	0.36232	-111.571
2290	0.36437	-111.967	0.9277	-26.062	0.9277	-26.062	0.36437	-111.967
2310	0.36698	-112.598	0.92344	-26.369	0.92344	-26.369	0.36698	-112.598
2330	0.37011	-113.309	0.91582	-26.563	0.91582	-26.563	0.37011	-113.309
2350	0.37361	-113.875	0.91667	-26.876	0.91667	-26.876	0.37361	-113.875
2370	0.38056	-114.863	0.92032	-27.573	0.92032	-27.573	0.38056	-114.863
2390	0.38603	-115.431	0.91596	-28.011	0.91596	-28.011	0.38603	-115.431
2410	0.39187	-115.718	0.91271	-28.221	0.91271	-28.221	0.39187	-115.718
2430	0.39786	-115.863	0.91357	-28.366	0.91357	-28.366	0.39786	-115.863
2450	0.40176	-116.004	0.91537	-28.747	0.91537	-28.747	0.40176	-116.004
2470	0.40472	-116.38	0.90916	-29.151	0.90916	-29.151	0.40472	-116.38
2490	0.40733	-116.778	0.90487	-29.463	0.90487	-29.463	0.40733	-116.778
2510	0.41026	-117.438	0.9009	-29.732	0.9009	-29.732	0.41026	-117.438
2530	0.41381	-118.388	0.89766	-30.086	0.89766	-30.086	0.41381	-118.388
2550	0.41793	-119.444	0.89755	-30.735	0.89755	-30.735	0.41793	-119.444
2570	0.42388	-120.066	0.89282	-31.123	0.89282	-31.123	0.42388	-120.066
2590	0.43271	-120.814	0.8896	-31.574	0.8896	-31.574	0.43271	-120.814
2610	0.43934	-121.554	0.8856	-32.125	0.8856	-32.125	0.43934	-121.554
2630	0.44322	-122.0	0.88119	-32.567	0.88119	-32.567	0.44322	-122.0
2650	0.44825	-121.708	0.87944	-32.449	0.87944	-32.449	0.44825	-121.708
2670	0.45122	-122.631	0.8764	-32.96	0.8764	-32.96	0.45122	-122.631
2690	0.45363	-123.596	0.87125	-33.355	0.87125	-33.355	0.45363	-123.596
2710	0.45725	-124.58	0.86366	-33.62	0.86366	-33.62	0.45725	-124.58
2730	0.46248	-125.648	0.85554	-33.952	0.85554	-33.952	0.46248	-125.648
2750	0.4683	-126.958	0.85106	-34.756	0.85106	-34.756	0.4683	-126.958
2770	0.47501	-128.606	0.83787	-35.247	0.83787	-35.247	0.47501	-128.606
2790	0.4826	-130.1	0.8242	-35.654	0.8242	-35.654	0.4826	-130.1
2810	0.48944	-131.656	0.813	-35.915	0.813	-35.915	0.48944	-131.656
2830	0.49257	-133.463	0.80115	-36.121	0.80115	-36.121	0.49257	-133.463
2850	0.48772	-135.679	0.77941	-36.512	0.77941	-36.512	0.48772	-135.679
2870	0.48034	-138.585	0.75756	-36.326	0.75756	-36.326	0.48034	-138.585
2890	0.46496	-142.18	0.73544	-35.039	0.73544	-35.039	0.46496	-142.18
2910	0.44339	-145.662	0.71992	-32.918	0.71992	-32.918	0.44339	-145.662
2930	0.41342	-148.346	0.71449	-30.338	0.71449	-30.338	0.41342	-148.346
2950	0.36888	-149.67	0.71924	-27.784	0.71924	-27.784	0.36888	-149.67
2970	0.33216	-146.507	0.74747	-26.243	0.74747	-26.243	0.33216	-146.507
2990	0.31195	-141.107	0.77995	-25.652	0.77995	-25.652	0.31195	-141.107
3010	0.30723	-135.057	0.81052	-25.883	0.81052	-25.883	0.30723	-135.057
3030	0.315	-129.833	0.83459	-26.748	0.83459	-26.748	0.315	-129.833
3050	0.33028	-126.8	0.84909	-27.997	0.84909	-27.997	0.33028	-126.8
3070	0.34592	-125.0	0.86218	-28.754	0.86218	-28.754	0.34592	-125.0
3090	0.36201	-124.107	0.86894	-29.715	0.86894	-29.715	0.36201	-124.107
3110	0.37704	-123.807	0.87168	-30.764	0.87168	-30.764	0.37704	-123.807
3130	0.39082	-123.738	0.87204	-31.781	0.87204	-31.781	0.39082	-123.738
3150	0.40446	-123.49	0.87091	-32.644	0.87091	-32.644	0.40446	-123.49
3170	0.41573	-124.261	0.87041	-33.402	0.87041	-33.402	0.41573	-124.261
3190	0.42489	-124.787	0.86877	-34.124	0.86877	-34.124	0.42489	-124.787
3210	0.43346	-125.321	0.8668	-34.809	0.8668	-34.809	0.43346	-125.321
3230	0.44197	-126.007	0.86501	-35.452	0.86501	-35.452	0.44197	-126.007
3250	0.44995	-126.883	0.86368	-36.045	0.86368	-36.045	0.44995	-126.883
3270	0.46128	-127.21	0.86144	-36.519	0.86144	-36.519	0.46128	-127.21
3290	0.47049	-127.35	0.85998	-36.921	0.85998	-36.921	0.47049	-127.35
3310	0.47874	-127.474	0.85719	-37.327	0.85719	-37.327	0.47874	-127.474
3330	0.48624	-127.69	0.85316	-37.771	0.85316	-37.771	0.48624	-127.69
3350	0.49227	-128.041	0.8501	-38.246	0.8501	-38.246	0.49227	-128.041
3370	0.49219	-128.624	0.8449	-38.814	0.8449	-38.814	0.49219	-128.624
3390	0.49462	-129.136	0.84248	-39.174	0.84248	-39.174	0.49462	-129.136
3410	0.50057	-129.881	0.84054	-39.596	0.84054	-39.596	0.50057	-129.881
3430	0.50809	-130.86	0.83666	-40.14	0.83666	-40.14	0.50809	-130.86
3450	0.51224	-131.764	0.82832	-40.663	0.82832	-40.663	0.51224	-131.764
3470	0.51986	-132.115	0.82747	-40.941	0.82747	-40.941	0.51986	-132.115
3490	0.52831	-132.413	0.82767	-41.506	0.82767	-41.506	0.52831	-132.413
3510	0.53353	-132.739	0.82185	-41.894	0.82185	-41.894	0.53353	-132.739
3530	0.53549	-133.106	0.81257	-42.078	0.81257	-42.078	0.53549	-133.106
3550	0.53821	-133.456	0.81197	-42.47	0.81197	-42.47	0.53821	-133.456
3570	0.54156	-134.467	0.80811	-43.211	0.80811	-43.211	0.54156	-134.467
3590	0.54269	-135.417	0.80158	-43.768	0.80158	-43.768	0.54269	-135.417
3610	0.54877	-136.28	0.79638	-44.196	0.79638	-44.196	0.54877	-136.28
3630	0.55955	-137.1	0.79308	-44.6	0.79308	-44.6	0.55955	-137.1
3650	0.56742	-137.984	0.78887	-45.136	0.78887	-45.136	0.56742	-137.984
3670	0.5736	-137.875	0.78604	-45.207	0.78604	-45.207	0.5736	-137.875
3690	0.57966	-138.05	0.78575	-45.472	0.78575	-45.472	0.57966	-138.05
3710	0.58385	-138.413	0.78065	-46.004	0.78065	-46.004	0.58385	-138.413
3730	0.58682	-138.873	0.77175	-46.66	0.77175	-46.66	0.58682	-138.873
3750	0.59163	-139.338	0.76842	-47.083	0.76842	-47.083	0.59163	-139.338
3770	0.59426	-140.559	0.76174	-47.589	0.76174	-47.589	0.59426	-140.559
3790	0.59908	-141.567	0.75472	-48.023	0.75472	-48.023	0.59908	-141.567
3810	0.60549	-142.393	0.74985	-48.422	0.74985	-48.422	0.60549	-142.393
3830	0.61363	-143.139	0.74541	-48.858	0.74541	-48.858	0.61363	-143.139
3850	0.62431	-143.974	0.7355	-49.432	0.7355	-49.432	0.62431	-143.974
3870	0.63098	-144.273	0.73466	-49.659	0.73466	-49.659	0.63098	-144.273
3890	0.63746	-144.997	0.72833	-50.167	0.72833	-50.167	0.63746	-144.997
3910	0.63962	-145.681	0.7199	-50.608	0.7199	-50.608	0.63962	-145.681
3930	0.63982	-146.234	0.71158	-50.881	0.71158	-50.881	0.63982	-146.234
3950	0.64702	-146.946	0.70442	-51.129	0.70442	-51.129	0.64702	-146.946
3970	0.65303	-148.29	0.69517	-51.738	0.69517	-51.738	0.65303	-148.29
3990	0.65667	-149.581	0.68183	-52.257	0.68183	-52.257	0.65667	-149.581
4010	0.66095	-150.597	0.6703	-52.533	0.6703	-52.533	0.66095	-150.597
4030	0.6665	-151.419	0.66119	-52.619	0.66119	-52.619	0.6665	-151.419
4050	0.67152	-152.431	0.64974	-52.771	0.64974	-52.771	0.67152	-152.431
4070	0.67158	-153.541	0.63354	-53.181	0.63354	-53.181	0.67158	-153.541
4090	0.66782	-154.982	0.61688	-53.162	0.61688	-53.162	0.66782	-154.982
4110	0.66318	-156.506	0.6025	-52.887	0.6025	-52.887	0.66318	-156.506
4130	0.65744	-158.132	0.58842	-52.323	0.58842	-52.323	0.65744	-158.132
4150	0.6472	-160.154	0.56796	-51.226	0.56796	-51.226	0.6472	-160.154
4170	0.6334	-162.345	0.55456	-49.787	0.55456	-49.787	0.6334	-162.345
4190	0.61778	-163.884	0.54588	-47.35	0.54588	-47.35	0.61778	-163.884
4210	0.5948	-165.056	0.5433	-44.77	0.5433	-44.77	0.5948	-165.056
4230	0.56417	-165.681	0.54781	-42.251	0.54781	-42.251	0.56417	-165.681
4250	0.53081	-165.105	0.55999	-39.345	0.55999	-39.345	0.53081	-165.105
4270	0.50454	-163.232	0.58854	-38.073	0.58854	-38.073	0.50454	-163.232
4290	0.48589	-160.24	0.6166	-37.714	0.6166	-37.714	0.48589	-160.24
4310	0.47764	-156.625	0.64348	-37.962	0.64348	-37.962	0.47764	-156.625
4330	0.47979	-153.134	0.66735	-38.811	0.66735	-38.811	0.47979	-153.134
4350	0.48955	-150.763	0.68519	-40.555	0.68519	-40.555	0.48955	-150.763
4370	0.50704	-149.41	0.69383	-42.106	0.69383	-42.106	0.50704	-149.41
4390	0.52656	-148.266	0.70279	-43.587	0.70279	-43.587	0.52656	-148.266
4410	0.5457	-147.621	0.70778	-45.024	0.70778	-45.024	0.5457	-147.621
4430	0.56307	-147.273	0.70845	-46.303	0.70845	-46.303	0.56307	-147.273
4450	0.57828	-146.531	0.70839	-47.165	0.70839	-47.165	0.57828	-146.531
4470	0.5919	-147.036	0.70316	-48.599	0.70316	-48.599	0.5919	-147.036
4490	0.60342	-147.526	0.69794	-49.63	0.69794	-49.63	0.60342	-147.526
4510	0.61606	-147.84	0.69511	-50.378	0.69511	-50.378	0.61606	-147.84
4530	0.62972	-148.258	0.6938	-51.181	0.6938	-51.181	0.62972	-148.258
4550	0.64097	-149.5	0.68991	-52.59	0.68991	-52.59	0.64097	-149.5
4570	0.64712	-149.692	0.68067	-52.883	0.68067	-52.883	0.64712	-149.692
4590	0.66118	-150.004	0.67683	-53.514	0.67683	-53.514	0.66118	-150.004
4610	0.67358	-150.508	0.67221	-54.358	0.67221	-54.358	0.67358	-150.508
4630	0.68078	-150.973	0.66507	-55.081	0.66507	-55.081	0.68078	-150.973
4650	0.68525	-150.863	0.65808	-55.138	0.65808	-55.138	0.68525	-150.863
4670	0.69344	-151.323	0.65478	-56.03	0.65478	-56.03	0.69344	-151.323
4690	0.69893	-152.099	0.64979	-56.717	0.64979	-56.717	0.69893	-152.099
4710	0.70333	-152.708	0.64362	-57.37	0.64362	-57.37	0.70333	-152.708
4730	0.70797	-153.18	0.63657	-57.994	0.63657	-57.994	0.70797	-153.18
4750	0.714	-154.058	0.62873	-58.424	0.62873	-58.424	0.714	-154.058
4770	0.72665	-154.328	0.62425	-58.836	0.62425	-58.836	0.72665	-154.328
4790	0.73025	-155.121	0.61629	-59.491	0.61629	-59.491	0.73025	-155.121
4810	0.7343	-155.592	0.60764	-60.064	0.60764	-60.064	0.7343	-155.592
4830	0.74197	-155.676	0.60045	-60.426	0.60045	-60.426	0.74197	-155.676
4850	0.7501	-156.09	0.5962	-60.652	0.5962	-60.652	0.7501	-156.09
4870	0.74608	-156.823	0.58726	-61.391	0.58726	-61.391	0.74608	-156.823
4890	0.74867	-157.514	0.57866	-61.771	0.57866	-61.771	0.74867	-157.514
4910	0.75646	-158.259	0.57303	-62.298	0.57303	-62.298	0.75646	-158.259
4930	0.76487	-159.017	0.56801	-62.991	0.56801	-62.991	0.76487	-159.017
4950	0.76615	-159.615	0.55622	-63.386	0.55622	-63.386	0.76615	-159.615
4970	0.77508	-159.773	0.55167	-63.492	0.55167	-63.492	0.77508	-159.773
4990	0.7846	-160.283	0.54634	-64.136	0.54634	-64.136	0.7846	-160.283
5010	0.78411	-160.711	0.53564	-64.539	0.53564	-64.539	0.78411	-160.711
5030	0.77768	-160.899	0.52342	-64.532	0.52342	-64.532	0.77768	-160.899
5050	0.78407	-160.968	0.52199	-64.556	0.52199	-64.556	0.78407	-160.968
5070	0.78863	-162.531	0.51568	-65.657	0.51568	-65.657	0.78863	-162.531
5090	0.79105	-163.313	0.5023	-65.823	0.5023	-65.823	0.79105	-163.313
5110	0.79727	-163.85	0.49295	-65.89	0.49295	-65.89	0.79727	-163.85
5130	0.80791	-164.499	0.48892	-66.278	0.48892	-66.278	0.80791	-164.499
5150	0.81824	-165.432	0.48175	-66.985	0.48175	-66.985	0.81824	-165.432
5170	0.81826	-165.687	0.46862	-67.268	0.46862	-67.268	0.81826	-165.687
5190	0.81782	-165.718	0.4575	-67.231	0.4575	-67.231	0.81782	-165.718
5210	0.82259	-166.017	0.45115	-67.269	0.45115	-67.269	0.82259	-166.017
5230	0.82747	-166.831	0.44581	-67.537	0.44581	-67.537	0.82747	-166.831
5250	0.81654	-168.168	0.43115	-67.956	0.43115	-67.956	0.81654	-168.168
5270	0.81388	-168.379	0.41783	-67.674	0.41783	-67.674	0.81388	-168.379
5290	0.8251	-169.091	0.41122	-67.389	0.41122	-67.389	0.8251	-169.091
5310	0.83146	-170.187	0.40138	-67.289	0.40138	-67.289	0.83146	-170.187
5330	0.82782	-171.164	0.38698	-67.015	0.38698	-67.015	0.82782	-171.164
5350	0.82257	-171.135	0.37526	-65.66	0.37526	-65.66	0.82257	-171.135
5370	0.82498	-171.762	0.36576	-64.972	0.36576	-64.972	0.82498	-171.762
5390	0.81865	-172.728	0.35335	-64.015	0.35335	-64.015	0.81865	-172.728
5410	0.80849	-173.652	0.34216	-62.412	0.34216	-62.412	0.80849	-173.652
5430	0.79709	-174.493	0.33349	-60.209	0.33349	-60.209	0.79709	-174.493
5450	0.78465	-175.552	0.32586	-57.876	0.32586	-57.876	0.78465	-175.552
5470	0.77075	-176.392	0.32132	-54.831	0.32132	-54.831	0.77075	-176.392
5490	0.75828	-177.109	0.32202	-51.812	0.32202	-51.812	0.75828	-177.109
5510	0.74163	-177.471	0.32732	-48.729	0.32732	-48.729	0.74163	-177.471
5530	0.7196	-177.287	0.33697	-45.799	0.33697	-45.799	0.7196	-177.287
5550	0.69537	-176.402	0.35118	-43.553	0.35118	-43.553	0.69537	-176.402
5570	0.67671	-175.559	0.375	-42.616	0.375	-42.616	0.67671	-175.559
5590	0.66046	-173.934	0.39502	-42.663	0.39502	-42.663	0.66046	-173.934
5610	0.65033	-171.854	0.41256	-43.517	0.41256	-43.517	0.65033	-171.854
5630	0.64931	-169.623	0.42874	-44.839	0.42874	-44.839	0.64931	-169.623
5650	0.65971	-167.524	0.44455	-46.124	0.44455	-46.124	0.65971	-167.524
5670	0.67444	-166.104	0.45393	-48.732	0.45393	-48.732	0.67444	-166.104
5690	0.68863	-165.03	0.45823	-50.855	0.45823	-50.855	0.68863	-165.03
5710	0.70383	-164.084	0.4582	-52.889	0.4582	-52.889	0.70383	-164.084
5730	0.7201	-163.442	0.45555	-54.839	0.45555	-54.839	0.7201	-163.442
5750	0.73601	-163.673	0.45286	-56.312	0.45286	-56.312	0.73601	-163.673
5770	0.75133	-163.27	0.45005	-58.104	0.45005	-58.104	0.75133	-163.27
5790	0.76216	-163.344	0.44292	-59.169	0.44292	-59.169	0.76216	-163.344
5810	0.77371	-163.665	0.43619	-60.368	0.43619	-60.368	0.77371	-163.665
