# MHZ S MA R 50

      50  0.07   79.80    0.99   -2.40    0.99   -2.40    0.07   79.80
     100  0.14   77.30    0.98   -6.60    0.98   -6.60    0.14   77.30
     150  0.21   74.80    0.96   -10.90   0.96   -10.90   0.21   74.80
     200  0.27   71.00    0.95   -14.60   0.95   -14.60   0.27   71.00
     250  0.33   67.20    0.93   -18.40   0.93   -18.40   0.33   67.20
     300  0.39   64.00    0.90   -22.20   0.90   -22.20   0.39   64.00
     350  0.44   60.70    0.88   -26.00   0.88   -26.00   0.44   60.70
     400  0.49   57.10    0.85   -29.50   0.85   -29.50   0.49   57.10
     450  0.54   53.50    0.82   -33.00   0.82   -33.00   0.54   53.50
     500  0.60   49.80    0.77   -37.80   0.77   -37.80   0.60   49.80
     550  0.66   46.10    0.73   -42.70   0.73   -42.70   0.66   46.10
     600  0.70   43.30    0.69   -45.80   0.69   -45.80   0.70   43.30
     650  0.74   40.40    0.66   -49.00   0.66   -49.00   0.74   40.40
     700  0.76   37.60    0.62   -51.60   0.62   -51.60   0.76   37.60
     750  0.79   34.90    0.59   -54.20   0.59   -54.20   0.79   34.90
     800  0.81   32.00    0.55   -56.90   0.55   -56.90   0.81   32.00
     850  0.84   29.10    0.52   -59.60   0.52   -59.60   0.84   29.10
     900  0.86   27.00    0.48   -61.60   0.48   -61.60   0.86   27.00
     950  0.88   24.80    0.45   -63.60   0.45   -63.60   0.88   24.80
    1000  0.90   22.90    0.42   -66.00   0.42   -66.00   0.90   22.90
    1050  0.91   21.10    0.39   -68.30   0.39   -68.30   0.91   21.10
    1100  0.92   18.90    0.36   -70.20   0.36   -70.20   0.92   18.90
    1150  0.93   16.70    0.33   -72.20   0.33   -72.20   0.93   16.70
    1200  0.94   15.20    0.30   -73.90   0.30   -73.90   0.94   15.20
    1250  0.96   13.70    0.27   -75.60   0.27   -75.60   0.96   13.70
    1300  0.96   11.50    0.24   -77.30   0.24   -77.30   0.96   11.50
    1350  0.96    9.30    0.22   -79.10   0.22   -79.10   0.96    9.30
    1400  0.97    7.80    0.19   -80.30   0.19   -80.30   0.97    7.80
    1450  0.98    6.40    0.16   -81.60   0.16   -81.60   0.98    6.40
    1500  0.98    4.50    0.14   -82.80   0.14   -82.80   0.98    4.50
    1550  0.99    2.70    0.11   -84.10   0.11   -84.10   0.99    2.70
    1600  0.99    1.20    0.09   -84.50   0.09   -84.50   0.99    1.20
    1650  1.00   -0.30    0.06   -85.00   0.06   -85.00   1.00   -0.30
    1700  0.99   -1.50    0.04   -79.90   0.04   -79.90   0.99   -1.50
    1750  0.99   -2.70    0.02   -74.70   0.02   -74.70   0.99   -2.70
    1800  1.00   -4.20    0.02   -2.30    0.02   -2.30    1.00   -4.20
    1850  1.00   -5.80    0.03   70.20    0.03   70.20    1.00   -5.80
    1900  0.99   -7.30    0.05   73.30    0.05   73.30    0.99   -7.30
    1950  0.99   -8.70    0.07   76.40    0.07   76.40    0.99   -8.70
    2000  0.99   -10.00   0.09   76.00    0.09   76.00    0.99   -10.00
    2050  0.99   -11.30   0.11   75.70    0.11   75.70    0.99   -11.30
    2100  0.98   -12.40   0.13   74.90    0.13   74.90    0.98   -12.40
    2150  0.98   -13.40   0.15   74.20    0.15   74.20    0.98   -13.40
    2200  0.98   -15.00   0.17   73.20    0.17   73.20    0.98   -15.00
    2250  0.98   -16.50   0.18   72.20    0.18   72.20    0.98   -16.50
    2300  0.97   -17.40   0.20   71.30    0.20   71.30    0.97   -17.40
    2350  0.96   -18.20   0.22   70.30    0.22   70.30    0.96   -18.20
    2400  0.96   -19.40   0.24   69.10    0.24   69.10    0.96   -19.40
    2450  0.96   -20.50   0.25   67.90    0.25   67.90    0.96   -20.50
    2500  0.95   -22.00   0.27   66.80    0.27   66.80    0.95   -22.00
    2550  0.95   -23.40   0.29   65.80    0.29   65.80    0.95   -23.40
    2600  0.94   -24.20   0.30   64.90    0.30   64.90    0.94   -24.20
    2650  0.94   -25.00   0.32   64.00    0.32   64.00    0.94   -25.00
    2700  0.93   -26.20   0.34   62.80    0.34   62.80    0.93   -26.20
    2750  0.93   -27.50   0.35   61.50    0.35   61.50    0.93   -27.50
    2800  0.92   -28.40   0.37   60.60    0.37   60.60    0.92   -28.40
    2850  0.92   -29.30   0.38   59.70    0.38   59.70    0.92   -29.30
    2900  0.91   -30.60   0.40   58.60    0.40   58.60    0.91   -30.60
    2950  0.90   -31.80   0.41   57.40    0.41   57.40    0.90   -31.80
    3000  0.89   -32.80   0.42   56.50    0.42   56.50    0.89   -32.80
    3050  0.89   -33.80   0.44   55.60    0.44   55.60    0.89   -33.80
    3100  0.88   -34.50   0.45   54.90    0.45   54.90    0.88   -34.50
    3150  0.88   -35.20   0.46   54.20    0.46   54.20    0.88   -35.20
    3200  0.87   -36.50   0.47   53.10    0.47   53.10    0.87   -36.50
    3250  0.86   -37.70   0.49   52.00    0.49   52.00    0.86   -37.70
    3300  0.85   -38.40   0.50   51.10    0.50   51.10    0.85   -38.40
    3350  0.84   -39.10   0.51   50.30    0.51   50.30    0.84   -39.10
    3400  0.84   -40.20   0.52   49.50    0.52   49.50    0.84   -40.20
    3450  0.83   -41.30   0.53   48.80    0.53   48.80    0.83   -41.30
    3500  0.82   -42.40   0.54   47.80    0.54   47.80    0.82   -42.40
    3550  0.81   -43.60   0.56   46.80    0.56   46.80    0.81   -43.60
    3600  0.81   -44.30   0.56   46.00    0.56   46.00    0.81   -44.30
    3650  0.80   -45.10   0.57   45.20    0.57   45.20    0.80   -45.10
    3700  0.79   -46.20   0.58   44.40    0.58   44.40    0.79   -46.20
    3750  0.79   -47.30   0.60   43.60    0.60   43.60    0.79   -47.30
    3800  0.78   -48.20   0.60   42.80    0.60   42.80    0.78   -48.20
    3850  0.77   -49.00   0.61   41.90    0.61   41.90    0.77   -49.00
    3900  0.76   -50.30   0.62   41.10    0.62   41.10    0.76   -50.30
    3950  0.75   -51.50   0.63   40.40    0.63   40.40    0.75   -51.50
    4000  0.74   -52.30   0.64   39.70    0.64   39.70    0.74   -52.30
    4050  0.74   -53.00   0.64   38.90    0.64   38.90    0.74   -53.00
    4100  0.73   -54.00   0.65   38.20    0.65   38.20    0.73   -54.00
    4150  0.72   -54.90   0.66   37.50    0.66   37.50    0.72   -54.90
    4200  0.71   -55.90   0.67   36.80    0.67   36.80    0.71   -55.90
    4250  0.71   -56.80   0.68   36.20    0.68   36.20    0.71   -56.80
    4300  0.70   -57.80   0.69   35.50    0.69   35.50    0.70   -57.80
    4350  0.69   -58.80   0.69   34.80    0.69   34.80    0.69   -58.80
    4400  0.68   -60.00   0.70   33.70    0.70   33.70    0.68   -60.00
    4450  0.68   -61.10   0.71   32.70    0.71   32.70    0.68   -61.10
    4500  0.67   -61.80   0.71   32.20    0.71   32.20    0.67   -61.80
    4550  0.66   -62.60   0.71   31.70    0.71   31.70    0.66   -62.60
    4600  0.65   -64.00   0.72   31.20    0.72   31.20    0.65   -64.00
    4650  0.65   -65.30   0.74   30.80    0.74   30.80    0.65   -65.30
    4700  0.64   -66.20   0.74   30.00    0.74   30.00    0.64   -66.20
    4750  0.63   -67.00   0.75   29.20    0.75   29.20    0.63   -67.00
    4800  0.62   -68.00   0.75   28.40    0.75   28.40    0.62   -68.00
    4850  0.61   -68.90   0.76   27.60    0.76   27.60    0.61   -68.90
    4900  0.61   -69.60   0.77   27.00    0.77   27.00    0.61   -69.60
    4950  0.60   -70.20   0.77   26.40    0.77   26.40    0.60   -70.20
    5000  0.59   -71.40   0.78   25.60    0.78   25.60    0.59   -71.40
    5050  0.58   -72.60   0.78   24.90    0.78   24.90    0.58   -72.60
    5100  0.57   -73.30   0.79   24.20    0.79   24.20    0.57   -73.30
    5150  0.56   -74.00   0.79   23.40    0.79   23.40    0.56   -74.00
    5200  0.55   -74.40   0.80   22.80    0.80   22.80    0.55   -74.40
    5250  0.55   -74.90   0.81   22.20    0.81   22.20    0.55   -74.90
    5300  0.54   -76.20   0.81   21.30    0.81   21.30    0.54   -76.20
    5350  0.54   -77.40   0.82   20.40    0.82   20.40    0.54   -77.40
    5400  0.53   -77.70   0.82   19.80    0.82   19.80    0.53   -77.70
    5450  0.52   -78.00   0.82   19.30    0.82   19.30    0.52   -78.00
    5500  0.51   -78.60   0.83   18.40    0.83   18.40    0.51   -78.60
    5550  0.50   -79.30   0.83   17.50    0.83   17.50    0.50   -79.30
    5600  0.49   -79.70   0.83   16.80    0.83   16.80    0.49   -79.70
    5650  0.48   -80.20   0.84   16.10    0.84   16.10    0.48   -80.20
    5700  0.47   -80.60   0.84   15.40    0.84   15.40    0.47   -80.60
    5750  0.47   -81.00   0.85   14.60    0.85   14.60    0.47   -81.00
    5800  0.45   -81.40   0.85   13.70    0.85   13.70    0.45   -81.40
    5850  0.44   -81.70   0.86   12.80    0.86   12.80    0.44   -81.70
    5900  0.43   -81.60   0.86   12.30    0.86   12.30    0.43   -81.60
    5950  0.43   -81.50   0.87   11.70    0.87   11.70    0.43   -81.50
    6000  0.41   -81.80   0.87   10.20    0.87   10.20    0.41   -81.80
    6050  0.40   -82.10   0.88    8.80    0.88    8.80    0.40   -82.10
    6100  0.39   -82.00   0.88    8.00    0.88    8.00    0.39   -82.00
    6150  0.38   -81.90   0.89    7.20    0.89    7.20    0.38   -81.90
    6200  0.36   -81.40   0.89    6.30    0.89    6.30    0.36   -81.40
    6250  0.35   -80.90   0.90    5.40    0.90    5.40    0.35   -80.90
    6300  0.34   -80.40   0.90    4.50    0.90    4.50    0.34   -80.40
    6350  0.32   -80.00   0.90    3.60    0.90    3.60    0.32   -80.00
    6400  0.31   -78.90   0.90    2.50    0.90    2.50    0.31   -78.90
    6450  0.30   -77.80   0.91    1.40    0.91    1.40    0.30   -77.80
    6500  0.28   -76.30   0.91    0.20    0.91    0.20    0.28   -76.30
    6550  0.26   -74.80   0.91   -1.00    0.91   -1.00    0.26   -74.80
    6600  0.25   -73.30   0.91   -2.00    0.91   -2.00    0.25   -73.30
    6650  0.24   -71.80   0.91   -3.10    0.91   -3.10    0.24   -71.80
    6700  0.22   -67.90   0.92   -4.50    0.92   -4.50    0.22   -67.90
    6750  0.21   -64.00   0.92   -5.80    0.92   -5.80    0.21   -64.00
    6800  0.19   -59.10   0.92   -7.40    0.92   -7.40    0.19   -59.10
    6850  0.18   -54.30   0.91   -8.90    0.91   -8.90    0.18   -54.30
    6900  0.16   -45.20   0.91   -10.80   0.91   -10.80   0.16   -45.20
    6950  0.15   -36.10   0.91   -12.70   0.91   -12.70   0.15   -36.10
    7000  0.16   -24.20   0.90   -14.90   0.90   -14.90   0.16   -24.20
    7050  0.16   -12.20   0.90   -17.00   0.90   -17.00   0.16   -12.20
    7100  0.18   -1.00    0.88   -19.80   0.88   -19.80   0.18   -1.00
    7150  0.21   10.30    0.87   -22.50   0.87   -22.50   0.21   10.30
    7200  0.25   15.20    0.84   -26.00   0.84   -26.00   0.25   15.20
    7250  0.30   20.00    0.82   -29.40   0.82   -29.40   0.30   20.00
    7300  0.37   20.10    0.77   -33.30   0.77   -33.30   0.37   20.10
    7350  0.44   20.10    0.72   -37.20   0.72   -37.20   0.44   20.10
    7400  0.51   16.50    0.65   -41.40   0.65   -41.40   0.51   16.50
    7450  0.59   12.80    0.57   -45.70   0.57   -45.70   0.59   12.80
    7500  0.66    7.20    0.47   -46.10   0.47   -46.10   0.66    7.20
    7550  0.73    1.60    0.37   -46.50   0.37   -46.50   0.73    1.60
    7600  0.76   -5.30    0.29   -33.10   0.29   -33.10   0.76   -5.30
    7650  0.80   -12.10   0.22   -19.60   0.22   -19.60   0.80   -12.10
    7700  0.80   -17.90   0.25   -0.10    0.25   -0.10    0.80   -17.90
    7750  0.81   -23.60   0.28   19.30    0.28   19.30    0.81   -23.60
    7800  0.80   -28.20   0.35   23.40    0.35   23.40    0.80   -28.20
    7850  0.78   -32.90   0.41   27.50    0.41   27.50    0.78   -32.90
    7900  0.76   -36.70   0.47   26.90    0.47   26.90    0.76   -36.70
    7950  0.74   -40.60   0.52   26.30    0.52   26.30    0.74   -40.60
    8000  0.71   -43.80   0.56   24.70    0.56   24.70    0.71   -43.80
    8050  0.69   -46.90   0.60   23.20    0.60   23.20    0.69   -46.90
    8100  0.66   -48.90   0.63   22.10    0.63   22.10    0.66   -48.90
    8150  0.64   -50.80   0.66   20.90    0.66   20.90    0.64   -50.80
    8200  0.62   -52.80   0.69   19.30    0.69   19.30    0.62   -52.80
    8250  0.60   -54.80   0.71   17.80    0.71   17.80    0.60   -54.80
    8300  0.58   -56.20   0.73   16.60    0.73   16.60    0.58   -56.20
    8350  0.56   -57.50   0.75   15.40    0.75   15.40    0.56   -57.50
    8400  0.54   -59.00   0.77   14.00    0.77   14.00    0.54   -59.00
    8450  0.53   -60.50   0.78   12.60    0.78   12.60    0.53   -60.50
    8500  0.51   -61.30   0.80   11.50    0.80   11.50    0.51   -61.30
    8550  0.49   -62.10   0.81   10.40    0.81   10.40    0.49   -62.10
    8600  0.48   -63.10   0.82    9.30    0.82    9.30    0.48   -63.10
    8650  0.46   -64.00   0.83    8.10    0.83    8.10    0.46   -64.00
    8700  0.44   -64.30   0.84    6.80    0.84    6.80    0.44   -64.30
    8750  0.43   -64.60   0.85    5.50    0.85    5.50    0.43   -64.60
    8800  0.42   -65.70   0.86    4.70    0.86    4.70    0.42   -65.70
    8850  0.41   -66.80   0.86    4.00    0.86    4.00    0.41   -66.80
    8900  0.39   -67.00   0.87    3.00    0.87    3.00    0.39   -67.00
    8950  0.38   -67.20   0.88    1.90    0.88    1.90    0.38   -67.20
    9000  0.37   -67.20   0.88    1.30    0.88    1.30    0.37   -67.20
    9050  0.35   -67.20   0.88    0.70    0.88    0.70    0.35   -67.20
    9100  0.34   -67.70   0.89   -0.20    0.89   -0.20    0.34   -67.70
    9150  0.33   -68.20   0.89   -1.10    0.89   -1.10    0.33   -68.20
    9200  0.31   -69.00   0.90   -1.70    0.90   -1.70    0.31   -69.00
    9250  0.30   -69.80   0.90   -2.30    0.90   -2.30    0.30   -69.80
    9300  0.29   -70.00   0.91   -3.10    0.91   -3.10    0.29   -70.00
    9350  0.27   -70.10   0.91   -3.80    0.91   -3.80    0.27   -70.10
    9400  0.26   -70.70   0.91   -4.30    0.91   -4.30    0.26   -70.70
    9450  0.25   -71.30   0.91   -4.70    0.91   -4.70    0.25   -71.30
    9500  0.24   -71.90   0.92   -5.60    0.92   -5.60    0.24   -71.90
    9550  0.23   -72.50   0.93   -6.50    0.93   -6.50    0.23   -72.50
    9600  0.22   -71.90   0.93   -7.30    0.93   -7.30    0.22   -71.90
    9650  0.21   -71.40   0.93   -8.00    0.93   -8.00    0.21   -71.40
    9700  0.20   -72.20   0.93   -8.60    0.93   -8.60    0.20   -72.20
    9750  0.19   -73.00   0.94   -9.30    0.94   -9.30    0.19   -73.00
    9800  0.17   -71.60   0.94   -9.90    0.94   -9.90    0.17   -71.60
    9850  0.17   -70.20   0.94   -10.60   0.94   -10.60   0.17   -70.20
    9900  0.16   -70.30   0.94   -11.30   0.94   -11.30   0.16   -70.30
    9950  0.15   -70.50   0.94   -11.90   0.94   -11.90   0.15   -70.50
   10000  0.14   -70.20   0.95   -12.40   0.95   -12.40   0.14   -70.20
   10050  0.13   -70.00   0.95   -12.90   0.95   -12.90   0.13   -70.00
   10100  0.12   -70.10   0.95   -13.60   0.95   -13.60   0.12   -70.10
   10150  0.12   -70.20   0.95   -14.30   0.95   -14.30   0.12   -70.20
   10200  0.11   -69.50   0.95   -14.90   0.95   -14.90   0.11   -69.50
   10250  0.10   -68.80   0.95   -15.40   0.95   -15.40   0.10   -68.80
   10300  0.10   -66.80   0.95   -16.20   0.95   -16.20   0.10   -66.80
   10350  0.10   -64.80   0.95   -16.90   0.95   -16.90   0.10   -64.80
   10400  0.09   -65.70   0.94   -17.70   0.94   -17.70   0.09   -65.70
   10450  0.09   -66.50   0.94   -18.40   0.94   -18.40   0.09   -66.50
   10500  0.09   -67.00   0.93   -18.50   0.93   -18.50   0.09   -67.00
   10550  0.08   -67.60   0.93   -18.70   0.93   -18.70   0.08   -67.60
   10600  0.06   -73.70   0.93   -18.60   0.93   -18.60   0.06   -73.70
   10650  0.05   -79.90   0.93   -18.60   0.93   -18.60   0.05   -79.90
   10700  0.04   -58.20   0.94   -19.20   0.94   -19.20   0.04   -58.20
   10750  0.03   -36.50   0.95   -19.70   0.95   -19.70   0.03   -36.50
   10800  0.03   -25.10   0.95   -20.40   0.95   -20.40   0.03   -25.10
   10850  0.04   -13.80   0.95   -21.10   0.95   -21.10   0.04   -13.80
   10900  0.04    0.10    0.96   -21.90   0.96   -21.90   0.04    0.10
   10950  0.05   14.00    0.96   -22.70   0.96   -22.70   0.05   14.00
   11000  0.05   16.00    0.96   -23.40   0.96   -23.40   0.05   16.00
   11050  0.06   18.00    0.96   -24.10   0.96   -24.10   0.06   18.00
   11100  0.06   21.70    0.96   -24.70   0.96   -24.70   0.06   21.70
   11150  0.07   25.50    0.96   -25.30   0.96   -25.30   0.07   25.50
   11200  0.08   25.00    0.96   -25.80   0.96   -25.80   0.08   25.00
   11250  0.08   24.50    0.96   -26.40   0.96   -26.40   0.08   24.50
   11300  0.09   24.20    0.96   -27.10   0.96   -27.10   0.09   24.20
   11350  0.09   23.90    0.96   -27.70   0.96   -27.70   0.09   23.90
   11400  0.10   23.30    0.95   -28.40   0.95   -28.40   0.10   23.30
   11450  0.11   22.80    0.95   -29.10   0.95   -29.10   0.11   22.80
   11500  0.12   20.80    0.95   -29.80   0.95   -29.80   0.12   20.80
   11550  0.13   18.80    0.95   -30.60   0.95   -30.60   0.13   18.80
   11600  0.14   20.00    0.95   -31.20   0.95   -31.20   0.14   20.00
   11650  0.15   21.10    0.95   -31.80   0.95   -31.80   0.15   21.10
   11700  0.16   19.80    0.94   -32.50   0.94   -32.50   0.16   19.80
   11750  0.17   18.50    0.94   -33.30   0.94   -33.30   0.17   18.50
   11800  0.17   19.60    0.94   -33.80   0.94   -33.80   0.17   19.60
   11850  0.18   20.60    0.94   -34.40   0.94   -34.40   0.18   20.60
   11900  0.19   19.40    0.94   -35.20   0.94   -35.20   0.19   19.40
   11950  0.19   18.30    0.93   -36.00   0.93   -36.00   0.19   18.30
   12000  0.20   19.50    0.93   -36.60   0.93   -36.60   0.20   19.50
   12050  0.21   20.70    0.93   -37.20   0.93   -37.20   0.21   20.70
   12100  0.21   19.70    0.92   -38.10   0.92   -38.10   0.21   19.70
   12150  0.22   18.70    0.92   -38.90   0.92   -38.90   0.22   18.70
   12200  0.22   19.20    0.91   -39.80   0.91   -39.80   0.22   19.20
   12250  0.23   19.70    0.91   -40.60   0.91   -40.60   0.23   19.70
   12300  0.24   20.40    0.90   -41.20   0.90   -41.20   0.24   20.40
   12350  0.25   21.10    0.90   -41.80   0.90   -41.80   0.25   21.10
   12400  0.25   21.30    0.89   -42.50   0.89   -42.50   0.25   21.30
   12450  0.26   21.50    0.88   -43.20   0.88   -43.20   0.26   21.50
   12500  0.28   22.00    0.87   -44.10   0.87   -44.10   0.28   22.00
   12550  0.29   22.50    0.87   -45.00   0.87   -45.00   0.29   22.50
   12600  0.30   22.40    0.86   -45.80   0.86   -45.80   0.30   22.40
   12650  0.32   22.30    0.85   -46.60   0.85   -46.60   0.32   22.30
   12700  0.33   21.60    0.84   -47.30   0.84   -47.30   0.33   21.60
   12750  0.35   20.90    0.84   -48.10   0.84   -48.10   0.35   20.90
   12800  0.36   20.90    0.83   -48.80   0.83   -48.80   0.36   20.90
   12850  0.38   20.80    0.81   -49.40   0.81   -49.40   0.38   20.80
   12900  0.40   20.20    0.81   -50.60   0.81   -50.60   0.40   20.20
   12950  0.41   19.50    0.80   -51.70   0.80   -51.70   0.41   19.50
   13000  0.43   18.30    0.79   -52.40   0.79   -52.40   0.43   18.30
   13050  0.44   17.20    0.77   -53.00   0.77   -53.00   0.44   17.20
   13100  0.46   16.10    0.76   -54.40   0.76   -54.40   0.46   16.10
   13150  0.48   15.00    0.75   -55.70   0.75   -55.70   0.48   15.00
   13200  0.50   13.80    0.73   -57.00   0.73   -57.00   0.50   13.80
   13250  0.53   12.50    0.71   -58.20   0.71   -58.20   0.53   12.50
   13300  0.54   11.00    0.69   -59.80   0.69   -59.80   0.54   11.00
   13350  0.56    9.50    0.67   -61.30   0.67   -61.30   0.56    9.50
   13400  0.59    7.50    0.64   -62.70   0.64   -62.70   0.59    7.50
   13450  0.62    5.50    0.62   -64.10   0.62   -64.10   0.62    5.50
   13500  0.63    3.10    0.58   -65.10   0.58   -65.10   0.63    3.10
   13550  0.64    0.60    0.54   -66.10   0.54   -66.10   0.64    0.60
   13600  0.67   -2.50    0.49   -66.30   0.49   -66.30   0.67   -2.50
   13650  0.69   -5.60    0.45   -66.40   0.45   -66.40   0.69   -5.60
   13700  0.70   -9.20    0.40   -62.90   0.40   -62.90   0.70   -9.20
   13750  0.71   -12.70   0.35   -59.30   0.35   -59.30   0.71   -12.70
   13800  0.71   -17.00   0.32   -50.30   0.32   -50.30   0.71   -17.00
   13850  0.71   -21.40   0.29   -41.30   0.29   -41.30   0.71   -21.40
   13900  0.69   -26.10   0.30   -29.90   0.30   -29.90   0.69   -26.10
   13950  0.68   -30.80   0.32   -18.40   0.32   -18.40   0.68   -30.80
