# MHZ S MA R 50

      50  0.44   60.70    0.87   -24.00   0.87   -24.00   0.44   60.70
      60  0.49   57.70    0.83   -27.20   0.83   -27.20   0.49   57.70
      70  0.52   54.60    0.80   -30.40   0.80   -30.40   0.52   54.60
      80  0.56   51.60    0.76   -33.60   0.76   -33.60   0.56   51.60
      90  0.60   48.50    0.72   -36.80   0.72   -36.80   0.60   48.50
     100  0.64   45.40    0.69   -40.00   0.69   -40.00   0.64   45.40
     110  0.68   42.40    0.65   -43.20   0.65   -43.20   0.68   42.40
     120  0.72   39.30    0.61   -46.40   0.61   -46.40   0.72   39.30
     130  0.76   36.30    0.58   -49.60   0.58   -49.60   0.76   36.30
     140  0.80   33.20    0.54   -52.80   0.54   -52.80   0.80   33.20
     150  0.84   30.20    0.50   -56.10   0.50   -56.10   0.84   30.20
     160  0.85   28.60    0.48   -57.60   0.48   -57.60   0.85   28.60
     170  0.87   27.00    0.46   -59.10   0.46   -59.10   0.87   27.00
     180  0.88   25.40    0.43   -60.60   0.43   -60.60   0.88   25.40
     190  0.89   23.80    0.41   -62.20   0.41   -62.20   0.89   23.80
     200  0.90   22.20    0.39   -63.70   0.39   -63.70   0.90   22.20
     210  0.92   20.70    0.36   -65.20   0.36   -65.20   0.92   20.70
     220  0.93   19.10    0.34   -66.70   0.34   -66.70   0.93   19.10
     230  0.94   17.50    0.32   -68.30   0.32   -68.30   0.94   17.50
     240  0.95   15.90    0.29   -69.80   0.29   -69.80   0.95   15.90
     250  0.96   14.30    0.27   -71.30   0.27   -71.30   0.96   14.30
     260  0.97   13.50    0.25   -72.10   0.25   -72.10   0.97   13.50
     270  0.97   12.60    0.24   -72.90   0.24   -72.90   0.97   12.60
     280  0.97   11.70    0.22   -73.60   0.22   -73.60   0.97   11.70
     290  0.97   10.80    0.21   -74.40   0.21   -74.40   0.97   10.80
     300  0.98   10.00    0.19   -75.20   0.19   -75.20   0.98   10.00
     310  0.98    9.10    0.17   -76.00   0.17   -76.00   0.98    9.10
     320  0.98    8.20    0.16   -76.70   0.16   -76.70   0.98    8.20
     330  0.98    7.40    0.14   -77.50   0.14   -77.50   0.98    7.40
     340  0.99    6.50    0.13   -78.30   0.13   -78.30   0.99    6.50
     350  0.99    5.60    0.11   -79.10   0.11   -79.10   0.99    5.60
     360  0.99    4.90    0.10   -68.30   0.10   -68.30   0.99    4.90
     370  0.99    4.10    0.09   -57.60   0.09   -57.60   0.99    4.10
     380  0.99    3.40    0.08   -46.80   0.08   -46.80   0.99    3.40
     390  0.99    2.70    0.07   -36.10   0.07   -36.10   0.99    2.70
     400  0.99    1.90    0.06   -25.40   0.06   -25.40   0.99    1.90
     410  0.99    1.20    0.05   -14.60   0.05   -14.60   0.99    1.20
     420  1.00    0.40    0.04   -3.90    0.04   -3.90    1.00    0.40
     430  1.00   -0.30    0.03    6.80    0.03    6.80    1.00   -0.30
     440  1.00   -1.10    0.02   17.60    0.02   17.60    1.00   -1.10
     450  1.00   -1.80    0.01   28.30    0.01   28.30    1.00   -1.80
     460  1.00   -2.20    0.01   33.60    0.01   33.60    1.00   -2.20
     470  0.99   -2.50    0.02   38.90    0.02   38.90    0.99   -2.50
     480  0.99   -2.90    0.03   44.20    0.03   44.20    0.99   -2.90
     490  0.99   -3.30    0.04   49.50    0.04   49.50    0.99   -3.30
     500  0.98   -3.60    0.05   54.80    0.05   54.80    0.98   -3.60
     510  0.98   -4.00    0.05   60.10    0.05   60.10    0.98   -4.00
     520  0.97   -4.30    0.06   65.40    0.06   65.40    0.97   -4.30
     530  0.97   -4.70    0.07   70.70    0.07   70.70    0.97   -4.70
     540  0.97   -5.10    0.08   76.00    0.08   76.00    0.97   -5.10
     550  0.96   -5.40    0.09   81.30    0.09   81.30    0.96   -5.40
     560  0.96   -5.90    0.09   81.00    0.09   81.00    0.96   -5.90
     570  0.97   -6.30    0.10   80.60    0.10   80.60    0.97   -6.30
     580  0.97   -6.80    0.11   80.20    0.11   80.20    0.97   -6.80
     590  0.97   -7.30    0.12   79.80    0.12   79.80    0.97   -7.30
     600  0.97   -7.70    0.12   79.50    0.12   79.50    0.97   -7.70
     610  0.97   -8.20    0.13   79.10    0.13   79.10    0.97   -8.20
     620  0.97   -8.70    0.14   78.70    0.14   78.70    0.97   -8.70
     630  0.97   -9.10    0.14   78.30    0.14   78.30    0.97   -9.10
     640  0.97   -9.60    0.15   78.00    0.15   78.00    0.97   -9.60
     650  0.97   -10.10   0.16   77.60    0.16   77.60    0.97   -10.10
     660  0.97   -10.50   0.17   77.20    0.17   77.20    0.97   -10.50
     670  0.97   -11.00   0.17   76.90    0.17   76.90    0.97   -11.00
     680  0.97   -11.40   0.18   76.60    0.18   76.60    0.97   -11.40
     690  0.96   -11.80   0.19   76.20    0.19   76.20    0.96   -11.80
     700  0.96   -12.30   0.19   75.90    0.19   75.90    0.96   -12.30
     710  0.96   -12.70   0.20   75.50    0.20   75.50    0.96   -12.70
     720  0.96   -13.10   0.21   75.20    0.21   75.20    0.96   -13.10
     730  0.95   -13.60   0.21   74.80    0.21   74.80    0.95   -13.60
     740  0.95   -14.00   0.22   74.50    0.22   74.50    0.95   -14.00
     750  0.95   -14.50   0.23   74.20    0.23   74.20    0.95   -14.50
     760  0.95   -14.90   0.23   73.80    0.23   73.80    0.95   -14.90
     770  0.95   -15.30   0.24   73.40    0.24   73.40    0.95   -15.30
     780  0.95   -15.70   0.24   73.10    0.24   73.10    0.95   -15.70
     790  0.95   -16.10   0.25   72.70    0.25   72.70    0.95   -16.10
     800  0.95   -16.50   0.25   72.30    0.25   72.30    0.95   -16.50
     810  0.94   -16.90   0.26   72.00    0.26   72.00    0.94   -16.90
     820  0.94   -17.30   0.27   71.60    0.27   71.60    0.94   -17.30
     830  0.94   -17.70   0.27   71.20    0.27   71.20    0.94   -17.70
     840  0.94   -18.10   0.28   70.90    0.28   70.90    0.94   -18.10
     850  0.94   -18.60   0.28   70.50    0.28   70.50    0.94   -18.60
     860  0.94   -18.90   0.29   70.20    0.29   70.20    0.94   -18.90
     870  0.94   -19.20   0.29   69.90    0.29   69.90    0.94   -19.20
     880  0.94   -19.60   0.30   69.60    0.30   69.60    0.94   -19.60
     890  0.94   -19.90   0.31   69.20    0.31   69.20    0.94   -19.90
     900  0.94   -20.30   0.31   68.90    0.31   68.90    0.94   -20.30
     910  0.94   -20.60   0.32   68.60    0.32   68.60    0.94   -20.60
     920  0.94   -21.00   0.32   68.30    0.32   68.30    0.94   -21.00
     930  0.94   -21.30   0.33   68.00    0.33   68.00    0.94   -21.30
     940  0.94   -21.60   0.33   67.70    0.33   67.70    0.94   -21.60
     950  0.94   -22.00   0.34   67.40    0.34   67.40    0.94   -22.00
     960  0.93   -22.20   0.34   67.00    0.34   67.00    0.93   -22.20
     970  0.93   -22.50   0.35   66.70    0.35   66.70    0.93   -22.50
     980  0.93   -22.70   0.35   66.30    0.35   66.30    0.93   -22.70
     990  0.93   -23.00   0.36   66.00    0.36   66.00    0.93   -23.00
    1000  0.93   -23.20   0.36   65.60    0.36   65.60    0.93   -23.20
    1010  0.92   -23.50   0.37   65.30    0.37   65.30    0.92   -23.50
    1020  0.92   -23.70   0.37   64.90    0.37   64.90    0.92   -23.70
    1030  0.92   -24.00   0.38   64.60    0.38   64.60    0.92   -24.00
    1040  0.92   -24.20   0.38   64.20    0.38   64.20    0.92   -24.20
    1050  0.92   -24.40   0.39   63.90    0.39   63.90    0.92   -24.40
    1060  0.91   -24.80   0.39   63.50    0.39   63.50    0.91   -24.80
    1070  0.91   -25.20   0.40   63.20    0.40   63.20    0.91   -25.20
    1080  0.90   -25.60   0.40   62.90    0.40   62.90    0.90   -25.60
    1090  0.90   -26.00   0.41   62.50    0.41   62.50    0.90   -26.00
    1100  0.90   -26.40   0.41   62.20    0.41   62.20    0.90   -26.40
    1110  0.89   -26.80   0.42   61.90    0.42   61.90    0.89   -26.80
    1120  0.89   -27.20   0.42   61.50    0.42   61.50    0.89   -27.20
    1130  0.89   -27.50   0.43   61.20    0.43   61.20    0.89   -27.50
    1140  0.88   -27.90   0.43   60.80    0.43   60.80    0.88   -27.90
    1150  0.88   -28.30   0.44   60.50    0.44   60.50    0.88   -28.30
    1160  0.88   -28.60   0.44   60.10    0.44   60.10    0.88   -28.60
    1170  0.88   -28.90   0.45   59.80    0.45   59.80    0.88   -28.90
    1180  0.87   -29.20   0.45   59.40    0.45   59.40    0.87   -29.20
    1190  0.87   -29.50   0.46   59.10    0.46   59.10    0.87   -29.50
    1200  0.87   -29.70   0.46   58.70    0.46   58.70    0.87   -29.70
    1210  0.87   -30.00   0.46   58.40    0.46   58.40    0.87   -30.00
    1220  0.87   -30.30   0.47   58.00    0.47   58.00    0.87   -30.30
    1230  0.87   -30.60   0.47   57.60    0.47   57.60    0.87   -30.60
    1240  0.87   -30.90   0.48   57.30    0.48   57.30    0.87   -30.90
    1250  0.86   -31.20   0.48   56.90    0.48   56.90    0.86   -31.20
    1260  0.86   -31.50   0.49   56.60    0.49   56.60    0.86   -31.50
    1270  0.86   -31.80   0.49   56.30    0.49   56.30    0.86   -31.80
    1280  0.85   -32.20   0.50   56.10    0.50   56.10    0.85   -32.20
    1290  0.85   -32.50   0.50   55.80    0.50   55.80    0.85   -32.50
    1300  0.85   -32.90   0.50   55.50    0.50   55.50    0.85   -32.90
    1310  0.84   -33.20   0.51   55.20    0.51   55.20    0.84   -33.20
    1320  0.84   -33.60   0.51   54.90    0.51   54.90    0.84   -33.60
    1330  0.84   -33.90   0.51   54.60    0.51   54.60    0.84   -33.90
    1340  0.83   -34.20   0.52   54.30    0.52   54.30    0.83   -34.20
    1350  0.83   -34.60   0.52   54.00    0.52   54.00    0.83   -34.60
    1360  0.83   -34.90   0.53   53.70    0.53   53.70    0.83   -34.90
    1370  0.83   -35.20   0.53   53.40    0.53   53.40    0.83   -35.20
    1380  0.83   -35.40   0.54   53.20    0.54   53.20    0.83   -35.40
    1390  0.82   -35.70   0.54   52.90    0.54   52.90    0.82   -35.70
    1400  0.82   -36.00   0.54   52.60    0.54   52.60    0.82   -36.00
    1410  0.82   -36.30   0.55   52.30    0.55   52.30    0.82   -36.30
    1420  0.82   -36.60   0.55   52.00    0.55   52.00    0.82   -36.60
    1430  0.82   -36.90   0.56   51.70    0.56   51.70    0.82   -36.90
    1440  0.82   -37.10   0.56   51.40    0.56   51.40    0.82   -37.10
    1450  0.82   -37.40   0.56   51.10    0.56   51.10    0.82   -37.40
    1460  0.81   -37.80   0.57   50.80    0.57   50.80    0.81   -37.80
    1470  0.81   -38.10   0.57   50.40    0.57   50.40    0.81   -38.10
    1480  0.81   -38.50   0.58   50.10    0.58   50.10    0.81   -38.50
    1490  0.80   -38.80   0.58   49.80    0.58   49.80    0.80   -38.80
    1500  0.80   -39.10   0.58   49.40    0.58   49.40    0.80   -39.10
    1510  0.79   -39.50   0.59   49.10    0.59   49.10    0.79   -39.50
    1520  0.79   -39.80   0.59   48.80    0.59   48.80    0.79   -39.80
    1530  0.79   -40.20   0.60   48.40    0.60   48.40    0.79   -40.20
    1540  0.78   -40.50   0.60   48.10    0.60   48.10    0.78   -40.50
    1550  0.78   -40.90   0.60   47.80    0.60   47.80    0.78   -40.90
    1560  0.78   -41.20   0.61   47.40    0.61   47.40    0.78   -41.20
    1570  0.77   -41.50   0.61   47.10    0.61   47.10    0.77   -41.50
    1580  0.77   -41.80   0.62   46.70    0.62   46.70    0.77   -41.80
    1590  0.77   -42.10   0.62   46.40    0.62   46.40    0.77   -42.10
    1600  0.76   -42.40   0.62   46.00    0.62   46.00    0.76   -42.40
    1610  0.76   -42.70   0.63   45.60    0.63   45.60    0.76   -42.70
    1620  0.76   -43.00   0.63   45.30    0.63   45.30    0.76   -43.00
    1630  0.75   -43.30   0.63   44.90    0.63   44.90    0.75   -43.30
    1640  0.75   -43.60   0.64   44.60    0.64   44.60    0.75   -43.60
    1650  0.75   -43.90   0.64   44.20    0.64   44.20    0.75   -43.90
    1660  0.74   -44.20   0.65   43.90    0.65   43.90    0.74   -44.20
    1670  0.74   -44.60   0.65   43.60    0.65   43.60    0.74   -44.60
    1680  0.74   -44.90   0.66   43.20    0.66   43.20    0.74   -44.90
    1690  0.73   -45.20   0.66   42.90    0.66   42.90    0.73   -45.20
    1700  0.73   -45.50   0.67   42.60    0.67   42.60    0.73   -45.50
    1710  0.72   -45.80   0.67   42.20    0.67   42.20    0.72   -45.80
    1720  0.72   -46.10   0.67   41.90    0.67   41.90    0.72   -46.10
    1730  0.71   -46.40   0.68   41.60    0.68   41.60    0.71   -46.40
    1740  0.71   -46.70   0.68   41.30    0.68   41.30    0.71   -46.70
    1750  0.70   -47.00   0.69   40.90    0.69   40.90    0.70   -47.00
    1760  0.70   -47.40   0.69   40.50    0.69   40.50    0.70   -47.40
    1770  0.69   -47.80   0.69   40.00    0.69   40.00    0.69   -47.80
    1780  0.69   -48.20   0.70   39.50    0.70   39.50    0.69   -48.20
    1790  0.68   -48.60   0.70   39.10    0.70   39.10    0.68   -48.60
    1800  0.68   -49.00   0.71   38.60    0.71   38.60    0.68   -49.00
    1810  0.68   -49.40   0.71   38.10    0.71   38.10    0.68   -49.40
    1820  0.67   -49.80   0.71   37.70    0.71   37.70    0.67   -49.80
    1830  0.67   -50.20   0.72   37.20    0.72   37.20    0.67   -50.20
    1840  0.66   -50.60   0.72   36.70    0.72   36.70    0.66   -50.60
    1850  0.66   -51.00   0.73   36.20    0.73   36.20    0.66   -51.00
    1860  0.65   -51.50   0.73   35.70    0.73   35.70    0.65   -51.50
    1870  0.64   -51.90   0.74   35.20    0.74   35.20    0.64   -51.90
    1880  0.63   -52.40   0.74   34.60    0.74   34.60    0.63   -52.40
    1890  0.63   -52.80   0.75   34.10    0.75   34.10    0.63   -52.80
    1900  0.62   -53.20   0.75   33.50    0.75   33.50    0.62   -53.20
    1910  0.61   -53.70   0.75   33.00    0.75   33.00    0.61   -53.70
    1920  0.60   -54.10   0.76   32.40    0.76   32.40    0.60   -54.10
    1930  0.59   -54.60   0.76   31.90    0.76   31.90    0.59   -54.60
    1940  0.59   -55.00   0.77   31.30    0.77   31.30    0.59   -55.00
    1950  0.58   -55.50   0.77   30.80    0.77   30.80    0.58   -55.50
    1960  0.56   -55.80   0.78   29.80    0.78   29.80    0.56   -55.80
    1970  0.55   -56.10   0.78   28.90    0.78   28.90    0.55   -56.10
    1980  0.54   -56.50   0.79   27.90    0.79   27.90    0.54   -56.50
    1990  0.53   -56.80   0.79   27.00    0.79   27.00    0.53   -56.80
    2000  0.51   -57.10   0.80   26.00    0.80   26.00    0.51   -57.10
    2010  0.50   -57.50   0.80   25.10    0.80   25.10    0.50   -57.50
    2020  0.49   -57.80   0.81   24.10    0.81   24.10    0.49   -57.80
    2030  0.47   -58.10   0.81   23.20    0.81   23.20    0.47   -58.10
    2040  0.46   -58.50   0.81   22.20    0.81   22.20    0.46   -58.50
    2050  0.45   -58.80   0.82   21.30    0.82   21.30    0.45   -58.80
    2060  0.43   -55.00   0.81   19.10    0.81   19.10    0.43   -55.00
    2070  0.41   -51.20   0.81   17.00    0.81   17.00    0.41   -51.20
    2080  0.39   -47.40   0.81   14.80    0.81   14.80    0.39   -47.40
    2090  0.37   -43.60   0.80   12.70    0.80   12.70    0.37   -43.60
    2100  0.35   -39.80   0.80   10.50    0.80   10.50    0.35   -39.80
    2110  0.33   -35.90   0.79    8.30    0.79    8.30    0.33   -35.90
    2120  0.31   -32.10   0.79    6.20    0.79    6.20    0.31   -32.10
    2130  0.28   -28.30   0.78    4.00    0.78    4.00    0.28   -28.30
    2140  0.26   -24.50   0.78    1.80    0.78    1.80    0.26   -24.50
    2150  0.24   -20.70   0.77   -0.30    0.77   -0.30    0.24   -20.70
    2160  0.29   -19.60   0.72    0.10    0.72    0.10    0.29   -19.60
    2170  0.34   -18.50   0.67    0.50    0.67    0.50    0.34   -18.50
    2180  0.39   -17.50   0.62    0.90    0.62    0.90    0.39   -17.50
    2190  0.44   -16.40   0.57    1.30    0.57    1.30    0.44   -16.40
    2200  0.49   -15.30   0.52    1.70    0.52    1.70    0.49   -15.30
    2210  0.54   -14.20   0.47    2.10    0.47    2.10    0.54   -14.20
    2220  0.59   -13.20   0.42    2.50    0.42    2.50    0.59   -13.20
    2230  0.64   -12.10   0.37    2.90    0.37    2.90    0.64   -12.10
    2240  0.69   -11.00   0.32    3.30    0.32    3.30    0.69   -11.00
    2250  0.74   -9.90    0.27    3.70    0.27    3.70    0.74   -9.90
    2260  0.74   -12.30   0.29    7.90    0.29    7.90    0.74   -12.30
    2270  0.75   -14.60   0.31   12.20    0.31   12.20    0.75   -14.60
    2280  0.75   -17.00   0.33   16.40    0.33   16.40    0.75   -17.00
    2290  0.76   -19.30   0.35   20.60    0.35   20.60    0.76   -19.30
    2300  0.76   -21.70   0.37   24.90    0.37   24.90    0.76   -21.70
    2310  0.77   -24.00   0.39   29.10    0.39   29.10    0.77   -24.00
    2320  0.78   -26.40   0.41   33.30    0.41   33.30    0.78   -26.40
    2330  0.78   -28.70   0.43   37.50    0.43   37.50    0.78   -28.70
    2340  0.79   -31.00   0.45   41.80    0.45   41.80    0.79   -31.00
    2350  0.79   -33.40   0.47   46.00    0.47   46.00    0.79   -33.40
    2360  0.79   -34.40   0.48   45.60    0.48   45.60    0.79   -34.40
    2370  0.78   -35.40   0.50   45.30    0.50   45.30    0.78   -35.40
    2380  0.78   -36.40   0.51   44.90    0.51   44.90    0.78   -36.40
    2390  0.77   -37.40   0.52   44.50    0.52   44.50    0.77   -37.40
    2400  0.77   -38.40   0.54   44.10    0.54   44.10    0.77   -38.40
    2410  0.76   -39.50   0.55   43.70    0.55   43.70    0.76   -39.50
    2420  0.76   -40.50   0.56   43.40    0.56   43.40    0.76   -40.50
    2430  0.75   -41.50   0.58   43.00    0.58   43.00    0.75   -41.50
    2440  0.75   -42.50   0.59   42.60    0.59   42.60    0.75   -42.50
    2450  0.75   -43.50   0.60   42.20    0.60   42.20    0.75   -43.50
    2460  0.74   -44.10   0.61   41.80    0.61   41.80    0.74   -44.10
    2470  0.74   -44.80   0.62   41.40    0.62   41.40    0.74   -44.80
    2480  0.73   -45.40   0.62   41.10    0.62   41.10    0.73   -45.40
    2490  0.73   -46.00   0.63   40.70    0.63   40.70    0.73   -46.00
    2500  0.72   -46.70   0.64   40.30    0.64   40.30    0.72   -46.70
    2510  0.72   -47.30   0.64   39.90    0.64   39.90    0.72   -47.30
    2520  0.71   -47.90   0.65   39.50    0.65   39.50    0.71   -47.90
    2530  0.71   -48.50   0.66   39.10    0.66   39.10    0.71   -48.50
    2540  0.70   -49.20   0.67   38.70    0.67   38.70    0.70   -49.20
    2550  0.70   -49.80   0.67   38.30    0.67   38.30    0.70   -49.80
    2560  0.69   -50.20   0.68   38.00    0.68   38.00    0.69   -50.20
    2570  0.69   -50.50   0.68   37.70    0.68   37.70    0.69   -50.50
    2580  0.69   -50.90   0.69   37.40    0.69   37.40    0.69   -50.90
    2590  0.68   -51.20   0.69   37.10    0.69   37.10    0.68   -51.20
    2600  0.68   -51.60   0.70   36.80    0.70   36.80    0.68   -51.60
    2610  0.68   -51.90   0.70   36.50    0.70   36.50    0.68   -51.90
    2620  0.67   -52.30   0.71   36.20    0.71   36.20    0.67   -52.30
    2630  0.67   -52.70   0.71   35.90    0.71   35.90    0.67   -52.70
    2640  0.66   -53.00   0.72   35.60    0.72   35.60    0.66   -53.00
    2650  0.66   -53.40   0.72   35.30    0.72   35.30    0.66   -53.40
    2660  0.66   -53.70   0.72   35.00    0.72   35.00    0.66   -53.70
    2670  0.65   -54.10   0.73   34.70    0.73   34.70    0.65   -54.10
    2680  0.65   -54.40   0.73   34.40    0.73   34.40    0.65   -54.40
    2690  0.64   -54.70   0.73   34.10    0.73   34.10    0.64   -54.70
    2700  0.64   -55.10   0.74   33.80    0.74   33.80    0.64   -55.10
    2710  0.64   -55.40   0.74   33.50    0.74   33.50    0.64   -55.40
    2720  0.63   -55.80   0.74   33.20    0.74   33.20    0.63   -55.80
    2730  0.63   -56.10   0.75   32.80    0.75   32.80    0.63   -56.10
    2740  0.63   -56.50   0.75   32.50    0.75   32.50    0.63   -56.50
    2750  0.62   -56.80   0.75   32.20    0.75   32.20    0.62   -56.80
    2760  0.62   -57.10   0.75   32.00    0.75   32.00    0.62   -57.10
    2770  0.62   -57.30   0.76   31.80    0.76   31.80    0.62   -57.30
    2780  0.62   -57.60   0.76   31.50    0.76   31.50    0.62   -57.60
    2790  0.61   -57.90   0.76   31.30    0.76   31.30    0.61   -57.90
    2800  0.61   -58.10   0.77   31.00    0.77   31.00    0.61   -58.10
    2810  0.61   -58.40   0.77   30.80    0.77   30.80    0.61   -58.40
    2820  0.60   -58.70   0.77   30.60    0.77   30.60    0.60   -58.70
