# MHZ S MA R 50

50	0.96	177.20	0.04	78.20	0.04	78.20	0.96	177.20
100	0.98	174.70	0.08	78.70	0.08	78.70	0.98	174.70
150	1.00	172.20	0.11	79.30	0.11	79.30	1.00	172.20
200	0.99	170.00	0.15	77.70	0.15	77.70	0.99	170.00
250	0.98	167.90	0.18	76.00	0.18	76.00	0.98	167.90
300	0.97	165.30	0.22	73.60	0.22	73.60	0.97	165.30
350	0.97	162.60	0.25	71.10	0.25	71.10	0.97	162.60
400	0.95	160.70	0.28	69.20	0.28	69.20	0.95	160.70
450	0.94	158.70	0.31	67.40	0.31	67.40	0.94	158.70
500	0.92	154.80	0.36	64.50	0.36	64.50	0.92	154.80
550	0.91	150.90	0.41	61.60	0.41	61.60	0.91	150.90
600	0.90	148.80	0.44	59.40	0.44	59.40	0.90	148.80
650	0.89	146.80	0.46	57.10	0.46	57.10	0.89	146.80
700	0.87	144.40	0.49	55.20	0.49	55.20	0.87	144.40
750	0.85	142.00	0.52	53.30	0.52	53.30	0.85	142.00
800	0.84	140.20	0.54	51.20	0.54	51.20	0.84	140.20
850	0.83	138.40	0.56	49.00	0.56	49.00	0.83	138.40
900	0.81	136.30	0.58	47.10	0.58	47.10	0.81	136.30
950	0.79	134.20	0.60	45.10	0.60	45.10	0.79	134.20
1000	0.77	132.40	0.62	43.20	0.62	43.20	0.77	132.40
1050	0.75	130.60	0.64	41.30	0.64	41.30	0.75	130.60
1100	0.74	128.40	0.66	39.70	0.66	39.70	0.74	128.40
1150	0.72	126.30	0.68	38.10	0.68	38.10	0.72	126.30
1200	0.71	124.60	0.69	36.30	0.69	36.30	0.71	124.60
1250	0.69	122.90	0.70	34.60	0.70	34.60	0.69	122.90
1300	0.68	120.80	0.72	33.20	0.72	33.20	0.68	120.80
1350	0.67	118.80	0.74	31.70	0.74	31.70	0.67	118.80
1400	0.65	117.30	0.75	30.20	0.75	30.20	0.65	117.30
1450	0.64	115.80	0.75	28.60	0.75	28.60	0.64	115.80
1500	0.63	114.00	0.76	27.20	0.76	27.20	0.63	114.00
1550	0.62	112.20	0.78	25.80	0.78	25.80	0.62	112.20
1600	0.60	110.60	0.79	24.50	0.79	24.50	0.60	110.60
1650	0.59	108.90	0.80	23.10	0.80	23.10	0.59	108.90
1700	0.58	107.50	0.80	21.80	0.80	21.80	0.58	107.50
1750	0.57	106.10	0.81	20.50	0.81	20.50	0.57	106.10
1800	0.56	104.80	0.82	19.50	0.82	19.50	0.56	104.80
1850	0.55	103.60	0.83	18.50	0.83	18.50	0.55	103.60
1900	0.54	102.30	0.83	17.30	0.83	17.30	0.54	102.30
1950	0.53	100.90	0.84	16.20	0.84	16.20	0.53	100.90
2000	0.52	99.70	0.85	15.00	0.85	15.00	0.52	99.70
2050	0.51	98.60	0.85	13.80	0.85	13.80	0.51	98.60
2100	0.50	97.70	0.86	12.80	0.86	12.80	0.50	97.70
2150	0.49	96.90	0.86	11.90	0.86	11.90	0.49	96.90
2200	0.48	95.90	0.87	10.80	0.87	10.80	0.48	95.90
2250	0.47	94.80	0.87	9.80	0.87	9.80	0.47	94.80
2300	0.46	94.10	0.88	8.90	0.88	8.90	0.46	94.10
2350	0.45	93.50	0.88	8.00	0.88	8.00	0.45	93.50
2400	0.44	92.80	0.89	7.00	0.89	7.00	0.44	92.80
2450	0.43	92.20	0.89	6.00	0.89	6.00	0.43	92.20
2500	0.42	91.40	0.90	5.00	0.90	5.00	0.42	91.40
2550	0.41	90.70	0.90	3.90	0.90	3.90	0.41	90.70
2600	0.40	90.30	0.91	3.00	0.91	3.00	0.40	90.30
2650	0.39	89.90	0.91	2.20	0.91	2.20	0.39	89.90
2700	0.38	89.40	0.92	1.20	0.92	1.20	0.38	89.40
2750	0.37	88.90	0.92	0.30	0.92	0.30	0.37	88.90
2800	0.36	88.30	0.93	-0.50	0.93	-0.50	0.36	88.30
2850	0.34	87.80	0.93	-1.40	0.93	-1.40	0.34	87.80
2900	0.34	87.30	0.93	-2.60	0.93	-2.60	0.34	87.30
2950	0.33	86.90	0.94	-3.70	0.94	-3.70	0.33	86.90
3000	0.32	86.10	0.94	-4.60	0.94	-4.60	0.32	86.10
3050	0.31	85.40	0.94	-5.40	0.94	-5.40	0.31	85.40
3100	0.30	84.70	0.94	-6.50	0.94	-6.50	0.30	84.70
3150	0.29	84.10	0.94	-7.60	0.94	-7.60	0.29	84.10
3200	0.28	83.20	0.95	-8.30	0.95	-8.30	0.28	83.20
3250	0.28	82.40	0.95	-8.90	0.95	-8.90	0.28	82.40
3300	0.27	82.30	0.95	-9.90	0.95	-9.90	0.27	82.30
3350	0.26	82.20	0.95	-11.00	0.95	-11.00	0.26	82.20
3400	0.26	81.10	0.96	-11.70	0.96	-11.70	0.26	81.10
3450	0.25	80.00	0.96	-12.50	0.96	-12.50	0.25	80.00
3500	0.25	79.80	0.96	-13.20	0.96	-13.20	0.25	79.80
3550	0.24	79.60	0.96	-14.00	0.96	-14.00	0.24	79.60
3600	0.24	79.50	0.96	-14.80	0.96	-14.80	0.24	79.50
3650	0.24	79.50	0.96	-15.60	0.96	-15.60	0.24	79.50
3700	0.23	78.50	0.96	-16.40	0.96	-16.40	0.23	78.50
3750	0.23	77.40	0.96	-17.30	0.96	-17.30	0.23	77.40
3800	0.23	77.40	0.96	-17.90	0.96	-17.90	0.23	77.40
3850	0.22	77.30	0.96	-18.60	0.96	-18.60	0.22	77.30
3900	0.22	76.80	0.96	-19.50	0.96	-19.50	0.22	76.80
3950	0.22	76.30	0.97	-20.40	0.97	-20.40	0.22	76.30
4000	0.22	76.10	0.97	-21.00	0.97	-21.00	0.22	76.10
4050	0.21	76.00	0.97	-21.70	0.97	-21.70	0.21	76.00
4100	0.21	75.40	0.97	-22.40	0.97	-22.40	0.21	75.40
4150	0.21	74.90	0.97	-23.20	0.97	-23.20	0.21	74.90
4200	0.20	74.40	0.97	-23.90	0.97	-23.90	0.20	74.40
4250	0.20	73.90	0.97	-24.60	0.97	-24.60	0.20	73.90
4300	0.19	73.40	0.97	-25.10	0.97	-25.10	0.19	73.40
4350	0.19	72.80	0.97	-25.70	0.97	-25.70	0.19	72.80
4400	0.18	72.60	0.98	-26.50	0.98	-26.50	0.18	72.60
4450	0.18	72.40	0.98	-27.30	0.98	-27.30	0.18	72.40
4500	0.17	71.00	0.98	-28.10	0.98	-28.10	0.17	71.00
4550	0.16	69.70	0.98	-29.00	0.98	-29.00	0.16	69.70
4600	0.16	68.90	0.98	-29.80	0.98	-29.80	0.16	68.90
4650	0.15	68.20	0.98	-30.60	0.98	-30.60	0.15	68.20
4700	0.14	66.60	0.98	-31.30	0.98	-31.30	0.14	66.60
4750	0.13	65.00	0.98	-32.00	0.98	-32.00	0.13	65.00
4800	0.12	63.50	0.98	-32.70	0.98	-32.70	0.12	63.50
4850	0.12	61.90	0.98	-33.50	0.98	-33.50	0.12	61.90
4900	0.11	59.80	0.99	-34.20	0.99	-34.20	0.11	59.80
4950	0.10	57.60	0.99	-35.00	0.99	-35.00	0.10	57.60
5000	0.09	55.40	0.99	-35.80	0.99	-35.80	0.09	55.40
5050	0.09	53.20	0.99	-36.60	0.99	-36.60	0.09	53.20
5100	0.08	49.80	0.99	-37.30	0.99	-37.30	0.08	49.80
5150	0.08	46.40	0.99	-38.00	0.99	-38.00	0.08	46.40
5200	0.07	45.30	0.99	-38.60	0.99	-38.60	0.07	45.30
5250	0.06	44.20	0.99	-39.20	0.99	-39.20	0.06	44.20
5300	0.06	40.60	0.99	-40.00	0.99	-40.00	0.06	40.60
5350	0.06	37.00	0.99	-40.80	0.99	-40.80	0.06	37.00
5400	0.05	34.80	0.99	-41.60	0.99	-41.60	0.05	34.80
5450	0.05	32.60	0.99	-42.40	0.99	-42.40	0.05	32.60
5500	0.05	34.00	0.99	-43.10	0.99	-43.10	0.05	34.00
5550	0.05	35.40	0.99	-43.70	0.99	-43.70	0.05	35.40
5600	0.04	34.90	0.99	-44.50	0.99	-44.50	0.04	34.90
5650	0.04	34.50	0.99	-45.20	0.99	-45.20	0.04	34.50
5700	0.04	41.70	0.99	-45.80	0.99	-45.80	0.04	41.70
5750	0.03	48.80	0.99	-46.40	0.99	-46.40	0.03	48.80
5800	0.03	50.40	0.99	-47.20	0.99	-47.20	0.03	50.40
5850	0.04	51.90	0.99	-48.00	0.99	-48.00	0.04	51.90
5900	0.03	68.10	0.99	-48.60	0.99	-48.60	0.03	68.10
5950	0.03	84.30	0.99	-49.20	0.99	-49.20	0.03	84.30
6000	0.03	109.20	0.99	-50.00	0.99	-50.00	0.03	109.20
6050	0.02	134.10	0.99	-50.80	0.99	-50.80	0.02	134.10
6100	0.03	140.20	0.99	-51.30	0.99	-51.30	0.03	140.20
6150	0.04	146.20	0.99	-51.80	0.99	-51.80	0.04	146.20
6200	0.05	146.20	0.99	-52.60	0.99	-52.60	0.05	146.20
6250	0.06	146.10	0.99	-53.30	0.99	-53.30	0.06	146.10
6300	0.07	149.20	0.99	-54.00	0.99	-54.00	0.07	149.20
6350	0.08	152.30	0.99	-54.60	0.99	-54.60	0.08	152.30
6400	0.09	153.90	0.98	-55.30	0.98	-55.30	0.09	153.90
6450	0.10	155.40	0.98	-56.00	0.98	-56.00	0.10	155.40
6500	0.11	156.30	0.98	-56.60	0.98	-56.60	0.11	156.30
6550	0.12	157.10	0.98	-57.30	0.98	-57.30	0.12	157.10
6600	0.12	157.90	0.98	-58.00	0.98	-58.00	0.12	157.90
6650	0.13	158.70	0.98	-58.60	0.98	-58.60	0.13	158.70
6700	0.14	159.90	0.98	-59.10	0.98	-59.10	0.14	159.90
6750	0.14	161.20	0.97	-59.50	0.97	-59.50	0.14	161.20
6800	0.15	160.50	0.97	-60.20	0.97	-60.20	0.15	160.50
6850	0.16	159.90	0.98	-60.90	0.98	-60.90	0.16	159.90
6900	0.16	160.30	0.97	-61.50	0.97	-61.50	0.16	160.30
6950	0.16	160.80	0.97	-62.00	0.97	-62.00	0.16	160.80
7000	0.17	160.10	0.97	-62.80	0.97	-62.80	0.17	160.10
7050	0.17	159.40	0.97	-63.50	0.97	-63.50	0.17	159.40
7100	0.17	158.70	0.97	-64.00	0.97	-64.00	0.17	158.70
7150	0.17	158.10	0.97	-64.50	0.97	-64.50	0.17	158.10
7200	0.17	158.20	0.98	-65.20	0.98	-65.20	0.17	158.20
7250	0.17	158.20	0.98	-65.90	0.98	-65.90	0.17	158.20
7300	0.17	155.90	0.98	-66.50	0.98	-66.50	0.17	155.90
7350	0.17	153.50	0.97	-67.10	0.97	-67.10	0.17	153.50
7400	0.17	153.40	0.98	-67.70	0.98	-67.70	0.17	153.40
7450	0.16	153.20	0.98	-68.40	0.98	-68.40	0.16	153.20
7500	0.17	150.20	0.98	-69.10	0.98	-69.10	0.17	150.20
7550	0.17	147.20	0.98	-69.80	0.98	-69.80	0.17	147.20
7600	0.16	145.80	0.98	-70.40	0.98	-70.40	0.16	145.80
7650	0.15	144.50	0.98	-71.10	0.98	-71.10	0.15	144.50
7700	0.15	141.70	0.98	-71.80	0.98	-71.80	0.15	141.70
7750	0.15	139.00	0.98	-72.50	0.98	-72.50	0.15	139.00
7800	0.15	135.40	0.97	-73.20	0.97	-73.20	0.15	135.40
7850	0.15	131.90	0.97	-74.00	0.97	-74.00	0.15	131.90
7900	0.15	131.20	0.97	-74.60	0.97	-74.60	0.15	131.20
7950	0.15	130.50	0.97	-75.30	0.97	-75.30	0.15	130.50
8000	0.15	127.70	0.97	-76.10	0.97	-76.10	0.15	127.70
8050	0.16	124.80	0.97	-76.80	0.97	-76.80	0.16	124.80
8100	0.16	124.20	0.97	-77.60	0.97	-77.60	0.16	124.20
8150	0.16	123.60	0.97	-78.30	0.97	-78.30	0.16	123.60
8200	0.17	124.10	0.97	-79.00	0.97	-79.00	0.17	124.10
8250	0.17	124.70	0.97	-79.70	0.97	-79.70	0.17	124.70
8300	0.17	125.10	0.97	-80.40	0.97	-80.40	0.17	125.10
8350	0.17	125.60	0.97	-81.10	0.97	-81.10	0.17	125.60
8400	0.18	127.10	0.97	-81.80	0.97	-81.80	0.18	127.10
8450	0.19	128.70	0.97	-82.60	0.97	-82.60	0.19	128.70
8500	0.19	130.40	0.97	-83.30	0.97	-83.30	0.19	130.40
8550	0.19	132.00	0.96	-84.00	0.96	-84.00	0.19	132.00
8600	0.19	133.30	0.96	-84.70	0.96	-84.70	0.19	133.30
8650	0.20	134.60	0.96	-85.40	0.96	-85.40	0.20	134.60
8700	0.20	136.80	0.96	-86.10	0.96	-86.10	0.20	136.80
8750	0.20	139.00	0.96	-86.80	0.96	-86.80	0.20	139.00
8800	0.21	140.00	0.96	-87.30	0.96	-87.30	0.21	140.00
8850	0.21	140.90	0.96	-87.70	0.96	-87.70	0.21	140.90
8900	0.22	142.80	0.96	-88.50	0.96	-88.50	0.22	142.80
8950	0.22	144.60	0.96	-89.40	0.96	-89.40	0.22	144.60
9000	0.22	146.60	0.96	-90.00	0.96	-90.00	0.22	146.60
9050	0.22	148.50	0.96	-90.70	0.96	-90.70	0.22	148.50
9100	0.23	149.50	0.96	-91.40	0.96	-91.40	0.23	149.50
9150	0.23	150.50	0.96	-92.10	0.96	-92.10	0.23	150.50
9200	0.23	151.40	0.96	-93.10	0.96	-93.10	0.23	151.40
9250	0.22	152.30	0.96	-94.10	0.96	-94.10	0.22	152.30
9300	0.22	153.40	0.96	-94.60	0.96	-94.60	0.22	153.40
9350	0.22	154.50	0.96	-95.10	0.96	-95.10	0.22	154.50
9400	0.22	155.20	0.96	-96.00	0.96	-96.00	0.22	155.20
9450	0.22	155.90	0.96	-96.80	0.96	-96.80	0.22	155.90
9500	0.21	155.70	0.95	-97.70	0.95	-97.70	0.21	155.70
9550	0.21	155.50	0.95	-98.60	0.95	-98.60	0.21	155.50
9600	0.21	154.70	0.95	-99.60	0.95	-99.60	0.21	154.70
9650	0.22	153.90	0.95	-100.50	0.95	-100.50	0.22	153.90
9700	0.22	153.30	0.95	-101.40	0.95	-101.40	0.22	153.30
9750	0.21	152.60	0.95	-102.30	0.95	-102.30	0.21	152.60
9800	0.22	152.00	0.94	-103.20	0.94	-103.20	0.22	152.00
9850	0.22	151.40	0.94	-104.10	0.94	-104.10	0.22	151.40
9900	0.23	149.10	0.94	-105.10	0.94	-105.10	0.23	149.10
9950	0.24	146.70	0.94	-106.00	0.94	-106.00	0.24	146.70
10000	0.25	146.20	0.93	-107.10	0.93	-107.10	0.25	146.20
10050	0.26	145.60	0.92	-108.20	0.92	-108.20	0.26	145.60
10100	0.28	144.00	0.92	-109.00	0.92	-109.00	0.28	144.00
10150	0.29	142.50	0.92	-109.80	0.92	-109.80	0.29	142.50
10200	0.31	142.10	0.91	-110.90	0.91	-110.90	0.31	142.10
10250	0.32	141.70	0.90	-112.10	0.90	-112.10	0.32	141.70
10300	0.34	140.50	0.89	-113.20	0.89	-113.20	0.34	140.50
10350	0.37	139.20	0.88	-114.40	0.88	-114.40	0.37	139.20
10400	0.38	138.30	0.87	-115.30	0.87	-115.30	0.38	138.30
10450	0.39	137.40	0.86	-116.20	0.86	-116.20	0.39	137.40
10500	0.41	136.90	0.85	-117.30	0.85	-117.30	0.41	136.90
10550	0.43	136.40	0.84	-118.30	0.84	-118.30	0.43	136.40
10600	0.44	134.40	0.83	-118.70	0.83	-118.70	0.44	134.40
10650	0.45	132.30	0.82	-119.20	0.82	-119.20	0.45	132.30
10700	0.47	133.20	0.81	-120.20	0.81	-120.20	0.47	133.20
10750	0.48	134.00	0.81	-121.20	0.81	-121.20	0.48	134.00
10800	0.50	133.50	0.80	-121.70	0.80	-121.70	0.50	133.50
10850	0.52	133.00	0.79	-122.20	0.79	-122.20	0.52	133.00
10900	0.53	131.70	0.78	-123.30	0.78	-123.30	0.53	131.70
10950	0.53	130.40	0.77	-124.40	0.77	-124.40	0.53	130.40
11000	0.55	130.10	0.77	-125.50	0.77	-125.50	0.55	130.10
11050	0.57	129.80	0.77	-126.70	0.77	-126.70	0.57	129.80
11100	0.57	127.30	0.76	-127.80	0.76	-127.80	0.57	127.30
11150	0.58	124.80	0.74	-128.90	0.74	-128.90	0.58	124.80
11200	0.59	123.00	0.74	-130.30	0.74	-130.30	0.59	123.00
11250	0.60	121.20	0.73	-131.70	0.73	-131.70	0.60	121.20
11300	0.60	118.30	0.72	-133.00	0.72	-133.00	0.60	118.30
11350	0.61	115.50	0.71	-134.30	0.71	-134.30	0.61	115.50
11400	0.61	112.00	0.69	-136.20	0.69	-136.20	0.61	112.00
11450	0.61	108.50	0.68	-138.10	0.68	-138.10	0.61	108.50
11500	0.62	104.60	0.66	-139.60	0.66	-139.60	0.62	104.60
11550	0.63	100.80	0.64	-141.00	0.64	-141.00	0.63	100.80
11600	0.64	96.60	0.62	-142.90	0.62	-142.90	0.64	96.60
11650	0.65	92.40	0.59	-144.80	0.59	-144.80	0.65	92.40
11700	0.66	88.30	0.57	-146.40	0.57	-146.40	0.66	88.30
11750	0.67	84.10	0.54	-147.90	0.54	-147.90	0.67	84.10
11800	0.68	80.50	0.51	-148.80	0.51	-148.80	0.68	80.50
11850	0.69	76.90	0.47	-149.70	0.47	-149.70	0.69	76.90
11900	0.70	73.60	0.44	-150.60	0.44	-150.60	0.70	73.60
11950	0.71	70.20	0.40	-151.50	0.40	-151.50	0.71	70.20
12000	0.73	67.20	0.37	-150.60	0.37	-150.60	0.73	67.20
12050	0.74	64.30	0.34	-149.60	0.34	-149.60	0.74	64.30
12100	0.75	61.10	0.30	-147.70	0.30	-147.70	0.75	61.10
12150	0.77	58.00	0.27	-145.70	0.27	-145.70	0.77	58.00
12200	0.78	55.60	0.24	-139.80	0.24	-139.80	0.78	55.60
12250	0.79	53.10	0.21	-133.90	0.21	-133.90	0.79	53.10
12300	0.79	51.80	0.19	-123.00	0.19	-123.00	0.79	51.80
12350	0.80	50.50	0.18	-112.00	0.18	-112.00	0.80	50.50
12400	0.81	47.30	0.19	-100.50	0.19	-100.50	0.81	47.30
12450	0.82	44.20	0.20	-89.00	0.20	-89.00	0.82	44.20
12500	0.81	42.90	0.23	-81.20	0.23	-81.20	0.81	42.90
12550	0.81	41.60	0.26	-73.50	0.26	-73.50	0.81	41.60
12600	0.80	39.30	0.30	-71.00	0.30	-71.00	0.80	39.30
12650	0.79	37.00	0.34	-68.50	0.34	-68.50	0.79	37.00
12700	0.77	34.70	0.38	-68.40	0.38	-68.40	0.77	34.70
12750	0.76	32.30	0.43	-68.40	0.43	-68.40	0.76	32.30
12800	0.73	30.00	0.47	-70.00	0.47	-70.00	0.73	30.00
12850	0.70	27.80	0.51	-71.60	0.51	-71.60	0.70	27.80
12900	0.67	25.10	0.55	-73.90	0.55	-73.90	0.67	25.10
12950	0.63	22.30	0.58	-76.20	0.58	-76.20	0.63	22.30
13000	0.59	20.00	0.61	-78.40	0.61	-78.40	0.59	20.00
13050	0.55	17.60	0.63	-80.70	0.63	-80.70	0.55	17.60
13100	0.51	14.30	0.65	-83.10	0.65	-83.10	0.51	14.30
13150	0.47	10.90	0.68	-85.50	0.68	-85.50	0.47	10.90
13200	0.44	8.30	0.69	-87.50	0.69	-87.50	0.44	8.30
13250	0.41	5.60	0.70	-89.40	0.70	-89.40	0.41	5.60
13300	0.37	3.40	0.71	-91.60	0.71	-91.60	0.37	3.40
13350	0.33	1.20	0.71	-93.70	0.71	-93.70	0.33	1.20
13400	0.31	-3.40	0.72	-95.30	0.72	-95.30	0.31	-3.40
13450	0.30	-8.00	0.72	-96.80	0.72	-96.80	0.30	-8.00
13500	0.29	-12.10	0.72	-97.80	0.72	-97.80	0.29	-12.10
13550	0.28	-16.30	0.72	-98.90	0.72	-98.90	0.28	-16.30
13600	0.27	-20.30	0.72	-99.90	0.72	-99.90	0.27	-20.30
13650	0.26	-24.40	0.72	-100.90	0.72	-100.90	0.26	-24.40
13700	0.27	-26.90	0.73	-101.30	0.73	-101.30	0.27	-26.90
13750	0.28	-29.50	0.73	-101.70	0.73	-101.70	0.28	-29.50
13800	0.28	-32.70	0.73	-102.10	0.73	-102.10	0.28	-32.70
13850	0.29	-36.00	0.73	-102.40	0.73	-102.40	0.29	-36.00
13900	0.30	-36.70	0.74	-102.70	0.74	-102.70	0.30	-36.70
13950	0.32	-37.50	0.75	-103.00	0.75	-103.00	0.32	-37.50
14000	0.33	-38.70	0.76	-103.50	0.76	-103.50	0.33	-38.70
14050	0.34	-39.80	0.77	-103.90	0.77	-103.90	0.34	-39.80
14100	0.35	-40.30	0.78	-104.60	0.78	-104.60	0.35	-40.30
14150	0.36	-40.70	0.79	-105.30	0.79	-105.30	0.36	-40.70
14200	0.37	-40.50	0.80	-106.20	0.80	-106.20	0.37	-40.50
14250	0.38	-40.30	0.81	-107.10	0.81	-107.10	0.38	-40.30
14300	0.38	-40.30	0.82	-108.00	0.82	-108.00	0.38	-40.30
14350	0.37	-40.20	0.83	-109.00	0.83	-109.00	0.37	-40.20
14400	0.38	-39.90	0.84	-110.20	0.84	-110.20	0.38	-39.90
14450	0.39	-39.60	0.85	-111.40	0.85	-111.40	0.39	-39.60
14500	0.37	-39.10	0.85	-112.20	0.85	-112.20	0.37	-39.10
14550	0.36	-38.60	0.86	-112.90	0.86	-112.90	0.36	-38.60
14600	0.36	-37.60	0.86	-114.00	0.86	-114.00	0.36	-37.60
14650	0.35	-36.60	0.86	-115.10	0.86	-115.10	0.35	-36.60
14700	0.34	-36.60	0.87	-116.00	0.87	-116.00	0.34	-36.60
14750	0.32	-36.60	0.88	-116.90	0.88	-116.90	0.32	-36.60
14800	0.31	-35.10	0.88	-117.90	0.88	-117.90	0.31	-35.10
14850	0.30	-33.70	0.88	-118.80	0.88	-118.80	0.30	-33.70
14900	0.28	-33.30	0.88	-119.50	0.88	-119.50	0.28	-33.30
14950	0.26	-32.90	0.89	-120.20	0.89	-120.20	0.26	-32.90
15000	0.25	-32.90	0.89	-121.20	0.89	-121.20	0.25	-32.90
15050	0.23	-32.90	0.89	-122.20	0.89	-122.20	0.23	-32.90
15100	0.22	-33.30	0.90	-122.80	0.90	-122.80	0.22	-33.30
15150	0.21	-33.80	0.90	-123.40	0.90	-123.40	0.21	-33.80
15200	0.20	-33.90	0.90	-124.00	0.90	-124.00	0.20	-33.90
15250	0.19	-34.00	0.91	-124.70	0.91	-124.70	0.19	-34.00
15300	0.18	-37.10	0.91	-125.70	0.91	-125.70	0.18	-37.10
15350	0.18	-40.30	0.91	-126.70	0.91	-126.70	0.18	-40.30
15400	0.17	-41.20	0.90	-127.20	0.90	-127.20	0.17	-41.20
15450	0.17	-42.10	0.90	-127.80	0.90	-127.80	0.17	-42.10
15500	0.17	-44.00	0.90	-128.30	0.90	-128.30	0.17	-44.00
15550	0.18	-45.90	0.90	-128.90	0.90	-128.90	0.18	-45.90
15600	0.18	-49.90	0.90	-129.30	0.90	-129.30	0.18	-49.90
15650	0.18	-53.90	0.91	-129.60	0.91	-129.60	0.18	-53.90
15700	0.19	-53.90	0.91	-130.20	0.91	-130.20	0.19	-53.90
15750	0.20	-53.80	0.91	-130.80	0.91	-130.80	0.20	-53.80
15800	0.20	-58.70	0.91	-131.20	0.91	-131.20	0.20	-58.70
15850	0.20	-63.60	0.92	-131.70	0.92	-131.70	0.20	-63.60
15900	0.20	-62.30	0.92	-132.30	0.92	-132.30	0.20	-62.30
15950	0.20	-61.10	0.92	-133.00	0.92	-133.00	0.20	-61.10
16000	0.19	-64.60	0.93	-133.60	0.93	-133.60	0.19	-64.60
16050	0.19	-68.00	0.93	-134.20	0.93	-134.20	0.19	-68.00
16100	0.17	-70.40	0.93	-135.20	0.93	-135.20	0.17	-70.40
16150	0.16	-72.90	0.93	-136.10	0.93	-136.10	0.16	-72.90
16200	0.16	-74.30	0.93	-136.90	0.93	-136.90	0.16	-74.30
16250	0.15	-75.60	0.93	-137.70	0.93	-137.70	0.15	-75.60
16300	0.13	-82.30	0.93	-138.60	0.93	-138.60	0.13	-82.30
16350	0.11	-89.00	0.93	-139.50	0.93	-139.50	0.11	-89.00
16400	0.10	-91.00	0.93	-140.10	0.93	-140.10	0.10	-91.00
16450	0.09	-93.10	0.93	-140.70	0.93	-140.70	0.09	-93.10
16500	0.09	-104.10	0.92	-141.20	0.92	-141.20	0.09	-104.10
16550	0.09	-115.20	0.92	-141.80	0.92	-141.80	0.09	-115.20
16600	0.08	-128.10	0.92	-142.60	0.92	-142.60	0.08	-128.10
16650	0.07	-141.10	0.93	-143.40	0.93	-143.40	0.07	-141.10
16700	0.08	-152.80	0.93	-144.00	0.93	-144.00	0.08	-152.80
16750	0.08	-164.50	0.93	-144.70	0.93	-144.70	0.08	-164.50
16800	0.09	0.40	0.93	-145.40	0.93	-145.40	0.09	0.40
16850	0.09	165.30	0.93	-146.10	0.93	-146.10	0.09	165.30
16900	0.10	155.40	0.93	-146.90	0.93	-146.90	0.10	155.40
16950	0.11	145.40	0.92	-147.60	0.92	-147.60	0.11	145.40
17000	0.12	140.10	0.92	-148.20	0.92	-148.20	0.12	140.10
17050	0.13	134.80	0.92	-148.80	0.92	-148.80	0.13	134.80
17100	0.14	127.70	0.92	-149.60	0.92	-149.60	0.14	127.70
17150	0.16	120.60	0.92	-150.30	0.92	-150.30	0.16	120.60
17200	0.16	116.30	0.92	-150.70	0.92	-150.70	0.16	116.30
17250	0.17	112.00	0.91	-151.10	0.91	-151.10	0.17	112.00
17300	0.19	110.20	0.92	-151.80	0.92	-151.80	0.19	110.20
17350	0.21	108.40	0.92	-152.50	0.92	-152.50	0.21	108.40
17400	0.21	106.10	0.91	-153.00	0.91	-153.00	0.21	106.10
17450	0.21	103.80	0.91	-153.40	0.91	-153.40	0.21	103.80
17500	0.21	103.30	0.91	-154.00	0.91	-154.00	0.21	103.30
17550	0.21	102.80	0.91	-154.50	0.91	-154.50	0.21	102.80
17600	0.21	100.60	0.91	-155.00	0.91	-155.00	0.21	100.60
17650	0.21	98.40	0.91	-155.50	0.91	-155.50	0.21	98.40
17700	0.20	98.90	0.91	-155.90	0.91	-155.90	0.20	98.90
17750	0.20	99.40	0.91	-156.20	0.91	-156.20	0.20	99.40
17800	0.19	99.50	0.91	-156.70	0.91	-156.70	0.19	99.50
17850	0.19	99.50	0.91	-157.10	0.91	-157.10	0.19	99.50
17900	0.17	99.00	0.92	-157.50	0.92	-157.50	0.17	99.00
17950	0.16	98.60	0.92	-157.80	0.92	-157.80	0.16	98.60
18000	0.14	100.20	0.92	-158.40	0.92	-158.40	0.14	100.20
18050	0.13	101.80	0.92	-159.00	0.92	-159.00	0.13	101.80
18100	0.11	99.30	0.93	-159.40	0.93	-159.40	0.11	99.30
18150	0.09	96.80	0.93	-159.80	0.93	-159.80	0.09	96.80
18200	0.08	94.80	0.94	-160.50	0.94	-160.50	0.08	94.80
18250	0.06	92.90	0.94	-161.20	0.94	-161.20	0.06	92.90
18300	0.05	72.90	0.95	-161.70	0.95	-161.70	0.05	72.90
18350	0.04	52.80	0.95	-162.20	0.95	-162.20	0.04	52.80
18400	0.04	30.90	0.95	-162.90	0.95	-162.90	0.04	30.90
18450	0.04	9.00	0.95	-163.50	0.95	-163.50	0.04	9.00
18500	0.05	2.60	0.96	-164.00	0.96	-164.00	0.05	2.60
18550	0.06	-3.80	0.96	-164.60	0.96	-164.60	0.06	-3.80
18600	0.06	-9.30	0.96	-165.30	0.96	-165.30	0.06	-9.30
18650	0.06	-14.80	0.96	-166.00	0.96	-166.00	0.06	-14.80
18700	0.07	-11.00	0.97	-166.60	0.97	-166.60	0.07	-11.00
18750	0.08	-7.20	0.97	-167.10	0.97	-167.10	0.08	-7.20
18800	0.08	-13.40	0.97	-167.80	0.97	-167.80	0.08	-13.40
