! P/N: L-15CR12JE								
! Measured by Marlon								
! Oct. 14, 2003								
! Measure with Series-through-Fixture								
#	mhz	s	ma	r	50	
0	0.00000	90.0000	0.99999	0.00000	0.99999	0.00000	0.00000	90.0000		
50	0.3668	64.29625	0.88346	-20.32857	0.88346	-20.32857	0.3668	64.29625
70	0.47379	56.70102	0.83851	-28.11057	0.83851	-28.11057	0.47379	56.70102
90	0.5607	51.24646	0.77935	-34.15756	0.77935	-34.15756	0.5607	51.24646
110	0.64245	46.26441	0.72259	-39.76206	0.72259	-39.76206	0.64245	46.26441
130	0.71633	41.31702	0.6695	-45.18774	0.6695	-45.18774	0.71633	41.31702
150	0.76194	37.19668	0.60597	-49.66943	0.60597	-49.66943	0.76194	37.19668
170	0.80917	33.795	0.56112	-53.09936	0.56112	-53.09936	0.80917	33.795
190	0.84277	30.20503	0.51395	-56.96317	0.51395	-56.96317	0.84277	30.20503
210	0.86892	27.34831	0.4684	-60.26193	0.4684	-60.26193	0.86892	27.34831
230	0.89292	25.07512	0.42708	-62.79101	0.42708	-62.79101	0.89292	25.07512
250	0.91925	22.16452	0.39123	-65.14011	0.39123	-65.14011	0.91925	22.16452
270	0.92041	19.92847	0.35188	-67.80485	0.35188	-67.80485	0.92041	19.92847
290	0.9337	18.31587	0.32041	-69.5809	0.32041	-69.5809	0.9337	18.31587
310	0.9502	16.42806	0.29065	-71.55659	0.29065	-71.55659	0.9502	16.42806
330	0.9616	14.19821	0.26064	-73.71503	0.26064	-73.71503	0.9616	14.19821
350	0.96024	12.39134	0.23261	-74.93409	0.23261	-74.93409	0.96024	12.39134
370	0.97464	10.87895	0.20986	-76.70089	0.20986	-76.70089	0.97464	10.87895
390	0.97831	9.36472	0.18527	-78.3645	0.18527	-78.3645	0.97831	9.36472
410	0.98352	8.18172	0.16206	-79.4552	0.16206	-79.4552	0.98352	8.18172
430	0.99274	7.09855	0.14124	-80.19688	0.14124	-80.19688	0.99274	7.09855
450	0.99875	5.31933	0.12166	-81.50708	0.12166	-81.50708	0.99875	5.31933
470	0.99443	4.51155	0.10245	-82.54943	0.10245	-82.54943	0.99443	4.51155
490	0.99999	4.02353	0.08011	-83.78939	0.08011	-83.78939	0.99999	4.02353
510	0.99999	3.57754	0.06071	-84.67587	0.06071	-84.67587	0.99999	3.57754
530	0.99999	3.09455	0.04542	-84.61001	0.04542	-84.61001	0.99999	3.09455
550	0.99999	2.69428	0.0305	-82.9452	0.0305	-82.9452	0.99999	2.69428
570	0.99987	1.83532	0.01642	-74.29794	0.01642	-74.29794	0.99987	1.83532
590	0.99999	1.0839	0.00937	0.02267	0.00937	0.02267	0.99999	1.0839
610	0.99999	0.10744	0.01324	58.89588	0.01324	58.89588	0.99999	0.10744
630	0.99999	-1.102	0.02574	75.72294	0.02574	75.72294	0.99999	-1.102
650	0.99703	-2.22781	0.03838	78.42706	0.03838	78.42706	0.99703	-2.22781
670	0.99973	-2.31695	0.05022	79.1095	0.05022	79.1095	0.99973	-2.31695
690	0.99999	-3.02317	0.06224	79.27713	0.06224	79.27713	0.99999	-3.02317
710	0.99999	-3.69645	0.07393	79.1287	0.07393	79.1287	0.99999	-3.69645
730	0.99999	-4.10908	0.08532	78.78953	0.08532	78.78953	0.99999	-4.10908
750	0.99936	-4.4556	0.09694	78.31154	0.09694	78.31154	0.99936	-4.4556
770	0.99738	-5.16862	0.10758	77.58524	0.10758	77.58524	0.99738	-5.16862
790	0.99381	-5.93352	0.11808	77.17426	0.11808	77.17426	0.99381	-5.93352
810	0.99327	-6.73523	0.12893	76.81257	0.12893	76.81257	0.99327	-6.73523
830	0.99467	-7.51512	0.13973	76.32253	0.13973	76.32253	0.99467	-7.51512
850	0.99114	-8.17102	0.14922	75.61489	0.14922	75.61489	0.99114	-8.17102
870	0.99122	-8.35861	0.15846	75.4023	0.15846	75.4023	0.99122	-8.35861
890	0.9943	-9.05102	0.16916	74.83508	0.16916	74.83508	0.9943	-9.05102
910	0.99232	-9.6239	0.17904	74.19216	0.17904	74.19216	0.99232	-9.6239
930	0.98598	-9.86411	0.18768	73.58564	0.18768	73.58564	0.98598	-9.86411
950	0.98466	-9.96971	0.19652	72.96072	0.19652	72.96072	0.98466	-9.96971
970	0.98077	-11.18972	0.20694	72.26429	0.20694	72.26429	0.98077	-11.18972
990	0.97535	-11.86544	0.21574	72.00068	0.21574	72.00068	0.97535	-11.86544
1010	0.97032	-12.43304	0.2245	71.55219	0.2245	71.55219	0.97032	-12.43304
1030	0.96772	-12.98569	0.2335	70.82695	0.2335	70.82695	0.96772	-12.98569
1050	0.96975	-13.27356	0.24173	70.25884	0.24173	70.25884	0.96975	-13.27356
1070	0.9698	-13.87111	0.24926	70.03197	0.24926	70.03197	0.9698	-13.87111
1090	0.96445	-14.41605	0.25771	69.23669	0.25771	69.23669	0.96445	-14.41605
1110	0.95697	-14.87681	0.26632	68.5034	0.26632	68.5034	0.95697	-14.87681
1130	0.95029	-15.31944	0.27469	67.9292	0.27469	67.9292	0.95029	-15.31944
1150	0.94697	-15.90761	0.28278	67.07787	0.28278	67.07787	0.94697	-15.90761
1170	0.93948	-16.84286	0.29001	66.85544	0.29001	66.85544	0.93948	-16.84286
1190	0.93591	-17.83095	0.29974	66.43743	0.29974	66.43743	0.93591	-17.83095
1210	0.93499	-18.76659	0.3082	65.81915	0.3082	65.81915	0.93499	-18.76659
1230	0.93605	-19.49013	0.31484	65.25263	0.31484	65.25263	0.93605	-19.49013
1250	0.93905	-19.78759	0.32226	65.24665	0.32226	65.24665	0.93905	-19.78759
1270	0.94443	-20.55763	0.32988	64.69578	0.32988	64.69578	0.94443	-20.55763
1290	0.94211	-21.21587	0.33718	63.91311	0.33718	63.91311	0.94211	-21.21587
1310	0.93822	-21.427	0.34371	63.35873	0.34371	63.35873	0.93822	-21.427
1330	0.93666	-21.42325	0.35031	62.96078	0.35031	62.96078	0.93666	-21.42325
1350	0.93904	-22.00438	0.35914	62.11538	0.35914	62.11538	0.93904	-22.00438
1370	0.92551	-22.57133	0.36481	61.8368	0.36481	61.8368	0.92551	-22.57133
1390	0.92276	-23.14495	0.37323	61.39679	0.37323	61.39679	0.92276	-23.14495
1410	0.92045	-23.8018	0.38072	60.86003	0.38072	60.86003	0.92045	-23.8018
1430	0.91644	-24.47505	0.3867	60.3574	0.3867	60.3574	0.91644	-24.47505
1450	0.91676	-24.95444	0.39366	60.08598	0.39366	60.08598	0.91676	-24.95444
1470	0.91548	-25.62975	0.40207	59.45156	0.40207	59.45156	0.91548	-25.62975
1490	0.91329	-26.01925	0.40719	58.69658	0.40719	58.69658	0.91329	-26.01925
1510	0.90842	-26.16615	0.41329	58.1898	0.41329	58.1898	0.90842	-26.16615
1530	0.90151	-26.33002	0.42122	57.8243	0.42122	57.8243	0.90151	-26.33002
1550	0.89558	-26.98678	0.42835	57.01755	0.42835	57.01755	0.89558	-26.98678
1570	0.88349	-27.79413	0.43444	56.2361	0.43444	56.2361	0.88349	-27.79413
1590	0.86633	-28.34278	0.44092	55.22025	0.44092	55.22025	0.86633	-28.34278
1610	0.85146	-28.33128	0.44263	54.44335	0.44263	54.44335	0.85146	-28.33128
1630	0.84649	-28.07564	0.44212	54.25949	0.44212	54.25949	0.84649	-28.07564
1650	0.85926	-28.50928	0.44968	54.9035	0.44968	54.9035	0.85926	-28.50928
1670	0.86528	-29.32362	0.45937	54.39175	0.45937	54.39175	0.86528	-29.32362
1690	0.86478	-29.84107	0.46679	54.24283	0.46679	54.24283	0.86478	-29.84107
1710	0.86348	-30.42375	0.47446	53.86002	0.47446	53.86002	0.86348	-30.42375
1730	0.8611	-31.13098	0.48264	53.18556	0.48264	53.18556	0.8611	-31.13098
1750	0.85134	-31.71931	0.48941	52.70065	0.48941	52.70065	0.85134	-31.71931
1770	0.84438	-32.06554	0.49708	52.43364	0.49708	52.43364	0.84438	-32.06554
1790	0.83966	-32.9665	0.50459	51.86787	0.50459	51.86787	0.83966	-32.9665
1810	0.83412	-33.85157	0.51035	51.31549	0.51035	51.31549	0.83412	-33.85157
1830	0.82857	-34.60612	0.51579	50.89888	0.51579	50.89888	0.82857	-34.60612
1850	0.82778	-35.57156	0.52539	50.55066	0.52539	50.55066	0.82778	-35.57156
1870	0.82836	-36.28403	0.53184	49.99742	0.53184	49.99742	0.82836	-36.28403
1890	0.82423	-36.47127	0.53469	49.50467	0.53469	49.50467	0.82423	-36.47127
1910	0.82132	-36.60098	0.54076	49.04672	0.54076	49.04672	0.82132	-36.60098
1930	0.81931	-37.0461	0.55004	48.49582	0.55004	48.49582	0.81931	-37.0461
1950	0.81154	-38.08474	0.55564	47.62216	0.55564	47.62216	0.81154	-38.08474
1970	0.80315	-38.38498	0.55984	47.14364	0.55984	47.14364	0.80315	-38.38498
1990	0.79854	-39.2087	0.56701	46.71639	0.56701	46.71639	0.79854	-39.2087
2010	0.79539	-39.8851	0.57576	46.1894	0.57576	46.1894	0.79539	-39.8851
2030	0.79124	-40.36726	0.58385	45.52992	0.58385	45.52992	0.79124	-40.36726
2050	0.78351	-41.23211	0.58825	44.82345	0.58825	44.82345	0.78351	-41.23211
2070	0.7776	-41.39879	0.59309	44.51697	0.59309	44.51697	0.7776	-41.39879
2090	0.77449	-41.97854	0.60146	44.14347	0.60146	44.14347	0.77449	-41.97854
2110	0.76839	-42.67035	0.60846	43.47383	0.60846	43.47383	0.76839	-42.67035
2130	0.75869	-43.28504	0.61433	42.64179	0.61433	42.64179	0.75869	-43.28504
2150	0.74991	-43.74521	0.6245	42.14392	0.6245	42.14392	0.74991	-43.74521
2170	0.74247	-44.51666	0.63104	41.38418	0.63104	41.38418	0.74247	-44.51666
2190	0.73305	-45.20276	0.63743	40.70933	0.63743	40.70933	0.73305	-45.20276
2210	0.72366	-45.92797	0.64627	39.99768	0.64627	39.99768	0.72366	-45.92797
2230	0.71515	-46.79519	0.65674	39.15623	0.65674	39.15623	0.71515	-46.79519
2250	0.70723	-47.8858	0.66461	38.12073	0.66461	38.12073	0.70723	-47.8858
2270	0.69294	-48.19281	0.66777	37.41801	0.66777	37.41801	0.69294	-48.19281
2290	0.68363	-48.88779	0.67831	36.59603	0.67831	36.59603	0.68363	-48.88779
2310	0.67198	-49.87963	0.68989	35.44684	0.68989	35.44684	0.67198	-49.87963
2330	0.65543	-50.82616	0.69829	34.11152	0.69829	34.11152	0.65543	-50.82616
2350	0.63613	-51.13414	0.70136	33.0802	0.70136	33.0802	0.63613	-51.13414
2370	0.62074	-52.30869	0.71307	31.75728	0.71307	31.75728	0.62074	-52.30869
2390	0.59824	-53.51575	0.72361	30.17469	0.72361	30.17469	0.59824	-53.51575
2410	0.57286	-54.62358	0.73335	28.38768	0.73335	28.38768	0.57286	-54.62358
2430	0.54647	-55.57969	0.74191	26.46878	0.74191	26.46878	0.54647	-55.57969
2450	0.51853	-56.41094	0.74819	24.50778	0.74819	24.50778	0.51853	-56.41094
2470	0.48304	-56.64351	0.75974	21.51019	0.75974	21.51019	0.48304	-56.64351
2490	0.43746	-55.8279	0.76124	18.26201	0.76124	18.26201	0.43746	-55.8279
2510	0.38708	-52.95923	0.75783	14.33597	0.75783	14.33597	0.38708	-52.95923
2530	0.33711	-46.54435	0.74717	9.58604	0.74717	9.58604	0.33711	-46.54435
2550	0.29266	-34.60191	0.71944	4.14743	0.71944	4.14743	0.29266	-34.60191
2570	0.30921	-15.9425	0.66654	-2.20454	0.66654	-2.20454	0.30921	-15.9425
2590	0.38573	-4.20405	0.58475	-7.89455	0.58475	-7.89455	0.38573	-4.20405
2610	0.49309	-0.17154	0.48414	-11.18486	0.48414	-11.18486	0.49309	-0.17154
2630	0.6043	-2.55478	0.37897	-9.79639	0.37897	-9.79639	0.6043	-2.55478
2650	0.69458	-7.98841	0.28768	-0.90871	0.28768	-0.90871	0.69458	-7.98841
2670	0.75227	-13.54799	0.26603	16.76503	0.26603	16.76503	0.75227	-13.54799
2690	0.78907	-18.69228	0.28395	30.39461	0.28395	30.39461	0.78907	-18.69228
2710	0.8078	-23.28394	0.31976	39.17107	0.31976	39.17107	0.8078	-23.28394
2730	0.81373	-27.0794	0.36033	43.63965	0.36033	43.63965	0.81373	-27.0794
2750	0.81455	-29.72891	0.40108	45.69978	0.40108	45.69978	0.81455	-29.72891
2770	0.81376	-32.52158	0.43509	46.11667	0.43509	46.11667	0.81376	-32.52158
2790	0.81159	-34.83597	0.46388	46.08508	0.46388	46.08508	0.81159	-34.83597
2810	0.80559	-36.7904	0.48821	45.7791	0.48821	45.7791	0.80559	-36.7904
2830	0.79672	-38.3287	0.50926	45.37222	0.50926	45.37222	0.79672	-38.3287
2850	0.78941	-39.22021	0.52869	45.03742	0.52869	45.03742	0.78941	-39.22021
2870	0.78142	-40.69689	0.54723	44.2009	0.54723	44.2009	0.78142	-40.69689
2890	0.77036	-42.13135	0.56232	43.48629	0.56232	43.48629	0.77036	-42.13135
2910	0.76139	-43.37761	0.57591	42.76975	0.57591	42.76975	0.76139	-43.37761
2930	0.75512	-44.41351	0.58857	42.05453	0.58857	42.05453	0.75512	-44.41351
2950	0.74756	-45.34071	0.59948	41.47101	0.59948	41.47101	0.74756	-45.34071
2970	0.74222	-46.02677	0.61122	40.97683	0.61122	40.97683	0.74222	-46.02677
2990	0.73381	-47.31062	0.61969	40.30158	0.61969	40.30158	0.73381	-47.31062
3010	0.72548	-48.30559	0.62571	39.75682	0.62571	39.75682	0.72548	-48.30559
3030	0.7193	-48.89555	0.63239	39.35927	0.63239	39.35927	0.7193	-48.89555
3050	0.71628	-49.73497	0.64518	38.8308	0.64518	38.8308	0.71628	-49.73497
3070	0.70782	-50.38298	0.65124	37.97443	0.65124	37.97443	0.70782	-50.38298
3090	0.69959	-50.9274	0.65464	37.44361	0.65464	37.44361	0.69959	-50.9274
3110	0.69375	-51.4704	0.66113	37.05251	0.66113	37.05251	0.69375	-51.4704
3130	0.6899	-52.14206	0.67094	36.62705	0.67094	36.62705	0.6899	-52.14206
3150	0.685	-53.10049	0.67877	36.00484	0.67877	36.00484	0.685	-53.10049
3170	0.67711	-53.55432	0.67961	35.51032	0.67961	35.51032	0.67711	-53.55432
3190	0.6746	-53.92527	0.68885	35.20418	0.68885	35.20418	0.6746	-53.92527
3210	0.67039	-54.5011	0.69572	34.89571	0.69572	34.89571	0.67039	-54.5011
3230	0.66242	-55.14738	0.69737	34.50216	0.69737	34.50216	0.66242	-55.14738
3250	0.65365	-55.30755	0.69892	34.04879	0.69892	34.04879	0.65365	-55.30755
3270	0.64956	-55.71164	0.70712	33.59824	0.70712	33.59824	0.64956	-55.71164
3290	0.64383	-56.58426	0.71051	33.13913	0.71051	33.13913	0.64383	-56.58426
3310	0.63788	-57.39	0.7145	32.77015	0.7145	32.77015	0.63788	-57.39
3330	0.63279	-57.96956	0.72112	32.46175	0.72112	32.46175	0.63279	-57.96956
3350	0.62935	-58.53975	0.72909	32.05623	0.72909	32.05623	0.62935	-58.53975
3370	0.62617	-58.95843	0.73151	31.58497	0.73151	31.58497	0.62617	-58.95843
3390	0.62179	-59.23522	0.73217	31.27004	0.73217	31.27004	0.62179	-59.23522
3410	0.61651	-59.53191	0.73505	30.8847	0.73505	30.8847	0.61651	-59.53191
3430	0.61015	-60.03402	0.74035	30.38342	0.74035	30.38342	0.61015	-60.03402
3450	0.60204	-60.95076	0.74446	29.90191	0.74446	29.90191	0.60204	-60.95076
3470	0.59233	-61.25371	0.74404	29.56102	0.74404	29.56102	0.59233	-61.25371
3490	0.58785	-61.75027	0.74958	29.36295	0.74958	29.36295	0.58785	-61.75027
3510	0.58312	-62.58922	0.75474	28.92779	0.75474	28.92779	0.58312	-62.58922
3530	0.57627	-63.49635	0.75669	28.30758	0.75669	28.30758	0.57627	-63.49635
3550	0.56898	-63.77441	0.75608	27.98624	0.75608	27.98624	0.56898	-63.77441
3570	0.56632	-64.28256	0.76272	27.45002	0.76272	27.45002	0.56632	-64.28256
3590	0.55905	-64.78673	0.76404	26.93421	0.76404	26.93421	0.55905	-64.78673
3610	0.54938	-64.97864	0.76301	26.61578	0.76301	26.61578	0.54938	-64.97864
3630	0.54047	-64.79862	0.76272	26.42852	0.76272	26.42852	0.54047	-64.79862
3650	0.53648	-64.43562	0.76641	26.06306	0.76641	26.06306	0.53648	-64.43562
3670	0.53377	-64.30165	0.76198	25.93187	0.76198	25.93187	0.53377	-64.30165
3690	0.53388	-64.27657	0.76503	26.10678	0.76503	26.10678	0.53388	-64.27657
3710	0.53593	-64.66084	0.7724	26.00951	0.7724	26.00951	0.53593	-64.66084
3730	0.53734	-65.3782	0.77935	25.55525	0.77935	25.55525	0.53734	-65.3782
3750	0.53386	-65.97566	0.77961	25.15266	0.77961	25.15266	0.53386	-65.97566
3770	0.53172	-66.53183	0.78545	25.08679	0.78545	25.08679	0.53172	-66.53183
3790	0.5297	-67.32165	0.79295	24.40776	0.79295	24.40776	0.5297	-67.32165
3810	0.52381	-67.88382	0.79786	23.93051	0.79786	23.93051	0.52381	-67.88382
3830	0.51491	-68.22406	0.79945	23.75879	0.79945	23.75879	0.51491	-68.22406
3850	0.5088	-68.81507	0.80056	23.2852	0.80056	23.2852	0.5088	-68.81507
3870	0.50426	-69.51179	0.80023	23.36374	0.80023	23.36374	0.50426	-69.51179
3890	0.49992	-70.0699	0.80809	22.99373	0.80809	22.99373	0.49992	-70.0699
3910	0.49625	-70.76109	0.81248	22.42115	0.81248	22.42115	0.49625	-70.76109
3930	0.49242	-71.57198	0.8112	21.89237	0.8112	21.89237	0.49242	-71.57198
3950	0.48623	-72.20416	0.81148	21.65416	0.81148	21.65416	0.48623	-72.20416
3970	0.48477	-72.5819	0.81981	21.58486	0.81981	21.58486	0.48477	-72.5819
3990	0.48057	-73.29211	0.82115	20.95765	0.82115	20.95765	0.48057	-73.29211
4010	0.47606	-73.72291	0.82166	20.47429	0.82166	20.47429	0.47606	-73.72291
4030	0.47188	-73.88344	0.82344	20.17842	0.82344	20.17842	0.47188	-73.88344
4050	0.46687	-74.40392	0.82461	19.45556	0.82461	19.45556	0.46687	-74.40392
4070	0.45873	-74.72464	0.82642	19.4758	0.82642	19.4758	0.45873	-74.72464
4090	0.45075	-75.15192	0.83057	18.91703	0.83057	18.91703	0.45075	-75.15192
4110	0.44323	-75.66431	0.83256	18.46517	0.83256	18.46517	0.44323	-75.66431
4130	0.43717	-76.26324	0.83265	18.28909	0.83265	18.28909	0.43717	-76.26324
4150	0.43426	-76.97309	0.83583	18.04067	0.83583	18.04067	0.43426	-76.97309
4170	0.42888	-78.05119	0.84503	17.17404	0.84503	17.17404	0.42888	-78.05119
4190	0.42196	-78.53519	0.84302	16.7104	0.84302	16.7104	0.42196	-78.53519
4210	0.41731	-78.98239	0.84044	16.40638	0.84044	16.40638	0.41731	-78.98239
4230	0.41457	-79.56247	0.84201	16.05388	0.84201	16.05388	0.41457	-79.56247
4250	0.40918	-80.0575	0.84657	15.48011	0.84657	15.48011	0.40918	-80.0575
4270	0.40003	-80.03374	0.84722	15.43013	0.84722	15.43013	0.40003	-80.03374
4290	0.393	-80.51667	0.85043	14.81625	0.85043	14.81625	0.393	-80.51667
4310	0.3861	-81.27339	0.8525	14.17774	0.8525	14.17774	0.3861	-81.27339
4330	0.37847	-82.09066	0.85341	13.76297	0.85341	13.76297	0.37847	-82.09066
4350	0.3704	-82.77486	0.85678	13.52939	0.85678	13.52939	0.3704	-82.77486
4370	0.36229	-83.50104	0.85707	12.50022	0.85707	12.50022	0.36229	-83.50104
4390	0.35465	-83.78414	0.85613	11.95925	0.85613	11.95925	0.35465	-83.78414
4410	0.34802	-84.03325	0.85971	11.37066	0.85971	11.37066	0.34802	-84.03325
4430	0.34012	-84.32197	0.86528	10.66529	0.86528	10.66529	0.34012	-84.32197
4450	0.32583	-84.38846	0.86206	10.24062	0.86206	10.24062	0.32583	-84.38846
4470	0.31071	-84.24165	0.86213	9.19654	0.86213	9.19654	0.31071	-84.24165
4490	0.2958	-84.34811	0.8591	8.31534	0.8591	8.31534	0.2958	-84.34811
4510	0.27973	-84.30206	0.85457	7.46032	0.85457	7.46032	0.27973	-84.30206
4530	0.26248	-83.83143	0.85085	6.48395	0.85085	6.48395	0.26248	-83.83143
4550	0.24543	-82.79788	0.85104	5.22791	0.85104	5.22791	0.24543	-82.79788
4570	0.22866	-80.39959	0.84326	3.78064	0.84326	3.78064	0.22866	-80.39959
4590	0.21138	-76.43899	0.83179	2.4404	0.83179	2.4404	0.21138	-76.43899
4610	0.19598	-69.90516	0.81752	1.05117	0.81752	1.05117	0.19598	-69.90516
4630	0.18624	-60.51891	0.79816	-0.45772	0.79816	-0.45772	0.18624	-60.51891
4650	0.18727	-48.73283	0.76826	-2.07157	0.76826	-2.07157	0.18727	-48.73283
4670	0.21224	-38.09763	0.72732	-3.16842	0.72732	-3.16842	0.21224	-38.09763
4690	0.25408	-31.67349	0.68289	-3.74225	0.68289	-3.74225	0.25408	-31.67349
4710	0.30649	-29.34789	0.636	-2.8048	0.636	-2.8048	0.30649	-29.34789
4730	0.36302	-30.52811	0.59222	-0.01427	0.59222	-0.01427	0.36302	-30.52811
4750	0.41701	-34.14129	0.56172	4.3247	0.56172	4.3247	0.41701	-34.14129
4770	0.45877	-39.69328	0.55802	9.54159	0.55802	9.54159	0.45877	-39.69328
4790	0.48915	-45.245	0.57007	13.96458	0.57007	13.96458	0.48915	-45.245
4810	0.50816	-50.36108	0.59457	17.2077	0.59457	17.2077	0.50816	-50.36108
4830	0.51726	-54.77753	0.62556	19.21931	0.62556	19.21931	0.51726	-54.77753
4850	0.51933	-58.40165	0.65447	20.28212	0.65447	20.28212	0.51933	-58.40165
4870	0.51947	-61.74068	0.67942	20.35561	0.67942	20.35561	0.51947	-61.74068
4890	0.51282	-64.85562	0.69906	20.24162	0.69906	20.24162	0.51282	-64.85562
4910	0.50457	-67.49555	0.71866	20.06697	0.71866	20.06697	0.50457	-67.49555
4930	0.49785	-69.61995	0.73943	19.72305	0.73943	19.72305	0.49785	-69.61995
4950	0.49377	-71.39876	0.75843	18.86582	0.75843	18.86582	0.49377	-71.39876
4970	0.48591	-73.52502	0.76136	18.60645	0.76136	18.60645	0.48591	-73.52502
4990	0.48085	-75.09726	0.77402	18.31809	0.77402	18.31809	0.48085	-75.09726
5010	0.47716	-76.43817	0.78689	17.70758	0.78689	17.70758	0.47716	-76.43817
5030	0.47273	-77.49585	0.79491	16.88886	0.79491	16.88886	0.47273	-77.49585
5050	0.46477	-77.84376	0.79752	16.38298	0.79752	16.38298	0.46477	-77.84376
5070	0.45857	-78.56913	0.80861	15.93582	0.80861	15.93582	0.45857	-78.56913
5090	0.45302	-79.42469	0.81406	15.58667	0.81406	15.58667	0.45302	-79.42469
5110	0.44489	-79.88522	0.81913	15.0877	0.81913	15.0877	0.44489	-79.88522
5130	0.43534	-80.11951	0.82455	14.51204	0.82455	14.51204	0.43534	-80.11951
5150	0.4299	-80.99037	0.82647	14.25381	0.82647	14.25381	0.4299	-80.99037
5170	0.42859	-81.95821	0.83172	13.96817	0.83172	13.96817	0.42859	-81.95821
5190	0.42156	-82.51568	0.83289	13.3889	0.83289	13.3889	0.42156	-82.51568
5210	0.41348	-82.7502	0.83368	12.89532	0.83368	12.89532	0.41348	-82.7502
5230	0.40813	-82.78167	0.83641	12.5325	0.83641	12.5325	0.40813	-82.78167
5250	0.40841	-82.7624	0.84204	12.01122	0.84204	12.01122	0.40841	-82.7624
5270	0.39828	-83.71706	0.84019	11.4564	0.84019	11.4564	0.39828	-83.71706
5290	0.38937	-84.0715	0.83921	11.30813	0.83921	11.30813	0.38937	-84.0715
5310	0.38568	-84.00718	0.84362	11.098	0.84362	11.098	0.38568	-84.00718
5330	0.38505	-84.01302	0.84919	10.58392	0.84919	10.58392	0.38505	-84.01302
5350	0.37912	-84.88532	0.84299	9.75013	0.84299	9.75013	0.37912	-84.88532
5370	0.37242	-84.99915	0.84171	9.8629	0.84171	9.8629	0.37242	-84.99915
5390	0.36828	-84.35292	0.84777	9.61905	0.84777	9.61905	0.36828	-84.35292
