#	mhz	s	ma	r	50
50	0.29724	70.44	0.93584	-16.688	0.93584	-16.688	0.29724	70.44
70	0.39005	63.47	0.89726	-23.693	0.89726	-23.693	0.39005	63.47
90	0.47351	58.241	0.84997	-29.093	0.84997	-29.093	0.47351	58.241
110	0.55154	53.365	0.80397	-34.099	0.80397	-34.099	0.55154	53.365
130	0.62113	48.5	0.75885	-39.06	0.75885	-39.06	0.62113	48.5
150	0.67234	44.351	0.70378	-43.461	0.70378	-43.461	0.67234	44.351
170	0.72021	40.592	0.65423	-47.06	0.65423	-47.06	0.72021	40.592
190	0.76009	36.743	0.60451	-50.955	0.60451	-50.955	0.76009	36.743
210	0.79484	33.602	0.55777	-54.413	0.55777	-54.413	0.79484	33.602
230	0.82737	31.009	0.51589	-57.347	0.51589	-57.347	0.82737	31.009
250	0.86069	27.852	0.47948	-60.317	0.47948	-60.317	0.86069	27.852
270	0.87073	24.913	0.43501	-63.126	0.43501	-63.126	0.87073	24.913
290	0.88978	22.922	0.39889	-65.171	0.39889	-65.171	0.88978	22.922
310	0.90985	20.676	0.36571	-67.448	0.36571	-67.448	0.90985	20.676
330	0.92458	18.137	0.33258	-69.908	0.33258	-69.908	0.92458	18.137
350	0.92927	16.436	0.29918	-71.458	0.29918	-71.458	0.92927	16.436
370	0.94806	14.756	0.27208	-73.328	0.27208	-73.328	0.94806	14.756
390	0.95666	12.944	0.24386	-74.99	0.24386	-74.99	0.95666	12.944
410	0.96393	11.461	0.21638	-76.308	0.21638	-76.308	0.96393	11.461
430	0.97171	10.206	0.19055	-77.389	0.19055	-77.389	0.97171	10.206
450	0.97481	8.519	0.16638	-78.585	0.16638	-78.585	0.97481	8.519
470	0.97283	7.421	0.14111	-79.269	0.14111	-79.269	0.97283	7.421
490	1.0132	5.538	0.11877	-81.835	0.11877	-81.835	1.0132	5.538
510	1.03495	4.008	0.09701	-82.796	0.09701	-82.796	1.03495	4.008
530	1.02069	3.127	0.07507	-81.226	0.07507	-81.226	1.02069	3.127
550	0.99668	2.344	0.05377	-78.754	0.05377	-78.754	0.99668	2.344
570	0.9845	0.6	0.03364	-74.844	0.03364	-74.844	0.9845	0.6
590	0.97557	-0.85	0.01613	-52.139	0.01613	-52.139	0.97557	-0.85
610	0.9743	-2.569	0.0113	5.342	0.0113	5.342	0.9743	-2.569
630	0.97747	-4.549	0.02027	71.562	0.02027	71.562	0.97747	-4.549
650	0.97435	-6.214	0.03526	78.462	0.03526	78.462	0.97435	-6.214
670	0.98383	-6.808	0.05083	79.283	0.05083	79.283	0.98383	-6.808
690	0.9918	-7.317	0.06675	79.435	0.06675	79.435	0.9918	-7.317
710	0.99377	-7.928	0.08266	79.478	0.08266	79.478	0.99377	-7.928
730	0.98903	-8.621	0.09809	79.727	0.09809	79.727	0.98903	-8.621
750	0.9806	-9.165	0.1125	80.243	0.1125	80.243	0.9806	-9.165
770	0.97172	-10.061	0.12489	80.353	0.12489	80.353	0.97172	-10.061
790	0.96162	-11.184	0.13636	80.176	0.13636	80.176	0.96162	-11.184
810	0.95646	-12.653	0.1471	79.417	0.1471	79.417	0.95646	-12.653
830	0.95421	-14.277	0.15722	78.007	0.15722	78.007	0.95421	-14.277
850	0.94472	-15.56	0.16676	76.105	0.16676	76.105	0.94472	-15.56
870	0.95001	-16.576	0.18006	74.788	0.18006	74.788	0.95001	-16.576
890	0.95877	-17.899	0.19487	73.127	0.19487	73.127	0.95877	-17.899
910	0.96438	-18.983	0.20988	71.811	0.20988	71.811	0.96438	-18.983
930	0.96746	-19.564	0.22504	71.13	0.22504	71.13	0.96746	-19.564
950	0.97583	-19.654	0.24152	70.97	0.24152	70.97	0.97583	-19.654
970	0.97792	-20.209	0.25452	70.761	0.25452	70.761	0.97792	-20.209
990	0.97356	-20.533	0.26468	70.784	0.26468	70.784	0.97356	-20.533
1010	0.96886	-20.913	0.27408	70.764	0.27408	70.764	0.96886	-20.913
1030	0.96461	-21.373	0.283	70.452	0.283	70.452	0.96461	-21.373
1050	0.95633	-21.677	0.28993	69.626	0.28993	69.626	0.95633	-21.677
1070	0.95027	-22.468	0.30066	68.415	0.30066	68.415	0.95027	-22.468
1090	0.94225	-23.431	0.31313	66.983	0.31313	66.983	0.94225	-23.431
1110	0.93711	-24.236	0.32656	66.008	0.32656	66.008	0.93711	-24.236
1130	0.93558	-24.858	0.34031	65.572	0.34031	65.572	0.93558	-24.858
1150	0.93425	-25.58	0.35391	65.161	0.35391	65.161	0.93425	-25.58
1170	0.93531	-26.174	0.36518	65.334	0.36518	65.334	0.93531	-26.174
1190	0.93439	-26.653	0.37467	65.468	0.37467	65.468	0.93439	-26.653
1210	0.93085	-27.112	0.38017	65.456	0.38017	65.456	0.93085	-27.112
1230	0.92484	-27.471	0.38333	65.231	0.38333	65.231	0.92484	-27.471
1250	0.91743	-27.469	0.38966	64.768	0.38966	64.768	0.91743	-27.469
1270	0.9178	-28.315	0.39748	63.617	0.39748	63.617	0.9178	-28.315
1290	0.90608	-29.09	0.40349	62.405	0.40349	62.405	0.90608	-29.09
1310	0.89548	-29.783	0.41227	61.398	0.41227	61.398	0.89548	-29.783
1330	0.89028	-30.58	0.42471	60.532	0.42471	60.532	0.89028	-30.58
1350	0.88585	-31.872	0.43799	59.413	0.43799	59.413	0.88585	-31.872
1370	0.88188	-32.397	0.44477	59.505	0.44477	59.505	0.88188	-32.397
1390	0.8825	-32.837	0.45359	59.342	0.45359	59.342	0.8825	-32.837
1410	0.88256	-33.373	0.46044	58.831	0.46044	58.831	0.88256	-33.373
1430	0.88038	-33.865	0.46478	58.192	0.46478	58.192	0.88038	-33.865
1450	0.87773	-33.848	0.46948	57.962	0.46948	57.962	0.87773	-33.848
1470	0.87493	-34.467	0.47616	56.933	0.47616	56.933	0.87493	-34.467
1490	0.86573	-35.016	0.48273	55.858	0.48273	55.858	0.86573	-35.016
1510	0.85714	-35.494	0.49179	55.039	0.49179	55.039	0.85714	-35.494
1530	0.85259	-35.98	0.50339	54.412	0.50339	54.412	0.85259	-35.98
1550	0.85194	-36.637	0.51512	53.548	0.51512	53.548	0.85194	-36.637
1570	0.84483	-37.503	0.5246	52.993	0.5246	52.993	0.84483	-37.503
1590	0.84129	-37.997	0.53241	52.853	0.53241	52.853	0.84129	-37.997
1610	0.83997	-38.305	0.53886	52.683	0.53886	52.683	0.83997	-38.305
1630	0.83912	-38.61	0.54443	52.275	0.54443	52.275	0.83912	-38.61
1650	0.83651	-39.094	0.54977	51.661	0.54977	51.661	0.83651	-39.094
1670	0.82312	-39.254	0.55343	51.134	0.55343	51.134	0.82312	-39.254
1690	0.81651	-39.474	0.55982	50.545	0.55982	50.545	0.81651	-39.474
1710	0.81162	-40.022	0.56806	49.661	0.56806	49.661	0.81162	-40.022
1730	0.80524	-40.836	0.57667	48.673	0.57667	48.673	0.80524	-40.836
1750	0.79596	-41.528	0.58366	48.198	0.58366	48.198	0.79596	-41.528
1770	0.79458	-42.256	0.59618	47.824	0.59618	47.824	0.79458	-42.256
1790	0.79068	-42.952	0.60521	47.405	0.60521	47.405	0.79068	-42.952
1810	0.78546	-43.338	0.61055	47.22	0.61055	47.22	0.78546	-43.338
1830	0.78174	-43.539	0.61464	47.171	0.61464	47.171	0.78174	-43.539
1850	0.78392	-44.084	0.62258	46.786	0.62258	46.786	0.78392	-44.084
1870	0.7732	-44.619	0.62356	45.811	0.62356	45.811	0.7732	-44.619
1890	0.76558	-44.844	0.62511	45.409	0.62511	45.409	0.76558	-44.844
1910	0.763	-45.066	0.63102	44.959	0.63102	44.959	0.763	-45.066
1930	0.76223	-45.608	0.64052	44.243	0.64052	44.243	0.76223	-45.608
1950	0.75487	-46.802	0.64826	43.451	0.64826	43.451	0.75487	-46.802
1970	0.74459	-46.962	0.65647	43.185	0.65647	43.185	0.74459	-46.962
1990	0.73918	-47.406	0.66547	42.868	0.66547	42.868	0.73918	-47.406
2010	0.73892	-47.89	0.67251	42.636	0.67251	42.636	0.73892	-47.89
2030	0.74003	-48.275	0.67611	42.396	0.67611	42.396	0.74003	-48.275
2050	0.73463	-48.532	0.67608	41.82	0.67608	41.82	0.73463	-48.532
2070	0.72806	-48.654	0.68015	41.589	0.68015	41.589	0.72806	-48.654
2090	0.72376	-48.838	0.68493	41.052	0.68493	41.052	0.72376	-48.838
2110	0.71693	-49.172	0.68893	40.279	0.68893	40.279	0.71693	-49.172
2130	0.70738	-49.56	0.69241	39.518	0.69241	39.518	0.70738	-49.56
2150	0.69957	-49.719	0.69729	39.203	0.69729	39.203	0.69957	-49.719
2170	0.69465	-50.529	0.70629	38.456	0.70629	38.456	0.69465	-50.529
2190	0.68928	-51.208	0.71418	37.813	0.71418	37.813	0.68928	-51.208
2210	0.68529	-51.683	0.72088	37.347	0.72088	37.347	0.68529	-51.683
2230	0.68149	-52.013	0.72558	36.963	0.72558	36.963	0.68149	-52.013
2250	0.67366	-52.389	0.72673	36.39	0.72673	36.39	0.67366	-52.389
2270	0.66762	-52.577	0.72856	35.947	0.72856	35.947	0.66762	-52.577
2290	0.66301	-52.79	0.73445	35.683	0.73445	35.683	0.66301	-52.79
2310	0.65536	-53.291	0.73946	34.992	0.73946	34.992	0.65536	-53.291
2330	0.644	-53.964	0.7427	34.03	0.7427	34.03	0.644	-53.964
2350	0.63202	-54.308	0.74743	33.708	0.74743	33.708	0.63202	-54.308
2370	0.62877	-54.77	0.75756	33.231	0.75756	33.231	0.62877	-54.77
2390	0.62313	-55.475	0.76501	32.588	0.76501	32.588	0.62313	-55.475
2410	0.61853	-56.073	0.77032	32.149	0.77032	32.149	0.61853	-56.073
2430	0.61522	-56.482	0.77418	31.892	0.77418	31.892	0.61522	-56.482
2450	0.61023	-56.879	0.77743	31.409	0.77743	31.409	0.61023	-56.879
2470	0.60354	-57.279	0.78575	31.343	0.78575	31.343	0.60354	-57.279
2490	0.59519	-57.402	0.78722	30.569	0.78722	30.569	0.59519	-57.402
2510	0.58807	-57.643	0.78852	29.783	0.78852	29.783	0.58807	-57.643
2530	0.58103	-58.122	0.79276	29.225	0.79276	29.225	0.58103	-58.122
2550	0.56884	-58.695	0.79949	28.678	0.79949	28.678	0.56884	-58.695
2570	0.55914	-59.177	0.80503	28.082	0.80503	28.082	0.55914	-59.177
2590	0.55174	-59.931	0.81128	27.58	0.81128	27.58	0.55174	-59.931
2610	0.54512	-60.816	0.81644	26.912	0.81644	26.912	0.54512	-60.816
2630	0.53825	-61.562	0.82025	26.287	0.82025	26.287	0.53825	-61.562
2650	0.53059	-61.775	0.82395	26.379	0.82395	26.379	0.53059	-61.775
2670	0.52686	-62.097	0.8304	25.744	0.8304	25.744	0.52686	-62.097
2690	0.51802	-62.448	0.83381	25.0	0.83381	25.0	0.51802	-62.448
2710	0.50604	-62.779	0.83563	24.285	0.83563	24.285	0.50604	-62.779
2730	0.4936	-63.122	0.83821	23.631	0.83821	23.631	0.4936	-63.122
2750	0.48406	-63.591	0.84476	22.96	0.84476	22.96	0.48406	-63.591
2770	0.46858	-64.4	0.84796	21.779	0.84796	21.779	0.46858	-64.4
2790	0.45673	-64.929	0.85268	20.863	0.85268	20.863	0.45673	-64.929
2810	0.44517	-65.445	0.85941	19.954	0.85941	19.954	0.44517	-65.445
2830	0.4317	-65.93	0.8657	19.012	0.8657	19.012	0.4317	-65.93
2850	0.41527	-66.082	0.8662	18.223	0.8662	18.223	0.41527	-66.082
2870	0.39883	-66.333	0.86884	17.106	0.86884	17.106	0.39883	-66.333
2890	0.38016	-66.629	0.87262	15.922	0.87262	15.922	0.38016	-66.629
2910	0.35852	-66.711	0.87844	14.524	0.87844	14.524	0.35852	-66.711
2930	0.33443	-66.55	0.88345	12.915	0.88345	12.915	0.33443	-66.55
2950	0.30959	-66.35	0.88105	11.245	0.88105	11.245	0.30959	-66.35
2970	0.28206	-65.375	0.87859	8.955	0.87859	8.955	0.28206	-65.375
2990	0.25294	-62.461	0.87525	6.705	0.87525	6.705	0.25294	-62.461
3010	0.22304	-56.695	0.86878	4.479	0.86878	4.479	0.22304	-56.695
3030	0.1963	-46.868	0.85643	2.034	0.85643	2.034	0.1963	-46.868
3050	0.17978	-31.478	0.83499	-1.097	0.83499	-1.097	0.17978	-31.478
3070	0.19995	-12.993	0.79866	-4.81	0.79866	-4.81	0.19995	-12.993
3090	0.25496	-0.348	0.74365	-8.766	0.74365	-8.766	0.25496	-0.348
3110	0.33652	5.376	0.66733	-12.128	0.66733	-12.128	0.33652	5.376
3130	0.43369	4.671	0.57341	-13.831	0.57341	-13.831	0.43369	4.671
3150	0.53285	-0.394	0.47194	-12.587	0.47194	-12.587	0.53285	-0.394
3170	0.60614	-8.071	0.3951	-2.722	0.3951	-2.722	0.60614	-8.071
3190	0.65765	-15.328	0.37306	10.515	0.37306	10.515	0.65765	-15.328
3210	0.68713	-22.12	0.3934	22.127	0.3934	22.127	0.68713	-22.12
3230	0.69765	-28.199	0.44002	29.732	0.44002	29.732	0.69765	-28.199
3250	0.69559	-33.111	0.4931	33.563	0.4931	33.563	0.69559	-33.111
3270	0.69319	-37.606	0.54104	34.444	0.54104	34.444	0.69319	-37.606
3290	0.68239	-41.205	0.58138	34.354	0.58138	34.354	0.68239	-41.205
3310	0.67056	-43.989	0.61572	33.878	0.61572	33.878	0.67056	-43.989
3330	0.6604	-46.317	0.64524	33.229	0.64524	33.229	0.6604	-46.317
3350	0.64999	-48.824	0.67073	32.244	0.67073	32.244	0.64999	-48.824
3370	0.63309	-50.504	0.6905	31.305	0.6905	31.305	0.63309	-50.504
3390	0.61837	-51.677	0.70825	30.611	0.70825	30.611	0.61837	-51.677
3410	0.60822	-52.926	0.72604	30.011	0.72604	30.011	0.60822	-52.926
3430	0.59987	-54.474	0.7423	29.336	0.7423	29.336	0.59987	-54.474
3450	0.58537	-56.182	0.75181	28.402	0.75181	28.402	0.58537	-56.182
3470	0.57589	-57.134	0.75913	27.838	0.75913	27.838	0.57589	-57.134
3490	0.56942	-57.858	0.76981	27.249	0.76981	27.249	0.56942	-57.858
3510	0.56323	-58.691	0.77835	26.62	0.77835	26.62	0.56323	-58.691
3530	0.55586	-59.549	0.78371	25.973	0.78371	25.973	0.55586	-59.549
3550	0.54712	-59.93	0.78927	25.362	0.78927	25.362	0.54712	-59.93
3570	0.54108	-60.553	0.80188	24.513	0.80188	24.513	0.54108	-60.553
3590	0.53107	-61.194	0.80864	23.768	0.80864	23.768	0.53107	-61.194
3610	0.522	-61.914	0.81463	23.297	0.81463	23.297	0.522	-61.914
3630	0.51555	-62.783	0.82142	23.008	0.82142	23.008	0.51555	-62.783
3650	0.51013	-63.873	0.82702	22.549	0.82702	22.549	0.51013	-63.873
3670	0.50587	-64.188	0.82763	22.009	0.82763	22.009	0.50587	-64.188
3690	0.50059	-64.389	0.83387	22.056	0.83387	22.056	0.50059	-64.389
3710	0.49621	-64.778	0.83793	21.659	0.83793	21.659	0.49621	-64.778
3730	0.49115	-65.313	0.83832	20.738	0.83832	20.738	0.49115	-65.313
3750	0.48024	-65.609	0.83982	20.155	0.83982	20.155	0.48024	-65.609
3770	0.47335	-65.869	0.84591	19.856	0.84591	19.856	0.47335	-65.869
3790	0.46705	-66.508	0.85074	19.368	0.85074	19.368	0.46705	-66.508
3810	0.46178	-67.276	0.85491	18.92	0.85491	18.92	0.46178	-67.276
3830	0.45785	-67.972	0.85859	18.554	0.85859	18.554	0.45785	-67.972
3850	0.45543	-68.44	0.86161	18.127	0.86161	18.127	0.45543	-68.44
3870	0.45146	-68.536	0.86593	18.023	0.86593	18.023	0.45146	-68.536
3890	0.44936	-68.909	0.86747	17.792	0.86747	17.792	0.44936	-68.909
3910	0.44449	-69.263	0.86817	17.258	0.86817	17.258	0.44449	-69.263
3930	0.43667	-69.424	0.86923	16.66	0.86923	16.66	0.43667	-69.424
3950	0.43012	-69.343	0.87113	16.652	0.87113	16.652	0.43012	-69.343
3970	0.42559	-69.769	0.87637	16.357	0.87637	16.357	0.42559	-69.769
3990	0.42043	-70.603	0.87602	15.662	0.87602	15.662	0.42043	-70.603
4010	0.41524	-71.196	0.8762	15.235	0.8762	15.235	0.41524	-71.196
4030	0.41108	-71.431	0.87853	15.146	0.87853	15.146	0.41108	-71.431
4050	0.40941	-71.726	0.88011	14.868	0.88011	14.868	0.40941	-71.726
4070	0.40777	-71.972	0.87984	14.186	0.87984	14.186	0.40777	-71.972
4090	0.40342	-72.328	0.88289	13.743	0.88289	13.743	0.40342	-72.328
4110	0.39781	-72.499	0.88485	13.434	0.88485	13.434	0.39781	-72.499
4130	0.39166	-72.484	0.8851	13.223	0.8851	13.223	0.39166	-72.484
4150	0.38498	-72.573	0.88685	13.152	0.88685	13.152	0.38498	-72.573
4170	0.3796	-73.52	0.89055	12.465	0.89055	12.465	0.3796	-73.52
4190	0.37599	-73.917	0.89263	12.213	0.89263	12.213	0.37599	-73.917
4210	0.37236	-74.311	0.89467	11.963	0.89467	11.963	0.37236	-74.311
4230	0.36828	-74.883	0.89587	11.591	0.89587	11.591	0.36828	-74.883
4250	0.36473	-75.447	0.89304	11.28	0.89304	11.28	0.36473	-75.447
4270	0.36306	-75.517	0.89607	11.114	0.89607	11.114	0.36306	-75.517
4290	0.35903	-75.65	0.89888	10.699	0.89888	10.699	0.35903	-75.65
4310	0.35266	-75.52	0.89951	10.391	0.89951	10.391	0.35266	-75.52
4330	0.34504	-75.354	0.89931	10.22	0.89931	10.22	0.34504	-75.354
4350	0.3383	-75.932	0.90292	9.883	0.90292	9.883	0.3383	-75.932
4370	0.33349	-76.113	0.90272	9.53	0.90272	9.53	0.33349	-76.113
4390	0.3297	-76.277	0.90565	9.232	0.90565	9.232	0.3297	-76.277
4410	0.32672	-76.623	0.9084	8.855	0.9084	8.855	0.32672	-76.623
4430	0.32424	-76.92	0.90982	8.461	0.90982	8.461	0.32424	-76.92
4450	0.32191	-76.516	0.911	8.313	0.911	8.313	0.32191	-76.516
4470	0.31917	-76.448	0.91185	7.968	0.91185	7.968	0.31917	-76.448
4490	0.31505	-76.383	0.9126	7.492	0.9126	7.492	0.31505	-76.383
4510	0.30889	-76.112	0.91306	7.245	0.91306	7.245	0.30889	-76.112
4530	0.30177	-75.913	0.91448	7.138	0.91448	7.138	0.30177	-75.913
4550	0.29646	-76.547	0.91954	6.632	0.91954	6.632	0.29646	-76.547
4570	0.29094	-77.426	0.91875	6.243	0.91875	6.243	0.29094	-77.426
4590	0.28624	-78.111	0.91628	6.047	0.91628	6.047	0.28624	-78.111
4610	0.28329	-78.576	0.91754	5.714	0.91754	5.714	0.28329	-78.576
4630	0.28171	-78.755	0.92107	5.248	0.92107	5.248	0.28171	-78.755
4650	0.27979	-78.547	0.91862	4.993	0.91862	4.993	0.27979	-78.547
4670	0.27495	-78.135	0.92369	4.59	0.92369	4.59	0.27495	-78.135
4690	0.26935	-77.711	0.92741	4.268	0.92741	4.268	0.26935	-77.711
4710	0.26253	-77.497	0.92678	3.924	0.92678	3.924	0.26253	-77.497
4730	0.25512	-77.577	0.92273	3.502	0.92273	3.502	0.25512	-77.577
4750	0.24888	-77.902	0.92009	3.002	0.92009	3.002	0.24888	-77.902
4770	0.24295	-78.195	0.9261	2.887	0.9261	2.887	0.24295	-78.195
4790	0.23665	-78.788	0.92743	2.508	0.92743	2.508	0.23665	-78.788
4810	0.23332	-78.959	0.92646	2.107	0.92646	2.107	0.23332	-78.959
4830	0.23213	-78.561	0.92525	1.76	0.92525	1.76	0.23213	-78.561
4850	0.22812	-78.024	0.92544	1.383	0.92544	1.383	0.22812	-78.024
4870	0.22127	-77.27	0.92557	0.951	0.92557	0.951	0.22127	-77.27
4890	0.21336	-76.78	0.92414	0.482	0.92414	0.482	0.21336	-76.78
4910	0.2054	-76.163	0.92777	0.065	0.92777	0.065	0.2054	-76.163
4930	0.19771	-75.77	0.9326	-0.342	0.9326	-0.342	0.19771	-75.77
4950	0.18991	-76.701	0.92434	-0.908	0.92434	-0.908	0.18991	-76.701
4970	0.18515	-76.897	0.92329	-1.218	0.92329	-1.218	0.18515	-76.897
4990	0.18103	-76.364	0.92509	-1.501	0.92509	-1.501	0.18103	-76.364
5010	0.1766	-75.689	0.92461	-1.882	0.92461	-1.882	0.1766	-75.689
5030	0.17112	-74.768	0.92207	-2.347	0.92207	-2.347	0.17112	-74.768
5050	0.16415	-72.812	0.92309	-2.748	0.92309	-2.748	0.16415	-72.812
5070	0.15574	-70.887	0.92328	-3.422	0.92328	-3.422	0.15574	-70.887
5090	0.14699	-69.517	0.92001	-4.028	0.92001	-4.028	0.14699	-69.517
5110	0.13834	-68.314	0.91743	-4.58	0.91743	-4.58	0.13834	-68.314
5130	0.13036	-67.1	0.91671	-5.09	0.91671	-5.09	0.13036	-67.1
5150	0.1237	-65.905	0.91606	-5.563	0.91606	-5.563	0.1237	-65.905
5170	0.1201	-63.784	0.91619	-6.458	0.91619	-6.458	0.1201	-63.784
5190	0.11614	-59.926	0.91493	-7.153	0.91493	-7.153	0.11614	-59.926
5210	0.11108	-54.983	0.90975	-7.767	0.90975	-7.767	0.11108	-54.983
5230	0.10552	-49.041	0.90305	-8.387	0.90305	-8.387	0.10552	-49.041
5250	0.10141	-41.625	0.90213	-9.076	0.90213	-9.076	0.10141	-41.625
5270	0.09811	-33.893	0.89796	-10.139	0.89796	-10.139	0.09811	-33.893
5290	0.09743	-26.151	0.89137	-11.221	0.89137	-11.221	0.09743	-26.151
5310	0.09997	-17.914	0.883	-12.005	0.883	-12.005	0.09997	-17.914
5330	0.10637	-9.831	0.87385	-12.686	0.87385	-12.686	0.10637	-9.831
5350	0.11728	-3.683	0.86522	-13.969	0.86522	-13.969	0.11728	-3.683
5370	0.13344	1.717	0.85165	-14.982	0.85165	-14.982	0.13344	1.717
5390	0.15501	5.755	0.83843	-16.211	0.83843	-16.211	0.15501	5.755
5410	0.18115	9.305	0.82199	-17.433	0.82199	-17.433	0.18115	9.305
5430	0.21049	12.147	0.80085	-18.59	0.80085	-18.59	0.21049	12.147
5450	0.24114	12.974	0.77562	-19.792	0.77562	-19.792	0.24114	12.974
5470	0.27672	12.597	0.73782	-20.822	0.73782	-20.822	0.27672	12.597
5490	0.31486	10.312	0.69845	-21.871	0.69845	-21.871	0.31486	10.312
5510	0.35518	7.021	0.65561	-22.101	0.65561	-22.101	0.35518	7.021
5530	0.39627	2.912	0.60963	-21.308	0.60963	-21.308	0.39627	2.912
5550	0.43559	-2.534	0.56308	-19.922	0.56308	-19.922	0.43559	-2.534
5570	0.465	-8.03	0.51823	-15.552	0.51823	-15.552	0.465	-8.03
5590	0.49311	-13.797	0.49678	-10.006	0.49678	-10.006	0.49311	-13.797
5610	0.51381	-19.752	0.49392	-4.182	0.49392	-4.182	0.51381	-19.752
5630	0.52406	-25.655	0.50596	1.271	0.50596	1.271	0.52406	-25.655
5650	0.52394	-31.105	0.53035	5.948	0.53035	5.948	0.52394	-31.105
5670	0.51863	-35.851	0.56753	8.51	0.56753	8.51	0.51863	-35.851
5690	0.51041	-40.161	0.60417	10.007	0.60417	10.007	0.51041	-40.161
5710	0.49698	-43.911	0.63664	10.546	0.63664	10.546	0.49698	-43.911
5730	0.47947	-47.08	0.66244	10.48	0.66244	10.48	0.47947	-47.08
5750	0.46243	-49.751	0.68012	10.415	0.68012	10.415	0.46243	-49.751
5770	0.44937	-51.497	0.71065	9.634	0.71065	9.634	0.44937	-51.497
5790	0.43435	-53.306	0.73245	9.141	0.73245	9.141	0.43435	-53.306
5810	0.41926	-54.947	0.74834	8.483	0.74834	8.483	0.41926	-54.947
5830	0.40487	-56.374	0.76003	7.677	0.76003	7.677	0.40487	-56.374
5850	0.3908	-57.733	0.76811	7.215	0.76811	7.215	0.3908	-57.733
5870	0.38327	-58.584	0.77955	6.401	0.77955	6.401	0.38327	-58.584
5890	0.37597	-59.761	0.78618	5.297	0.78618	5.297	0.37597	-59.761
5910	0.36617	-60.482	0.79243	4.506	0.79243	4.506	0.36617	-60.482
5930	0.35475	-60.569	0.79941	4.096	0.79941	4.096	0.35475	-60.569
5950	0.34623	-60.449	0.80493	3.593	0.80493	3.593	0.34623	-60.449
5970	0.33841	-60.995	0.80745	2.982	0.80745	2.982	0.33841	-60.995
5990	0.32943	-61.543	0.80958	2.589	0.80958	2.589	0.32943	-61.543
6010	0.32272	-61.873	0.81106	2.132	0.81106	2.132	0.32272	-61.873
6030	0.31821	-61.945	0.81304	1.578	0.81304	1.578	0.31821	-61.945
6050	0.31224	-61.907	0.81807	1.15	0.81807	1.15	0.31224	-61.907
6070	0.30741	-61.883	0.81826	0.859	0.81826	0.859	0.30741	-61.883
6090	0.30244	-61.742	0.81997	0.369	0.81997	0.369	0.30244	-61.742
6110	0.29697	-61.383	0.82056	0.048	0.82056	0.048	0.29697	-61.383
