! P/N: L-15CR68JE								
! Measured by Marlon								
! Oct. 13, 2003								
! Measure with Series-through-Fixture								
#	mhz	s	ma	r	50
0	0.00000	90.0000	0.99999	0.00000	0.99999	0.00000	0.00000	90.0000			
50	0.9097	26.2195	0.42181	-60.48418	0.42181	-60.48418	0.9097	26.2195
70	0.93545	17.34822	0.30592	-69.17717	0.30592	-69.17717	0.93545	17.34822
90	0.96057	13.17392	0.22535	-73.50275	0.22535	-73.50275	0.96057	13.17392
110	0.9843	9.88356	0.16815	-76.85617	0.16815	-76.85617	0.9843	9.88356
130	0.9993	6.47334	0.12437	-80.05953	0.12437	-80.05953	0.9993	6.47334
150	0.99162	4.74871	0.08607	-81.36176	0.08607	-81.36176	0.99162	4.74871
170	0.99999	2.86229	0.05701	-81.52743	0.05701	-81.52743	0.99999	2.86229
190	0.99999	1.17194	0.03019	-78.36569	0.03019	-78.36569	0.99999	1.17194
210	0.99999	-0.02463	0.0150	-17.25471	0.0150	-17.25471	0.99999	-0.02463
230	0.99999	-1.0817	0.0169	73.34415	0.0169	73.34415	0.99999	-1.0817
250	0.99999	-3.00551	0.0375	81.88638	0.0375	81.88638	0.99999	-3.00551
270	0.99299	-3.87655	0.05541	82.25062	0.05541	82.25062	0.99299	-3.87655
290	0.99754	-4.6442	0.07353	82.56541	0.07353	82.56541	0.99754	-4.6442
310	0.99999	-5.77165	0.09058	81.93565	0.09058	81.93565	0.99999	-5.77165
330	0.99596	-7.09417	0.10626	80.72978	0.10626	80.72978	0.99596	-7.09417
350	0.98788	-7.81921	0.12133	80.57973	0.12133	80.57973	0.98788	-7.81921
370	0.99446	-9.07668	0.13767	79.34379	0.13767	79.34379	0.99446	-9.07668
390	0.99045	-10.07589	0.15115	78.32018	0.15115	78.32018	0.99045	-10.07589
410	0.98792	-10.75517	0.16459	77.70274	0.16459	77.70274	0.98792	-10.75517
430	0.98914	-11.37411	0.17904	77.18845	0.17904	77.18845	0.98914	-11.37411
450	0.98663	-12.51362	0.1938	75.97743	0.1938	75.97743	0.98663	-12.51362
470	0.97937	-13.15004	0.20531	75.10277	0.20531	75.10277	0.97937	-13.15004
490	0.98006	-12.71993	0.20707	74.41748	0.20707	74.41748	0.98006	-12.71993
510	0.98107	-12.41461	0.21231	73.48716	0.21231	73.48716	0.98107	-12.41461
530	0.97788	-12.60341	0.22421	72.41592	0.22421	72.41592	0.97788	-12.60341
550	0.96916	-12.83369	0.23586	71.84637	0.23586	71.84637	0.96916	-12.83369
570	0.96152	-13.61189	0.24759	70.92209	0.24759	70.92209	0.96152	-13.61189
590	0.96043	-14.16145	0.25897	70.03095	0.25897	70.03095	0.96043	-14.16145
610	0.95743	-14.96809	0.27016	69.21026	0.27016	69.21026	0.95743	-14.96809
630	0.95146	-16.04224	0.28021	68.55183	0.28021	68.55183	0.95146	-16.04224
650	0.94881	-16.919	0.28707	68.20198	0.28707	68.20198	0.94881	-16.919
670	0.95209	-16.91122	0.29695	67.7603	0.29695	67.7603	0.95209	-16.91122
690	0.95362	-17.55902	0.30816	66.97101	0.30816	66.97101	0.95362	-17.55902
710	0.95037	-18.20838	0.31904	66.09776	0.31904	66.09776	0.95037	-18.20838
730	0.94289	-18.65407	0.32998	65.3068	0.32998	65.3068	0.94289	-18.65407
750	0.93534	-19.13963	0.34342	64.6669	0.34342	64.6669	0.93534	-19.13963
770	0.92745	-19.65906	0.35237	63.62665	0.35237	63.62665	0.92745	-19.65906
790	0.91976	-20.55123	0.36263	62.8555	0.36263	62.8555	0.91976	-20.55123
810	0.91548	-21.58922	0.37548	61.98241	0.37548	61.98241	0.91548	-21.58922
830	0.91211	-22.53857	0.38867	60.97612	0.38867	60.97612	0.91211	-22.53857
850	0.90143	-23.15733	0.39646	60.14516	0.39646	60.14516	0.90143	-23.15733
870	0.89858	-23.3231	0.40822	59.43132	0.40822	59.43132	0.89858	-23.3231
890	0.89494	-24.29747	0.42098	58.17796	0.42098	58.17796	0.89494	-24.29747
910	0.88455	-25.10016	0.43317	56.79216	0.43317	56.79216	0.88455	-25.10016
930	0.86821	-25.51619	0.44501	55.36228	0.44501	55.36228	0.86821	-25.51619
950	0.85342	-26.09591	0.45843	53.65799	0.45843	53.65799	0.85342	-26.09591
970	0.83094	-27.54158	0.47307	51.4289	0.47307	51.4289	0.83094	-27.54158
990	0.80159	-28.3084	0.48431	48.43728	0.48431	48.43728	0.80159	-28.3084
1010	0.76597	-28.25416	0.48897	44.38584	0.48897	44.38584	0.76597	-28.25416
1030	0.72979	-26.73529	0.4799	39.36333	0.4799	39.36333	0.72979	-26.73529
1050	0.70386	-22.60687	0.44592	33.8445	0.44592	33.8445	0.70386	-22.60687
1070	0.7406	-18.23209	0.3804	33.98207	0.3804	33.98207	0.7406	-18.23209
1090	0.78935	-17.09714	0.34393	39.86142	0.34393	39.86142	0.78935	-17.09714
1110	0.82961	-17.97701	0.33857	46.69682	0.33857	46.69682	0.82961	-17.97701
1130	0.85218	-19.83324	0.35688	51.64828	0.35688	51.64828	0.85218	-19.83324
1150	0.85912	-21.81388	0.38189	53.82148	0.38189	53.82148	0.85912	-21.81388
1170	0.85802	-23.68958	0.40091	54.79554	0.40091	54.79554	0.85802	-23.68958
1190	0.85584	-25.48713	0.42078	54.95259	0.42078	54.95259	0.85584	-25.48713
1210	0.85573	-27.07542	0.43653	54.67622	0.43653	54.67622	0.85573	-27.07542
1230	0.85776	-28.2812	0.44845	54.37687	0.44845	54.37687	0.85776	-28.2812
1250	0.8589	-28.8891	0.46206	54.4918	0.46206	54.4918	0.8589	-28.8891
1270	0.8634	-30.05239	0.47546	53.8243	0.47546	53.8243	0.8634	-30.05239
1290	0.85817	-30.76631	0.48419	53.12508	0.48419	53.12508	0.85817	-30.76631
1310	0.85159	-31.05937	0.49225	52.57101	0.49225	52.57101	0.85159	-31.05937
1330	0.84807	-31.27294	0.50173	52.07805	0.50173	52.07805	0.84807	-31.27294
1350	0.8481	-32.06133	0.51276	51.30131	0.51276	51.30131	0.8481	-32.06133
1370	0.83386	-32.7036	0.51881	50.85881	0.51881	50.85881	0.83386	-32.7036
1390	0.82754	-33.31037	0.52959	50.36754	0.52959	50.36754	0.82754	-33.31037
1410	0.82335	-34.06122	0.53792	49.67986	0.53792	49.67986	0.82335	-34.06122
1430	0.81921	-34.87916	0.54309	48.95863	0.54309	48.95863	0.81921	-34.87916
1450	0.81674	-35.43066	0.55078	48.67729	0.55078	48.67729	0.81674	-35.43066
1470	0.81595	-36.20103	0.55939	48.01923	0.55939	48.01923	0.81595	-36.20103
1490	0.81129	-36.49612	0.56453	47.37567	0.56453	47.37567	0.81129	-36.49612
1510	0.80412	-36.58617	0.56937	46.94948	0.56937	46.94948	0.80412	-36.58617
1530	0.79575	-36.77129	0.57587	46.59461	0.57587	46.59461	0.79575	-36.77129
1550	0.78747	-37.38149	0.58481	45.8161	0.58481	45.8161	0.78747	-37.38149
1570	0.77613	-37.99253	0.59015	45.18329	0.59015	45.18329	0.77613	-37.99253
1590	0.76603	-38.65139	0.59682	44.5825	0.59682	44.5825	0.76603	-38.65139
1610	0.75971	-39.4401	0.60378	44.02659	0.60378	44.02659	0.75971	-39.4401
1630	0.7558	-40.33076	0.61058	43.47477	0.61058	43.47477	0.7558	-40.33076
1650	0.74897	-41.18549	0.61739	42.83265	0.61739	42.83265	0.74897	-41.18549
1670	0.74229	-41.76117	0.6221	42.03402	0.6221	42.03402	0.74229	-41.76117
1690	0.73678	-42.03965	0.6287	41.56658	0.6287	41.56658	0.73678	-42.03965
1710	0.72975	-42.39915	0.63486	40.91561	0.63486	40.91561	0.72975	-42.39915
1730	0.72041	-42.88665	0.64059	40.05607	0.64059	40.05607	0.72041	-42.88665
1750	0.70985	-43.21787	0.64825	39.45262	0.64825	39.45262	0.70985	-43.21787
1770	0.69793	-43.71268	0.65412	38.82437	0.65412	38.82437	0.69793	-43.71268
1790	0.68636	-44.55036	0.6576	37.67006	0.6576	37.67006	0.68636	-44.55036
1810	0.67627	-45.31636	0.65935	36.65881	0.65935	36.65881	0.67627	-45.31636
1830	0.6667	-45.82042	0.66073	35.89443	0.66073	35.89443	0.6667	-45.82042
1850	0.65458	-46.09653	0.66376	34.91541	0.66376	34.91541	0.65458	-46.09653
1870	0.64573	-45.66429	0.65729	33.38661	0.65729	33.38661	0.64573	-45.66429
1890	0.6385	-44.61688	0.64641	32.63949	0.64641	32.63949	0.6385	-44.61688
1910	0.63482	-43.15878	0.63428	32.279	0.63428	32.279	0.63482	-43.15878
1930	0.63687	-41.69691	0.62152	32.19993	0.62152	32.19993	0.63687	-41.69691
1950	0.64709	-40.8406	0.60624	32.58688	0.60624	32.58688	0.64709	-40.8406
1970	0.66238	-40.54758	0.5995	34.02236	0.5995	34.02236	0.66238	-40.54758
1990	0.67725	-41.1612	0.60206	35.32148	0.60206	35.32148	0.67725	-41.1612
2010	0.68739	-42.29699	0.61113	36.26577	0.61113	36.26577	0.68739	-42.29699
2030	0.69217	-43.61081	0.6238	36.78984	0.6238	36.78984	0.69217	-43.61081
2050	0.69466	-44.79888	0.63703	36.98134	0.63703	36.98134	0.69466	-44.79888
2070	0.69469	-45.43961	0.6441	37.15165	0.6441	37.15165	0.69469	-45.43961
2090	0.69518	-46.43583	0.65427	37.12396	0.65427	37.12396	0.69518	-46.43583
2110	0.69141	-47.31932	0.66399	36.91449	0.66399	36.91449	0.69141	-47.31932
2130	0.68377	-47.98614	0.67239	36.55868	0.67239	36.55868	0.68377	-47.98614
2150	0.67777	-48.69661	0.68124	36.11116	0.68124	36.11116	0.67777	-48.69661
2170	0.67481	-49.26301	0.68755	35.64954	0.68755	35.64954	0.67481	-49.26301
2190	0.66721	-49.94357	0.69445	35.38495	0.69445	35.38495	0.66721	-49.94357
2210	0.66037	-50.73826	0.70233	34.95082	0.70233	34.95082	0.66037	-50.73826
2230	0.65617	-51.58108	0.7098	34.30712	0.7098	34.30712	0.65617	-51.58108
2250	0.65299	-52.34014	0.71361	33.74036	0.71361	33.74036	0.65299	-52.34014
2270	0.64732	-52.83134	0.716	33.60376	0.716	33.60376	0.64732	-52.83134
2290	0.64253	-53.23406	0.72324	33.36437	0.72324	33.36437	0.64253	-53.23406
2310	0.63676	-53.81042	0.72984	32.7933	0.72984	32.7933	0.63676	-53.81042
2330	0.62923	-54.45976	0.73322	32.09591	0.73322	32.09591	0.62923	-54.45976
2350	0.62024	-54.7186	0.73376	31.91192	0.73376	31.91192	0.62024	-54.7186
2370	0.61688	-55.11938	0.74239	31.56131	0.74239	31.56131	0.61688	-55.11938
2390	0.6089	-55.97204	0.74653	30.84147	0.74653	30.84147	0.6089	-55.97204
2410	0.60046	-56.76229	0.74924	30.30608	0.74924	30.30608	0.60046	-56.76229
2430	0.59473	-57.31476	0.75233	30.12546	0.75233	30.12546	0.59473	-57.31476
2450	0.59388	-57.79301	0.75632	30.0867	0.75632	30.0867	0.59388	-57.79301
2470	0.59168	-58.44995	0.76198	29.64688	0.76198	29.64688	0.59168	-58.44995
2490	0.58613	-58.90786	0.76531	29.03325	0.76531	29.03325	0.58613	-58.90786
2510	0.57958	-59.27505	0.76786	28.47848	0.76786	28.47848	0.57958	-59.27505
2530	0.57336	-59.51869	0.77079	28.06148	0.77079	28.06148	0.57336	-59.51869
2550	0.56772	-59.46489	0.77489	27.70746	0.77489	27.70746	0.56772	-59.46489
2570	0.55695	-60.0052	0.77495	27.07929	0.77495	27.07929	0.55695	-60.0052
2590	0.54854	-60.52392	0.7795	26.70913	0.7795	26.70913	0.54854	-60.52392
2610	0.54005	-61.10583	0.783	26.28687	0.783	26.28687	0.54005	-61.10583
2630	0.5323	-61.66368	0.78461	25.73483	0.78461	25.73483	0.5323	-61.66368
2650	0.5293	-61.9382	0.78819	25.20774	0.78819	25.20774	0.5293	-61.9382
2670	0.52381	-62.26623	0.79052	24.6611	0.79052	24.6611	0.52381	-62.26623
2690	0.51568	-62.09423	0.79042	24.05189	0.79042	24.05189	0.51568	-62.09423
2710	0.50753	-62.06009	0.78812	23.52435	0.78812	23.52435	0.50753	-62.06009
2730	0.49993	-62.08883	0.78497	23.07761	0.78497	23.07761	0.49993	-62.08883
2750	0.49135	-61.39266	0.78349	22.56562	0.78349	22.56562	0.49135	-61.39266
2770	0.48685	-61.18814	0.78124	22.23907	0.78124	22.23907	0.48685	-61.18814
2790	0.48238	-60.41166	0.77549	21.82169	0.77549	21.82169	0.48238	-60.41166
2810	0.48178	-59.60703	0.76851	21.53906	0.76851	21.53906	0.48178	-59.60703
2830	0.48529	-58.85047	0.7614	21.56334	0.7614	21.56334	0.48529	-58.85047
2850	0.48964	-57.75066	0.7541	22.01325	0.7541	22.01325	0.48964	-57.75066
2870	0.49318	-57.95753	0.7546	22.27813	0.7546	22.27813	0.49318	-57.95753
2890	0.49729	-58.2542	0.75429	22.69739	0.75429	22.69739	0.49729	-58.2542
2910	0.5015	-58.92019	0.75803	23.0451	0.75803	23.0451	0.5015	-58.92019
2930	0.50501	-59.90828	0.76517	23.30072	0.76517	23.30072	0.50501	-59.90828
2950	0.5067	-60.84451	0.76945	23.64916	0.76945	23.64916	0.5067	-60.84451
2970	0.5033	-61.86968	0.77859	23.41854	0.77859	23.41854	0.5033	-61.86968
2990	0.50286	-63.11745	0.7852	23.24253	0.7852	23.24253	0.50286	-63.11745
3010	0.5021	-64.0913	0.78908	23.14021	0.78908	23.14021	0.5021	-64.0913
3030	0.50035	-64.73565	0.79314	23.03221	0.79314	23.03221	0.50035	-64.73565
3050	0.49956	-65.43583	0.80336	22.74075	0.80336	22.74075	0.49956	-65.43583
3070	0.49152	-65.89077	0.80747	22.21096	0.80747	22.21096	0.49152	-65.89077
3090	0.48516	-66.33597	0.80716	21.9485	0.80716	21.9485	0.48516	-66.33597
3110	0.48015	-67.04764	0.81161	21.6757	0.81161	21.6757	0.48015	-67.04764
3130	0.47538	-67.95983	0.82055	21.30103	0.82055	21.30103	0.47538	-67.95983
3150	0.46905	-68.66447	0.82429	20.91902	0.82429	20.91902	0.46905	-68.66447
3170	0.46476	-69.00436	0.82184	20.79491	0.82184	20.79491	0.46476	-69.00436
3190	0.46421	-69.36012	0.82863	20.5066	0.82863	20.5066	0.46421	-69.36012
3210	0.46063	-69.88417	0.83354	20.17852	0.83354	20.17852	0.46063	-69.88417
3230	0.45329	-70.41427	0.83328	19.86513	0.83328	19.86513	0.45329	-70.41427
3250	0.44757	-70.4735	0.83242	19.55096	0.83242	19.55096	0.44757	-70.4735
3270	0.44181	-70.70786	0.83861	19.27418	0.83861	19.27418	0.44181	-70.70786
3290	0.43652	-71.52236	0.83962	18.96117	0.83962	18.96117	0.43652	-71.52236
3310	0.43179	-72.38273	0.84176	18.63118	0.84176	18.63118	0.43179	-72.38273
3330	0.42841	-73.0128	0.84646	18.22894	0.84646	18.22894	0.42841	-73.0128
3350	0.42789	-73.3945	0.85028	17.62465	0.85028	17.62465	0.42789	-73.3945
3370	0.42303	-73.49166	0.85033	17.53729	0.85033	17.53729	0.42303	-73.49166
3390	0.41808	-73.64496	0.85036	17.35471	0.85036	17.35471	0.41808	-73.64496
3410	0.41232	-73.79911	0.85128	17.00749	0.85128	17.00749	0.41232	-73.79911
3430	0.40549	-74.00886	0.85331	16.59453	0.85331	16.59453	0.40549	-74.00886
3450	0.39776	-74.43895	0.85605	16.38309	0.85605	16.38309	0.39776	-74.43895
3470	0.38989	-74.80735	0.85398	16.0586	0.85398	16.0586	0.38989	-74.80735
3490	0.38496	-75.28291	0.85634	15.74733	0.85634	15.74733	0.38496	-75.28291
3510	0.37994	-75.87606	0.85878	15.44569	0.85878	15.44569	0.37994	-75.87606
3530	0.37471	-76.39323	0.85835	15.14713	0.85835	15.14713	0.37471	-76.39323
3550	0.37204	-76.43681	0.85349	14.84221	0.85349	14.84221	0.37204	-76.43681
3570	0.37274	-76.4473	0.85657	14.38659	0.85657	14.38659	0.37274	-76.4473
3590	0.36806	-76.55299	0.85462	13.87542	0.85462	13.87542	0.36806	-76.55299
3610	0.36164	-76.29032	0.85113	13.6685	0.85113	13.6685	0.36164	-76.29032
3630	0.35663	-75.65752	0.84871	13.63615	0.84871	13.63615	0.35663	-75.65752
3650	0.35562	-75.11467	0.84908	13.15916	0.84908	13.15916	0.35562	-75.11467
3670	0.35348	-75.01193	0.84432	13.07453	0.84432	13.07453	0.35348	-75.01193
3690	0.35246	-74.73665	0.84097	12.90047	0.84097	12.90047	0.35246	-74.73665
3710	0.35305	-74.44599	0.84003	12.82996	0.84003	12.82996	0.35305	-74.44599
3730	0.35519	-74.31373	0.84012	12.89258	0.84012	12.89258	0.35519	-74.31373
3750	0.35829	-74.53023	0.83748	12.95456	0.83748	12.95456	0.35829	-74.53023
3770	0.35976	-74.65153	0.83872	13.3185	0.83872	13.3185	0.35976	-74.65153
3790	0.3616	-75.41977	0.84345	13.22876	0.84345	13.22876	0.3616	-75.41977
3810	0.36119	-76.0459	0.84605	13.24633	0.84605	13.24633	0.36119	-76.0459
3830	0.3589	-76.49267	0.84714	13.44101	0.84714	13.44101	0.3589	-76.49267
3850	0.35805	-77.47464	0.85359	13.39136	0.85359	13.39136	0.35805	-77.47464
3870	0.35629	-78.76075	0.85331	13.16686	0.85331	13.16686	0.35629	-78.76075
3890	0.35277	-79.52224	0.8608	13.00656	0.8608	13.00656	0.35277	-79.52224
3910	0.35022	-80.25986	0.86537	12.74378	0.86537	12.74378	0.35022	-80.25986
3930	0.34872	-81.12863	0.86527	12.4389	0.86527	12.4389	0.34872	-81.12863
3950	0.34566	-81.93786	0.86777	12.37932	0.86777	12.37932	0.34566	-81.93786
3970	0.34383	-82.79872	0.87249	12.48849	0.87249	12.48849	0.34383	-82.79872
3990	0.34149	-83.45475	0.87448	11.96204	0.87448	11.96204	0.34149	-83.45475
4010	0.33903	-83.72524	0.87603	11.57786	0.87603	11.57786	0.33903	-83.72524
4030	0.33614	-83.81452	0.87782	11.45648	0.87782	11.45648	0.33614	-83.81452
4050	0.33177	-84.31196	0.879	11.06104	0.879	11.06104	0.33177	-84.31196
4070	0.32636	-84.83291	0.87823	11.01895	0.87823	11.01895	0.32636	-84.83291
4090	0.32042	-85.23029	0.88109	10.55653	0.88109	10.55653	0.32042	-85.23029
4110	0.3157	-85.81826	0.88297	10.26843	0.88297	10.26843	0.3157	-85.81826
4130	0.31264	-86.6077	0.88342	10.19425	0.88342	10.19425	0.31264	-86.6077
4150	0.31039	-87.30625	0.88621	9.81848	0.88621	9.81848	0.31039	-87.30625
4170	0.30803	-88.30773	0.89066	9.30147	0.89066	9.30147	0.30803	-88.30773
4190	0.30634	-88.63017	0.89007	9.20192	0.89007	9.20192	0.30634	-88.63017
4210	0.30526	-88.83626	0.88909	9.11498	0.88909	9.11498	0.30526	-88.83626
4230	0.30377	-89.18576	0.88907	8.84425	0.88907	8.84425	0.30377	-89.18576
4250	0.29986	-89.63555	0.88807	8.40187	0.88807	8.40187	0.29986	-89.63555
4270	0.29386	-89.4917	0.89143	8.4239	0.89143	8.4239	0.29386	-89.4917
4290	0.28951	-89.79324	0.89229	8.12279	0.89229	8.12279	0.28951	-89.79324
4310	0.28586	-90.38506	0.89272	7.84186	0.89272	7.84186	0.28586	-90.38506
4330	0.28274	-91.10517	0.89365	7.72622	0.89365	7.72622	0.28274	-91.10517
4350	0.28075	-91.78466	0.89477	7.72274	0.89477	7.72274	0.28075	-91.78466
4370	0.2777	-92.13532	0.89395	7.04189	0.89395	7.04189	0.2777	-92.13532
4390	0.2755	-92.27868	0.88996	6.77499	0.88996	6.77499	0.2755	-92.27868
4410	0.27414	-92.12593	0.89325	6.55623	0.89325	6.55623	0.27414	-92.12593
4430	0.27205	-91.78318	0.9	6.32189	0.9	6.32189	0.27205	-91.78318
4450	0.26601	-91.55144	0.89209	6.31032	0.89209	6.31032	0.26601	-91.55144
4470	0.25996	-91.12219	0.89259	5.89556	0.89259	5.89556	0.25996	-91.12219
4490	0.25584	-91.18431	0.88853	5.64905	0.88853	5.64905	0.25584	-91.18431
4510	0.2526	-91.17507	0.88317	5.66451	0.88317	5.66451	0.2526	-91.17507
4530	0.25034	-90.9751	0.88033	5.72398	0.88033	5.72398	0.25034	-90.9751
4550	0.25026	-90.90833	0.88445	5.29788	0.88445	5.29788	0.25026	-90.90833
4570	0.24983	-90.72781	0.87923	4.8001	0.87923	4.8001	0.24983	-90.72781
4590	0.25107	-90.24601	0.87784	4.88239	0.87784	4.88239	0.25107	-90.24601
4610	0.25288	-89.83264	0.87869	5.05572	0.87869	5.05572	0.25288	-89.83264
4630	0.25426	-89.63003	0.8789	5.07878	0.8789	5.07878	0.25426	-89.63003
4650	0.25433	-89.55311	0.8743	4.95796	0.8743	4.95796	0.25433	-89.55311
4670	0.25601	-89.47423	0.87392	5.018	0.87392	5.018	0.25601	-89.47423
4690	0.25756	-90.10063	0.8755	4.98131	0.8755	4.98131	0.25756	-90.10063
4710	0.25841	-91.07906	0.87791	4.99543	0.87791	4.99543	0.25841	-91.07906
4730	0.25792	-92.15082	0.88078	5.08913	0.88078	5.08913	0.25792	-92.15082
4750	0.25533	-93.15172	0.88452	5.17242	0.88452	5.17242	0.25533	-93.15172
4770	0.25791	-93.56464	0.8878	5.23862	0.8878	5.23862	0.25791	-93.56464
4790	0.25932	-94.53994	0.88947	5.0419	0.88947	5.0419	0.25932	-94.53994
4810	0.25843	-95.31237	0.89186	4.8073	0.89186	4.8073	0.25843	-95.31237
4830	0.25548	-95.70016	0.89521	4.60492	0.89521	4.60492	0.25548	-95.70016
4850	0.25209	-96.10504	0.89767	4.34985	0.89767	4.34985	0.25209	-96.10504
4870	0.25041	-96.66423	0.90136	4.17503	0.90136	4.17503	0.25041	-96.66423
4890	0.24661	-97.73265	0.90082	3.85287	0.90082	3.85287	0.24661	-97.73265
4910	0.24275	-98.76726	0.90081	3.62372	0.90081	3.62372	0.24275	-98.76726
4930	0.24028	-99.46155	0.90279	3.45916	0.90279	3.45916	0.24028	-99.46155
4950	0.24005	-99.74553	0.90495	3.06204	0.90495	3.06204	0.24005	-99.74553
4970	0.24086	-100.38138	0.90375	3.23202	0.90375	3.23202	0.24086	-100.38138
4990	0.23904	-100.95276	0.90673	2.84199	0.90673	2.84199	0.23904	-100.95276
5010	0.23631	-101.02401	0.90849	2.42146	0.90849	2.42146	0.23631	-101.02401
5030	0.23379	-100.51085	0.90782	2.15964	0.90782	2.15964	0.23379	-100.51085
5050	0.23203	-99.68036	0.9077	1.90549	0.9077	1.90549	0.23203	-99.68036
5070	0.22849	-99.68932	0.90931	1.64983	0.90931	1.64983	0.22849	-99.68932
5090	0.225	-99.60539	0.90981	1.37812	0.90981	1.37812	0.225	-99.60539
5110	0.21963	-99.4984	0.91034	1.10076	0.91034	1.10076	0.21963	-99.4984
5130	0.21373	-99.49217	0.91138	0.89484	0.91138	0.89484	0.21373	-99.49217
5150	0.21188	-99.76453	0.9128	0.90418	0.9128	0.90418	0.21188	-99.76453
5170	0.21065	-100.42667	0.91084	0.39288	0.91084	0.39288	0.21065	-100.42667
5190	0.20603	-100.27406	0.90628	0.00617	0.90628	0.00617	0.20603	-100.27406
5210	0.20149	-99.35333	0.90567	-0.28917	0.90567	-0.28917	0.20149	-99.35333
5230	0.19851	-98.0891	0.90791	-0.53372	0.90791	-0.53372	0.19851	-98.0891
5250	0.19653	-97.28392	0.90429	-0.7754	0.90429	-0.7754	0.19653	-97.28392
5270	0.19199	-97.7077	0.90231	-1.13081	0.90231	-1.13081	0.19199	-97.7077
5290	0.18611	-96.931	0.90075	-1.20245	0.90075	-1.20245	0.18611	-96.931
5310	0.18331	-95.81581	0.90108	-1.33764	0.90108	-1.33764	0.18331	-95.81581
5330	0.18355	-94.94073	0.90069	-1.66998	0.90069	-1.66998	0.18355	-94.94073
5350	0.18233	-94.60097	0.89288	-2.11936	0.89288	-2.11936	0.18233	-94.60097
5370	0.18036	-93.38285	0.88891	-2.17299	0.88891	-2.17299	0.18036	-93.38285
5390	0.17842	-91.20029	0.88691	-2.27656	0.88691	-2.27656	0.17842	-91.20029
5410	0.17878	-89.00528	0.88422	-2.32532	0.88422	-2.32532	0.17878	-89.00528
