#	mhz	s	ma	r	50
50	0.60669	130.282	0.74846	38.963	0.74846	38.963	0.60669	130.282
70	0.49762	121.474	0.84622	29.287	0.84622	29.287	0.49762	121.474
90	0.40645	115.148	0.8964	23.112	0.8964	23.112	0.40645	115.148
110	0.33747	110.596	0.92771	19.068	0.92771	19.068	0.33747	110.596
130	0.28783	107.128	0.95158	16.127	0.95158	16.127	0.28783	107.128
150	0.24756	104.071	0.96216	13.601	0.96216	13.601	0.24756	104.071
170	0.21675	101.798	0.96987	12.066	0.96987	12.066	0.21675	101.798
190	0.19152	100.094	0.97515	10.386	0.97515	10.386	0.19152	100.094
210	0.16979	98.744	0.98058	9.005	0.98058	9.005	0.16979	98.744
230	0.15047	97.749	0.98803	7.973	0.98803	7.973	0.15047	97.749
250	0.13347	97.32	0.99866	6.947	0.99866	6.947	0.13347	97.32
270	0.11637	95.87	0.99609	6.351	0.99609	6.351	0.11637	95.87
290	0.10094	94.051	0.99505	5.495	0.99505	5.495	0.10094	94.051
310	0.08829	91.316	0.99516	4.679	0.99516	4.679	0.08829	91.316
330	0.07827	87.954	0.9966	4.05	0.9966	4.05	0.07827	87.954
350	0.06942	85.095	1.00009	3.604	1.00009	3.604	0.06942	85.095
370	0.063	82.914	1.00364	2.88	1.00364	2.88	0.063	82.914
390	0.05709	81.786	1.00432	2.304	1.00432	2.304	0.05709	81.786
410	0.05088	81.012	1.00275	1.834	1.00275	1.834	0.05088	81.012
430	0.04419	80.239	1.00084	1.461	1.00084	1.461	0.04419	80.239
450	0.0375	79.456	1.00181	1.211	1.00181	1.211	0.0375	79.456
470	0.03058	78.935	1.00456	0.727	1.00456	0.727	0.03058	78.935
490	0.0246	76.13	1.00481	0.29	1.00481	0.29	0.0246	76.13
510	0.01847	72.97	1.00544	-0.199	1.00544	-0.199	0.01847	72.97
530	0.0121	66.507	1.00621	-0.716	1.00621	-0.716	0.0121	66.507
550	0.00632	48.906	1.00373	-1.108	1.00373	-1.108	0.00632	48.906
570	0.00549	-18.698	1.00818	-1.486	1.00818	-1.486	0.00549	-18.698
590	0.00919	-52.113	1.00902	-1.614	1.00902	-1.614	0.00919	-52.113
610	0.01417	-65.433	1.0076	-1.861	1.0076	-1.861	0.01417	-65.433
630	0.01873	-69.634	1.00572	-2.232	1.00572	-2.232	0.01873	-69.634
650	0.02276	-72.571	1.00562	-2.365	1.00562	-2.365	0.02276	-72.571
670	0.02643	-75.926	1.00586	-2.671	1.00586	-2.671	0.02643	-75.926
690	0.03028	-78.479	1.00645	-2.894	1.00645	-2.894	0.03028	-78.479
710	0.03438	-80.306	1.00547	-3.177	1.00547	-3.177	0.03438	-80.306
730	0.03881	-81.618	1.00372	-3.535	1.00372	-3.535	0.03881	-81.618
750	0.04366	-82.763	1.00471	-3.853	1.00471	-3.853	0.04366	-82.763
770	0.04841	-82.933	1.00488	-4.15	1.00488	-4.15	0.04841	-82.933
790	0.05185	-82.639	1.0089	-4.448	1.0089	-4.448	0.05185	-82.639
810	0.05464	-82.393	1.00983	-4.623	1.00983	-4.623	0.05464	-82.393
830	0.0572	-82.697	1.00633	-4.695	1.00633	-4.695	0.0572	-82.697
850	0.05967	-84.037	1.00268	-4.815	1.00268	-4.815	0.05967	-84.037
870	0.06208	-86.6	1.00804	-5.321	1.00804	-5.321	0.06208	-86.6
890	0.06576	-88.616	1.0044	-5.612	1.0044	-5.612	0.06576	-88.616
910	0.07057	-90.205	1.00098	-5.837	1.00098	-5.837	0.07057	-90.205
930	0.07617	-91.27	1.0001	-6.084	1.0001	-6.084	0.07617	-91.27
950	0.08199	-91.496	0.99717	-6.378	0.99717	-6.378	0.08199	-91.496
970	0.08675	-90.808	1.00194	-6.64	1.00194	-6.64	0.08675	-90.808
990	0.09056	-89.887	1.00376	-6.912	1.00376	-6.912	0.09056	-89.887
1010	0.09306	-89.222	1.00393	-7.084	1.00393	-7.084	0.09306	-89.222
1030	0.09461	-88.994	1.00295	-7.203	1.00295	-7.203	0.09461	-88.994
1050	0.0963	-89.074	1.00052	-7.48	1.00052	-7.48	0.0963	-89.074
1070	0.09884	-90.715	0.99971	-7.599	0.99971	-7.599	0.09884	-90.715
1090	0.10227	-92.242	0.99932	-7.948	0.99932	-7.948	0.10227	-92.242
1110	0.10705	-93.356	0.99849	-8.302	0.99849	-8.302	0.10705	-93.356
1130	0.11297	-93.809	0.99722	-8.603	0.99722	-8.603	0.11297	-93.809
1150	0.11918	-93.402	0.99633	-8.964	0.99633	-8.964	0.11918	-93.402
1170	0.1247	-92.881	1.00062	-9.18	1.00062	-9.18	0.1247	-92.881
1190	0.12774	-92.049	1.00244	-9.352	1.00244	-9.352	0.12774	-92.049
1210	0.12951	-91.201	1.00284	-9.415	1.00284	-9.415	0.12951	-91.201
1230	0.13073	-90.811	1.00285	-9.439	1.00285	-9.439	0.13073	-90.811
1250	0.13162	-91.535	1.00345	-9.626	1.00345	-9.626	0.13162	-91.535
1270	0.13295	-92.433	1.00221	-9.955	1.00221	-9.955	0.13295	-92.433
1290	0.1362	-93.59	0.99683	-10.164	0.99683	-10.164	0.1362	-93.59
1310	0.14088	-94.624	0.99464	-10.358	0.99464	-10.358	0.14088	-94.624
1330	0.14637	-95.314	0.9963	-10.651	0.9963	-10.651	0.14637	-95.314
1350	0.15189	-95.603	0.99579	-11.168	0.99579	-11.168	0.15189	-95.603
1370	0.15616	-94.955	0.99582	-11.179	0.99582	-11.179	0.15616	-94.955
1390	0.15934	-94.429	0.99452	-11.395	0.99452	-11.395	0.15934	-94.429
1410	0.16147	-94.103	0.99353	-11.638	0.99353	-11.638	0.16147	-94.103
1430	0.16289	-94.052	0.99372	-11.783	0.99372	-11.783	0.16289	-94.052
1450	0.16425	-94.348	0.99514	-11.763	0.99514	-11.763	0.16425	-94.348
1470	0.16653	-95.364	0.99187	-12.188	0.99187	-12.188	0.16653	-95.364
1490	0.16879	-96.207	0.98839	-12.536	0.98839	-12.536	0.16879	-96.207
1510	0.17272	-96.956	0.9872	-12.769	0.9872	-12.769	0.17272	-96.956
1530	0.1782	-97.635	0.98844	-12.974	0.98844	-12.974	0.1782	-97.635
1550	0.18329	-98.216	0.98989	-13.358	0.98989	-13.358	0.18329	-98.216
1570	0.18721	-98.257	0.98971	-13.581	0.98971	-13.581	0.18721	-98.257
1590	0.19027	-98.157	0.98827	-13.89	0.98827	-13.89	0.19027	-98.157
1610	0.19328	-98.19	0.98765	-14.115	0.98765	-14.115	0.19328	-98.19
1630	0.19634	-98.474	0.98843	-14.211	0.98843	-14.211	0.19634	-98.474
1650	0.19884	-98.962	0.98964	-14.262	0.98964	-14.262	0.19884	-98.962
1670	0.20093	-99.422	0.98692	-14.484	0.98692	-14.484	0.20093	-99.422
1690	0.20423	-99.786	0.9849	-14.768	0.9849	-14.768	0.20423	-99.786
1710	0.20831	-100.207	0.98279	-15.117	0.98279	-15.117	0.20831	-100.207
1730	0.21273	-100.679	0.98175	-15.471	0.98175	-15.471	0.21273	-100.679
1750	0.21698	-101.032	0.98494	-15.703	0.98494	-15.703	0.21698	-101.032
1770	0.22133	-101.374	0.98095	-16.055	0.98095	-16.055	0.22133	-101.374
1790	0.22526	-101.326	0.97994	-16.293	0.97994	-16.293	0.22526	-101.326
1810	0.22907	-101.232	0.98163	-16.43	0.98163	-16.43	0.22907	-101.232
1830	0.23285	-101.288	0.98348	-16.54	0.98348	-16.54	0.23285	-101.288
1850	0.23643	-101.545	0.98066	-16.756	0.98066	-16.756	0.23643	-101.545
1870	0.23918	-101.705	0.97515	-17.152	0.97515	-17.152	0.23918	-101.705
1890	0.2434	-102.367	0.97222	-17.215	0.97222	-17.215	0.2434	-102.367
1910	0.24752	-103.163	0.97313	-17.456	0.97313	-17.456	0.24752	-103.163
1930	0.25136	-103.958	0.97514	-17.87	0.97514	-17.87	0.25136	-103.958
1950	0.25611	-104.848	0.97151	-17.939	0.97151	-17.939	0.25611	-104.848
1970	0.25866	-104.623	0.9737	-18.317	0.9737	-18.317	0.25866	-104.623
1990	0.26271	-104.528	0.97186	-18.653	0.97186	-18.653	0.26271	-104.528
2010	0.26686	-104.442	0.97003	-18.907	0.97003	-18.907	0.26686	-104.442
2030	0.26989	-104.321	0.97016	-19.067	0.97016	-19.067	0.26989	-104.321
2050	0.27081	-104.205	0.9721	-19.151	0.9721	-19.151	0.27081	-104.205
2070	0.27118	-104.304	0.96901	-19.222	0.96901	-19.222	0.27118	-104.304
2090	0.27274	-104.782	0.96974	-19.55	0.96974	-19.55	0.27274	-104.782
2110	0.27488	-105.333	0.96721	-19.891	0.96721	-19.891	0.27488	-105.333
2130	0.27721	-105.908	0.96178	-20.143	0.96178	-20.143	0.27721	-105.908
2150	0.27955	-106.711	0.96128	-20.34	0.96128	-20.34	0.27955	-106.711
2170	0.28532	-107.408	0.96038	-20.667	0.96038	-20.667	0.28532	-107.408
2190	0.29113	-107.631	0.9577	-21.14	0.9577	-21.14	0.29113	-107.631
2210	0.29651	-107.842	0.95834	-21.444	0.95834	-21.444	0.29651	-107.842
2230	0.3008	-108.113	0.96108	-21.612	0.96108	-21.612	0.3008	-108.113
2250	0.3032	-108.12	0.95826	-22.024	0.95826	-22.024	0.3032	-108.12
2270	0.30356	-108.288	0.95436	-22.238	0.95436	-22.238	0.30356	-108.288
2290	0.30458	-108.841	0.95517	-22.475	0.95517	-22.475	0.30458	-108.841
2310	0.30648	-109.548	0.95224	-22.721	0.95224	-22.721	0.30648	-109.548
2330	0.30926	-110.268	0.94549	-22.969	0.94549	-22.969	0.30926	-110.268
2350	0.3127	-110.952	0.94319	-23.22	0.94319	-23.22	0.3127	-110.952
2370	0.31896	-111.713	0.945	-23.859	0.945	-23.859	0.31896	-111.713
2390	0.32516	-112.3	0.94341	-24.236	0.94341	-24.236	0.32516	-112.3
2410	0.33137	-112.625	0.94279	-24.566	0.94279	-24.566	0.33137	-112.625
2430	0.33656	-112.717	0.9428	-24.957	0.9428	-24.957	0.33656	-112.717
2450	0.33858	-112.731	0.93837	-25.418	0.93837	-25.418	0.33858	-112.731
2470	0.34258	-113.418	0.9394	-25.296	0.9394	-25.296	0.34258	-113.418
2490	0.34344	-113.79	0.93706	-25.635	0.93706	-25.635	0.34344	-113.79
2510	0.34648	-114.493	0.93391	-26.09	0.93391	-26.09	0.34648	-114.493
2530	0.35232	-115.561	0.93043	-26.485	0.93043	-26.485	0.35232	-115.561
2550	0.35691	-116.413	0.92505	-26.804	0.92505	-26.804	0.35691	-116.413
2570	0.36301	-117.245	0.92447	-27.242	0.92447	-27.242	0.36301	-117.245
2590	0.37162	-118.137	0.92297	-27.784	0.92297	-27.784	0.37162	-118.137
2610	0.3789	-118.894	0.91905	-28.265	0.91905	-28.265	0.3789	-118.894
2630	0.38416	-119.387	0.91476	-28.635	0.91476	-28.635	0.38416	-119.387
2650	0.3899	-119.555	0.9157	-28.959	0.9157	-28.959	0.3899	-119.555
2670	0.3951	-120.186	0.91099	-29.571	0.91099	-29.571	0.3951	-120.186
2690	0.3994	-121.156	0.90672	-29.95	0.90672	-29.95	0.3994	-121.156
2710	0.40462	-122.387	0.90041	-30.292	0.90041	-30.292	0.40462	-122.387
2730	0.41138	-123.773	0.89266	-30.815	0.89266	-30.815	0.41138	-123.773
2750	0.41913	-125.176	0.88706	-31.755	0.88706	-31.755	0.41913	-125.176
2770	0.43041	-126.783	0.87414	-32.467	0.87414	-32.467	0.43041	-126.783
2790	0.44355	-128.327	0.86427	-33.276	0.86427	-33.276	0.44355	-128.327
2810	0.45593	-129.946	0.85552	-34.114	0.85552	-34.114	0.45593	-129.946
2830	0.46692	-131.739	0.8437	-34.983	0.8437	-34.983	0.46692	-131.739
2850	0.47781	-133.76	0.82233	-35.967	0.82233	-35.967	0.47781	-133.76
2870	0.48979	-136.734	0.8003	-37.219	0.8003	-37.219	0.48979	-136.734
2890	0.50219	-140.531	0.77268	-37.935	0.77268	-37.935	0.50219	-140.531
2910	0.5177	-145.062	0.73909	-38.62	0.73909	-38.62	0.5177	-145.062
2930	0.53359	-150.538	0.6953	-39.275	0.6953	-39.275	0.53359	-150.538
2950	0.54165	-157.469	0.6333	-39.397	0.6333	-39.397	0.54165	-157.469
2970	0.54019	-166.139	0.56329	-36.358	0.56329	-36.358	0.54019	-166.139
2990	0.51804	39.116	0.51215	-28.71	0.51215	-28.71	0.51804	39.116
3010	0.46795	171.268	0.5058	-18.296	0.5058	-18.296	0.46795	171.268
3030	0.39045	159.219	0.55325	-8.355	0.55325	-8.355	0.39045	159.219
3050	0.29377	147.804	0.6466	-3.518	0.6466	-3.518	0.29377	147.804
3070	0.19881	141.511	0.7416	-4.174	0.7416	-4.174	0.19881	141.511
3090	0.11912	144.597	0.81093	-6.444	0.81093	-6.444	0.11912	144.597
3110	0.06776	28.62	0.85861	-9.172	0.85861	-9.172	0.06776	28.62
3130	0.0544	-142.364	0.89021	-11.725	0.89021	-11.725	0.0544	-142.364
3150	0.08535	-111.805	0.91283	-13.994	0.91283	-13.994	0.08535	-111.805
3170	0.11841	-106.698	0.92415	-15.947	0.92415	-15.947	0.11841	-106.698
3190	0.14643	-104.94	0.93128	-17.547	0.93128	-17.547	0.14643	-104.94
3210	0.1707	-104.922	0.93567	-18.985	0.93567	-18.985	0.1707	-104.922
3230	0.19195	-105.794	0.93846	-20.308	0.93846	-20.308	0.19195	-105.794
3250	0.21042	-107.467	0.94042	-21.416	0.94042	-21.416	0.21042	-107.467
3270	0.22911	-108.532	0.94011	-22.401	0.94011	-22.401	0.22911	-108.532
3290	0.24537	-109.082	0.94163	-23.224	0.94163	-23.224	0.24537	-109.082
3310	0.26009	-109.505	0.94135	-23.962	0.94135	-23.962	0.26009	-109.505
3330	0.27323	-109.988	0.93952	-24.667	0.93952	-24.667	0.27323	-109.988
3350	0.28381	-110.517	0.94031	-25.368	0.94031	-25.368	0.28381	-110.517
3370	0.29031	-111.363	0.93721	-26.126	0.93721	-26.126	0.29031	-111.363
3390	0.29779	-112.09	0.93615	-26.763	0.93615	-26.763	0.29779	-112.09
3410	0.30602	-113.102	0.93593	-27.217	0.93593	-27.217	0.30602	-113.102
3430	0.31455	-114.453	0.93469	-27.657	0.93469	-27.657	0.31455	-114.453
3450	0.32263	-115.846	0.92994	-28.483	0.92994	-28.483	0.32263	-115.846
3470	0.33212	-116.299	0.92623	-28.911	0.92623	-28.911	0.33212	-116.299
3490	0.3418	-116.608	0.9255	-29.362	0.9255	-29.362	0.3418	-116.608
3510	0.34938	-116.862	0.92174	-29.76	0.92174	-29.76	0.34938	-116.862
3530	0.35436	-117.143	0.91655	-30.141	0.91655	-30.141	0.35436	-117.143
3550	0.35801	-117.525	0.91915	-30.654	0.91915	-30.654	0.35801	-117.525
3570	0.36311	-118.474	0.91845	-31.354	0.91845	-31.354	0.36311	-118.474
3590	0.36608	-119.529	0.91297	-31.847	0.91297	-31.847	0.36608	-119.529
3610	0.37285	-120.597	0.90994	-32.156	0.90994	-32.156	0.37285	-120.597
3630	0.38318	-121.587	0.91039	-32.453	0.91039	-32.453	0.38318	-121.587
3650	0.39071	-122.415	0.90917	-33.065	0.90917	-33.065	0.39071	-122.415
3670	0.39875	-122.629	0.90721	-33.513	0.90721	-33.513	0.39875	-122.629
3690	0.40494	-122.758	0.90787	-33.678	0.90787	-33.678	0.40494	-122.758
3710	0.40999	-122.946	0.90421	-34.095	0.90421	-34.095	0.40999	-122.946
3730	0.41361	-123.285	0.89685	-34.725	0.89685	-34.725	0.41361	-123.285
3750	0.41447	-123.814	0.89395	-34.95	0.89395	-34.95	0.41447	-123.814
3770	0.41947	-124.769	0.89028	-35.577	0.89028	-35.577	0.41947	-124.769
3790	0.42406	-125.669	0.88704	-36.097	0.88704	-36.097	0.42406	-125.669
3810	0.43075	-126.593	0.88585	-36.473	0.88585	-36.473	0.43075	-126.593
3830	0.43982	-127.444	0.88513	-36.817	0.88513	-36.817	0.43982	-127.444
3850	0.44929	-127.951	0.88018	-37.391	0.88018	-37.391	0.44929	-127.951
3870	0.4547	-127.856	0.88128	-37.63	0.88128	-37.63	0.4547	-127.856
3890	0.46094	-128.222	0.87927	-37.887	0.87927	-37.887	0.46094	-128.222
3910	0.46399	-128.623	0.87437	-38.231	0.87437	-38.231	0.46399	-128.623
3930	0.46487	-128.912	0.86941	-38.574	0.86941	-38.574	0.46487	-128.912
3950	0.46953	-129.223	0.86987	-38.669	0.86987	-38.669	0.46953	-129.223
3970	0.47367	-130.004	0.86478	-39.325	0.86478	-39.325	0.47367	-130.004
3990	0.48045	-131.13	0.85897	-39.871	0.85897	-39.871	0.48045	-131.13
4010	0.48721	-131.876	0.85615	-40.193	0.85615	-40.193	0.48721	-131.876
4030	0.49374	-132.139	0.85584	-40.38	0.85584	-40.38	0.49374	-132.139
4050	0.5023	-132.439	0.85341	-40.728	0.85341	-40.728	0.5023	-132.439
4070	0.50846	-132.67	0.84532	-41.363	0.84532	-41.363	0.50846	-132.67
4090	0.51064	-133.056	0.84108	-41.819	0.84108	-41.819	0.51064	-133.056
4110	0.51291	-133.379	0.8389	-42.191	0.8389	-42.191	0.51291	-133.379
4130	0.51634	-133.783	0.83672	-42.531	0.83672	-42.531	0.51634	-133.783
4150	0.51903	-134.776	0.83217	-42.842	0.83217	-42.842	0.51903	-134.776
4170	0.52267	-135.785	0.82688	-43.515	0.82688	-43.515	0.52267	-135.785
4190	0.5307	-136.311	0.82369	-43.769	0.82369	-43.769	0.5307	-136.311
4210	0.53973	-136.879	0.81983	-44.112	0.81983	-44.112	0.53973	-136.879
4230	0.54738	-137.577	0.81327	-44.614	0.81327	-44.614	0.54738	-137.577
4250	0.55239	-138.054	0.8027	-44.905	0.8027	-44.905	0.55239	-138.054
4270	0.56033	-138.542	0.80344	-45.21	0.80344	-45.21	0.56033	-138.542
4290	0.56476	-139.032	0.79894	-45.672	0.79894	-45.672	0.56476	-139.032
4310	0.56665	-139.278	0.79477	-46.003	0.79477	-46.003	0.56665	-139.278
4330	0.56803	-139.567	0.79284	-46.246	0.79284	-46.246	0.56803	-139.567
4350	0.57198	-140.725	0.79136	-46.774	0.79136	-46.774	0.57198	-140.725
4370	0.57905	-141.587	0.78466	-47.232	0.78466	-47.232	0.57905	-141.587
4390	0.58658	-142.285	0.783	-47.797	0.783	-47.797	0.58658	-142.285
4410	0.59357	-142.92	0.7792	-48.376	0.7792	-48.376	0.59357	-142.92
4430	0.59996	-143.368	0.77198	-48.845	0.77198	-48.845	0.59996	-143.368
4450	0.60659	-143.282	0.76592	-49.047	0.76592	-49.047	0.60659	-143.282
4470	0.61073	-144.115	0.76093	-49.829	0.76093	-49.829	0.61073	-144.115
4490	0.61301	-144.757	0.75155	-50.284	0.75155	-50.284	0.61301	-144.757
4510	0.61771	-145.143	0.74609	-50.572	0.74609	-50.572	0.61771	-145.143
4530	0.62548	-145.721	0.7447	-50.996	0.7447	-50.996	0.62548	-145.721
4550	0.63341	-147.448	0.7394	-52.002	0.7394	-52.002	0.63341	-147.448
4570	0.6361	-147.898	0.72661	-52.121	0.72661	-52.121	0.6361	-147.898
4590	0.64739	-148.487	0.72286	-52.448	0.72286	-52.448	0.64739	-148.487
4610	0.65705	-149.114	0.71873	-53.025	0.71873	-53.025	0.65705	-149.114
4630	0.66195	-149.62	0.70991	-53.633	0.70991	-53.633	0.66195	-149.62
4650	0.66611	-149.786	0.69716	-53.797	0.69716	-53.797	0.66611	-149.786
4670	0.6714	-150.536	0.69414	-54.498	0.69414	-54.498	0.6714	-150.536
4690	0.67391	-151.427	0.68673	-54.979	0.68673	-54.979	0.67391	-151.427
4710	0.678	-152.273	0.67747	-55.5	0.67747	-55.5	0.678	-152.273
4730	0.68472	-153.126	0.6672	-56.085	0.6672	-56.085	0.68472	-153.126
4750	0.69182	-154.277	0.65508	-56.525	0.65508	-56.525	0.69182	-154.277
4770	0.70311	-155.013	0.64953	-57.06	0.64953	-57.06	0.70311	-155.013
4790	0.7063	-155.972	0.63842	-57.723	0.63842	-57.723	0.7063	-155.972
4810	0.71235	-156.795	0.62505	-58.333	0.62505	-58.333	0.71235	-156.795
4830	0.72238	-157.443	0.61189	-58.873	0.61189	-58.873	0.72238	-157.443
4850	0.72772	-158.196	0.60058	-59.491	0.60058	-59.491	0.72772	-158.196
4870	0.7289	-159.409	0.58613	-60.122	0.58613	-60.122	0.7289	-159.409
4890	0.73443	-160.84	0.57113	-60.585	0.57113	-60.585	0.73443	-160.84
4910	0.74383	-162.388	0.55754	-61.077	0.55754	-61.077	0.74383	-162.388
4930	0.75335	-163.905	0.54316	-61.651	0.54316	-61.651	0.75335	-163.905
4950	0.75607	-165.199	0.52158	-62.219	0.52158	-62.219	0.75607	-165.199
4970	0.76862	-166.177	0.50748	-62.491	0.50748	-62.491	0.76862	-166.177
4990	0.7783	-167.713	0.4884	-63.042	0.4884	-63.042	0.7783	-167.713
5010	0.77744	-169.21	0.46534	-63.266	0.46534	-63.266	0.77744	-169.21
5030	0.77144	-170.577	0.4418	-62.994	0.4418	-62.994	0.77144	-170.577
5050	0.77876	-172.228	0.42377	-62.495	0.42377	-62.495	0.77876	-172.228
5070	0.7812	-174.88	0.39782	-62.648	0.39782	-62.648	0.7812	-174.88
5090	0.78207	-176.876	0.36803	-61.567	0.36803	-61.567	0.78207	-176.876
5110	0.78578	-34.868	0.34107	-59.751	0.34107	-59.751	0.78578	-34.868
5130	0.79075	178.754	0.31762	-57.384	0.31762	-57.384	0.79075	178.754
5150	0.78944	175.868	0.29248	-54.332	0.29248	-54.332	0.78944	175.868
5170	0.78158	173.44	0.2657	-48.998	0.2657	-48.998	0.78158	173.44
5190	0.77014	170.898	0.24865	-41.099	0.24865	-41.099	0.77014	170.898
5210	0.75511	167.805	0.24165	-31.795	0.24165	-31.795	0.75511	167.805
5230	0.73396	164.158	0.24513	-21.905	0.24513	-21.905	0.73396	164.158
5250	0.70159	160.389	0.25952	-11.907	0.25952	-11.907	0.70159	160.389
5270	0.67205	157.077	0.29515	-3.996	0.29515	-3.996	0.67205	157.077
5290	0.63877	153.033	0.34125	0.676	0.34125	0.676	0.63877	153.033
5310	0.59615	149.257	0.39202	3.127	0.39202	3.127	0.59615	149.257
5330	0.54432	146.156	0.446	4.048	0.446	4.048	0.54432	146.156
5350	0.48918	143.537	0.50609	3.803	0.50609	3.803	0.48918	143.537
5370	0.42327	141.389	0.56236	1.649	0.56236	1.649	0.42327	141.389
5390	0.35816	140.283	0.61199	-0.739	0.61199	-0.739	0.35816	140.283
5410	0.29533	140.589	0.65764	-3.437	0.65764	-3.437	0.29533	140.589
5430	0.23687	143.236	0.69883	-6.39	0.69883	-6.39	0.23687	143.236
5450	0.18538	149.716	0.73192	-9.421	0.73192	-9.421	0.18538	149.716
5470	0.15548	163.882	0.75772	-12.442	0.75772	-12.442	0.15548	163.882
5490	0.14655	-34.234	0.77625	-15.474	0.77625	-15.474	0.14655	-34.234
5510	0.15688	-161.137	0.79135	-18.372	0.79135	-18.372	0.15688	-161.137
5530	0.18206	-147.743	0.80377	-21.032	0.80377	-21.032	0.18206	-147.743
5550	0.21491	-139.377	0.8111	-23.39	0.8111	-23.39	0.21491	-139.377
5570	0.24894	-135.115	0.8122	-25.497	0.8122	-25.497	0.24894	-135.115
5590	0.28103	-132.576	0.81492	-27.719	0.81492	-27.719	0.28103	-132.576
5610	0.31176	-131.487	0.81365	-29.921	0.81365	-29.921	0.31176	-131.487
5630	0.34104	-131.35	0.80923	-31.944	0.80923	-31.944	0.34104	-131.35
5650	0.36803	-131.443	0.80898	-33.598	0.80898	-33.598	0.36803	-131.443
5670	0.39686	-132.129	0.80613	-35.186	0.80613	-35.186	0.39686	-132.129
5690	0.42211	-132.823	0.79924	-36.623	0.79924	-36.623	0.42211	-132.823
5710	0.44597	-133.316	0.7911	-38.179	0.7911	-38.179	0.44597	-133.316
5730	0.4682	-133.707	0.78344	-39.689	0.78344	-39.689	0.4682	-133.707
5750	0.48612	-134.4	0.77698	-40.559	0.77698	-40.559	0.48612	-134.4
5770	0.50341	-134.933	0.7741	-41.741	0.7741	-41.741	0.50341	-134.933
5790	0.51951	-135.516	0.76844	-42.612	0.76844	-42.612	0.51951	-135.516
5810	0.53418	-136.195	0.75959	-43.649	0.75959	-43.649	0.53418	-136.195
5830	0.54725	-136.94	0.74913	-44.739	0.74913	-44.739	0.54725	-136.94
5850	0.55863	-137.648	0.74062	-45.179	0.74062	-45.179	0.55863	-137.648
5870	0.57799	-138.607	0.73876	-46.53	0.73876	-46.53	0.57799	-138.607
