# MHZ S MA R 50
50.00	0.22	73.40	0.95	-10.70
100.00	0.39	63.40	0.88	-21.70
150.00	0.56	53.40	0.80	-32.70
200.00	0.66	45.70	0.72	-40.50
250.00	0.76	37.90	0.63	-48.20
300.00	0.81	32.60	0.55	-53.90
350.00	0.87	27.20	0.47	-59.50
400.00	0.90	22.80	0.41	-63.80
450.00	0.93	18.40	0.34	-68.00
500.00	0.94	15.20	0.28	-72.10
550.00	0.94	12.00	0.22	-76.20
600.00	0.96	9.40	0.18	-78.70
650.00	0.98	6.90	0.14	-81.20
700.00	0.98	4.70	0.10	-82.20
750.00	0.98	2.50	0.07	-83.20
800.00	0.98	0.30	0.04	-68.90
850.00	0.98	-1.80	0.01	-54.50
900.00	0.99	-3.40	0.03	12.80
950.00	1.00	-5.00	0.05	80.00
1000.00	0.99	-6.20	0.07	79.70
1050.00	0.99	-7.40	0.10	79.40
1100.00	0.98	-9.10	0.12	78.30
1150.00	0.97	-10.90	0.14	77.20
1200.00	0.98	-11.90	0.17	76.00
1250.00	0.98	-13.00	0.19	74.80
1300.00	0.97	-14.80	0.21	73.40
1350.00	0.96	-16.70	0.23	72.10
1400.00	0.96	-17.70	0.25	71.00
1450.00	0.96	-18.80	0.27	69.90
1500.00	0.95	-20.30	0.29	68.60
1550.00	0.94	-21.80	0.31	67.30
1600.00	0.94	-23.00	0.32	66.00
1650.00	0.94	-24.20	0.34	64.70
1700.00	0.93	-25.20	0.36	63.80
1750.00	0.92	-26.20	0.38	62.90
1800.00	0.91	-27.50	0.39	61.60
1850.00	0.91	-28.90	0.41	60.20
1900.00	0.90	-30.10	0.43	59.20
1950.00	0.89	-31.40	0.44	58.20
2000.00	0.88	-32.50	0.46	57.10
2050.00	0.87	-33.60	0.47	56.00
2100.00	0.86	-34.70	0.49	54.80
2150.00	0.86	-35.70	0.50	53.70
2200.00	0.85	-37.00	0.51	52.60
2250.00	0.84	-38.30	0.53	51.60
2300.00	0.83	-39.20	0.54	50.50
2350.00	0.82	-40.10	0.56	49.40
2400.00	0.81	-41.20	0.57	48.30
2450.00	0.80	-42.30	0.58	47.30
2500.00	0.79	-43.60	0.60	46.20
2550.00	0.78	-45.00	0.61	45.10
2600.00	0.77	-45.80	0.62	44.10
2650.00	0.75	-46.60	0.64	43.10
2700.00	0.74	-47.90	0.65	41.90
2750.00	0.73	-49.10	0.66	40.70
2800.00	0.72	-50.10	0.67	39.60
2850.00	0.71	-51.10	0.69	38.60
2900.00	0.70	-52.50	0.69	37.30
2950.00	0.68	-53.80	0.70	36.10
3000.00	0.67	-54.90	0.72	35.00
3050.00	0.65	-56.10	0.73	33.80
3100.00	0.64	-57.00	0.74	32.80
3150.00	0.63	-58.00	0.75	31.80
3200.00	0.61	-59.60	0.76	30.30
3250.00	0.59	-61.30	0.77	28.70
3300.00	0.57	-62.40	0.78	27.20
3350.00	0.55	-63.40	0.80	25.80
3400.00	0.52	-65.30	0.81	24.00
3450.00	0.50	-67.10	0.82	22.20
3500.00	0.46	-68.90	0.83	19.80
3550.00	0.43	-70.60	0.85	17.40
3600.00	0.38	-71.30	0.86	14.20
3650.00	0.33	-72.00	0.86	11.10
3700.00	0.26	-66.70	0.86	6.10
3750.00	0.19	-61.40	0.86	1.20
3800.00	0.21	-25.60	0.81	-6.80
3850.00	0.24	10.20	0.75	-14.80
3900.00	0.41	6.40	0.59	-21.20
3950.00	0.59	2.70	0.43	-27.60
4000.00	0.69	-9.50	0.34	-3.40
4050.00	0.78	-21.70	0.25	20.80
4100.00	0.78	-29.90	0.34	30.60
4150.00	0.78	-38.10	0.42	40.40
4200.00	0.77	-43.00	0.49	39.90
4250.00	0.75	-47.90	0.55	39.30
4300.00	0.73	-51.30	0.58	37.80
4350.00	0.71	-54.70	0.62	36.30
4400.00	0.69	-57.30	0.65	34.70
4450.00	0.68	-60.00	0.68	33.00
4500.00	0.66	-61.70	0.69	31.90
4550.00	0.65	-63.40	0.71	30.90
4600.00	0.64	-65.40	0.73	29.60
4650.00	0.63	-67.30	0.74	28.40
4700.00	0.62	-68.80	0.75	27.40
4750.00	0.60	-70.20	0.76	26.50
4800.00	0.59	-71.60	0.77	25.50
4850.00	0.58	-73.00	0.78	24.60
4900.00	0.57	-73.90	0.79	23.80
4950.00	0.56	-74.90	0.80	23.10
5000.00	0.55	-76.30	0.80	22.30
5050.00	0.54	-77.70	0.81	21.50
5100.00	0.53	-78.50	0.81	20.70
5150.00	0.51	-79.40	0.81	19.90
5200.00	0.51	-80.00	0.83	19.30
5250.00	0.51	-80.60	0.84	18.60
5300.00	0.50	-81.90	0.84	17.70
5350.00	0.49	-83.20	0.84	16.70
5400.00	0.49	-83.50	0.84	16.20
5450.00	0.48	-83.70	0.85	15.60
5500.00	0.47	-84.60	0.85	14.90
5550.00	0.46	-85.40	0.85	14.20
5600.00	0.45	-85.90	0.85	13.60
5650.00	0.44	-86.50	0.86	13.10
5700.00	0.43	-86.90	0.86	12.30
5750.00	0.43	-87.30	0.87	11.60
5800.00	0.41	-87.60	0.87	10.80
5850.00	0.40	-87.90	0.88	10.00
5900.00	0.40	-87.70	0.88	9.50
5950.00	0.39	-87.60	0.88	9.00
6000.00	0.38	-87.90	0.89	7.60
6050.00	0.36	-88.30	0.89	6.30
6100.00	0.35	-88.20	0.90	5.60
6150.00	0.34	-88.00	0.90	4.90
6200.00	0.33	-87.50	0.90	4.00
6250.00	0.32	-87.00	0.91	3.20
6300.00	0.31	-86.60	0.91	2.40
6350.00	0.29	-86.10	0.91	1.60
6400.00	0.28	-84.90	0.91	0.50
6450.00	0.27	-83.70	0.91	-0.50
6500.00	0.25	-82.00	0.91	-1.70
6550.00	0.24	-80.20	0.91	-2.90
6600.00	0.22	-78.10	0.91	-4.00
6650.00	0.21	-76.00	0.91	-5.20
6700.00	0.19	-69.80	0.91	-6.70
6750.00	0.17	-63.70	0.91	-8.30
6800.00	0.16	-53.30	0.90	-10.40
6850.00	0.15	-42.90	0.88	-12.40
6900.00	0.17	-27.20	0.86	-15.10
6950.00	0.18	-11.40	0.84	-17.90
7000.00	0.24	-4.90	0.79	-21.10
7050.00	0.30	1.70	0.74	-24.30
7100.00	0.39	-1.70	0.64	-25.00
7150.00	0.48	-5.10	0.54	-25.70
7200.00	0.55	-13.70	0.48	-14.50
7250.00	0.61	-22.30	0.42	-3.30
7300.00	0.62	-30.30	0.48	5.20
7350.00	0.63	-38.30	0.54	13.70
7400.00	0.60	-43.30	0.60	14.20
7450.00	0.58	-48.40	0.66	14.70
7500.00	0.56	-51.50	0.70	13.60
7550.00	0.54	-54.50	0.74	12.60
7600.00	0.52	-56.90	0.76	11.20
7650.00	0.49	-59.20	0.79	9.80
7700.00	0.47	-60.30	0.80	8.90
7750.00	0.45	-61.40	0.82	7.90
7800.00	0.44	-62.70	0.83	6.80
7850.00	0.43	-63.90	0.85	5.70
7900.00	0.41	-64.80	0.86	4.60
7950.00	0.39	-65.70	0.86	3.60
8000.00	0.38	-66.80	0.87	2.70
8050.00	0.37	-68.00	0.88	1.80
8100.00	0.35	-68.30	0.88	1.30
8150.00	0.34	-68.70	0.89	0.70
8200.00	0.33	-69.50	0.89	-0.10
8250.00	0.32	-70.30	0.90	-0.90
8300.00	0.31	-70.50	0.90	-1.60
8350.00	0.30	-70.70	0.91	-2.20
8400.00	0.29	-71.40	0.91	-3.00
8450.00	0.28	-72.10	0.92	-3.80
8500.00	0.27	-72.00	0.92	-4.60
8550.00	0.26	-72.00	0.93	-5.30
8600.00	0.25	-72.50	0.93	-5.90
8650.00	0.24	-73.10	0.93	-6.50
8700.00	0.22	-72.50	0.93	-7.30
8750.00	0.21	-71.90	0.94	-8.10
8800.00	0.20	-71.90	0.94	-8.60
8850.00	0.19	-72.00	0.94	-9.10
8900.00	0.18	-70.50	0.94	-10.10
8950.00	0.17	-69.00	0.95	-11.00
9000.00	0.16	-67.30	0.95	-11.50
9050.00	0.15	-65.60	0.95	-12.00
9100.00	0.14	-63.60	0.95	-12.80
9150.00	0.13	-61.60	0.95	-13.60
9200.00	0.12	-60.30	0.95	-14.30
9250.00	0.10	-58.90	0.95	-14.90
9300.00	0.09	-55.00	0.95	-15.60
9350.00	0.09	-51.00	0.95	-16.20
9400.00	0.08	-45.70	0.95	-16.80
9450.00	0.07	-40.40	0.95	-17.30
9500.00	0.07	-30.90	0.95	-18.20
9550.00	0.06	-21.40	0.95	-19.10
9600.00	0.06	-10.10	0.94	-20.00
9650.00	0.07	1.30	0.94	-20.90
9700.00	0.07	10.90	0.94	-21.80
9750.00	0.08	20.50	0.94	-22.60
9800.00	0.09	25.00	0.94	-23.60
9850.00	0.11	29.60	0.93	-24.50
9900.00	0.13	31.40	0.93	-25.80
9950.00	0.14	33.20	0.92	-27.00
10000.0	0.16	33.90	0.90	-28.10
10050.0	0.19	34.50	0.89	-29.20
10100.0	0.21	31.10	0.87	-30.80
10150.0	0.23	27.70	0.85	-32.50
10200.0	0.27	24.10	0.81	-33.80
10250.0	0.30	20.40	0.78	-35.10
10300.0	0.34	12.20	0.72	-35.50
10350.0	0.38	4.10	0.66	-35.90
10400.0	0.40	-6.30	0.61	-31.60
10450.0	0.43	-16.70	0.55	-27.30
10500.0	0.43	-27.20	0.56	-19.10
10550.0	0.43	-37.60	0.57	-10.90
10600.0	0.39	-48.50	0.63	-8.50
10650.0	0.36	-59.40	0.69	-6.00
10700.0	0.32	-65.10	0.74	-6.50
10750.0	0.29	-70.80	0.79	-7.00
10800.0	0.26	-75.80	0.82	-8.60
10850.0	0.23	-80.80	0.85	-10.10
10900.0	0.20	-84.80	0.87	-11.60
10950.0	0.17	-88.70	0.89	-13.20
11000.0	0.16	-89.80	0.90	-14.30
11050.0	0.14	-90.90	0.92	-15.50
11100.0	0.12	-93.50	0.92	-16.60
11150.0	0.10	-96.10	0.93	-17.80
11200.0	0.09	-95.00	0.93	-18.60
11250.0	0.08	-93.90	0.94	-19.40
11300.0	0.07	-92.80	0.94	-20.40
11350.0	0.06	-91.80	0.94	-21.40
11400.0	0.06	-84.90	0.94	-22.20
11450.0	0.05	-78.10	0.95	-23.10
11500.0	0.05	-70.20	0.95	-24.00
11550.0	0.05	-62.20	0.95	-25.00
11600.0	0.05	-49.10	0.95	-25.70
11650.0	0.05	-35.90	0.94	-26.40
11700.0	0.05	-28.70	0.94	-27.10
11750.0	0.05	-21.40	0.93	-27.80
11800.0	0.05	-7.10	0.93	-28.10
11850.0	0.06	7.30	0.94	-28.50
11900.0	0.07	7.50	0.94	-29.20
11950.0	0.08	7.80	0.94	-29.80
12000.0	0.09	11.60	0.94	-30.40
12050.0	0.10	15.30	0.94	-31.00
12100.0	0.10	13.30	0.94	-31.80
12150.0	0.10	11.30	0.93	-32.60
12200.0	0.11	12.80	0.93	-33.40
12250.0	0.11	14.40	0.93	-34.20
12300.0	0.12	15.60	0.93	-34.80
12350.0	0.13	16.80	0.92	-35.30
12400.0	0.13	18.10	0.92	-35.80
12450.0	0.14	19.50	0.91	-36.30
12500.0	0.15	20.80	0.90	-37.20
12550.0	0.16	22.10	0.90	-38.00
12600.0	0.17	22.70	0.90	-38.60
12650.0	0.18	23.30	0.89	-39.30
12700.0	0.20	22.70	0.89	-39.90
12750.0	0.21	22.10	0.88	-40.60
12800.0	0.23	22.30	0.88	-41.10
12850.0	0.24	22.50	0.87	-41.70
12900.0	0.26	22.10	0.86	-42.70
12950.0	0.27	21.70	0.85	-43.70
13000.0	0.29	20.20	0.85	-44.30
13050.0	0.30	18.60	0.83	-44.90
13100.0	0.32	17.50	0.82	-46.00
13150.0	0.34	16.40	0.81	-47.20
13200.0	0.36	14.60	0.79	-48.20
13250.0	0.38	12.90	0.77	-49.30
13300.0	0.41	10.50	0.74	-50.40
13350.0	0.42	8.10	0.72	-51.50
13400.0	0.46	4.40	0.68	-51.60
13450.0	0.49	0.80	0.64	-51.80
13500.0	0.49	-4.50	0.60	-49.20
13550.0	0.50	-9.80	0.55	-46.50
13600.0	0.50	-15.60	0.54	-40.40
13650.0	0.49	-21.50	0.53	-34.40
13700.0	0.46	-26.70	0.57	-29.60
13750.0	0.43	-31.80	0.61	-24.90
13800.0	0.38	-33.90	0.66	-24.60
13850.0	0.34	-35.90	0.71	-24.40
13900.0	0.31	-35.90	0.75	-25.80
13950.0	0.28	-35.90	0.78	-27.10
14000.0	0.26	-31.80	0.80	-28.70
14050.0	0.24	-27.60	0.82	-30.30
14100.0	0.24	-25.20	0.84	-32.00
14150.0	0.24	-22.80	0.85	-33.70
14200.0	0.24	-19.10	0.86	-35.20
14250.0	0.25	-15.50	0.86	-36.70
14300.0	0.25	-14.20	0.86	-38.20
14350.0	0.26	-12.90	0.86	-39.60
14400.0	0.27	-11.90	0.85	-40.70
14450.0	0.28	-10.90	0.85	-41.80
14500.0	0.29	-11.70	0.84	-43.10
14550.0	0.30	-12.50	0.83	-44.30
14600.0	0.29	-13.80	0.81	-44.60
14650.0	0.29	-15.10	0.79	-44.90
14700.0	0.27	-13.70	0.78	-44.00
14750.0	0.25	-12.30	0.77	-43.10
14800.0	0.24	-4.70	0.79	-42.60
14850.0	0.22	2.80	0.81	-42.20
14900.0	0.25	8.80	0.82	-43.00
14950.0	0.27	14.80	0.83	-43.80
15000.0	0.29	15.30	0.84	-44.90
15050.0	0.30	15.80	0.84	-46.10
15100.0	0.32	17.30	0.84	-47.10
15150.0	0.34	18.80	0.84	-48.10
15200.0	0.35	18.10	0.83	-49.00
15250.0	0.36	17.40	0.83	-49.90
15300.0	0.38	18.10	0.83	-50.90
15350.0	0.40	18.70	0.82	-51.90
15400.0	0.40	18.50	0.82	-52.30
15450.0	0.41	18.20	0.81	-52.80
15500.0	0.42	19.10	0.81	-53.60
15550.0	0.43	20.00	0.81	-54.50
15600.0	0.44	19.50	0.80	-55.00
15650.0	0.45	19.10	0.80	-55.50
15700.0	0.46	19.40	0.79	-56.30
15750.0	0.47	19.80	0.78	-57.00
15800.0	0.48	19.70	0.78	-57.90
15850.0	0.50	19.60	0.77	-58.70
15900.0	0.50	18.90	0.76	-59.40
15950.0	0.51	18.20	0.75	-60.00
16000.0	0.52	18.60	0.75	-60.60
16050.0	0.53	19.00	0.74	-61.10
16100.0	0.54	18.10	0.73	-61.90
16150.0	0.54	17.20	0.72	-62.60
16200.0	0.55	16.10	0.70	-63.40
16250.0	0.55	15.10	0.69	-64.20
16300.0	0.56	13.90	0.68	-64.80
16350.0	0.57	12.70	0.67	-65.50
16400.0	0.56	11.50	0.65	-66.60
16450.0	0.56	10.30	0.63	-67.70
16500.0	0.56	8.40	0.61	-67.80
16550.0	0.56	6.50	0.59	-68.00
16600.0	0.54	6.10	0.57	-68.10
16650.0	0.53	5.60	0.55	-68.20
16700.0	0.54	5.60	0.53	-67.80
16750.0	0.55	5.60	0.51	-67.40
16800.0	0.58	2.90	0.49	-67.10
16850.0	0.61	0.20	0.47	-66.80
16900.0	0.62	-3.40	0.44	-65.20
16950.0	0.63	-7.00	0.41	-63.70
17000.0	0.63	-11.40	0.38	-59.60
17050.0	0.63	-15.90	0.35	-55.60
17100.0	0.61	-20.80	0.34	-47.80
17150.0	0.60	-25.70	0.34	-40.10
17200.0	0.56	-30.60	0.37	-33.30
17250.0	0.52	-35.50	0.40	-26.40
17300.0	0.48	-39.20	0.45	-24.10
17350.0	0.43	-42.80	0.51	-21.90
17400.0	0.38	-43.50	0.56	-23.00
17450.0	0.32	-44.20	0.62	-24.10
17500.0	0.28	-38.90	0.66	-26.70
17550.0	0.23	-33.60	0.69	-29.20
17600.0	0.22	-24.10	0.72	-32.00
17650.0	0.20	-14.70	0.75	-34.80
17700.0	0.21	-5.90	0.76	-37.20
17750.0	0.23	2.90	0.78	-39.60
17800.0	0.25	6.20	0.79	-42.10
17850.0	0.27	9.50	0.79	-44.50
17900.0	0.29	11.90	0.79	-46.60
17950.0	0.31	14.20	0.79	-48.60
18000.0	0.34	14.40	0.79	-50.30
18050.0	0.37	14.50	0.79	-52.00
18100.0	0.38	14.90	0.79	-53.60
18150.0	0.39	15.30	0.78	-55.30
18200.0	0.41	14.40	0.78	-56.70
18250.0	0.43	13.60	0.77	-58.20
18300.0	0.45	12.50	0.76	-59.70
18350.0	0.47	11.40	0.76	-61.20
18400.0	0.48	10.80	0.75	-62.60
18450.0	0.50	10.20	0.74	-64.00
18500.0	0.52	9.70	0.73	-64.90
18550.0	0.55	9.20	0.72	-65.80
18600.0	0.56	8.00	0.71	-67.50
18650.0	0.57	6.80	0.70	-69.30
18700.0	0.59	5.30	0.69	-70.60
18750.0	0.61	3.70	0.67	-72.00
18800.0	0.62	2.90	0.66	-73.30
18850.0	0.63	2.10	0.65	-74.70
18900.0	0.65	0.70	0.63	-76.30
18950.0	0.67	-0.80	0.62	-77.90
19000.0	0.67	-2.00	0.60	-79.00
19050.0	0.67	-3.30	0.58	-80.00
19100.0	0.69	-4.50	0.56	-81.30
19150.0	0.71	-5.70	0.54	-82.60
19200.0	0.71	-8.10	0.51	-83.60
19250.0	0.72	-10.60	0.49	-84.70
19300.0	0.73	-11.60	0.47	-85.40
19350.0	0.75	-12.60	0.44	-86.10
19400.0	0.76	-15.30	0.42	-86.90
19450.0	0.77	-18.00	0.39	-87.60
19500.0	0.77	-19.40	0.36	-87.00
19550.0	0.77	-20.90	0.33	-86.40
19600.0	0.79	-23.60	0.30	-84.40
19650.0	0.80	-26.30	0.27	-82.50
19700.0	0.78	-28.60	0.25	-77.60
19750.0	0.77	-31.00	0.23	-72.80
19800.0	0.76	-32.20	0.22	-65.00
19850.0	0.76	-33.40	0.20	-57.10
19900.0	0.75	-36.30	0.21	-49.10
19950.0	0.74	-39.20	0.21	-41.00
20000.0	0.74	-41.10	0.22	-32.70
