# MHZ S MA R 50

      50  0.71   42.40    0.67   -42.10   0.67   -42.10   0.71   42.40
      60  0.74   39.40    0.63   -45.10   0.63   -45.10   0.74   39.40
      70  0.76   36.50    0.58   -48.20   0.58   -48.20   0.76   36.50
      80  0.79   33.50    0.54   -51.20   0.54   -51.20   0.79   33.50
      90  0.81   30.60    0.49   -54.20   0.49   -54.20   0.81   30.60
     100  0.84   27.60    0.45   -57.30   0.45   -57.30   0.84   27.60
     110  0.86   24.70    0.40   -60.30   0.40   -60.30   0.86   24.70
     120  0.89   21.70    0.36   -63.30   0.36   -63.30   0.89   21.70
     130  0.91   18.80    0.31   -66.30   0.31   -66.30   0.91   18.80
     140  0.94   15.90    0.27   -69.40   0.27   -69.40   0.94   15.90
     150  0.96   12.90    0.22   -72.40   0.22   -72.40   0.96   12.90
     160  0.97   11.70    0.20   -72.70   0.20   -72.70   0.97   11.70
     170  0.97   10.50    0.19   -73.10   0.19   -73.10   0.97   10.50
     180  0.98    9.20    0.17   -73.50   0.17   -73.50   0.98    9.20
     190  0.98    8.00    0.15   -73.80   0.15   -73.80   0.98    8.00
     200  0.98    6.80    0.13   -74.20   0.13   -74.20   0.98    6.80
     210  0.99    5.60    0.11   -74.50   0.11   -74.50   0.99    5.60
     220  0.99    4.40    0.09   -74.90   0.09   -74.90   0.99    4.40
     230  1.00    3.20    0.07   -75.30   0.07   -75.30   1.00    3.20
     240  1.00    1.90    0.05   -75.60   0.05   -75.60   1.00    1.90
     250  1.00    0.70    0.04   -76.00   0.04   -76.00   1.00    0.70
     260  1.00    0.00    0.04   -60.20   0.04   -60.20   1.00    0.00
     270  1.00   -0.60    0.05   -44.30   0.05   -44.30   1.00   -0.60
     280  1.00   -1.30    0.05   -28.50   0.05   -28.50   1.00   -1.30
     290  1.00   -1.90    0.06   -12.70   0.06   -12.70   1.00   -1.90
     300  1.00   -2.60    0.06    3.20    0.06    3.20    1.00   -2.60
     310  1.00   -3.30    0.07   19.00    0.07   19.00    1.00   -3.30
     320  1.00   -3.90    0.07   34.80    0.07   34.80    1.00   -3.90
     330  1.00   -4.60    0.08   50.70    0.08   50.70    1.00   -4.60
     340  1.00   -5.30    0.08   66.50    0.08   66.50    1.00   -5.30
     350  1.00   -5.90    0.09   82.30    0.09   82.30    1.00   -5.90
     360  0.99   -6.60    0.10   81.90    0.10   81.90    0.99   -6.60
     370  0.99   -7.20    0.11   81.40    0.11   81.40    0.99   -7.20
     380  0.99   -7.90    0.12   81.00    0.12   81.00    0.99   -7.90
     390  0.99   -8.50    0.13   80.50    0.13   80.50    0.99   -8.50
     400  0.99   -9.20    0.14   80.10    0.14   80.10    0.99   -9.20
     410  0.99   -9.80    0.15   79.60    0.15   79.60    0.99   -9.80
     420  0.99   -10.50   0.16   79.10    0.16   79.10    0.99   -10.50
     430  0.99   -11.10   0.17   78.70    0.17   78.70    0.99   -11.10
     440  0.98   -11.70   0.18   78.20    0.18   78.20    0.98   -11.70
     450  0.98   -12.40   0.19   77.80    0.19   77.80    0.98   -12.40
     460  0.98   -12.60   0.19   77.40    0.19   77.40    0.98   -12.60
     470  0.97   -12.80   0.20   77.00    0.20   77.00    0.97   -12.80
     480  0.97   -13.00   0.20   76.70    0.20   76.70    0.97   -13.00
     490  0.96   -13.30   0.21   76.30    0.21   76.30    0.96   -13.30
     500  0.96   -13.50   0.22   76.00    0.22   76.00    0.96   -13.50
     510  0.96   -13.70   0.22   75.60    0.22   75.60    0.96   -13.70
     520  0.95   -13.90   0.23   75.30    0.23   75.30    0.95   -13.90
     530  0.95   -14.10   0.23   74.90    0.23   74.90    0.95   -14.10
     540  0.94   -14.40   0.24   74.60    0.24   74.60    0.94   -14.40
     550  0.94   -14.60   0.24   74.20    0.24   74.20    0.94   -14.60
     560  0.94   -15.00   0.25   73.70    0.25   73.70    0.94   -15.00
     570  0.94   -15.50   0.26   73.20    0.26   73.20    0.94   -15.50
     580  0.94   -15.90   0.26   72.70    0.26   72.70    0.94   -15.90
     590  0.94   -16.40   0.27   72.20    0.27   72.20    0.94   -16.40
     600  0.94   -16.80   0.28   71.80    0.28   71.80    0.94   -16.80
     610  0.94   -17.30   0.28   71.30    0.28   71.30    0.94   -17.30
     620  0.94   -17.70   0.29   70.80    0.29   70.80    0.94   -17.70
     630  0.93   -18.20   0.30   70.30    0.30   70.30    0.93   -18.20
     640  0.93   -18.60   0.31   69.80    0.31   69.80    0.93   -18.60
     650  0.93   -19.10   0.31   69.30    0.31   69.30    0.93   -19.10
     660  0.93   -19.50   0.32   68.90    0.32   68.90    0.93   -19.50
     670  0.93   -20.00   0.32   68.50    0.32   68.50    0.93   -20.00
     680  0.92   -20.40   0.33   68.10    0.33   68.10    0.92   -20.40
     690  0.92   -20.90   0.34   67.70    0.34   67.70    0.92   -20.90
     700  0.92   -21.40   0.34   67.30    0.34   67.30    0.92   -21.40
     710  0.91   -21.80   0.35   66.90    0.35   66.90    0.91   -21.80
     720  0.91   -22.30   0.36   66.50    0.36   66.50    0.91   -22.30
     730  0.91   -22.70   0.37   66.10    0.37   66.10    0.91   -22.70
     740  0.90   -23.20   0.37   65.60    0.37   65.60    0.90   -23.20
     750  0.90   -23.70   0.38   65.20    0.38   65.20    0.90   -23.70
     760  0.90   -24.00   0.38   64.80    0.38   64.80    0.90   -24.00
     770  0.90   -24.40   0.39   64.30    0.39   64.30    0.90   -24.40
     780  0.89   -24.80   0.39   63.90    0.39   63.90    0.89   -24.80
     790  0.89   -25.20   0.40   63.40    0.40   63.40    0.89   -25.20
     800  0.89   -25.60   0.40   62.90    0.40   62.90    0.89   -25.60
     810  0.89   -26.00   0.41   62.50    0.41   62.50    0.89   -26.00
     820  0.89   -26.30   0.41   62.00    0.41   62.00    0.89   -26.30
     830  0.88   -26.70   0.42   61.60    0.42   61.60    0.88   -26.70
     840  0.88   -27.10   0.42   61.10    0.42   61.10    0.88   -27.10
     850  0.88   -27.50   0.43   60.60    0.43   60.60    0.88   -27.50
     860  0.88   -27.90   0.43   60.30    0.43   60.30    0.88   -27.90
     870  0.88   -28.30   0.44   60.10    0.44   60.10    0.88   -28.30
     880  0.88   -28.70   0.45   59.80    0.45   59.80    0.88   -28.70
     890  0.87   -29.10   0.45   59.50    0.45   59.50    0.87   -29.10
     900  0.87   -29.50   0.46   59.20    0.46   59.20    0.87   -29.50
     910  0.87   -29.90   0.47   58.90    0.47   58.90    0.87   -29.90
     920  0.87   -30.30   0.47   58.60    0.47   58.60    0.87   -30.30
     930  0.87   -30.70   0.48   58.40    0.48   58.40    0.87   -30.70
     940  0.87   -31.10   0.48   58.10    0.48   58.10    0.87   -31.10
     950  0.86   -31.50   0.49   57.80    0.49   57.80    0.86   -31.50
     960  0.86   -31.80   0.50   57.40    0.50   57.40    0.86   -31.80
     970  0.86   -32.00   0.50   57.00    0.50   57.00    0.86   -32.00
     980  0.85   -32.30   0.50   56.60    0.50   56.60    0.85   -32.30
     990  0.85   -32.60   0.51   56.20    0.51   56.20    0.85   -32.60
    1000  0.85   -32.80   0.51   55.80    0.51   55.80    0.85   -32.80
    1010  0.84   -33.10   0.52   55.30    0.52   55.30    0.84   -33.10
    1020  0.84   -33.40   0.52   54.90    0.52   54.90    0.84   -33.40
    1030  0.84   -33.70   0.53   54.50    0.53   54.50    0.84   -33.70
    1040  0.83   -33.90   0.54   54.10    0.54   54.10    0.83   -33.90
    1050  0.83   -34.20   0.54   53.70    0.54   53.70    0.83   -34.20
    1060  0.82   -34.70   0.55   53.30    0.55   53.30    0.82   -34.70
    1070  0.82   -35.10   0.55   52.80    0.55   52.80    0.82   -35.10
    1080  0.81   -35.60   0.56   52.40    0.56   52.40    0.81   -35.60
    1090  0.81   -36.00   0.56   52.00    0.56   52.00    0.81   -36.00
    1100  0.80   -36.50   0.57   51.50    0.57   51.50    0.80   -36.50
    1110  0.80   -36.90   0.57   51.10    0.57   51.10    0.80   -36.90
    1120  0.79   -37.40   0.58   50.60    0.58   50.60    0.79   -37.40
    1130  0.79   -37.80   0.58   50.20    0.58   50.20    0.79   -37.80
    1140  0.78   -38.30   0.59   49.80    0.59   49.80    0.78   -38.30
    1150  0.78   -38.70   0.59   49.30    0.59   49.30    0.78   -38.70
    1160  0.77   -39.10   0.60   48.80    0.60   48.80    0.77   -39.10
    1170  0.77   -39.50   0.60   48.20    0.60   48.20    0.77   -39.50
    1180  0.76   -39.80   0.61   47.70    0.61   47.70    0.76   -39.80
    1190  0.76   -40.20   0.62   47.10    0.62   47.10    0.76   -40.20
    1200  0.75   -40.60   0.62   46.60    0.62   46.60    0.75   -40.60
    1210  0.75   -41.00   0.63   46.10    0.63   46.10    0.75   -41.00
    1220  0.74   -41.30   0.63   45.50    0.63   45.50    0.74   -41.30
    1230  0.74   -41.70   0.64   45.00    0.64   45.00    0.74   -41.70
    1240  0.74   -42.10   0.64   44.40    0.64   44.40    0.74   -42.10
    1250  0.73   -42.40   0.65   43.90    0.65   43.90    0.73   -42.40
    1260  0.72   -43.00   0.66   42.90    0.66   42.90    0.72   -43.00
    1270  0.70   -43.60   0.66   41.90    0.66   41.90    0.70   -43.60
    1280  0.69   -44.10   0.67   40.90    0.67   40.90    0.69   -44.10
    1290  0.68   -44.70   0.67   39.90    0.67   39.90    0.68   -44.70
    1300  0.67   -45.20   0.68   38.90    0.68   38.90    0.67   -45.20
    1310  0.65   -45.80   0.69   37.90    0.69   37.90    0.65   -45.80
    1320  0.64   -46.30   0.69   36.90    0.69   36.90    0.64   -46.30
    1330  0.63   -46.90   0.70   35.90    0.70   35.90    0.63   -46.90
    1340  0.62   -47.40   0.70   34.90    0.70   34.90    0.62   -47.40
    1350  0.60   -48.00   0.71   33.90    0.71   33.90    0.60   -48.00
    1360  0.59   -44.70   0.69   31.30    0.69   31.30    0.59   -44.70
    1370  0.58   -41.50   0.67   28.70    0.67   28.70    0.58   -41.50
    1380  0.57   -38.20   0.65   26.10    0.65   26.10    0.57   -38.20
    1390  0.56   -34.90   0.63   23.50    0.63   23.50    0.56   -34.90
    1400  0.55   -31.70   0.62   20.90    0.62   20.90    0.55   -31.70
    1410  0.54   -28.40   0.60   18.30    0.60   18.30    0.54   -28.40
    1420  0.53   -25.20   0.58   15.70    0.58   15.70    0.53   -25.20
    1430  0.52   -21.90   0.56   13.10    0.56   13.10    0.52   -21.90
    1440  0.51   -18.60   0.54   10.50    0.54   10.50    0.51   -18.60
    1450  0.50   -15.40   0.52    7.90    0.52    7.90    0.50   -15.40
    1460  0.53   -17.00   0.52   11.90    0.52   11.90    0.53   -17.00
    1470  0.56   -18.70   0.51   15.80    0.51   15.80    0.56   -18.70
    1480  0.59   -20.30   0.51   19.80    0.51   19.80    0.59   -20.30
    1490  0.62   -22.00   0.50   23.70    0.50   23.70    0.62   -22.00
    1500  0.65   -23.70   0.50   27.70    0.50   27.70    0.65   -23.70
    1510  0.68   -25.30   0.50   31.60    0.50   31.60    0.68   -25.30
    1520  0.70   -27.00   0.49   35.60    0.49   35.60    0.70   -27.00
    1530  0.73   -28.60   0.49   39.50    0.49   39.50    0.73   -28.60
    1540  0.76   -30.30   0.48   43.50    0.48   43.50    0.76   -30.30
    1550  0.79   -31.90   0.48   47.50    0.48   47.50    0.79   -31.90
    1560  0.79   -32.90   0.49   47.20    0.49   47.20    0.79   -32.90
    1570  0.79   -33.80   0.50   47.00    0.50   47.00    0.79   -33.80
    1580  0.78   -34.70   0.51   46.70    0.51   46.70    0.78   -34.70
    1590  0.78   -35.70   0.53   46.50    0.53   46.50    0.78   -35.70
    1600  0.78   -36.60   0.54   46.30    0.54   46.30    0.78   -36.60
    1610  0.77   -37.50   0.55   46.00    0.55   46.00    0.77   -37.50
    1620  0.77   -38.40   0.57   45.80    0.57   45.80    0.77   -38.40
    1630  0.77   -39.40   0.58   45.50    0.58   45.50    0.77   -39.40
    1640  0.76   -40.30   0.59   45.30    0.59   45.30    0.76   -40.30
    1650  0.76   -41.20   0.60   45.10    0.60   45.10    0.76   -41.20
    1660  0.76   -41.70   0.61   44.80    0.61   44.80    0.76   -41.70
    1670  0.75   -42.10   0.62   44.40    0.62   44.40    0.75   -42.10
    1680  0.75   -42.60   0.62   44.10    0.62   44.10    0.75   -42.60
    1690  0.74   -43.10   0.63   43.80    0.63   43.80    0.74   -43.10
    1700  0.74   -43.50   0.63   43.50    0.63   43.50    0.74   -43.50
    1710  0.73   -44.00   0.64   43.20    0.64   43.20    0.73   -44.00
    1720  0.73   -44.40   0.65   42.90    0.65   42.90    0.73   -44.40
    1730  0.73   -44.90   0.65   42.60    0.65   42.60    0.73   -44.90
    1740  0.72   -45.30   0.66   42.20    0.66   42.20    0.72   -45.30
    1750  0.72   -45.80   0.67   41.90    0.67   41.90    0.72   -45.80
    1760  0.71   -46.20   0.67   41.60    0.67   41.60    0.71   -46.20
    1770  0.71   -46.60   0.68   41.20    0.68   41.20    0.71   -46.60
    1780  0.71   -46.90   0.68   40.90    0.68   40.90    0.71   -46.90
    1790  0.70   -47.30   0.68   40.60    0.68   40.60    0.70   -47.30
    1800  0.70   -47.70   0.69   40.20    0.69   40.20    0.70   -47.70
    1810  0.70   -48.10   0.69   39.90    0.69   39.90    0.70   -48.10
    1820  0.70   -48.50   0.69   39.50    0.69   39.50    0.70   -48.50
    1830  0.69   -48.80   0.70   39.20    0.70   39.20    0.69   -48.80
    1840  0.69   -49.20   0.70   38.80    0.70   38.80    0.69   -49.20
    1850  0.69   -49.60   0.71   38.50    0.71   38.50    0.69   -49.60
    1860  0.68   -49.90   0.71   38.20    0.71   38.20    0.68   -49.90
    1870  0.68   -50.30   0.71   38.00    0.71   38.00    0.68   -50.30
    1880  0.68   -50.60   0.72   37.70    0.72   37.70    0.68   -50.60
    1890  0.67   -50.90   0.72   37.50    0.72   37.50    0.67   -50.90
    1900  0.67   -51.30   0.72   37.20    0.72   37.20    0.67   -51.30
    1910  0.67   -51.60   0.73   37.00    0.73   37.00    0.67   -51.60
    1920  0.66   -51.90   0.73   36.70    0.73   36.70    0.66   -51.90
    1930  0.66   -52.20   0.73   36.50    0.73   36.50    0.66   -52.20
    1940  0.65   -52.60   0.73   36.20    0.73   36.20    0.65   -52.60
    1950  0.65   -52.90   0.74   36.00    0.74   36.00    0.65   -52.90
    1960  0.65   -53.20   0.74   35.70    0.74   35.70    0.65   -53.20
    1970  0.64   -53.40   0.74   35.50    0.74   35.50    0.64   -53.40
    1980  0.64   -53.70   0.75   35.20    0.75   35.20    0.64   -53.70
    1990  0.64   -53.90   0.75   35.00    0.75   35.00    0.64   -53.90
    2000  0.64   -54.20   0.75   34.70    0.75   34.70    0.64   -54.20
    2010  0.63   -54.40   0.75   34.50    0.75   34.50    0.63   -54.40
    2020  0.63   -54.70   0.75   34.20    0.75   34.20    0.63   -54.70
    2030  0.63   -54.90   0.76   34.00    0.76   34.00    0.63   -54.90
    2040  0.63   -55.20   0.76   33.70    0.76   33.70    0.63   -55.20
    2050  0.62   -55.40   0.76   33.50    0.76   33.50    0.62   -55.40
    2060  0.62   -55.70   0.77   33.20    0.77   33.20    0.62   -55.70
    2070  0.62   -55.90   0.77   32.90    0.77   32.90    0.62   -55.90
    2080  0.61   -56.10   0.77   32.70    0.77   32.70    0.61   -56.10
    2090  0.61   -56.40   0.77   32.40    0.77   32.40    0.61   -56.40
    2100  0.61   -56.60   0.78   32.20    0.78   32.20    0.61   -56.60
    2110  0.60   -56.80   0.78   31.90    0.78   31.90    0.60   -56.80
    2120  0.60   -57.10   0.78   31.60    0.78   31.60    0.60   -57.10
    2130  0.59   -57.30   0.79   31.40    0.79   31.40    0.59   -57.30
    2140  0.59   -57.50   0.79   31.10    0.79   31.10    0.59   -57.50
    2150  0.59   -57.80   0.79   30.80    0.79   30.80    0.59   -57.80
    2160  0.58   -58.00   0.79   30.60    0.79   30.60    0.58   -58.00
    2170  0.58   -58.30   0.79   30.40    0.79   30.40    0.58   -58.30
    2180  0.58   -58.50   0.80   30.10    0.80   30.10    0.58   -58.50
    2190  0.58   -58.80   0.80   29.90    0.80   29.90    0.58   -58.80
    2200  0.57   -59.00   0.80   29.70    0.80   29.70    0.57   -59.00
    2210  0.57   -59.30   0.80   29.50    0.80   29.50    0.57   -59.30
    2220  0.57   -59.50   0.80   29.20    0.80   29.20    0.57   -59.50
    2230  0.56   -59.80   0.80   29.00    0.80   29.00    0.56   -59.80
    2240  0.56   -60.10   0.81   28.80    0.81   28.80    0.56   -60.10
    2250  0.56   -60.30   0.81   28.50    0.81   28.50    0.56   -60.30
    2260  0.55   -60.50   0.81   28.20    0.81   28.20    0.55   -60.50
    2270  0.55   -60.70   0.81   28.00    0.81   28.00    0.55   -60.70
    2280  0.55   -60.90   0.81   27.70    0.81   27.70    0.55   -60.90
    2290  0.54   -61.10   0.82   27.40    0.82   27.40    0.54   -61.10
    2300  0.54   -61.40   0.82   27.10    0.82   27.10    0.54   -61.40
    2310  0.53   -61.60   0.82   26.80    0.82   26.80    0.53   -61.60
    2320  0.53   -61.80   0.82   26.60    0.82   26.60    0.53   -61.80
    2330  0.52   -62.00   0.83   26.30    0.83   26.30    0.52   -62.00
    2340  0.52   -62.20   0.83   26.00    0.83   26.00    0.52   -62.20
    2350  0.52   -62.40   0.83   25.70    0.83   25.70    0.52   -62.40
    2360  0.51   -62.60   0.83   25.40    0.83   25.40    0.51   -62.60
    2370  0.51   -62.70   0.83   25.00    0.83   25.00    0.51   -62.70
    2380  0.50   -62.90   0.83   24.70    0.83   24.70    0.50   -62.90
    2390  0.50   -63.10   0.83   24.30    0.83   24.30    0.50   -63.10
    2400  0.49   -63.20   0.84   24.00    0.84   24.00    0.49   -63.20
    2410  0.49   -63.40   0.84   23.60    0.84   23.60    0.49   -63.40
    2420  0.48   -63.50   0.84   23.20    0.84   23.20    0.48   -63.50
    2430  0.48   -63.70   0.84   22.90    0.84   22.90    0.48   -63.70
    2440  0.47   -63.90   0.84   22.50    0.84   22.50    0.47   -63.90
    2450  0.47   -64.00   0.84   22.20    0.84   22.20    0.47   -64.00
    2460  0.46   -63.90   0.84   21.70    0.84   21.70    0.46   -63.90
    2470  0.46   -63.80   0.84   21.10    0.84   21.10    0.46   -63.80
    2480  0.45   -63.70   0.84   20.60    0.84   20.60    0.45   -63.70
    2490  0.44   -63.60   0.84   20.10    0.84   20.10    0.44   -63.60
    2500  0.43   -63.50   0.84   19.60    0.84   19.60    0.43   -63.50
    2510  0.43   -63.40   0.84   19.10    0.84   19.10    0.43   -63.40
    2520  0.42   -63.30   0.84   18.60    0.84   18.60    0.42   -63.30
    2530  0.41   -63.20   0.84   18.00    0.84   18.00    0.41   -63.20
    2540  0.41   -63.10   0.84   17.50    0.84   17.50    0.41   -63.10
    2550  0.40   -63.00   0.84   17.00    0.84   17.00    0.40   -63.00
    2560  0.40   -60.90   0.82   16.70    0.82   16.70    0.40   -60.90
    2570  0.40   -58.80   0.81   16.40    0.81   16.40    0.40   -58.80
    2580  0.40   -56.70   0.79   16.10    0.79   16.10    0.40   -56.70
    2590  0.41   -54.50   0.78   15.80    0.78   15.80    0.41   -54.50
    2600  0.41   -52.40   0.76   15.40    0.76   15.40    0.41   -52.40
    2610  0.41   -50.30   0.75   15.10    0.75   15.10    0.41   -50.30
    2620  0.41   -48.20   0.74   14.80    0.74   14.80    0.41   -48.20
    2630  0.41   -46.10   0.72   14.50    0.72   14.50    0.41   -46.10
    2640  0.42   -43.90   0.71   14.20    0.71   14.20    0.42   -43.90
    2650  0.42   -41.80   0.69   13.90    0.69   13.90    0.42   -41.80
    2660  0.43   -43.10   0.70   15.10    0.70   15.10    0.43   -43.10
    2670  0.44   -44.30   0.70   16.30    0.70   16.30    0.44   -44.30
    2680  0.46   -45.50   0.70   17.50    0.70   17.50    0.46   -45.50
    2690  0.47   -46.80   0.71   18.70    0.71   18.70    0.47   -46.80
    2700  0.48   -48.00   0.71   19.90    0.71   19.90    0.48   -48.00
    2710  0.49   -49.30   0.72   21.10    0.72   21.10    0.49   -49.30
    2720  0.51   -50.50   0.72   22.30    0.72   22.30    0.51   -50.50
    2730  0.52   -51.70   0.73   23.50    0.73   23.50    0.52   -51.70
    2740  0.53   -53.00   0.73   24.70    0.73   24.70    0.53   -53.00
    2750  0.54   -54.20   0.73   25.90    0.73   25.90    0.54   -54.20
    2760  0.54   -55.00   0.74   25.70    0.74   25.70    0.54   -55.00
    2770  0.54   -55.90   0.75   25.60    0.75   25.60    0.54   -55.90
    2780  0.54   -56.70   0.76   25.40    0.76   25.40    0.54   -56.70
    2790  0.53   -57.50   0.76   25.30    0.76   25.30    0.53   -57.50
    2800  0.53   -58.30   0.77   25.20    0.77   25.20    0.53   -58.30
    2810  0.53   -59.20   0.78   25.00    0.78   25.00    0.53   -59.20
    2820  0.52   -60.00   0.79   24.90    0.79   24.90    0.52   -60.00
