# MHZ S MA R 50

50	0.90	161.20	0.31	68.50	0.31	68.50	0.90	161.20
100	0.80	148.00	0.51	55.80	0.51	55.80	0.80	148.00
150	0.69	134.80	0.70	43.00	0.70	43.00	0.69	134.80
200	0.59	128.00	0.78	36.00	0.78	36.00	0.59	128.00
250	0.50	121.20	0.86	29.00	0.86	29.00	0.50	121.20
300	0.43	117.10	0.89	24.50	0.89	24.50	0.43	117.10
350	0.37	113.10	0.92	20.00	0.92	20.00	0.37	113.10
400	0.33	110.40	0.94	17.20	0.94	17.20	0.33	110.40
450	0.28	107.70	0.95	14.40	0.95	14.40	0.28	107.70
500	0.25	105.10	0.96	11.50	0.96	11.50	0.25	105.10
550	0.21	102.40	0.98	8.60	0.98	8.60	0.21	102.40
600	0.19	102.20	0.98	7.00	0.98	7.00	0.19	102.20
650	0.17	102.00	0.98	5.40	0.98	5.40	0.17	102.00
700	0.15	101.00	0.99	4.10	0.99	4.10	0.15	101.00
750	0.13	100.00	0.99	2.70	0.99	2.70	0.13	100.00
800	0.12	100.40	0.99	1.50	0.99	1.50	0.12	100.40
850	0.11	100.80	0.99	0.30	0.99	0.30	0.11	100.80
900	0.10	101.20	0.99	-0.80	0.99	-0.80	0.10	101.20
950	0.09	101.50	0.99	-1.80	0.99	-1.80	0.09	101.50
1000	0.08	103.50	1.00	-2.80	1.00	-2.80	0.08	103.50
1050	0.07	105.50	1.00	-3.80	1.00	-3.80	0.07	105.50
1100	0.06	106.40	1.00	-4.80	1.00	-4.80	0.06	106.40
1150	0.05	107.20	1.00	-5.70	1.00	-5.70	0.05	107.20
1200	0.04	111.90	1.00	-6.60	1.00	-6.60	0.04	111.90
1250	0.04	116.60	1.00	-7.50	1.00	-7.50	0.04	116.60
1300	0.03	123.40	1.00	-8.30	1.00	-8.30	0.03	123.40
1350	0.03	130.30	1.00	-9.10	1.00	-9.10	0.03	130.30
1400	0.02	143.30	1.00	-9.90	1.00	-9.90	0.02	143.30
1450	0.02	156.30	1.00	-10.70	1.00	-10.70	0.02	156.30
1500	0.02	-8.80	1.00	-11.60	1.00	-11.60	0.02	-8.80
1550	0.02	-173.90	1.00	-12.40	1.00	-12.40	0.02	-173.90
1600	0.02	-163.90	1.00	-13.20	1.00	-13.20	0.02	-163.90
1650	0.03	-154.00	1.00	-14.00	1.00	-14.00	0.03	-154.00
1700	0.03	-150.50	1.00	-14.80	1.00	-14.80	0.03	-150.50
1750	0.04	-147.00	1.00	-15.60	1.00	-15.60	0.04	-147.00
1800	0.04	-142.70	1.00	-16.40	1.00	-16.40	0.04	-142.70
1850	0.05	-138.40	1.00	-17.10	1.00	-17.10	0.05	-138.40
1900	0.05	-137.50	1.00	-17.80	1.00	-17.80	0.05	-137.50
1950	0.06	-136.50	1.00	-18.50	1.00	-18.50	0.06	-136.50
2000	0.06	-135.60	1.00	-19.40	1.00	-19.40	0.06	-135.60
2050	0.07	-134.60	1.00	-20.20	1.00	-20.20	0.07	-134.60
2100	0.07	-134.30	1.00	-21.00	1.00	-21.00	0.07	-134.30
2150	0.08	-134.00	1.00	-21.70	1.00	-21.70	0.08	-134.00
2200	0.09	-134.40	0.99	-22.50	0.99	-22.50	0.09	-134.40
2250	0.09	-134.80	0.99	-23.20	0.99	-23.20	0.09	-134.80
2300	0.10	-133.90	0.99	-23.90	0.99	-23.90	0.10	-133.90
2350	0.11	-132.90	0.99	-24.60	0.99	-24.60	0.11	-132.90
2400	0.12	-133.90	0.99	-25.40	0.99	-25.40	0.12	-133.90
2450	0.12	-134.90	0.99	-26.30	0.99	-26.30	0.12	-134.90
2500	0.13	-134.10	0.99	-27.00	0.99	-27.00	0.13	-134.10
2550	0.14	-133.40	0.98	-27.70	0.98	-27.70	0.14	-133.40
2600	0.15	-133.70	0.98	-28.40	0.98	-28.40	0.15	-133.70
2650	0.16	-134.00	0.98	-29.10	0.98	-29.10	0.16	-134.00
2700	0.16	-133.80	0.98	-29.80	0.98	-29.80	0.16	-133.80
2750	0.17	-133.50	0.98	-30.50	0.98	-30.50	0.17	-133.50
2800	0.18	-133.20	0.98	-31.10	0.98	-31.10	0.18	-133.20
2850	0.19	-132.90	0.98	-31.70	0.98	-31.70	0.19	-132.90
2900	0.19	-133.20	0.98	-32.60	0.98	-32.60	0.19	-133.20
2950	0.19	-133.50	0.98	-33.50	0.98	-33.50	0.19	-133.50
3000	0.20	-132.60	0.97	-34.10	0.97	-34.10	0.20	-132.60
3050	0.21	-131.80	0.97	-34.70	0.97	-34.70	0.21	-131.80
3100	0.21	-132.70	0.97	-35.50	0.97	-35.50	0.21	-132.70
3150	0.22	-133.60	0.97	-36.30	0.97	-36.30	0.22	-133.60
3200	0.22	-132.80	0.97	-36.90	0.97	-36.90	0.22	-132.80
3250	0.22	-132.00	0.97	-37.40	0.97	-37.40	0.22	-132.00
3300	0.23	-132.50	0.97	-38.20	0.97	-38.20	0.23	-132.50
3350	0.23	-133.00	0.97	-39.00	0.97	-39.00	0.23	-133.00
3400	0.24	-133.30	0.97	-39.60	0.97	-39.60	0.24	-133.30
3450	0.24	-133.60	0.96	-40.30	0.96	-40.30	0.24	-133.60
3500	0.24	-133.70	0.96	-41.10	0.96	-41.10	0.24	-133.70
3550	0.24	-133.80	0.96	-41.80	0.96	-41.80	0.24	-133.80
3600	0.24	-134.10	0.96	-42.40	0.96	-42.40	0.24	-134.10
3650	0.25	-134.50	0.96	-43.10	0.96	-43.10	0.25	-134.50
3700	0.25	-134.70	0.96	-44.00	0.96	-44.00	0.25	-134.70
3750	0.25	-134.90	0.96	-44.90	0.96	-44.90	0.25	-134.90
3800	0.25	-135.30	0.96	-45.60	0.96	-45.60	0.25	-135.30
3850	0.26	-135.60	0.96	-46.20	0.96	-46.20	0.26	-135.60
3900	0.26	-136.40	0.95	-47.30	0.95	-47.30	0.26	-136.40
3950	0.27	-137.10	0.95	-48.40	0.95	-48.40	0.27	-137.10
4000	0.27	-138.80	0.95	-48.50	0.95	-48.50	0.27	-138.80
4050	0.27	-140.60	0.94	-48.70	0.94	-48.70	0.27	-140.60
4100	0.27	-140.40	0.94	-49.60	0.94	-49.60	0.27	-140.40
4150	0.28	-140.10	0.95	-50.50	0.95	-50.50	0.28	-140.10
4200	0.28	-140.80	0.95	-51.50	0.95	-51.50	0.28	-140.80
4250	0.29	-141.50	0.95	-52.50	0.95	-52.50	0.29	-141.50
4300	0.30	-142.00	0.94	-53.20	0.94	-53.20	0.30	-142.00
4350	0.30	-142.50	0.94	-53.80	0.94	-53.80	0.30	-142.50
4400	0.31	-143.40	0.94	-54.80	0.94	-54.80	0.31	-143.40
4450	0.32	-144.20	0.93	-55.80	0.93	-55.80	0.32	-144.20
4500	0.33	-144.80	0.93	-56.70	0.93	-56.70	0.33	-144.80
4550	0.34	-145.30	0.93	-57.60	0.93	-57.60	0.34	-145.30
4600	0.35	-146.60	0.93	-58.70	0.93	-58.70	0.35	-146.60
4650	0.36	-147.90	0.92	-59.80	0.92	-59.80	0.36	-147.90
4700	0.37	-148.70	0.92	-60.50	0.92	-60.50	0.37	-148.70
4750	0.38	-149.40	0.91	-61.30	0.91	-61.30	0.38	-149.40
4800	0.39	-150.30	0.90	-62.20	0.90	-62.20	0.39	-150.30
4850	0.40	-151.20	0.90	-63.00	0.90	-63.00	0.40	-151.20
4900	0.41	-152.40	0.90	-64.10	0.90	-64.10	0.41	-152.40
4950	0.42	-153.60	0.89	-65.10	0.89	-65.10	0.42	-153.60
5000	0.43	-154.80	0.88	-66.00	0.88	-66.00	0.43	-154.80
5050	0.44	-155.90	0.87	-66.90	0.87	-66.90	0.44	-155.90
5100	0.44	-157.10	0.87	-67.80	0.87	-67.80	0.44	-157.10
5150	0.45	-158.30	0.87	-68.70	0.87	-68.70	0.45	-158.30
5200	0.46	-159.70	0.86	-69.80	0.86	-69.80	0.46	-159.70
5250	0.48	-161.10	0.86	-70.80	0.86	-70.80	0.48	-161.10
5300	0.49	-163.20	0.85	-72.20	0.85	-72.20	0.49	-163.20
5350	0.50	-165.30	0.84	-73.50	0.84	-73.50	0.50	-165.30
5400	0.51	-167.10	0.83	-74.80	0.83	-74.80	0.51	-167.10
5450	0.52	-168.90	0.82	-76.10	0.82	-76.10	0.52	-168.90
5500	0.54	-171.40	0.80	-77.60	0.80	-77.60	0.54	-171.40
5550	0.55	-174.00	0.79	-79.10	0.79	-79.10	0.55	-174.00
5600	0.57	-176.60	0.77	-80.90	0.77	-80.90	0.57	-176.60
5650	0.58	-179.30	0.76	-82.60	0.76	-82.60	0.58	-179.30
5700	0.61	-2.60	0.73	-84.60	0.73	-84.60	0.61	-2.60
5750	0.63	174.10	0.70	-86.60	0.70	-86.60	0.63	174.10
5800	0.65	169.50	0.66	-88.90	0.66	-88.90	0.65	169.50
5850	0.68	165.00	0.62	-91.10	0.62	-91.10	0.68	165.00
5900	0.71	159.40	0.55	-92.80	0.55	-92.80	0.71	159.40
5950	0.74	153.80	0.48	-94.40	0.48	-94.40	0.74	153.80
6000	0.76	146.70	0.39	-88.90	0.39	-88.90	0.76	146.70
6050	0.77	139.60	0.30	-83.50	0.30	-83.50	0.77	139.60
6100	0.75	130.00	0.30	-58.60	0.30	-58.60	0.75	130.00
6150	0.72	120.40	0.31	-33.70	0.31	-33.70	0.72	120.40
6200	0.64	111.50	0.45	-30.20	0.45	-30.20	0.64	111.50
6250	0.56	102.60	0.58	-26.70	0.58	-26.70	0.56	102.60
6300	0.45	99.30	0.68	-32.10	0.68	-32.10	0.45	99.30
6350	0.35	96.10	0.78	-37.60	0.78	-37.60	0.35	96.10
6400	0.28	103.40	0.83	-42.80	0.83	-42.80	0.28	103.40
6450	0.22	110.60	0.87	-47.90	0.87	-47.90	0.22	110.60
6500	0.20	124.70	0.89	-51.80	0.89	-51.80	0.20	124.70
6550	0.19	138.80	0.91	-55.70	0.91	-55.70	0.19	138.80
6600	0.21	148.10	0.91	-58.60	0.91	-58.60	0.21	148.10
6650	0.22	157.40	0.92	-61.50	0.92	-61.50	0.22	157.40
6700	0.25	161.70	0.92	-63.50	0.92	-63.50	0.25	161.70
6750	0.27	166.00	0.91	-65.60	0.91	-65.60	0.27	166.00
6800	0.29	166.80	0.91	-67.50	0.91	-67.50	0.29	166.80
6850	0.31	167.60	0.91	-69.40	0.91	-69.40	0.31	167.60
6900	0.32	168.40	0.91	-70.80	0.91	-70.80	0.32	168.40
6950	0.33	169.20	0.90	-72.30	0.90	-72.30	0.33	169.20
7000	0.35	168.70	0.90	-73.80	0.90	-73.80	0.35	168.70
7050	0.37	168.10	0.90	-75.30	0.90	-75.30	0.37	168.10
7100	0.38	167.80	0.90	-76.40	0.90	-76.40	0.38	167.80
7150	0.38	167.50	0.89	-77.60	0.89	-77.60	0.38	167.50
7200	0.40	166.90	0.89	-78.90	0.89	-78.90	0.40	166.90
7250	0.41	166.40	0.89	-80.20	0.89	-80.20	0.41	166.40
7300	0.41	165.00	0.89	-81.40	0.89	-81.40	0.41	165.00
7350	0.42	163.60	0.88	-82.50	0.88	-82.50	0.42	163.60
7400	0.42	162.90	0.88	-83.70	0.88	-83.70	0.42	162.90
7450	0.43	162.30	0.88	-84.90	0.88	-84.90	0.43	162.30
7500	0.44	160.30	0.87	-86.20	0.87	-86.20	0.44	160.30
7550	0.45	158.40	0.87	-87.60	0.87	-87.60	0.45	158.40
7600	0.45	157.30	0.86	-88.70	0.86	-88.70	0.45	157.30
7650	0.45	156.30	0.86	-89.80	0.86	-89.80	0.45	156.30
7700	0.45	154.50	0.86	-91.20	0.86	-91.20	0.45	154.50
7750	0.46	152.60	0.85	-92.60	0.85	-92.60	0.46	152.60
7800	0.47	150.30	0.85	-94.00	0.85	-94.00	0.47	150.30
7850	0.48	148.00	0.84	-95.50	0.84	-95.50	0.48	148.00
7900	0.49	146.70	0.83	-96.80	0.83	-96.80	0.49	146.70
7950	0.50	145.40	0.82	-98.10	0.82	-98.10	0.50	145.40
8000	0.51	143.10	0.81	-99.50	0.81	-99.50	0.51	143.10
8050	0.52	140.90	0.81	-101.00	0.81	-101.00	0.52	140.90
8100	0.53	139.20	0.80	-102.60	0.80	-102.60	0.53	139.20
8150	0.55	137.50	0.79	-104.10	0.79	-104.10	0.55	137.50
8200	0.56	136.10	0.77	-105.50	0.77	-105.50	0.56	136.10
8250	0.58	134.60	0.76	-106.80	0.76	-106.80	0.58	134.60
8300	0.59	133.30	0.75	-108.40	0.75	-108.40	0.59	133.30
8350	0.60	131.90	0.74	-110.00	0.74	-110.00	0.60	131.90
8400	0.62	130.80	0.72	-111.40	0.72	-111.40	0.62	130.80
8450	0.64	129.80	0.70	-112.70	0.70	-112.70	0.64	129.80
8500	0.65	128.70	0.69	-114.20	0.69	-114.20	0.65	128.70
8550	0.66	127.70	0.67	-115.80	0.67	-115.80	0.66	127.70
8600	0.68	126.50	0.65	-117.00	0.65	-117.00	0.68	126.50
8650	0.69	125.40	0.63	-118.20	0.63	-118.20	0.69	125.40
8700	0.71	124.60	0.61	-119.50	0.61	-119.50	0.71	124.60
8750	0.72	123.80	0.59	-120.70	0.59	-120.70	0.72	123.80
8800	0.74	122.20	0.57	-121.70	0.57	-121.70	0.74	122.20
8850	0.75	120.50	0.56	-122.70	0.56	-122.70	0.75	120.50
8900	0.75	119.50	0.53	-123.60	0.53	-123.60	0.75	119.50
8950	0.75	118.60	0.51	-124.50	0.51	-124.50	0.75	118.60
9000	0.76	118.00	0.49	-125.30	0.49	-125.30	0.76	118.00
9050	0.78	117.50	0.47	-126.10	0.47	-126.10	0.78	117.50
9100	0.80	115.80	0.45	-127.50	0.45	-127.50	0.80	115.80
9150	0.82	114.10	0.43	-129.00	0.43	-129.00	0.82	114.10
9200	0.82	110.90	0.40	-130.20	0.40	-130.20	0.82	110.90
9250	0.82	107.70	0.37	-131.40	0.37	-131.40	0.82	107.70
9300	0.82	106.10	0.34	-130.50	0.34	-130.50	0.82	106.10
9350	0.82	104.40	0.30	-129.60	0.30	-129.60	0.82	104.40
9400	0.83	101.00	0.28	-127.70	0.28	-127.70	0.83	101.00
9450	0.83	97.60	0.25	-125.70	0.25	-125.70	0.83	97.60
9500	0.82	94.90	0.22	-119.90	0.22	-119.90	0.82	94.90
9550	0.80	92.20	0.20	-114.00	0.20	-114.00	0.80	92.20
9600	0.81	89.60	0.19	-105.90	0.19	-105.90	0.81	89.60
9650	0.81	86.90	0.18	-97.70	0.18	-97.70	0.81	86.90
9700	0.80	84.00	0.18	-89.10	0.18	-89.10	0.80	84.00
9750	0.79	81.00	0.18	-80.40	0.18	-80.40	0.79	81.00
9800	0.78	79.50	0.20	-73.10	0.20	-73.10	0.78	79.50
9850	0.78	77.90	0.21	-65.80	0.21	-65.80	0.78	77.90
9900	0.78	75.00	0.23	-61.80	0.23	-61.80	0.78	75.00
9950	0.79	72.20	0.25	-57.70	0.25	-57.70	0.79	72.20
10000	0.77	70.00	0.28	-54.90	0.28	-54.90	0.77	70.00
10050	0.75	67.90	0.30	-52.00	0.30	-52.00	0.75	67.90
10100	0.76	66.60	0.33	-50.90	0.33	-50.90	0.76	66.60
10150	0.77	65.20	0.36	-49.80	0.36	-49.80	0.77	65.20
10200	0.75	62.80	0.39	-49.60	0.39	-49.60	0.75	62.80
10250	0.73	60.40	0.42	-49.50	0.42	-49.50	0.73	60.40
10300	0.72	59.00	0.45	-50.30	0.45	-50.30	0.72	59.00
10350	0.71	57.60	0.47	-51.00	0.47	-51.00	0.71	57.60
10400	0.68	55.70	0.51	-51.90	0.51	-51.90	0.68	55.70
10450	0.66	53.70	0.54	-52.80	0.54	-52.80	0.66	53.70
10500	0.63	52.00	0.57	-54.70	0.57	-54.70	0.63	52.00
10550	0.61	50.40	0.59	-56.60	0.59	-56.60	0.61	50.40
10600	0.58	49.40	0.62	-58.10	0.62	-58.10	0.58	49.40
10650	0.56	48.50	0.65	-59.50	0.65	-59.50	0.56	48.50
10700	0.53	46.70	0.67	-61.20	0.67	-61.20	0.53	46.70
10750	0.50	44.90	0.69	-62.90	0.69	-62.90	0.50	44.90
10800	0.48	42.90	0.72	-64.10	0.72	-64.10	0.48	42.90
10850	0.45	41.00	0.75	-65.30	0.75	-65.30	0.45	41.00
10900	0.41	36.80	0.78	-67.70	0.78	-67.70	0.41	36.80
10950	0.37	32.50	0.81	-70.00	0.81	-70.00	0.37	32.50
11000	0.32	30.20	0.83	-73.00	0.83	-73.00	0.32	30.20
11050	0.27	27.90	0.85	-75.90	0.85	-75.90	0.27	27.90
11100	0.24	24.70	0.86	-78.40	0.86	-78.40	0.24	24.70
11150	0.20	21.40	0.87	-80.80	0.87	-80.80	0.20	21.40
11200	0.17	19.70	0.88	-83.50	0.88	-83.50	0.17	19.70
11250	0.13	18.10	0.89	-86.10	0.89	-86.10	0.13	18.10
11300	0.10	19.50	0.90	-88.50	0.90	-88.50	0.10	19.50
11350	0.07	20.90	0.90	-90.90	0.90	-90.90	0.07	20.90
11400	0.06	33.10	0.90	-93.20	0.90	-93.20	0.06	33.10
11450	0.04	45.20	0.90	-95.50	0.90	-95.50	0.04	45.20
11500	0.05	72.40	0.90	-97.80	0.90	-97.80	0.05	72.40
11550	0.05	99.70	0.90	-100.10	0.90	-100.10	0.05	99.70
11600	0.07	105.80	0.90	-102.50	0.90	-102.50	0.07	105.80
11650	0.09	112.00	0.90	-104.80	0.90	-104.80	0.09	112.00
11700	0.12	111.30	0.89	-107.30	0.89	-107.30	0.12	111.30
11750	0.14	110.60	0.89	-109.70	0.89	-109.70	0.14	110.60
11800	0.18	107.90	0.87	-112.00	0.87	-112.00	0.18	107.90
11850	0.21	105.10	0.86	-114.40	0.86	-114.40	0.21	105.10
11900	0.25	103.30	0.84	-117.10	0.84	-117.10	0.25	103.30
11950	0.28	101.60	0.82	-119.90	0.82	-119.90	0.28	101.60
12000	0.32	98.40	0.80	-122.30	0.80	-122.30	0.32	98.40
12050	0.36	95.30	0.77	-124.70	0.77	-124.70	0.36	95.30
12100	0.40	92.00	0.74	-127.30	0.74	-127.30	0.40	92.00
12150	0.45	88.70	0.70	-130.00	0.70	-130.00	0.45	88.70
12200	0.49	85.50	0.66	-131.80	0.66	-131.80	0.49	85.50
12250	0.52	82.30	0.62	-133.70	0.62	-133.70	0.52	82.30
12300	0.56	80.00	0.56	-134.80	0.56	-134.80	0.56	80.00
12350	0.60	77.70	0.51	-135.90	0.51	-135.90	0.60	77.70
12400	0.63	73.50	0.46	-135.30	0.46	-135.30	0.63	73.50
12450	0.67	69.40	0.41	-134.70	0.41	-134.70	0.67	69.40
12500	0.69	66.60	0.37	-129.70	0.37	-129.70	0.69	66.60
12550	0.71	63.80	0.32	-124.80	0.32	-124.80	0.71	63.80
12600	0.73	60.30	0.31	-114.90	0.31	-114.90	0.73	60.30
12650	0.74	56.80	0.29	-105.10	0.29	-105.10	0.74	56.80
12700	0.74	53.10	0.31	-95.80	0.31	-95.80	0.74	53.10
12750	0.74	49.40	0.34	-86.60	0.34	-86.60	0.74	49.40
12800	0.71	45.90	0.39	-83.40	0.39	-83.40	0.71	45.90
12850	0.69	42.30	0.43	-80.20	0.43	-80.20	0.69	42.30
12900	0.66	38.80	0.49	-80.50	0.49	-80.50	0.66	38.80
12950	0.63	35.40	0.54	-80.80	0.54	-80.80	0.63	35.40
13000	0.58	32.60	0.57	-82.60	0.57	-82.60	0.58	32.60
13050	0.54	29.80	0.61	-84.40	0.61	-84.40	0.54	29.80
13100	0.49	26.80	0.64	-86.70	0.64	-86.70	0.49	26.80
13150	0.45	23.70	0.68	-89.00	0.68	-89.00	0.45	23.70
13200	0.41	21.60	0.70	-91.20	0.70	-91.20	0.41	21.60
13250	0.38	19.50	0.72	-93.30	0.72	-93.30	0.38	19.50
13300	0.33	18.60	0.73	-96.00	0.73	-96.00	0.33	18.60
13350	0.29	17.60	0.74	-98.60	0.74	-98.60	0.29	17.60
13400	0.27	15.00	0.74	-100.80	0.74	-100.80	0.27	15.00
13450	0.25	12.40	0.75	-103.00	0.75	-103.00	0.25	12.40
13500	0.23	11.20	0.75	-105.20	0.75	-105.20	0.23	11.20
13550	0.20	10.00	0.75	-107.40	0.75	-107.40	0.20	10.00
13600	0.19	12.50	0.74	-109.90	0.74	-109.90	0.19	12.50
13650	0.18	15.00	0.72	-112.40	0.72	-112.40	0.18	15.00
13700	0.20	18.00	0.69	-113.60	0.69	-113.60	0.20	18.00
13750	0.22	21.00	0.65	-114.80	0.65	-114.80	0.22	21.00
13800	0.26	16.30	0.62	-111.90	0.62	-111.90	0.26	16.30
13850	0.29	11.60	0.59	-108.90	0.59	-108.90	0.29	11.60
13900	0.33	4.70	0.61	-105.90	0.61	-105.90	0.33	4.70
13950	0.36	-2.20	0.63	-102.80	0.63	-102.80	0.36	-2.20
14000	0.37	-7.60	0.66	-102.50	0.66	-102.50	0.37	-7.60
14050	0.38	-12.90	0.69	-102.20	0.69	-102.20	0.38	-12.90
14100	0.39	-15.80	0.72	-102.90	0.72	-102.90	0.39	-15.80
14150	0.40	-18.70	0.74	-103.60	0.74	-103.60	0.40	-18.70
14200	0.40	-20.40	0.76	-104.80	0.76	-104.80	0.40	-20.40
14250	0.41	-22.20	0.78	-105.90	0.78	-105.90	0.41	-22.20
14300	0.40	-23.10	0.79	-107.10	0.79	-107.10	0.40	-23.10
14350	0.40	-24.00	0.81	-108.20	0.81	-108.20	0.40	-24.00
14400	0.40	-24.40	0.82	-109.60	0.82	-109.60	0.40	-24.40
14450	0.40	-24.70	0.83	-111.00	0.83	-111.00	0.40	-24.70
14500	0.38	-24.50	0.84	-112.00	0.84	-112.00	0.38	-24.50
14550	0.37	-24.30	0.85	-113.00	0.85	-113.00	0.37	-24.30
14600	0.36	-23.40	0.85	-114.40	0.85	-114.40	0.36	-23.40
14650	0.35	-22.40	0.86	-115.70	0.86	-115.70	0.35	-22.40
14700	0.33	-22.40	0.87	-116.80	0.87	-116.80	0.33	-22.40
14750	0.31	-22.30	0.87	-118.00	0.87	-118.00	0.31	-22.30
14800	0.29	-20.50	0.88	-119.20	0.88	-119.20	0.29	-20.50
14850	0.28	-18.60	0.88	-120.40	0.88	-120.40	0.28	-18.60
14900	0.26	-17.60	0.88	-121.30	0.88	-121.30	0.26	-17.60
14950	0.23	-16.60	0.89	-122.20	0.89	-122.20	0.23	-16.60
15000	0.22	-15.70	0.89	-123.40	0.89	-123.40	0.22	-15.70
15050	0.20	-14.80	0.89	-124.50	0.89	-124.50	0.20	-14.80
15100	0.19	-14.90	0.89	-125.30	0.89	-125.30	0.19	-14.90
15150	0.17	-15.00	0.89	-126.00	0.89	-126.00	0.17	-15.00
15200	0.16	-14.20	0.90	-126.80	0.90	-126.80	0.16	-14.20
15250	0.14	-13.30	0.90	-127.60	0.90	-127.60	0.14	-13.30
15300	0.13	-17.60	0.90	-128.70	0.90	-128.70	0.13	-17.60
15350	0.12	-21.90	0.89	-129.70	0.89	-129.70	0.12	-21.90
15400	0.11	-23.50	0.89	-130.40	0.89	-130.40	0.11	-23.50
15450	0.11	-25.00	0.89	-131.10	0.89	-131.10	0.11	-25.00
15500	0.11	-29.80	0.89	-131.80	0.89	-131.80	0.11	-29.80
15550	0.12	-34.50	0.89	-132.50	0.89	-132.50	0.12	-34.50
15600	0.11	-40.70	0.89	-133.00	0.89	-133.00	0.11	-40.70
15650	0.11	-46.80	0.89	-133.60	0.89	-133.60	0.11	-46.80
15700	0.12	-46.80	0.89	-134.40	0.89	-134.40	0.12	-46.80
15750	0.13	-46.80	0.89	-135.20	0.89	-135.20	0.13	-46.80
15800	0.12	-54.10	0.89	-135.90	0.89	-135.90	0.12	-54.10
15850	0.11	-61.30	0.89	-136.50	0.89	-136.50	0.11	-61.30
15900	0.11	-57.20	0.90	-137.60	0.90	-137.60	0.11	-57.20
15950	0.11	-53.20	0.90	-138.60	0.90	-138.60	0.11	-53.20
16000	0.10	-56.30	0.90	-139.50	0.90	-139.50	0.10	-56.30
16050	0.09	-59.50	0.90	-140.50	0.90	-140.50	0.09	-59.50
16100	0.07	-57.40	0.90	-141.90	0.90	-141.90	0.07	-57.40
16150	0.05	-55.30	0.89	-143.20	0.89	-143.20	0.05	-55.30
16200	0.04	-38.40	0.89	-144.40	0.89	-144.40	0.04	-38.40
16250	0.03	-21.40	0.88	-145.70	0.88	-145.70	0.03	-21.40
16300	0.04	32.90	0.88	-147.00	0.88	-147.00	0.04	32.90
16350	0.04	87.30	0.87	-148.30	0.87	-148.30	0.04	87.30
16400	0.07	86.50	0.86	-149.50	0.86	-149.50	0.07	86.50
16450	0.09	85.70	0.85	-150.70	0.85	-150.70	0.09	85.70
16500	0.11	87.40	0.84	-152.00	0.84	-152.00	0.11	87.40
16550	0.14	89.10	0.82	-153.20	0.82	-153.20	0.14	89.10
16600	0.18	85.40	0.81	-154.60	0.81	-154.60	0.18	85.40
16650	0.22	81.60	0.80	-156.00	0.80	-156.00	0.22	81.60
16700	0.25	78.50	0.77	-157.30	0.77	-157.30	0.25	78.50
16750	0.28	75.30	0.75	-158.60	0.75	-158.60	0.28	75.30
16800	0.32	70.50	0.72	-159.80	0.72	-159.80	0.32	70.50
16850	0.37	65.80	0.69	-161.00	0.69	-161.00	0.37	65.80
16900	0.40	58.60	0.64	-161.00	0.64	-161.00	0.40	58.60
16950	0.44	51.50	0.60	-161.00	0.60	-161.00	0.44	51.50
17000	0.45	43.50	0.55	-157.20	0.55	-157.20	0.45	43.50
17050	0.47	35.50	0.51	-153.50	0.51	-153.50	0.47	35.50
17100	0.45	27.80	0.51	-146.60	0.51	-146.60	0.45	27.80
17150	0.44	20.00	0.51	-139.70	0.51	-139.70	0.44	20.00
17200	0.40	14.00	0.56	-136.10	0.56	-136.10	0.40	14.00
17250	0.36	8.00	0.61	-132.40	0.61	-132.40	0.36	8.00
17300	0.31	8.60	0.66	-133.10	0.66	-133.10	0.31	8.60
17350	0.26	9.30	0.71	-133.70	0.71	-133.70	0.26	9.30
17400	0.24	11.40	0.74	-135.40	0.74	-135.40	0.24	11.40
17450	0.21	13.60	0.77	-137.20	0.77	-137.20	0.21	13.60
17500	0.20	17.90	0.79	-139.10	0.79	-139.10	0.20	17.90
17550	0.18	22.30	0.80	-141.10	0.80	-141.10	0.18	22.30
17600	0.19	23.60	0.80	-142.10	0.80	-142.10	0.19	23.60
17650	0.19	25.00	0.79	-143.10	0.79	-143.10	0.19	25.00
17700	0.17	21.50	0.80	-142.90	0.80	-142.90	0.17	21.50
17750	0.14	18.00	0.81	-142.70	0.81	-142.70	0.14	18.00
17800	0.12	19.80	0.83	-143.30	0.83	-143.30	0.12	19.80
17850	0.10	21.60	0.85	-143.80	0.85	-143.80	0.10	21.60
17900	0.08	22.50	0.87	-144.80	0.87	-144.80	0.08	22.50
17950	0.07	23.40	0.88	-145.70	0.88	-145.70	0.07	23.40
18000	0.06	24.80	0.89	-147.10	0.89	-147.10	0.06	24.80
18050	0.05	26.20	0.91	-148.50	0.91	-148.50	0.05	26.20
18100	0.05	14.30	0.91	-149.60	0.91	-149.60	0.05	14.30
18150	0.05	2.30	0.92	-150.70	0.92	-150.70	0.05	2.30
18200	0.05	-10.90	0.93	-151.90	0.93	-151.90	0.05	-10.90
18250	0.05	-24.20	0.94	-153.10	0.94	-153.10	0.05	-24.20
18300	0.06	-29.80	0.94	-154.10	0.94	-154.10	0.06	-29.80
18350	0.08	-35.30	0.94	-155.00	0.94	-155.00	0.08	-35.30
18400	0.09	-36.80	0.95	-155.90	0.95	-155.90	0.09	-36.80
18450	0.10	-38.20	0.95	-156.80	0.95	-156.80	0.10	-38.20
18500	0.11	-35.70	0.95	-157.60	0.95	-157.60	0.11	-35.70
18550	0.12	-33.30	0.96	-158.40	0.96	-158.40	0.12	-33.30
