#	mhz	s	ma	r	50			
50	0.96	178.00	0.03	83.80	0.03	83.80	0.96	178.00
100	0.98	176.10	0.06	82.70	0.06	82.70	0.98	176.10
150	1.00	174.10	0.09	81.60	0.09	81.60	1.00	174.10
200	0.99	172.50	0.11	80.30	0.11	80.30	0.99	172.50
250	0.98	170.80	0.14	79.00	0.14	79.00	0.98	170.80
300	0.98	168.50	0.17	76.90	0.17	76.90	0.98	168.50
350	0.98	166.20	0.19	74.80	0.19	74.80	0.98	166.20
400	0.97	164.50	0.22	73.30	0.22	73.30	0.97	164.50
450	0.96	162.90	0.24	71.70	0.24	71.70	0.96	162.90
500	0.95	159.80	0.28	69.20	0.28	69.20	0.95	159.80
550	0.95	156.70	0.32	66.60	0.32	66.60	0.95	156.70
600	0.94	154.90	0.34	65.10	0.34	65.10	0.94	154.90
650	0.93	153.00	0.37	63.60	0.37	63.60	0.93	153.00
700	0.92	151.20	0.39	61.70	0.39	61.70	0.92	151.20
750	0.91	149.40	0.41	59.80	0.41	59.80	0.91	149.40
800	0.89	147.50	0.43	57.90	0.43	57.90	0.89	147.50
850	0.88	145.60	0.46	56.10	0.46	56.10	0.88	145.60
900	0.87	144.10	0.47	54.30	0.47	54.30	0.87	144.10
950	0.86	142.50	0.49	52.60	0.49	52.60	0.86	142.50
1000	0.85	140.60	0.51	51.00	0.51	51.00	0.85	140.60
1050	0.83	138.70	0.53	49.40	0.53	49.40	0.83	138.70
1100	0.82	137.00	0.55	47.80	0.55	47.80	0.82	137.00
1150	0.82	135.40	0.56	46.20	0.56	46.20	0.82	135.40
1200	0.81	133.90	0.58	44.80	0.58	44.80	0.81	133.90
1250	0.79	132.30	0.59	43.40	0.59	43.40	0.79	132.30
1300	0.79	131.00	0.61	42.10	0.61	42.10	0.79	131.00
1350	0.78	129.60	0.62	40.70	0.62	40.70	0.78	129.60
1400	0.76	128.00	0.63	39.20	0.63	39.20	0.76	128.00
1450	0.75	126.40	0.65	37.70	0.65	37.70	0.75	126.40
1500	0.74	125.00	0.66	36.40	0.66	36.40	0.74	125.00
1550	0.73	123.60	0.67	35.20	0.67	35.20	0.73	123.60
1600	0.72	122.10	0.69	33.90	0.69	33.90	0.72	122.10
1650	0.71	120.60	0.70	32.60	0.70	32.60	0.71	120.60
1700	0.70	119.30	0.71	31.30	0.71	31.30	0.70	119.30
1750	0.68	118.00	0.71	30.10	0.71	30.10	0.68	118.00
1800	0.68	116.70	0.73	29.00	0.73	29.00	0.68	116.70
1850	0.67	115.40	0.74	27.90	0.74	27.90	0.67	115.40
1900	0.66	114.10	0.74	26.60	0.74	26.60	0.66	114.10
1950	0.65	112.80	0.75	25.30	0.75	25.30	0.65	112.80
2000	0.63	111.50	0.76	24.20	0.76	24.20	0.63	111.50
2050	0.62	110.20	0.77	23.00	0.77	23.00	0.62	110.20
2100	0.61	109.40	0.77	22.00	0.77	22.00	0.61	109.40
2150	0.60	108.50	0.78	20.90	0.78	20.90	0.60	108.50
2200	0.60	107.10	0.79	19.90	0.79	19.90	0.60	107.10
2250	0.59	105.70	0.80	18.80	0.80	18.80	0.59	105.70
2300	0.57	104.80	0.80	17.80	0.80	17.80	0.57	104.80
2350	0.56	103.80	0.81	16.70	0.81	16.70	0.56	103.80
2400	0.55	103.10	0.81	15.80	0.81	15.80	0.55	103.10
2450	0.55	102.40	0.82	14.80	0.82	14.80	0.55	102.40
2500	0.54	101.20	0.82	13.80	0.82	13.80	0.54	101.20
2550	0.53	99.90	0.83	12.80	0.83	12.80	0.53	99.90
2600	0.52	99.00	0.84	11.80	0.84	11.80	0.52	99.00
2650	0.51	98.10	0.84	10.90	0.84	10.90	0.51	98.10
2700	0.50	97.30	0.85	10.00	0.85	10.00	0.50	97.30
2750	0.50	96.50	0.85	9.00	0.85	9.00	0.50	96.50
2800	0.49	95.50	0.86	8.10	0.86	8.10	0.49	95.50
2850	0.48	94.50	0.87	7.20	0.87	7.20	0.48	94.50
2900	0.47	93.40	0.87	6.10	0.87	6.10	0.47	93.40
2950	0.47	92.40	0.87	5.10	0.87	5.10	0.47	92.40
3000	0.46	91.60	0.88	4.30	0.88	4.30	0.46	91.60
3050	0.45	90.80	0.88	3.50	0.88	3.50	0.45	90.80
3100	0.45	89.80	0.88	2.50	0.88	2.50	0.45	89.80
3150	0.44	88.80	0.89	1.60	0.89	1.60	0.44	88.80
3200	0.43	88.20	0.89	0.80	0.89	0.80	0.43	88.20
3250	0.42	87.60	0.89	-0.10	0.89	-0.10	0.42	87.60
3300	0.42	86.80	0.90	-1.00	0.90	-1.00	0.42	86.80
3350	0.41	86.00	0.90	-1.90	0.90	-1.90	0.41	86.00
3400	0.40	85.30	0.90	-2.80	0.90	-2.80	0.40	85.30
3450	0.40	84.60	0.90	-3.60	0.90	-3.60	0.40	84.60
3500	0.39	84.00	0.91	-4.40	0.91	-4.40	0.39	84.00
3550	0.38	83.40	0.91	-5.10	0.91	-5.10	0.38	83.40
3600	0.37	82.50	0.92	-6.10	0.92	-6.10	0.37	82.50
3650	0.37	81.70	0.92	-7.00	0.92	-7.00	0.37	81.70
3700	0.36	81.00	0.92	-7.80	0.92	-7.80	0.36	81.00
3750	0.35	80.30	0.92	-8.60	0.92	-8.60	0.35	80.30
3800	0.35	79.60	0.93	-9.50	0.93	-9.50	0.35	79.60
3850	0.34	78.90	0.93	-10.50	0.93	-10.50	0.34	78.90
3900	0.34	78.40	0.93	-11.20	0.93	-11.20	0.34	78.40
3950	0.33	77.80	0.93	-11.80	0.93	-11.80	0.33	77.80
4000	0.32	77.10	0.94	-12.60	0.94	-12.60	0.32	77.10
4050	0.32	76.50	0.94	-13.50	0.94	-13.50	0.32	76.50
4100	0.31	76.00	0.94	-14.30	0.94	-14.30	0.31	76.00
4150	0.31	75.50	0.94	-15.10	0.94	-15.10	0.31	75.50
4200	0.30	74.60	0.94	-15.90	0.94	-15.90	0.30	74.60
4250	0.29	73.70	0.94	-16.60	0.94	-16.60	0.29	73.70
4300	0.29	73.30	0.95	-17.30	0.95	-17.30	0.29	73.30
4350	0.28	73.00	0.95	-18.00	0.95	-18.00	0.28	73.00
4400	0.28	71.90	0.95	-18.90	0.95	-18.90	0.28	71.90
4450	0.28	70.80	0.96	-19.80	0.96	-19.80	0.28	70.80
4500	0.27	70.70	0.95	-20.70	0.95	-20.70	0.27	70.70
4550	0.26	70.70	0.95	-21.50	0.95	-21.50	0.26	70.70
4600	0.26	69.70	0.96	-22.20	0.96	-22.20	0.26	69.70
4650	0.26	68.70	0.96	-22.80	0.96	-22.80	0.26	68.70
4700	0.25	68.50	0.96	-23.60	0.96	-23.60	0.25	68.50
4750	0.24	68.20	0.96	-24.30	0.96	-24.30	0.24	68.20
4800	0.24	67.20	0.96	-25.00	0.96	-25.00	0.24	67.20
4850	0.24	66.20	0.96	-25.70	0.96	-25.70	0.24	66.20
4900	0.23	66.00	0.96	-26.40	0.96	-26.40	0.23	66.00
4950	0.23	65.80	0.96	-27.20	0.96	-27.20	0.23	65.80
5000	0.22	65.00	0.97	-27.70	0.97	-27.70	0.22	65.00
5050	0.22	64.20	0.97	-28.20	0.97	-28.20	0.22	64.20
5100	0.21	63.90	0.97	-29.20	0.97	-29.20	0.21	63.90
5150	0.20	63.50	0.97	-30.10	0.97	-30.10	0.20	63.50
5200	0.20	63.10	0.98	-30.90	0.98	-30.90	0.20	63.10
5250	0.20	62.60	0.98	-31.70	0.98	-31.70	0.20	62.60
5300	0.19	61.90	0.98	-32.30	0.98	-32.30	0.19	61.90
5350	0.18	61.30	0.97	-32.80	0.97	-32.80	0.18	61.30
5400	0.18	60.50	0.98	-33.50	0.98	-33.50	0.18	60.50
5450	0.17	59.60	0.98	-34.30	0.98	-34.30	0.17	59.60
5500	0.17	58.80	0.98	-35.00	0.98	-35.00	0.17	58.80
5550	0.16	58.10	0.98	-35.80	0.98	-35.80	0.16	58.10
5600	0.16	57.40	0.98	-36.50	0.98	-36.50	0.16	57.40
5650	0.15	56.70	0.98	-37.20	0.98	-37.20	0.15	56.70
5700	0.15	55.50	0.98	-38.10	0.98	-38.10	0.15	55.50
5750	0.14	54.40	0.98	-39.00	0.98	-39.00	0.14	54.40
5800	0.13	53.80	0.98	-39.60	0.98	-39.60	0.13	53.80
5850	0.12	53.30	0.98	-40.20	0.98	-40.20	0.12	53.30
5900	0.12	51.80	0.98	-40.70	0.98	-40.70	0.12	51.80
5950	0.12	50.30	0.98	-41.30	0.98	-41.30	0.12	50.30
6000	0.10	54.40	0.99	-42.00	0.99	-42.00	0.10	54.40
6050	0.09	58.40	0.99	-42.70	0.99	-42.70	0.09	58.40
6100	0.08	57.80	0.99	-43.40	0.99	-43.40	0.08	57.80
6150	0.08	57.20	0.99	-44.10	0.99	-44.10	0.08	57.20
6200	0.08	60.70	0.99	-44.70	0.99	-44.70	0.08	60.70
6250	0.07	64.10	0.99	-45.30	0.99	-45.30	0.07	64.10
6300	0.07	67.30	0.99	-45.90	0.99	-45.90	0.07	67.30
6350	0.06	70.40	0.99	-46.50	0.99	-46.50	0.06	70.40
6400	0.06	73.90	0.99	-47.20	0.99	-47.20	0.06	73.90
6450	0.05	77.30	0.99	-47.90	0.99	-47.90	0.05	77.30
6500	0.05	81.00	0.99	-48.60	0.99	-48.60	0.05	81.00
6550	0.05	84.60	0.98	-49.40	0.98	-49.40	0.05	84.60
6600	0.05	91.20	0.99	-49.90	0.99	-49.90	0.05	91.20
6650	0.05	97.70	0.99	-50.40	0.99	-50.40	0.05	97.70
6700	0.04	99.20	0.99	-51.00	0.99	-51.00	0.04	99.20
6750	0.04	100.70	0.99	-51.70	0.99	-51.70	0.04	100.70
6800	0.04	105.60	0.99	-52.30	0.99	-52.30	0.04	105.60
6850	0.04	110.60	0.99	-52.90	0.99	-52.90	0.04	110.60
6900	0.04	112.20	0.99	-53.50	0.99	-53.50	0.04	112.20
6950	0.05	113.80	0.99	-54.20	0.99	-54.20	0.05	113.80
7000	0.05	117.30	0.99	-54.80	0.99	-54.80	0.05	117.30
7050	0.05	120.80	0.99	-55.40	0.99	-55.40	0.05	120.80
7100	0.05	121.20	0.99	-56.00	0.99	-56.00	0.05	121.20
7150	0.05	121.60	0.99	-56.60	0.99	-56.60	0.05	121.60
7200	0.05	121.20	0.99	-57.20	0.99	-57.20	0.05	121.20
7250	0.05	120.80	0.99	-57.90	0.99	-57.90	0.05	120.80
7300	0.05	121.40	0.99	-58.50	0.99	-58.50	0.05	121.40
7350	0.05	122.10	0.99	-59.10	0.99	-59.10	0.05	122.10
7400	0.05	122.00	0.99	-59.80	0.99	-59.80	0.05	122.00
7450	0.05	121.90	0.99	-60.50	0.99	-60.50	0.05	121.90
7500	0.05	121.40	0.99	-61.00	0.99	-61.00	0.05	121.40
7550	0.05	120.90	0.99	-61.50	0.99	-61.50	0.05	120.90
7600	0.05	120.60	0.99	-62.20	0.99	-62.20	0.05	120.60
7650	0.05	120.30	0.99	-62.80	0.99	-62.80	0.05	120.30
7700	0.05	116.60	0.99	-63.30	0.99	-63.30	0.05	116.60
7750	0.05	113.00	0.99	-63.80	0.99	-63.80	0.05	113.00
7800	0.05	113.50	0.99	-64.50	0.99	-64.50	0.05	113.50
7850	0.05	113.90	0.99	-65.20	0.99	-65.20	0.05	113.90
7900	0.05	109.10	0.99	-65.80	0.99	-65.80	0.05	109.10
7950	0.05	104.40	0.99	-66.40	0.99	-66.40	0.05	104.40
8000	0.05	106.00	0.99	-67.10	0.99	-67.10	0.05	106.00
8050	0.05	107.50	0.99	-67.70	0.99	-67.70	0.05	107.50
8100	0.05	103.30	0.99	-68.20	0.99	-68.20	0.05	103.30
8150	0.05	99.10	0.99	-68.70	0.99	-68.70	0.05	99.10
8200	0.04	98.50	0.99	-69.30	0.99	-69.30	0.04	98.50
8250	0.04	97.90	0.99	-69.90	0.99	-69.90	0.04	97.90
8300	0.04	94.50	0.99	-70.40	0.99	-70.40	0.04	94.50
8350	0.04	91.10	0.99	-71.00	0.99	-71.00	0.04	91.10
8400	0.03	88.50	0.99	-71.60	0.99	-71.60	0.03	88.50
8450	0.02	85.90	0.99	-72.20	0.99	-72.20	0.02	85.90
8500	0.02	78.60	0.99	-72.80	0.99	-72.80	0.02	78.60
8550	0.02	71.30	0.99	-73.40	0.99	-73.40	0.02	71.30
8600	0.02	67.70	0.99	-74.00	0.99	-74.00	0.02	67.70
8650	0.02	64.20	0.99	-74.50	0.99	-74.50	0.02	64.20
8700	0.02	62.00	0.99	-75.30	0.99	-75.30	0.02	62.00
8750	0.02	59.80	0.99	-76.00	0.99	-76.00	0.02	59.80
8800	0.01	43.60	0.99	-76.50	0.99	-76.50	0.01	43.60
8850	0.01	27.30	0.99	-77.00	0.99	-77.00	0.01	27.30
8900	0.01	7.10	0.99	-77.80	0.99	-77.80	0.01	7.10
8950	0.01	-13.00	0.99	-78.60	0.99	-78.60	0.01	-13.00
9000	0.01	-32.70	0.99	-79.00	0.99	-79.00	0.01	-32.70
9050	0.01	-52.30	0.99	-79.40	0.99	-79.40	0.01	-52.30
9100	0.01	-69.50	0.99	-80.10	0.99	-80.10	0.01	-69.50
9150	0.01	-86.70	0.99	-80.80	0.99	-80.80	0.01	-86.70
9200	0.01	-102.90	1.00	-81.60	1.00	-81.60	0.01	-102.90
9250	0.01	-119.10	1.00	-82.30	1.00	-82.30	0.01	-119.10
9300	0.02	-125.80	1.00	-82.70	1.00	-82.70	0.02	-125.80
9350	0.03	-132.50	1.00	-83.10	1.00	-83.10	0.03	-132.50
9400	0.03	-131.90	0.99	-83.60	0.99	-83.60	0.03	-131.90
9450	0.04	-131.30	0.99	-84.10	0.99	-84.10	0.04	-131.30
9500	0.04	-134.40	0.99	-84.90	0.99	-84.90	0.04	-134.40
9550	0.05	-137.60	0.99	-85.60	0.99	-85.60	0.05	-137.60
9600	0.05	-136.00	0.99	-86.30	0.99	-86.30	0.05	-136.00
9650	0.06	-134.40	0.99	-86.90	0.99	-86.90	0.06	-134.40
9700	0.07	-140.20	0.99	-87.60	0.99	-87.60	0.07	-140.20
9750	0.07	-146.00	0.99	-88.20	0.99	-88.20	0.07	-146.00
9800	0.08	-146.00	0.99	-88.80	0.99	-88.80	0.08	-146.00
9850	0.08	-145.90	0.99	-89.40	0.99	-89.40	0.08	-145.90
9900	0.09	-147.80	0.99	-90.10	0.99	-90.10	0.09	-147.80
9950	0.10	-149.70	0.99	-90.80	0.99	-90.80	0.10	-149.70
10000	0.11	-154.10	0.99	-91.30	0.99	-91.30	0.11	-154.10
10050	0.11	-158.40	0.99	-91.90	0.99	-91.90	0.11	-158.40
10100	0.12	-156.60	0.99	-92.50	0.99	-92.50	0.12	-156.60
10150	0.13	-154.70	0.99	-93.20	0.99	-93.20	0.13	-154.70
10200	0.14	-158.00	0.99	-93.70	0.99	-93.70	0.14	-158.00
10250	0.14	-161.30	0.99	-94.20	0.99	-94.20	0.14	-161.30
10300	0.15	-162.00	0.99	-95.00	0.99	-95.00	0.15	-162.00
10350	0.15	-162.80	0.99	-95.80	0.99	-95.80	0.15	-162.80
10400	0.16	-165.40	0.98	-96.50	0.98	-96.50	0.16	-165.40
10450	0.17	-168.00	0.98	-97.10	0.98	-97.10	0.17	-168.00
10500	0.17	-169.50	0.98	-97.70	0.98	-97.70	0.17	-169.50
10550	0.17	-171.10	0.98	-98.20	0.98	-98.20	0.17	-171.10
10600	0.18	-173.40	0.98	-98.90	0.98	-98.90	0.18	-173.40
10650	0.19	-175.80	0.98	-99.60	0.98	-99.60	0.19	-175.80
10700	0.19	-177.10	0.98	-100.30	0.98	-100.30	0.19	-177.10
10750	0.19	-178.30	0.98	-101.00	0.98	-101.00	0.19	-178.30
10800	0.20	-0.20	0.98	-101.70	0.98	-101.70	0.20	-0.20
10850	0.21	177.90	0.97	-102.30	0.97	-102.30	0.21	177.90
10900	0.21	175.40	0.97	-103.00	0.97	-103.00	0.21	175.40
10950	0.21	172.80	0.97	-103.80	0.97	-103.80	0.21	172.80
11000	0.21	172.20	0.97	-104.30	0.97	-104.30	0.21	172.20
11050	0.21	171.50	0.98	-104.80	0.98	-104.80	0.21	171.50
11100	0.22	168.90	0.97	-105.60	0.97	-105.60	0.22	168.90
11150	0.22	166.30	0.96	-106.30	0.96	-106.30	0.22	166.30
11200	0.23	165.80	0.97	-106.80	0.97	-106.80	0.23	165.80
11250	0.23	165.30	0.97	-107.20	0.97	-107.20	0.23	165.30
11300	0.23	164.10	0.97	-107.80	0.97	-107.80	0.23	164.10
11350	0.23	163.00	0.97	-108.50	0.97	-108.50	0.23	163.00
11400	0.24	161.70	0.96	-109.30	0.96	-109.30	0.24	161.70
11450	0.24	160.40	0.96	-110.20	0.96	-110.20	0.24	160.40
11500	0.24	159.20	0.96	-110.70	0.96	-110.70	0.24	159.20
11550	0.24	157.90	0.96	-111.30	0.96	-111.30	0.24	157.90
11600	0.25	156.00	0.96	-112.00	0.96	-112.00	0.25	156.00
11650	0.25	154.00	0.96	-112.80	0.96	-112.80	0.25	154.00
11700	0.26	153.40	0.95	-113.40	0.95	-113.40	0.26	153.40
11750	0.26	152.90	0.95	-114.00	0.95	-114.00	0.26	152.90
11800	0.26	151.10	0.95	-114.60	0.95	-114.60	0.26	151.10
11850	0.27	149.40	0.95	-115.10	0.95	-115.10	0.27	149.40
11900	0.27	149.00	0.95	-115.90	0.95	-115.90	0.27	149.00
11950	0.27	148.50	0.95	-116.60	0.95	-116.60	0.27	148.50
12000	0.28	146.60	0.95	-117.10	0.95	-117.10	0.28	146.60
12050	0.28	144.70	0.94	-117.70	0.94	-117.70	0.28	144.70
12100	0.28	144.80	0.94	-118.30	0.94	-118.30	0.28	144.80
12150	0.28	145.00	0.94	-118.90	0.94	-118.90	0.28	145.00
12200	0.29	144.00	0.94	-119.60	0.94	-119.60	0.29	144.00
12250	0.29	142.90	0.94	-120.30	0.94	-120.30	0.29	142.90
12300	0.29	143.10	0.94	-121.00	0.94	-121.00	0.29	143.10
12350	0.29	143.20	0.94	-121.60	0.94	-121.60	0.29	143.20
12400	0.29	143.20	0.94	-121.90	0.94	-121.90	0.29	143.20
12450	0.29	143.10	0.94	-122.10	0.94	-122.10	0.29	143.10
12500	0.29	142.60	0.94	-123.30	0.94	-123.30	0.29	142.60
12550	0.29	142.10	0.94	-124.60	0.94	-124.60	0.29	142.10
12600	0.28	142.80	0.94	-125.20	0.94	-125.20	0.28	142.80
12650	0.28	143.60	0.94	-125.80	0.94	-125.80	0.28	143.60
12700	0.28	143.80	0.94	-126.40	0.94	-126.40	0.28	143.80
12750	0.28	144.10	0.93	-127.10	0.93	-127.10	0.28	144.10
12800	0.28	143.20	0.93	-127.90	0.93	-127.90	0.28	143.20
12850	0.28	142.30	0.93	-128.80	0.93	-128.80	0.28	142.30
12900	0.28	142.90	0.93	-129.60	0.93	-129.60	0.28	142.90
12950	0.28	143.50	0.93	-130.40	0.93	-130.40	0.28	143.50
13000	0.28	143.40	0.93	-131.30	0.93	-131.30	0.28	143.40
13050	0.27	143.30	0.93	-132.20	0.93	-132.20	0.27	143.30
13100	0.26	142.80	0.93	-133.10	0.93	-133.10	0.26	142.80
13150	0.26	142.30	0.93	-134.10	0.93	-134.10	0.26	142.30
13200	0.25	142.50	0.92	-135.20	0.92	-135.20	0.25	142.50
13250	0.25	142.60	0.92	-136.40	0.92	-136.40	0.25	142.60
13300	0.24	144.50	0.92	-138.00	0.92	-138.00	0.24	144.50
13350	0.23	146.40	0.92	-139.60	0.92	-139.60	0.23	146.40
13400	0.22	149.30	0.91	-141.80	0.91	-141.80	0.22	149.30
13450	0.22	152.20	0.90	-144.00	0.90	-144.00	0.22	152.20
13500	0.23	160.80	0.86	-146.60	0.86	-146.60	0.23	160.80
13550	0.25	169.40	0.83	-149.30	0.83	-149.30	0.25	169.40
13600	0.32	169.60	0.75	-149.90	0.75	-149.90	0.32	169.60
13650	0.38	169.80	0.67	-150.50	0.67	-150.50	0.38	169.80
13700	0.45	160.20	0.65	-142.30	0.65	-142.30	0.45	160.20
13750	0.51	150.50	0.63	-134.20	0.63	-134.20	0.51	150.50
13800	0.50	142.40	0.69	-132.60	0.69	-132.60	0.50	142.40
13850	0.48	134.20	0.75	-131.10	0.75	-131.10	0.48	134.20
13900	0.47	130.40	0.78	-132.60	0.78	-132.60	0.47	130.40
13950	0.45	126.50	0.81	-134.20	0.81	-134.20	0.45	126.50
14000	0.44	123.60	0.82	-135.90	0.82	-135.90	0.44	123.60
14050	0.43	120.60	0.84	-137.60	0.84	-137.60	0.43	120.60
14100	0.43	118.70	0.84	-139.10	0.84	-139.10	0.43	118.70
14150	0.42	116.80	0.85	-140.50	0.85	-140.50	0.42	116.80
14200	0.42	114.20	0.85	-142.10	0.85	-142.10	0.42	114.20
14250	0.42	111.70	0.85	-143.80	0.85	-143.80	0.42	111.70
14300	0.42	109.30	0.85	-145.30	0.85	-145.30	0.42	109.30
14350	0.42	106.80	0.85	-146.90	0.85	-146.90	0.42	106.80
14400	0.42	105.10	0.84	-148.10	0.84	-148.10	0.42	105.10
14450	0.43	103.40	0.83	-149.40	0.83	-149.40	0.43	103.40
14500	0.44	100.30	0.83	-151.20	0.83	-151.20	0.44	100.30
14550	0.44	97.20	0.82	-153.10	0.82	-153.10	0.44	97.20
14600	0.46	95.40	0.81	-154.20	0.81	-154.20	0.46	95.40
14650	0.47	93.70	0.80	-155.40	0.80	-155.40	0.47	93.70
14700	0.49	90.90	0.79	-157.20	0.79	-157.20	0.49	90.90
14750	0.50	88.10	0.78	-159.00	0.78	-159.00	0.50	88.10
14800	0.52	85.70	0.76	-160.60	0.76	-160.60	0.52	85.70
14850	0.53	83.30	0.75	-162.20	0.75	-162.20	0.53	83.30
14900	0.55	81.20	0.73	-163.70	0.73	-163.70	0.55	81.20
14950	0.57	79.20	0.70	-165.10	0.70	-165.10	0.57	79.20
15000	0.59	76.00	0.68	-166.70	0.68	-166.70	0.59	76.00
15050	0.60	72.90	0.66	-168.30	0.66	-168.30	0.60	72.90
15100	0.62	70.60	0.63	-169.30	0.63	-169.30	0.62	70.60
15150	0.63	68.30	0.59	-170.40	0.59	-170.40	0.63	68.30
15200	0.63	64.90	0.56	-170.30	0.56	-170.30	0.63	64.90
15250	0.64	61.60	0.52	-170.30	0.52	-170.30	0.64	61.60
15300	0.66	58.50	0.50	-168.70	0.50	-168.70	0.66	58.50
15350	0.67	55.40	0.47	-167.10	0.47	-167.10	0.67	55.40
15400	0.64	53.40	0.46	-164.20	0.46	-164.20	0.64	53.40
15450	0.61	51.40	0.45	-161.30	0.45	-161.30	0.61	51.40
15500	0.61	51.80	0.45	-159.90	0.45	-159.90	0.61	51.80
15550	0.61	52.20	0.46	-158.60	0.46	-158.60	0.61	52.20
15600	0.61	52.20	0.46	-158.90	0.46	-158.90	0.61	52.20
15650	0.61	52.30	0.46	-159.20	0.46	-159.20	0.61	52.30
15700	0.63	52.20	0.44	-159.80	0.44	-159.80	0.63	52.20
15750	0.64	52.00	0.43	-160.40	0.43	-160.40	0.64	52.00
15800	0.66	50.90	0.41	-160.00	0.41	-160.00	0.66	50.90
15850	0.68	49.80	0.39	-159.50	0.39	-159.50	0.68	49.80
15900	0.69	47.90	0.37	-156.90	0.37	-156.90	0.69	47.90
15950	0.70	45.90	0.34	-154.30	0.34	-154.30	0.70	45.90
16000	0.69	44.40	0.33	-148.70	0.33	-148.70	0.69	44.40
16050	0.69	42.90	0.32	-143.20	0.32	-143.20	0.69	42.90
16100	0.68	40.80	0.33	-137.90	0.33	-137.90	0.68	40.80
16150	0.67	38.70	0.34	-132.60	0.34	-132.60	0.67	38.70
16200	0.63	37.30	0.38	-130.30	0.38	-130.30	0.63	37.30
16250	0.60	35.80	0.41	-127.90	0.41	-127.90	0.60	35.80
16300	0.57	37.10	0.44	-129.50	0.44	-129.50	0.57	37.10
16350	0.54	38.30	0.47	-131.00	0.47	-131.00	0.54	38.30
16400	0.54	42.10	0.47	-134.50	0.47	-134.50	0.54	42.10
16450	0.54	46.00	0.47	-137.90	0.47	-137.90	0.54	46.00
16500	0.57	46.70	0.44	-139.10	0.44	-139.10	0.57	46.70
16550	0.60	47.40	0.41	-140.20	0.41	-140.20	0.60	47.40
16600	0.63	45.40	0.38	-136.30	0.38	-136.30	0.63	45.40
16650	0.67	43.50	0.35	-132.50	0.35	-132.50	0.67	43.50
16700	0.68	39.20	0.35	-124.70	0.35	-124.70	0.68	39.20
16750	0.69	34.90	0.36	-117.00	0.36	-117.00	0.69	34.90
16800	0.68	30.10	0.40	-112.80	0.40	-112.80	0.68	30.10
16850	0.67	25.20	0.44	-108.60	0.44	-108.60	0.67	25.20
16900	0.65	21.20	0.48	-107.80	0.48	-107.80	0.65	21.20
16950	0.63	17.20	0.53	-107.10	0.53	-107.10	0.63	17.20
17000	0.60	13.60	0.57	-108.20	0.57	-108.20	0.60	13.60
17050	0.57	10.10	0.61	-109.30	0.61	-109.30	0.57	10.10
17100	0.54	6.70	0.65	-111.00	0.65	-111.00	0.54	6.70
17150	0.51	3.30	0.68	-112.70	0.68	-112.70	0.51	3.30
17200	0.48	0.30	0.71	-114.50	0.71	-114.50	0.48	0.30
17250	0.45	-2.80	0.75	-116.40	0.75	-116.40	0.45	-2.80
17300	0.42	-5.80	0.77	-118.30	0.77	-118.30	0.42	-5.80
17350	0.40	-8.80	0.80	-120.20	0.80	-120.20	0.40	-8.80
17400	0.37	-11.50	0.82	-121.90	0.82	-121.90	0.37	-11.50
17450	0.34	-14.20	0.84	-123.60	0.84	-123.60	0.34	-14.20
17500	0.32	-16.50	0.85	-125.70	0.85	-125.70	0.32	-16.50
17550	0.29	-18.70	0.87	-127.70	0.87	-127.70	0.29	-18.70
17600	0.27	-21.80	0.88	-129.50	0.88	-129.50	0.27	-21.80
17650	0.25	-24.90	0.89	-131.30	0.89	-131.30	0.25	-24.90
17700	0.23	-25.70	0.90	-132.90	0.90	-132.90	0.23	-25.70
17750	0.21	-26.40	0.91	-134.40	0.91	-134.40	0.21	-26.40
17800	0.19	-30.70	0.92	-136.10	0.92	-136.10	0.19	-30.70
17850	0.17	-34.90	0.92	-137.70	0.92	-137.70	0.17	-34.90
17900	0.16	-38.00	0.92	-139.10	0.92	-139.10	0.16	-38.00
17950	0.14	-41.10	0.93	-140.50	0.93	-140.50	0.14	-41.10
18000	0.14	-43.50	0.94	-141.60	0.94	-141.60	0.14	-43.50
18050	0.14	-45.90	0.94	-142.80	0.94	-142.80	0.14	-45.90
18100	0.12	-47.90	0.94	-143.90	0.94	-143.90	0.12	-47.90
18150	0.11	-49.90	0.95	-145.00	0.95	-145.00	0.11	-49.90
18200	0.10	-53.00	0.95	-146.10	0.95	-146.10	0.10	-53.00
18250	0.10	-56.10	0.95	-147.10	0.95	-147.10	0.10	-56.10
18300	0.10	-61.20	0.95	-148.40	0.95	-148.40	0.10	-61.20
18350	0.10	-66.30	0.96	-149.60	0.96	-149.60	0.10	-66.30
18400	0.10	-64.90	0.96	-150.50	0.96	-150.50	0.10	-64.90
18450	0.11	-63.50	0.96	-151.30	0.96	-151.30	0.11	-63.50
18500	0.11	-65.00	0.96	-152.30	0.96	-152.30	0.11	-65.00
18550	0.11	-66.50	0.97	-153.40	0.97	-153.40	0.11	-66.50
18600	0.11	-65.80	0.97	-154.40	0.97	-154.40	0.11	-65.80
18650	0.11	-65.10	0.97	-155.40	0.97	-155.40	0.11	-65.10
18700	0.12	-66.00	0.97	-156.20	0.97	-156.20	0.12	-66.00
18750	0.13	-66.90	0.96	-157.10	0.96	-157.10	0.13	-66.90
18800	0.12	-67.00	0.96	-158.10	0.96	-158.10	0.12	-67.00
