#	mhz	s	ma	r	50			
50	0.24	110.00	0.95	15.60	0.95	15.60	0.24	110.00
100	0.15	108.00	0.97	9.80	0.97	9.80	0.15	108.00
150	0.06	106.10	0.99	3.90	0.99	3.90	0.06	106.10
200	0.04	125.40	1.00	2.10	1.00	2.10	0.04	125.40
250	0.01	144.70	1.00	0.20	1.00	0.20	0.01	144.70
300	0.02	13.10	1.00	-1.30	1.00	-1.30	0.02	13.10
350	0.03	-118.50	1.00	-2.70	1.00	-2.70	0.03	-118.50
400	0.04	-110.90	1.00	-3.90	1.00	-3.90	0.04	-110.90
450	0.06	-103.30	1.00	-5.10	1.00	-5.10	0.06	-103.30
500	0.06	-105.20	1.00	-5.90	1.00	-5.90	0.06	-105.20
550	0.07	-107.20	1.00	-6.80	1.00	-6.80	0.07	-107.20
600	0.08	-107.30	1.00	-7.80	1.00	-7.80	0.08	-107.30
650	0.09	-107.50	1.00	-8.80	1.00	-8.80	0.09	-107.50
700	0.10	-107.50	0.99	-9.80	0.99	-9.80	0.10	-107.50
750	0.11	-107.60	0.99	-10.90	0.99	-10.90	0.11	-107.60
800	0.12	-107.30	0.99	-12.00	0.99	-12.00	0.12	-107.30
850	0.13	-106.90	0.99	-13.00	0.99	-13.00	0.13	-106.90
900	0.14	-108.40	0.99	-14.00	0.99	-14.00	0.14	-108.40
950	0.15	-109.80	0.99	-14.90	0.99	-14.90	0.15	-109.80
1000	0.17	-110.10	0.98	-15.90	0.98	-15.90	0.17	-110.10
1050	0.17	-110.40	0.98	-17.00	0.98	-17.00	0.17	-110.40
1100	0.19	-111.60	0.98	-18.20	0.98	-18.20	0.19	-111.60
1150	0.20	-112.80	0.98	-19.30	0.98	-19.30	0.20	-112.80
1200	0.22	-114.20	0.97	-20.60	0.97	-20.60	0.22	-114.20
1250	0.23	-115.70	0.96	-22.00	0.96	-22.00	0.23	-115.70
1300	0.26	-118.40	0.95	-23.80	0.95	-23.80	0.26	-118.40
1350	0.29	-121.10	0.93	-25.70	0.93	-25.70	0.29	-121.10
1400	0.32	-136.80	0.84	-24.90	0.84	-24.90	0.32	-136.80
1450	0.35	-152.50	0.75	-24.10	0.75	-24.10	0.35	-152.50
1500	0.26	-144.00	0.85	-21.60	0.85	-21.60	0.26	-144.00
1550	0.17	-135.50	0.94	-19.10	0.94	-19.10	0.17	-135.50
1600	0.19	-130.20	0.95	-21.50	0.95	-21.50	0.19	-130.20
1650	0.22	-124.80	0.96	-24.00	0.96	-24.00	0.22	-124.80
1700	0.24	-124.70	0.96	-25.50	0.96	-25.50	0.24	-124.70
1750	0.25	-124.50	0.96	-27.00	0.96	-27.00	0.25	-124.50
1800	0.27	-125.40	0.95	-28.30	0.95	-28.30	0.27	-125.40
1850	0.28	-126.30	0.95	-29.60	0.95	-29.60	0.28	-126.30
1900	0.30	-127.00	0.95	-30.80	0.95	-30.80	0.30	-127.00
1950	0.31	-127.80	0.94	-32.00	0.94	-32.00	0.31	-127.80
2000	0.32	-128.80	0.94	-33.20	0.94	-33.20	0.32	-128.80
2050	0.34	-129.90	0.93	-34.40	0.93	-34.40	0.34	-129.90
2100	0.35	-130.90	0.93	-35.60	0.93	-35.60	0.35	-130.90
2150	0.36	-132.00	0.92	-36.90	0.92	-36.90	0.36	-132.00
2200	0.38	-133.20	0.92	-38.00	0.92	-38.00	0.38	-133.20
2250	0.39	-134.40	0.91	-39.20	0.91	-39.20	0.39	-134.40
2300	0.40	-136.00	0.90	-40.70	0.90	-40.70	0.40	-136.00
2350	0.42	-137.50	0.89	-42.20	0.89	-42.20	0.42	-137.50
2400	0.44	-139.20	0.87	-43.70	0.87	-43.70	0.44	-139.20
2450	0.46	-140.80	0.85	-45.20	0.85	-45.20	0.46	-140.80
2500	0.48	-145.20	0.82	-46.50	0.82	-46.50	0.48	-145.20
2550	0.50	-149.50	0.78	-47.80	0.78	-47.80	0.50	-149.50
2600	0.46	-157.50	0.75	-42.80	0.75	-42.80	0.46	-157.50
2650	0.42	-165.40	0.71	-37.80	0.71	-37.80	0.42	-165.40
2700	0.39	-157.20	0.79	-38.50	0.79	-38.50	0.39	-157.20
2750	0.35	-149.00	0.86	-39.30	0.86	-39.30	0.35	-149.00
2800	0.38	-146.80	0.87	-42.00	0.87	-42.00	0.38	-146.80
2850	0.41	-144.50	0.88	-44.80	0.88	-44.80	0.41	-144.50
2900	0.43	-145.00	0.87	-46.70	0.87	-46.70	0.43	-145.00
2950	0.45	-145.40	0.87	-48.60	0.87	-48.60	0.45	-145.40
3000	0.47	-146.20	0.86	-50.00	0.86	-50.00	0.47	-146.20
3050	0.48	-147.00	0.85	-51.40	0.85	-51.40	0.48	-147.00
3100	0.50	-148.10	0.85	-52.80	0.85	-52.80	0.50	-148.10
3150	0.52	-149.20	0.84	-54.20	0.84	-54.20	0.52	-149.20
3200	0.53	-150.30	0.83	-55.60	0.83	-55.60	0.53	-150.30
3250	0.54	-151.40	0.82	-57.00	0.82	-57.00	0.54	-151.40
3300	0.56	-152.50	0.81	-58.20	0.81	-58.20	0.56	-152.50
3350	0.57	-153.60	0.80	-59.50	0.80	-59.50	0.57	-153.60
3400	0.59	-155.00	0.79	-60.90	0.79	-60.90	0.59	-155.00
3450	0.60	-156.40	0.77	-62.30	0.77	-62.30	0.60	-156.40
3500	0.61	-158.10	0.76	-63.70	0.76	-63.70	0.61	-158.10
3550	0.62	-159.80	0.74	-65.20	0.74	-65.20	0.62	-159.80
3600	0.64	-161.70	0.72	-66.30	0.72	-66.30	0.64	-161.70
3650	0.65	-163.50	0.69	-67.40	0.69	-67.40	0.65	-163.50
3700	0.65	-167.60	0.65	-67.10	0.65	-67.10	0.65	-167.60
3750	0.66	-171.70	0.61	-66.90	0.61	-66.90	0.66	-171.70
3800	0.60	-174.30	0.62	-61.40	0.62	-61.40	0.60	-174.30
3850	0.55	-176.90	0.62	-55.90	0.62	-55.90	0.55	-176.90
3900	0.54	-171.90	0.68	-57.60	0.68	-57.60	0.54	-171.90
3950	0.52	-167.00	0.73	-59.30	0.73	-59.30	0.52	-167.00
4000	0.55	-165.70	0.74	-62.50	0.74	-62.50	0.55	-165.70
4050	0.58	-164.50	0.75	-65.60	0.75	-65.60	0.58	-164.50
4100	0.60	-165.10	0.74	-67.70	0.74	-67.70	0.60	-165.10
4150	0.63	-165.70	0.73	-69.90	0.73	-69.90	0.63	-165.70
4200	0.64	-167.10	0.72	-71.80	0.72	-71.80	0.64	-167.10
4250	0.66	-168.60	0.71	-73.70	0.71	-73.70	0.66	-168.60
4300	0.67	-169.70	0.70	-75.00	0.70	-75.00	0.67	-169.70
4350	0.69	-170.90	0.68	-76.30	0.68	-76.30	0.69	-170.90
4400	0.70	-172.40	0.67	-78.00	0.67	-78.00	0.70	-172.40
4450	0.71	-173.90	0.66	-79.60	0.66	-79.60	0.71	-173.90
4500	0.73	-175.20	0.64	-81.00	0.64	-81.00	0.73	-175.20
4550	0.75	-176.60	0.63	-82.40	0.63	-82.40	0.75	-176.60
4600	0.75	1.50	0.61	-83.90	0.61	-83.90	0.75	1.50
4650	0.76	179.60	0.59	-85.50	0.59	-85.50	0.76	179.60
4700	0.77	178.10	0.57	-86.50	0.57	-86.50	0.77	178.10
4750	0.78	176.60	0.55	-87.40	0.55	-87.40	0.78	176.60
4800	0.78	174.30	0.53	-87.90	0.53	-87.90	0.78	174.30
4850	0.79	172.00	0.50	-88.30	0.50	-88.30	0.79	172.00
4900	0.78	169.20	0.47	-86.60	0.47	-86.60	0.78	169.20
4950	0.78	166.30	0.44	-84.90	0.44	-84.90	0.78	166.30
5000	0.74	165.30	0.45	-79.30	0.45	-79.30	0.74	165.30
5050	0.69	164.30	0.47	-73.60	0.47	-73.60	0.69	164.30
5100	0.69	167.00	0.51	-76.10	0.51	-76.10	0.69	167.00
5150	0.68	169.80	0.55	-78.50	0.55	-78.50	0.68	169.80
5200	0.72	170.10	0.56	-83.00	0.56	-83.00	0.72	170.10
5250	0.75	170.50	0.56	-87.40	0.56	-87.40	0.75	170.50
5300	0.77	169.30	0.54	-90.00	0.54	-90.00	0.77	169.30
5350	0.79	168.10	0.52	-92.50	0.52	-92.50	0.79	168.10
5400	0.81	166.90	0.50	-94.40	0.50	-94.40	0.81	166.90
5450	0.82	165.70	0.49	-96.40	0.49	-96.40	0.82	165.70
5500	0.83	164.20	0.46	-98.00	0.46	-98.00	0.83	164.20
5550	0.84	162.70	0.44	-99.60	0.44	-99.60	0.84	162.70
5600	0.86	161.20	0.42	-100.70	0.42	-100.70	0.86	161.20
5650	0.87	159.70	0.40	-101.80	0.40	-101.80	0.87	159.70
5700	0.87	157.90	0.38	-102.80	0.38	-102.80	0.87	157.90
5750	0.88	156.00	0.36	-103.80	0.36	-103.80	0.88	156.00
5800	0.88	154.30	0.33	-103.50	0.33	-103.50	0.88	154.30
5850	0.88	152.60	0.30	-103.30	0.30	-103.30	0.88	152.60
5900	0.88	150.20	0.28	-100.20	0.28	-100.20	0.88	150.20
5950	0.87	147.80	0.26	-97.10	0.26	-97.10	0.87	147.80
6000	0.86	146.80	0.25	-89.20	0.25	-89.20	0.86	146.80
6050	0.84	145.80	0.25	-81.40	0.25	-81.40	0.84	145.80
6100	0.81	146.50	0.28	-80.80	0.28	-80.80	0.81	146.50
6150	0.78	147.10	0.32	-80.20	0.32	-80.20	0.78	147.10
6200	0.80	148.50	0.32	-86.10	0.32	-86.10	0.80	148.50
6250	0.82	149.80	0.33	-91.90	0.33	-91.90	0.82	149.80
6300	0.85	149.00	0.31	-96.20	0.31	-96.20	0.85	149.00
6350	0.87	148.20	0.29	-100.50	0.29	-100.50	0.87	148.20
6400	0.89	146.90	0.26	-102.70	0.26	-102.70	0.89	146.90
6450	0.90	145.50	0.24	-104.90	0.24	-104.90	0.90	145.50
6500	0.91	143.70	0.21	-105.20	0.21	-105.20	0.91	143.70
6550	0.92	141.90	0.19	-105.40	0.19	-105.40	0.92	141.90
6600	0.93	140.60	0.16	-103.10	0.16	-103.10	0.93	140.60
6650	0.94	139.20	0.14	-100.70	0.14	-100.70	0.94	139.20
6700	0.94	137.30	0.12	-93.10	0.12	-93.10	0.94	137.30
6750	0.94	135.30	0.10	-85.40	0.10	-85.40	0.94	135.30
6800	0.93	133.40	0.09	-68.80	0.09	-68.80	0.93	133.40
6850	0.93	131.50	0.09	-52.20	0.09	-52.20	0.93	131.50
6900	0.92	129.50	0.10	-38.10	0.10	-38.10	0.92	129.50
6950	0.92	127.40	0.12	-24.00	0.12	-24.00	0.92	127.40
7000	0.90	125.20	0.15	-19.90	0.15	-19.90	0.90	125.20
7050	0.89	122.90	0.19	-15.90	0.19	-15.90	0.89	122.90
7100	0.86	121.00	0.22	-17.70	0.22	-17.70	0.86	121.00
7150	0.83	119.00	0.26	-19.60	0.26	-19.60	0.83	119.00
7200	0.80	118.30	0.30	-26.20	0.30	-26.20	0.80	118.30
7250	0.76	117.60	0.33	-32.90	0.33	-32.90	0.76	117.60
7300	0.75	119.70	0.33	-41.60	0.33	-41.60	0.75	119.70
7350	0.73	121.80	0.33	-50.30	0.33	-50.30	0.73	121.80
7400	0.77	122.30	0.29	-55.00	0.29	-55.00	0.77	122.30
7450	0.80	122.80	0.25	-59.80	0.25	-59.80	0.80	122.80
7500	0.83	120.60	0.21	-52.80	0.21	-52.80	0.83	120.60
7550	0.86	118.40	0.17	-45.70	0.17	-45.70	0.86	118.40
7600	0.87	115.60	0.18	-34.10	0.18	-34.10	0.87	115.60
7650	0.88	112.80	0.19	-22.40	0.19	-22.40	0.88	112.80
7700	0.88	109.60	0.22	-17.40	0.22	-17.40	0.88	109.60
7750	0.88	106.30	0.24	-12.40	0.24	-12.40	0.88	106.30
7800	0.87	103.80	0.27	-11.40	0.27	-11.40	0.87	103.80
7850	0.87	101.30	0.30	-10.50	0.30	-10.50	0.87	101.30
7900	0.86	98.40	0.34	-11.10	0.34	-11.10	0.86	98.40
7950	0.85	95.40	0.37	-11.80	0.37	-11.80	0.85	95.40
8000	0.84	93.00	0.39	-13.20	0.39	-13.20	0.84	93.00
8050	0.83	90.60	0.42	-14.70	0.42	-14.70	0.83	90.60
8100	0.81	87.70	0.45	-16.70	0.45	-16.70	0.81	87.70
8150	0.80	84.80	0.47	-18.70	0.47	-18.70	0.80	84.80
8200	0.78	83.00	0.49	-20.40	0.49	-20.40	0.78	83.00
8250	0.76	81.10	0.51	-22.00	0.51	-22.00	0.76	81.10
8300	0.74	78.60	0.54	-24.40	0.54	-24.40	0.74	78.60
8350	0.71	76.20	0.56	-26.80	0.56	-26.80	0.71	76.20
8400	0.70	74.60	0.57	-28.90	0.57	-28.90	0.70	74.60
8450	0.68	73.10	0.59	-30.90	0.59	-30.90	0.68	73.10
8500	0.65	71.50	0.61	-33.50	0.61	-33.50	0.65	71.50
8550	0.63	69.90	0.62	-36.10	0.62	-36.10	0.63	69.90
8600	0.60	69.40	0.63	-38.70	0.63	-38.70	0.60	69.40
8650	0.58	69.00	0.64	-41.40	0.64	-41.40	0.58	69.00
8700	0.56	69.90	0.64	-44.20	0.64	-44.20	0.56	69.90
8750	0.54	70.80	0.64	-47.10	0.64	-47.10	0.54	70.80
8800	0.54	71.60	0.63	-48.80	0.63	-48.80	0.54	71.60
8850	0.54	72.30	0.61	-50.60	0.61	-50.60	0.54	72.30
8900	0.54	72.10	0.61	-50.90	0.61	-50.90	0.54	72.10
8950	0.54	72.00	0.60	-51.20	0.60	-51.20	0.54	72.00
9000	0.53	71.60	0.61	-52.00	0.61	-52.00	0.53	71.60
9050	0.53	71.10	0.62	-52.80	0.62	-52.80	0.53	71.10
9100	0.52	71.60	0.62	-54.80	0.62	-54.80	0.52	71.60
9150	0.51	72.10	0.62	-56.70	0.62	-56.70	0.51	72.10
9200	0.52	72.70	0.61	-57.80	0.61	-57.80	0.52	72.70
9250	0.52	73.40	0.59	-58.80	0.59	-58.80	0.52	73.40
9300	0.51	74.10	0.60	-58.50	0.60	-58.50	0.51	74.10
9350	0.51	74.70	0.60	-58.20	0.60	-58.20	0.51	74.70
9400	0.50	74.90	0.60	-59.50	0.60	-59.50	0.50	74.90
9450	0.49	75.00	0.59	-60.70	0.59	-60.70	0.49	75.00
9500	0.49	77.10	0.58	-61.70	0.58	-61.70	0.49	77.10
9550	0.49	79.20	0.57	-62.70	0.57	-62.70	0.49	79.20
9600	0.51	79.10	0.56	-61.90	0.56	-61.90	0.51	79.10
9650	0.53	79.10	0.55	-61.10	0.55	-61.10	0.53	79.10
9700	0.53	77.60	0.55	-59.50	0.55	-59.50	0.53	77.60
9750	0.54	76.20	0.56	-57.90	0.56	-57.90	0.54	76.20
9800	0.53	74.60	0.58	-57.70	0.58	-57.70	0.53	74.60
9850	0.52	73.10	0.60	-57.50	0.60	-57.50	0.52	73.10
9900	0.50	72.50	0.62	-59.00	0.62	-59.00	0.50	72.50
9950	0.49	71.90	0.64	-60.60	0.64	-60.60	0.49	71.90
10000	0.47	72.30	0.64	-62.20	0.64	-62.20	0.47	72.30
10050	0.45	72.80	0.65	-63.90	0.65	-63.90	0.45	72.80
10100	0.44	75.50	0.65	-66.00	0.65	-66.00	0.44	75.50
10150	0.43	78.20	0.64	-68.20	0.64	-68.20	0.43	78.20
10200	0.44	79.80	0.63	-68.70	0.63	-68.70	0.44	79.80
10250	0.45	81.50	0.61	-69.20	0.61	-69.20	0.45	81.50
10300	0.46	80.50	0.60	-69.10	0.60	-69.10	0.46	80.50
10350	0.46	79.40	0.60	-69.10	0.60	-69.10	0.46	79.40
10400	0.46	79.60	0.60	-68.90	0.60	-68.90	0.46	79.60
10450	0.46	79.90	0.60	-68.70	0.60	-68.70	0.46	79.90
10500	0.47	79.10	0.59	-68.60	0.59	-68.60	0.47	79.10
10550	0.48	78.40	0.58	-68.50	0.58	-68.50	0.48	78.40
10600	0.49	77.20	0.59	-67.00	0.59	-67.00	0.49	77.20
10650	0.49	76.00	0.59	-65.60	0.59	-65.60	0.49	76.00
10700	0.49	72.90	0.61	-65.20	0.61	-65.20	0.49	72.90
10750	0.49	69.80	0.62	-64.90	0.62	-64.90	0.49	69.80
10800	0.48	67.30	0.64	-65.00	0.64	-65.00	0.48	67.30
10850	0.47	64.80	0.67	-65.20	0.67	-65.20	0.47	64.80
10900	0.45	62.40	0.69	-66.40	0.69	-66.40	0.45	62.40
10950	0.43	60.00	0.72	-67.60	0.72	-67.60	0.43	60.00
11000	0.40	59.60	0.74	-70.20	0.74	-70.20	0.40	59.60
11050	0.37	59.30	0.76	-72.80	0.76	-72.80	0.37	59.30
11100	0.35	61.90	0.76	-75.20	0.76	-75.20	0.35	61.90
11150	0.33	64.40	0.76	-77.50	0.76	-77.50	0.33	64.40
11200	0.32	68.60	0.75	-79.90	0.75	-79.90	0.32	68.60
11250	0.32	72.80	0.74	-82.30	0.74	-82.30	0.32	72.80
11300	0.33	75.90	0.71	-83.40	0.71	-83.40	0.33	75.90
11350	0.35	79.10	0.69	-84.60	0.69	-84.60	0.35	79.10
11400	0.38	78.10	0.66	-84.10	0.66	-84.10	0.38	78.10
11450	0.40	77.20	0.64	-83.60	0.64	-83.60	0.40	77.20
11500	0.41	73.10	0.65	-81.50	0.65	-81.50	0.41	73.10
11550	0.43	69.00	0.65	-79.50	0.65	-79.50	0.43	69.00
11600	0.42	66.00	0.67	-79.10	0.67	-79.10	0.42	66.00
11650	0.41	63.00	0.69	-78.60	0.69	-78.60	0.41	63.00
11700	0.39	61.10	0.72	-79.80	0.72	-79.80	0.39	61.10
11750	0.37	59.20	0.74	-80.90	0.74	-80.90	0.37	59.20
11800	0.35	59.60	0.76	-82.60	0.76	-82.60	0.35	59.60
11850	0.33	60.00	0.78	-84.30	0.78	-84.30	0.33	60.00
11900	0.31	62.40	0.79	-86.70	0.79	-86.70	0.31	62.40
11950	0.28	64.70	0.79	-89.00	0.79	-89.00	0.28	64.70
12000	0.28	70.00	0.79	-91.00	0.79	-91.00	0.28	70.00
12050	0.28	75.20	0.79	-92.90	0.79	-92.90	0.28	75.20
12100	0.29	78.80	0.78	-94.90	0.78	-94.90	0.29	78.80
12150	0.29	82.40	0.77	-97.00	0.77	-97.00	0.29	82.40
12200	0.31	84.90	0.75	-98.60	0.75	-98.60	0.31	84.90
12250	0.33	87.40	0.74	-100.10	0.74	-100.10	0.33	87.40
12300	0.34	88.30	0.72	-101.10	0.72	-101.10	0.34	88.30
12350	0.36	89.20	0.70	-102.10	0.70	-102.10	0.36	89.20
12400	0.38	87.20	0.68	-101.70	0.68	-101.70	0.38	87.20
12450	0.40	85.30	0.66	-101.30	0.66	-101.30	0.40	85.30
12500	0.40	82.10	0.65	-100.30	0.65	-100.30	0.40	82.10
12550	0.41	78.80	0.64	-99.20	0.64	-99.20	0.41	78.80
12600	0.39	76.70	0.66	-98.90	0.66	-98.90	0.39	76.70
12650	0.38	74.50	0.67	-98.50	0.67	-98.50	0.38	74.50
12700	0.36	74.70	0.69	-99.60	0.69	-99.60	0.36	74.70
12750	0.35	74.80	0.70	-100.70	0.70	-100.70	0.35	74.80
12800	0.35	76.70	0.70	-102.50	0.70	-102.50	0.35	76.70
12850	0.35	78.60	0.69	-104.40	0.69	-104.40	0.35	78.60
12900	0.36	80.30	0.68	-105.70	0.68	-105.70	0.36	80.30
12950	0.37	82.10	0.67	-106.90	0.67	-106.90	0.37	82.10
13000	0.38	80.00	0.65	-106.80	0.65	-106.80	0.38	80.00
13050	0.39	77.90	0.63	-106.60	0.63	-106.60	0.39	77.90
13100	0.40	75.50	0.63	-106.00	0.63	-106.00	0.40	75.50
13150	0.41	73.10	0.63	-105.30	0.63	-105.30	0.41	73.10
13200	0.40	71.20	0.64	-105.40	0.64	-105.40	0.40	71.20
13250	0.39	69.20	0.65	-105.40	0.65	-105.40	0.39	69.20
13300	0.38	69.60	0.66	-107.10	0.66	-107.10	0.38	69.60
13350	0.37	70.00	0.67	-108.80	0.67	-108.80	0.37	70.00
13400	0.38	70.80	0.66	-111.00	0.66	-111.00	0.38	70.80
13450	0.39	71.50	0.65	-113.10	0.65	-113.10	0.39	71.50
13500	0.41	73.10	0.63	-115.10	0.63	-115.10	0.41	73.10
13550	0.43	74.60	0.61	-117.20	0.61	-117.20	0.43	74.60
13600	0.47	72.40	0.57	-118.00	0.57	-118.00	0.47	72.40
13650	0.51	70.30	0.54	-118.80	0.54	-118.80	0.51	70.30
13700	0.54	67.20	0.50	-116.40	0.50	-116.40	0.54	67.20
13750	0.58	64.10	0.45	-113.90	0.45	-113.90	0.58	64.10
13800	0.60	58.30	0.44	-108.70	0.44	-108.70	0.60	58.30
13850	0.63	52.50	0.43	-103.40	0.43	-103.40	0.63	52.50
13900	0.64	47.30	0.45	-98.60	0.45	-98.60	0.64	47.30
13950	0.64	42.00	0.47	-93.80	0.47	-93.80	0.64	42.00
14000	0.64	37.70	0.50	-91.80	0.50	-91.80	0.64	37.70
14050	0.63	33.30	0.53	-89.80	0.53	-89.80	0.63	33.30
14100	0.63	28.20	0.56	-89.70	0.56	-89.70	0.63	28.20
14150	0.62	23.10	0.60	-89.60	0.60	-89.60	0.62	23.10
14200	0.61	19.60	0.63	-90.40	0.63	-90.40	0.61	19.60
14250	0.60	16.20	0.65	-91.20	0.65	-91.20	0.60	16.20
14300	0.59	12.50	0.67	-92.40	0.67	-92.40	0.59	12.50
14350	0.58	8.80	0.69	-93.70	0.69	-93.70	0.58	8.80
14400	0.57	6.30	0.71	-94.60	0.71	-94.60	0.57	6.30
14450	0.56	3.70	0.73	-95.50	0.73	-95.50	0.56	3.70
14500	0.55	1.30	0.74	-97.00	0.74	-97.00	0.55	1.30
14550	0.55	-1.00	0.75	-98.40	0.75	-98.40	0.55	-1.00
14600	0.54	-2.80	0.76	-99.40	0.76	-99.40	0.54	-2.80
14650	0.54	-4.70	0.78	-100.40	0.78	-100.40	0.54	-4.70
14700	0.52	-6.00	0.78	-101.40	0.78	-101.40	0.52	-6.00
14750	0.51	-7.40	0.79	-102.50	0.79	-102.50	0.51	-7.40
14800	0.50	-9.10	0.80	-103.50	0.80	-103.50	0.50	-9.10
14850	0.50	-10.80	0.80	-104.60	0.80	-104.60	0.50	-10.80
14900	0.49	-11.20	0.81	-105.50	0.81	-105.50	0.49	-11.20
14950	0.48	-11.60	0.82	-106.30	0.82	-106.30	0.48	-11.60
15000	0.47	-13.30	0.82	-107.30	0.82	-107.30	0.47	-13.30
15050	0.46	-14.90	0.83	-108.30	0.83	-108.30	0.46	-14.90
15100	0.45	-14.70	0.83	-109.10	0.83	-109.10	0.45	-14.70
15150	0.44	-14.50	0.84	-110.00	0.84	-110.00	0.44	-14.50
15200	0.43	-15.40	0.84	-111.00	0.84	-111.00	0.43	-15.40
15250	0.43	-16.20	0.85	-111.90	0.85	-111.90	0.43	-16.20
15300	0.42	-15.60	0.85	-113.10	0.85	-113.10	0.42	-15.60
15350	0.41	-15.00	0.85	-114.30	0.85	-114.30	0.41	-15.00
15400	0.40	-14.80	0.85	-114.80	0.85	-114.80	0.40	-14.80
15450	0.38	-14.50	0.85	-115.30	0.85	-115.30	0.38	-14.50
15500	0.38	-13.20	0.85	-116.20	0.85	-116.20	0.38	-13.20
15550	0.37	-11.80	0.86	-117.20	0.86	-117.20	0.37	-11.80
15600	0.37	-11.50	0.86	-117.50	0.86	-117.50	0.37	-11.50
15650	0.37	-11.30	0.86	-117.80	0.86	-117.80	0.37	-11.30
15700	0.36	-10.90	0.86	-118.20	0.86	-118.20	0.36	-10.90
15750	0.36	-10.60	0.86	-118.60	0.86	-118.60	0.36	-10.60
15800	0.35	-10.30	0.87	-119.30	0.87	-119.30	0.35	-10.30
15850	0.35	-10.10	0.88	-120.00	0.88	-120.00	0.35	-10.10
15900	0.33	-10.50	0.88	-120.50	0.88	-120.50	0.33	-10.50
15950	0.32	-10.90	0.89	-121.00	0.89	-121.00	0.32	-10.90
16000	0.31	-9.90	0.90	-121.70	0.90	-121.70	0.31	-9.90
16050	0.29	-9.00	0.90	-122.40	0.90	-122.40	0.29	-9.00
16100	0.28	-8.10	0.91	-123.30	0.91	-123.30	0.28	-8.10
16150	0.26	-7.20	0.91	-124.10	0.91	-124.10	0.26	-7.20
16200	0.24	-6.00	0.91	-125.10	0.91	-125.10	0.24	-6.00
16250	0.23	-4.80	0.92	-126.00	0.92	-126.00	0.23	-4.80
16300	0.22	-1.90	0.91	-126.90	0.91	-126.90	0.22	-1.90
16350	0.20	1.00	0.91	-127.70	0.91	-127.70	0.20	1.00
16400	0.20	4.80	0.91	-128.40	0.91	-128.40	0.20	4.80
16450	0.20	8.60	0.91	-129.00	0.91	-129.00	0.20	8.60
16500	0.20	8.80	0.91	-129.00	0.91	-129.00	0.20	8.80
16550	0.20	9.10	0.91	-129.00	0.91	-129.00	0.20	9.10
16600	0.18	9.50	0.92	-129.80	0.92	-129.80	0.18	9.50
16650	0.17	10.00	0.93	-130.60	0.93	-130.60	0.17	10.00
16700	0.16	9.80	0.93	-131.50	0.93	-131.50	0.16	9.80
16750	0.14	9.70	0.94	-132.40	0.94	-132.40	0.14	9.70
16800	0.13	11.60	0.94	-133.40	0.94	-133.40	0.13	11.60
16850	0.12	13.60	0.95	-134.40	0.95	-134.40	0.12	13.60
16900	0.12	19.20	0.94	-135.40	0.94	-135.40	0.12	19.20
16950	0.11	24.90	0.94	-136.30	0.94	-136.30	0.11	24.90
17000	0.11	29.60	0.94	-137.30	0.94	-137.30	0.11	29.60
17050	0.11	34.20	0.94	-138.20	0.94	-138.20	0.11	34.20
17100	0.11	37.50	0.93	-139.00	0.93	-139.00	0.11	37.50
17150	0.11	40.80	0.92	-139.80	0.92	-139.80	0.11	40.80
17200	0.12	41.10	0.92	-140.20	0.92	-140.20	0.12	41.10
17250	0.12	41.50	0.91	-140.50	0.91	-140.50	0.12	41.50
17300	0.12	37.60	0.91	-140.70	0.91	-140.70	0.12	37.60
17350	0.12	33.80	0.91	-140.90	0.91	-140.90	0.12	33.80
17400	0.11	32.40	0.92	-141.00	0.92	-141.00	0.11	32.40
17450	0.10	31.00	0.92	-141.10	0.92	-141.10	0.10	31.00
17500	0.09	30.60	0.93	-141.80	0.93	-141.80	0.09	30.60
17550	0.08	30.10	0.94	-142.40	0.94	-142.40	0.08	30.10
17600	0.07	31.70	0.94	-143.30	0.94	-143.30	0.07	31.70
17650	0.06	33.30	0.95	-144.20	0.95	-144.20	0.06	33.30
17700	0.06	41.30	0.95	-145.00	0.95	-145.00	0.06	41.30
17750	0.06	49.40	0.96	-145.80	0.96	-145.80	0.06	49.40
17800	0.05	54.30	0.96	-146.80	0.96	-146.80	0.05	54.30
17850	0.04	59.10	0.96	-147.80	0.96	-147.80	0.04	59.10
17900	0.04	71.90	0.96	-148.60	0.96	-148.60	0.04	71.90
17950	0.04	84.60	0.96	-149.50	0.96	-149.50	0.04	84.60
18000	0.04	76.50	0.96	-150.20	0.96	-150.20	0.04	76.50
18050	0.03	68.40	0.96	-150.90	0.96	-150.90	0.03	68.40
18100	0.04	79.30	0.96	-151.60	0.96	-151.60	0.04	79.30
18150	0.04	90.10	0.96	-152.30	0.96	-152.30	0.04	90.10
18200	0.04	86.00	0.96	-153.00	0.96	-153.00	0.04	86.00
18250	0.03	81.90	0.96	-153.70	0.96	-153.70	0.03	81.90
18300	0.03	84.60	0.96	-154.60	0.96	-154.60	0.03	84.60
18350	0.02	87.30	0.96	-155.50	0.96	-155.50	0.02	87.30
18400	0.03	55.60	0.96	-156.10	0.96	-156.10	0.03	55.60
18450	0.03	24.00	0.96	-156.70	0.96	-156.70	0.03	24.00
18500	0.03	16.30	0.96	-157.30	0.96	-157.30	0.03	16.30
18550	0.03	8.50	0.95	-157.90	0.95	-157.90	0.03	8.50
18600	0.04	-1.80	0.95	-158.60	0.95	-158.60	0.04	-1.80
18650	0.05	-12.20	0.95	-159.20	0.95	-159.20	0.05	-12.20
18700	0.06	-22.10	0.95	-159.60	0.95	-159.60	0.06	-22.10
