# MHZ S MA R 50

50	0.96	174.90	0.08	81.20	0.08	81.20	0.96	174.90
100	0.96	169.70	0.16	77.20	0.16	77.20	0.96	169.70
150	0.97	164.60	0.24	73.20	0.24	73.20	0.97	164.60
200	0.94	160.10	0.31	69.40	0.31	69.40	0.94	160.10
250	0.91	155.70	0.38	65.50	0.38	65.50	0.91	155.70
300	0.88	151.10	0.44	61.20	0.44	61.20	0.88	151.10
350	0.86	146.40	0.50	56.80	0.50	56.80	0.86	146.40
400	0.82	142.70	0.54	53.40	0.54	53.40	0.82	142.70
450	0.79	139.00	0.59	50.00	0.59	50.00	0.79	139.00
500	0.74	133.70	0.65	45.40	0.65	45.40	0.74	133.70
550	0.70	128.30	0.71	40.70	0.71	40.70	0.70	128.30
600	0.67	125.20	0.74	38.10	0.74	38.10	0.67	125.20
650	0.64	122.10	0.77	35.60	0.77	35.60	0.64	122.10
700	0.61	119.60	0.79	33.10	0.79	33.10	0.61	119.60
750	0.58	117.10	0.81	30.70	0.81	30.70	0.58	117.10
800	0.56	114.40	0.82	28.40	0.82	28.40	0.56	114.40
850	0.53	111.80	0.84	26.10	0.84	26.10	0.53	111.80
900	0.51	110.00	0.85	24.20	0.85	24.20	0.51	110.00
950	0.48	108.20	0.87	22.40	0.87	22.40	0.48	108.20
1000	0.46	105.70	0.88	20.60	0.88	20.60	0.46	105.70
1050	0.44	103.20	0.89	18.80	0.89	18.80	0.44	103.20
1100	0.42	101.40	0.90	17.20	0.90	17.20	0.42	101.40
1150	0.41	99.60	0.91	15.60	0.91	15.60	0.41	99.60
1200	0.39	97.90	0.91	14.30	0.91	14.30	0.39	97.90
1250	0.37	96.10	0.92	12.90	0.92	12.90	0.37	96.10
1300	0.36	94.60	0.93	11.60	0.93	11.60	0.36	94.60
1350	0.34	93.00	0.93	10.30	0.93	10.30	0.34	93.00
1400	0.33	91.30	0.94	9.00	0.94	9.00	0.33	91.30
1450	0.31	89.50	0.94	7.70	0.94	7.70	0.31	89.50
1500	0.30	87.90	0.95	6.50	0.95	6.50	0.30	87.90
1550	0.29	86.40	0.95	5.30	0.95	5.30	0.29	86.40
1600	0.28	84.60	0.95	4.20	0.95	4.20	0.28	84.60
1650	0.26	82.80	0.96	3.00	0.96	3.00	0.26	82.80
1700	0.25	81.40	0.96	2.10	0.96	2.10	0.25	81.40
1750	0.24	80.00	0.96	1.10	0.96	1.10	0.24	80.00
1800	0.23	78.40	0.97	0.10	0.97	0.10	0.23	78.40
1850	0.22	76.80	0.97	-0.90	0.97	-0.90	0.22	76.80
1900	0.21	75.30	0.97	-2.00	0.97	-2.00	0.21	75.30
1950	0.20	73.80	0.97	-3.10	0.97	-3.10	0.20	73.80
2000	0.19	72.10	0.98	-4.00	0.98	-4.00	0.19	72.10
2050	0.18	70.40	0.98	-5.00	0.98	-5.00	0.18	70.40
2100	0.17	69.10	0.98	-5.90	0.98	-5.90	0.17	69.10
2150	0.17	67.90	0.98	-6.80	0.98	-6.80	0.17	67.90
2200	0.16	65.70	0.98	-7.70	0.98	-7.70	0.16	65.70
2250	0.15	63.50	0.98	-8.60	0.98	-8.60	0.15	63.50
2300	0.14	62.00	0.98	-9.50	0.98	-9.50	0.14	62.00
2350	0.13	60.50	0.98	-10.40	0.98	-10.40	0.13	60.50
2400	0.13	58.60	0.98	-11.20	0.98	-11.20	0.13	58.60
2450	0.12	56.80	0.98	-12.10	0.98	-12.10	0.12	56.80
2500	0.11	54.70	0.99	-13.00	0.99	-13.00	0.11	54.70
2550	0.10	52.60	0.99	-13.80	0.99	-13.80	0.10	52.60
2600	0.10	49.50	0.99	-14.60	0.99	-14.60	0.10	49.50
2650	0.09	46.40	0.99	-15.40	0.99	-15.40	0.09	46.40
2700	0.08	43.90	0.99	-16.30	0.99	-16.30	0.08	43.90
2750	0.07	41.40	0.99	-17.10	0.99	-17.10	0.07	41.40
2800	0.07	36.70	0.99	-17.90	0.99	-17.90	0.07	36.70
2850	0.06	31.90	0.99	-18.70	0.99	-18.70	0.06	31.90
2900	0.06	26.70	0.99	-19.60	0.99	-19.60	0.06	26.70
2950	0.05	21.40	0.99	-20.50	0.99	-20.50	0.05	21.40
3000	0.05	15.00	0.99	-21.20	0.99	-21.20	0.05	15.00
3050	0.05	8.70	0.99	-21.90	0.99	-21.90	0.05	8.70
3100	0.04	-0.10	0.99	-22.70	0.99	-22.70	0.04	-0.10
3150	0.04	-8.90	0.99	-23.40	0.99	-23.40	0.04	-8.90
3200	0.04	-20.40	0.99	-24.30	0.99	-24.30	0.04	-20.40
3250	0.04	-32.00	0.99	-25.10	0.99	-25.10	0.04	-32.00
3300	0.04	-40.10	0.99	-25.90	0.99	-25.90	0.04	-40.10
3350	0.04	-48.20	0.99	-26.70	0.99	-26.70	0.04	-48.20
3400	0.04	-58.20	0.99	-27.40	0.99	-27.40	0.04	-58.20
3450	0.05	-68.20	0.99	-28.20	0.99	-28.20	0.05	-68.20
3500	0.05	-74.20	0.99	-29.00	0.99	-29.00	0.05	-74.20
3550	0.05	-80.30	0.99	-29.70	0.99	-29.70	0.05	-80.30
3600	0.06	-84.20	0.99	-30.50	0.99	-30.50	0.06	-84.20
3650	0.06	-88.10	0.99	-31.30	0.99	-31.30	0.06	-88.10
3700	0.07	-92.10	0.99	-32.10	0.99	-32.10	0.07	-92.10
3750	0.07	-96.20	0.99	-32.80	0.99	-32.80	0.07	-96.20
3800	0.08	-98.60	0.99	-33.70	0.99	-33.70	0.08	-98.60
3850	0.08	-100.90	0.99	-34.60	0.99	-34.60	0.08	-100.90
3900	0.09	-104.30	0.99	-35.20	0.99	-35.20	0.09	-104.30
3950	0.09	-107.60	0.99	-35.80	0.99	-35.80	0.09	-107.60
4000	0.09	-109.20	0.99	-36.60	0.99	-36.60	0.09	-109.20
4050	0.10	-110.80	0.99	-37.30	0.99	-37.30	0.10	-110.80
4100	0.10	-113.20	0.99	-38.00	0.99	-38.00	0.10	-113.20
4150	0.11	-115.60	0.99	-38.80	0.99	-38.80	0.11	-115.60
4200	0.11	-116.90	0.99	-39.50	0.99	-39.50	0.11	-116.90
4250	0.12	-118.30	0.99	-40.20	0.99	-40.20	0.12	-118.30
4300	0.12	-120.50	0.98	-40.80	0.98	-40.80	0.12	-120.50
4350	0.13	-122.80	0.98	-41.40	0.98	-41.40	0.13	-122.80
4400	0.13	-123.50	0.99	-42.40	0.99	-42.40	0.13	-123.50
4450	0.14	-124.30	0.99	-43.40	0.99	-43.40	0.14	-124.30
4500	0.14	-126.40	0.98	-44.10	0.98	-44.10	0.14	-126.40
4550	0.15	-128.60	0.98	-44.80	0.98	-44.80	0.15	-128.60
4600	0.15	-129.50	0.98	-45.70	0.98	-45.70	0.15	-129.50
4650	0.16	-130.40	0.98	-46.50	0.98	-46.50	0.16	-130.40
4700	0.16	-131.90	0.98	-47.20	0.98	-47.20	0.16	-131.90
4750	0.17	-133.30	0.98	-47.90	0.98	-47.90	0.17	-133.30
4800	0.17	-134.40	0.98	-48.60	0.98	-48.60	0.17	-134.40
4850	0.18	-135.60	0.98	-49.30	0.98	-49.30	0.18	-135.60
4900	0.18	-136.80	0.97	-50.10	0.97	-50.10	0.18	-136.80
4950	0.19	-138.00	0.97	-50.90	0.97	-50.90	0.19	-138.00
5000	0.19	-139.20	0.97	-51.40	0.97	-51.40	0.19	-139.20
5050	0.20	-140.30	0.97	-52.00	0.97	-52.00	0.20	-140.30
5100	0.20	-141.50	0.97	-52.80	0.97	-52.80	0.20	-141.50
5150	0.21	-142.70	0.97	-53.70	0.97	-53.70	0.21	-142.70
5200	0.22	-143.30	0.97	-54.60	0.97	-54.60	0.22	-143.30
5250	0.22	-144.00	0.98	-55.50	0.98	-55.50	0.22	-144.00
5300	0.23	-145.30	0.97	-56.20	0.97	-56.20	0.23	-145.30
5350	0.24	-146.50	0.96	-56.90	0.96	-56.90	0.24	-146.50
5400	0.24	-147.10	0.96	-57.60	0.96	-57.60	0.24	-147.10
5450	0.25	-147.80	0.96	-58.30	0.96	-58.30	0.25	-147.80
5500	0.25	-148.60	0.96	-59.20	0.96	-59.20	0.25	-148.60
5550	0.26	-149.40	0.95	-60.00	0.95	-60.00	0.26	-149.40
5600	0.27	-150.30	0.95	-60.70	0.95	-60.70	0.27	-150.30
5650	0.28	-151.20	0.95	-61.40	0.95	-61.40	0.28	-151.20
5700	0.28	-152.00	0.95	-62.40	0.95	-62.40	0.28	-152.00
5750	0.29	-152.80	0.95	-63.30	0.95	-63.30	0.29	-152.80
5800	0.30	-153.50	0.95	-64.10	0.95	-64.10	0.30	-153.50
5850	0.31	-154.10	0.94	-64.90	0.94	-64.90	0.31	-154.10
5900	0.31	-154.90	0.94	-65.50	0.94	-65.50	0.31	-154.90
5950	0.31	-155.70	0.94	-66.10	0.94	-66.10	0.31	-155.70
6000	0.34	-157.60	0.93	-67.20	0.93	-67.20	0.34	-157.60
6050	0.36	-159.60	0.92	-68.20	0.92	-68.20	0.36	-159.60
6100	0.36	-160.40	0.92	-69.00	0.92	-69.00	0.36	-160.40
6150	0.37	-161.20	0.92	-69.80	0.92	-69.80	0.37	-161.20
6200	0.38	-162.40	0.92	-70.60	0.92	-70.60	0.38	-162.40
6250	0.38	-163.70	0.91	-71.40	0.91	-71.40	0.38	-163.70
6300	0.39	-164.80	0.91	-72.00	0.91	-72.00	0.39	-164.80
6350	0.40	-165.80	0.90	-72.70	0.90	-72.70	0.40	-165.80
6400	0.41	-166.60	0.90	-73.60	0.90	-73.60	0.41	-166.60
6450	0.41	-167.30	0.89	-74.40	0.89	-74.40	0.41	-167.30
6500	0.42	-168.70	0.89	-75.20	0.89	-75.20	0.42	-168.70
6550	0.42	-170.00	0.88	-76.10	0.88	-76.10	0.42	-170.00
6600	0.43	-170.50	0.88	-76.70	0.88	-76.70	0.43	-170.50
6650	0.44	-171.10	0.88	-77.30	0.88	-77.30	0.44	-171.10
6700	0.45	-172.00	0.88	-78.20	0.88	-78.20	0.45	-172.00
6750	0.45	-173.00	0.88	-79.00	0.88	-79.00	0.45	-173.00
6800	0.46	-174.10	0.88	-80.00	0.88	-80.00	0.46	-174.10
6850	0.46	-175.10	0.87	-80.90	0.87	-80.90	0.46	-175.10
6900	0.47	-176.10	0.87	-81.60	0.87	-81.60	0.47	-176.10
6950	0.47	-177.10	0.86	-82.40	0.86	-82.40	0.47	-177.10
7000	0.48	-178.30	0.86	-83.30	0.86	-83.30	0.48	-178.30
7050	0.49	-179.40	0.86	-84.30	0.86	-84.30	0.49	-179.40
7100	0.50	-0.60	0.85	-85.20	0.85	-85.20	0.50	-0.60
7150	0.50	178.20	0.85	-86.10	0.85	-86.10	0.50	178.20
7200	0.51	176.80	0.84	-87.40	0.84	-87.40	0.51	176.80
7250	0.52	175.30	0.84	-88.60	0.84	-88.60	0.52	175.30
7300	0.52	173.70	0.83	-89.70	0.83	-89.70	0.52	173.70
7350	0.53	172.00	0.82	-90.70	0.82	-90.70	0.53	172.00
7400	0.54	170.60	0.81	-91.90	0.81	-91.90	0.54	170.60
7450	0.55	169.10	0.81	-93.00	0.81	-93.00	0.55	169.10
7500	0.56	167.50	0.80	-94.30	0.80	-94.30	0.56	167.50
7550	0.57	165.80	0.79	-95.60	0.79	-95.60	0.57	165.80
7600	0.58	164.30	0.78	-96.70	0.78	-96.70	0.58	164.30
7650	0.59	162.70	0.77	-97.80	0.77	-97.80	0.59	162.70
7700	0.60	160.80	0.76	-99.10	0.76	-99.10	0.60	160.80
7750	0.61	158.80	0.76	-100.30	0.76	-100.30	0.61	158.80
7800	0.62	157.00	0.74	-101.90	0.74	-101.90	0.62	157.00
7850	0.63	155.20	0.73	-103.50	0.73	-103.50	0.63	155.20
7900	0.64	152.80	0.72	-105.00	0.72	-105.00	0.64	152.80
7950	0.66	150.40	0.70	-106.50	0.70	-106.50	0.66	150.40
8000	0.67	148.60	0.69	-108.10	0.69	-108.10	0.67	148.60
8050	0.69	146.70	0.67	-109.70	0.67	-109.70	0.69	146.70
8100	0.70	144.00	0.66	-111.50	0.66	-111.50	0.70	144.00
8150	0.72	141.20	0.64	-113.40	0.64	-113.40	0.72	141.20
8200	0.73	139.20	0.62	-115.10	0.62	-115.10	0.73	139.20
8250	0.74	137.20	0.59	-116.80	0.59	-116.80	0.74	137.20
8300	0.76	134.10	0.57	-118.90	0.57	-118.90	0.76	134.10
8350	0.77	131.00	0.55	-120.90	0.55	-120.90	0.77	131.00
8400	0.79	128.80	0.52	-122.60	0.52	-122.60	0.79	128.80
8450	0.80	126.70	0.49	-124.30	0.49	-124.30	0.80	126.70
8500	0.81	123.50	0.45	-126.20	0.45	-126.20	0.81	123.50
8550	0.82	120.30	0.42	-128.10	0.42	-128.10	0.82	120.30
8600	0.84	117.70	0.39	-129.00	0.39	-129.00	0.84	117.70
8650	0.85	115.10	0.35	-130.00	0.35	-130.00	0.85	115.10
8700	0.86	112.50	0.31	-130.30	0.31	-130.30	0.86	112.50
8750	0.87	109.80	0.28	-130.60	0.28	-130.60	0.87	109.80
8800	0.88	106.50	0.24	-128.70	0.24	-128.70	0.88	106.50
8850	0.90	103.20	0.20	-126.90	0.20	-126.90	0.90	103.20
8900	0.89	100.60	0.17	-120.00	0.17	-120.00	0.89	100.60
8950	0.89	97.90	0.14	-113.20	0.14	-113.20	0.89	97.90
9000	0.89	95.40	0.13	-97.80	0.13	-97.80	0.89	95.40
9050	0.89	92.90	0.12	-82.40	0.12	-82.40	0.89	92.90
9100	0.90	90.00	0.13	-67.30	0.13	-67.30	0.90	90.00
9150	0.91	87.10	0.14	-52.20	0.14	-52.20	0.91	87.10
9200	0.89	84.10	0.17	-45.80	0.17	-45.80	0.89	84.10
9250	0.88	81.10	0.20	-39.30	0.20	-39.30	0.88	81.10
9300	0.87	80.00	0.23	-36.80	0.23	-36.80	0.87	80.00
9350	0.86	78.90	0.26	-34.30	0.26	-34.30	0.86	78.90
9400	0.84	76.40	0.29	-34.40	0.29	-34.40	0.84	76.40
9450	0.83	73.90	0.32	-34.50	0.32	-34.50	0.83	73.90
9500	0.81	72.50	0.34	-34.90	0.34	-34.90	0.81	72.50
9550	0.79	71.10	0.37	-35.20	0.37	-35.20	0.79	71.10
9600	0.78	69.30	0.40	-36.50	0.40	-36.50	0.78	69.30
9650	0.77	67.50	0.42	-37.70	0.42	-37.70	0.77	67.50
9700	0.76	66.30	0.44	-38.60	0.44	-38.60	0.76	66.30
9750	0.74	65.10	0.47	-39.50	0.47	-39.50	0.74	65.10
9800	0.73	63.90	0.49	-40.40	0.49	-40.40	0.73	63.90
9850	0.72	62.80	0.51	-41.30	0.51	-41.30	0.72	62.80
9900	0.71	61.30	0.53	-42.70	0.53	-42.70	0.71	61.30
9950	0.70	59.80	0.55	-44.00	0.55	-44.00	0.70	59.80
10000	0.69	58.20	0.57	-44.50	0.57	-44.50	0.69	58.20
10050	0.68	56.60	0.58	-45.00	0.58	-45.00	0.68	56.60
10100	0.67	55.00	0.60	-46.30	0.60	-46.30	0.67	55.00
10150	0.65	53.30	0.63	-47.50	0.63	-47.50	0.65	53.30
10200	0.64	51.80	0.64	-48.50	0.64	-48.50	0.64	51.80
10250	0.63	50.30	0.66	-49.40	0.66	-49.40	0.63	50.30
10300	0.61	48.00	0.67	-50.90	0.67	-50.90	0.61	48.00
10350	0.60	45.70	0.69	-52.40	0.69	-52.40	0.60	45.70
10400	0.58	44.50	0.70	-53.50	0.70	-53.50	0.58	44.50
10450	0.56	43.30	0.72	-54.60	0.72	-54.60	0.56	43.30
10500	0.55	41.80	0.73	-56.00	0.73	-56.00	0.55	41.80
10550	0.54	40.30	0.74	-57.40	0.74	-57.40	0.54	40.30
10600	0.52	39.20	0.75	-58.20	0.75	-58.20	0.52	39.20
10650	0.50	38.10	0.76	-59.10	0.76	-59.10	0.50	38.10
10700	0.50	36.50	0.77	-60.10	0.77	-60.10	0.50	36.50
10750	0.49	35.00	0.77	-61.10	0.77	-61.10	0.49	35.00
10800	0.49	33.00	0.79	-61.80	0.79	-61.80	0.49	33.00
10850	0.47	31.10	0.80	-62.50	0.80	-62.50	0.47	31.10
10900	0.47	28.70	0.82	-63.50	0.82	-63.50	0.47	28.70
10950	0.46	26.30	0.84	-64.50	0.84	-64.50	0.46	26.30
11000	0.44	24.20	0.85	-66.20	0.85	-66.20	0.44	24.20
11050	0.42	22.10	0.87	-67.80	0.87	-67.80	0.42	22.10
11100	0.41	20.80	0.87	-68.90	0.87	-68.90	0.41	20.80
11150	0.39	19.60	0.88	-70.00	0.88	-70.00	0.39	19.60
11200	0.38	17.80	0.89	-71.30	0.89	-71.30	0.38	17.80
11250	0.36	16.00	0.90	-72.70	0.90	-72.70	0.36	16.00
11300	0.34	14.70	0.90	-73.90	0.90	-73.90	0.34	14.70
11350	0.33	13.40	0.91	-75.20	0.91	-75.20	0.33	13.40
11400	0.32	12.70	0.91	-76.50	0.91	-76.50	0.32	12.70
11450	0.30	12.00	0.91	-77.70	0.91	-77.70	0.30	12.00
11500	0.29	10.60	0.92	-79.00	0.92	-79.00	0.29	10.60
11550	0.28	9.10	0.93	-80.40	0.93	-80.40	0.28	9.10
11600	0.27	11.10	0.92	-81.50	0.92	-81.50	0.27	11.10
11650	0.26	13.00	0.92	-82.60	0.92	-82.60	0.26	13.00
11700	0.25	13.90	0.91	-83.30	0.91	-83.30	0.25	13.90
11750	0.25	14.80	0.90	-84.00	0.90	-84.00	0.25	14.80
11800	0.25	13.80	0.91	-84.20	0.91	-84.20	0.25	13.80
11850	0.25	12.70	0.92	-84.40	0.92	-84.40	0.25	12.70
11900	0.24	10.70	0.93	-85.40	0.93	-85.40	0.24	10.70
11950	0.23	8.80	0.93	-86.40	0.93	-86.40	0.23	8.80
12000	0.22	9.80	0.94	-87.30	0.94	-87.30	0.22	9.80
12050	0.21	10.90	0.95	-88.20	0.95	-88.20	0.21	10.90
12100	0.20	8.70	0.95	-89.20	0.95	-89.20	0.20	8.70
12150	0.19	6.50	0.95	-90.30	0.95	-90.30	0.19	6.50
12200	0.18	7.50	0.95	-91.30	0.95	-91.30	0.18	7.50
12250	0.18	8.50	0.95	-92.20	0.95	-92.20	0.18	8.50
12300	0.17	7.40	0.96	-93.00	0.96	-93.00	0.17	7.40
12350	0.16	6.40	0.96	-93.70	0.96	-93.70	0.16	6.40
12400	0.16	5.20	0.96	-94.30	0.96	-94.30	0.16	5.20
12450	0.15	4.10	0.95	-95.00	0.95	-95.00	0.15	4.10
12500	0.15	3.80	0.96	-96.10	0.96	-96.10	0.15	3.80
12550	0.14	3.50	0.96	-97.20	0.96	-97.20	0.14	3.50
12600	0.14	0.80	0.96	-97.90	0.96	-97.90	0.14	0.80
12650	0.13	-1.80	0.96	-98.60	0.96	-98.60	0.13	-1.80
12700	0.13	-4.10	0.96	-99.30	0.96	-99.30	0.13	-4.10
12750	0.13	-6.40	0.96	-100.00	0.96	-100.00	0.13	-6.40
12800	0.13	-6.30	0.96	-100.60	0.96	-100.60	0.13	-6.30
12850	0.12	-6.20	0.96	-101.20	0.96	-101.20	0.12	-6.20
12900	0.12	-8.40	0.96	-102.10	0.96	-102.10	0.12	-8.40
12950	0.11	-10.60	0.96	-102.90	0.96	-102.90	0.11	-10.60
13000	0.11	-13.20	0.96	-103.40	0.96	-103.40	0.11	-13.20
13050	0.11	-15.80	0.97	-103.90	0.97	-103.90	0.11	-15.80
13100	0.11	-15.20	0.97	-104.70	0.97	-104.70	0.11	-15.20
13150	0.10	-14.60	0.97	-105.50	0.97	-105.50	0.10	-14.60
13200	0.10	-15.20	0.97	-106.20	0.97	-106.20	0.10	-15.20
13250	0.11	-15.80	0.96	-106.90	0.96	-106.90	0.11	-15.80
13300	0.10	-16.80	0.97	-107.60	0.97	-107.60	0.10	-16.80
13350	0.10	-17.80	0.97	-108.30	0.97	-108.30	0.10	-17.80
13400	0.11	-17.50	0.97	-109.10	0.97	-109.10	0.11	-17.50
13450	0.11	-17.20	0.98	-109.90	0.98	-109.90	0.11	-17.20
13500	0.11	-19.90	0.97	-110.50	0.97	-110.50	0.11	-19.90
13550	0.11	-22.60	0.97	-111.10	0.97	-111.10	0.11	-22.60
13600	0.12	-21.70	0.98	-111.90	0.98	-111.90	0.12	-21.70
13650	0.12	-20.70	0.98	-112.70	0.98	-112.70	0.12	-20.70
13700	0.12	-24.10	0.98	-113.20	0.98	-113.20	0.12	-24.10
13750	0.12	-27.40	0.98	-113.70	0.98	-113.70	0.12	-27.40
13800	0.13	-28.50	0.98	-114.50	0.98	-114.50	0.13	-28.50
13850	0.13	-29.70	0.98	-115.30	0.98	-115.30	0.13	-29.70
13900	0.14	-32.60	0.98	-115.90	0.98	-115.90	0.14	-32.60
13950	0.14	-35.60	0.98	-116.50	0.98	-116.50	0.14	-35.60
14000	0.14	-35.50	0.97	-117.10	0.97	-117.10	0.14	-35.50
14050	0.14	-35.40	0.97	-117.60	0.97	-117.60	0.14	-35.40
14100	0.14	-39.60	0.97	-118.30	0.97	-118.30	0.14	-39.60
14150	0.15	-43.80	0.98	-119.00	0.98	-119.00	0.15	-43.80
14200	0.15	-43.80	0.98	-119.60	0.98	-119.60	0.15	-43.80
14250	0.15	-43.70	0.98	-120.20	0.98	-120.20	0.15	-43.70
14300	0.15	-45.40	0.97	-120.90	0.97	-120.90	0.15	-45.40
14350	0.16	-47.10	0.97	-121.60	0.97	-121.60	0.16	-47.10
14400	0.16	-48.60	0.97	-122.10	0.97	-122.10	0.16	-48.60
14450	0.16	-50.10	0.97	-122.60	0.97	-122.60	0.16	-50.10
14500	0.16	-49.70	0.97	-123.40	0.97	-123.40	0.16	-49.70
14550	0.17	-49.40	0.97	-124.20	0.97	-124.20	0.17	-49.40
14600	0.16	-50.00	0.97	-124.70	0.97	-124.70	0.16	-50.00
14650	0.16	-50.50	0.97	-125.20	0.97	-125.20	0.16	-50.50
14700	0.16	-50.00	0.97	-125.70	0.97	-125.70	0.16	-50.00
14750	0.16	-49.50	0.97	-126.30	0.97	-126.30	0.16	-49.50
14800	0.16	-50.50	0.97	-126.90	0.97	-126.90	0.16	-50.50
14850	0.15	-51.60	0.97	-127.40	0.97	-127.40	0.15	-51.60
14900	0.15	-51.00	0.97	-128.00	0.97	-128.00	0.15	-51.00
14950	0.15	-50.40	0.97	-128.50	0.97	-128.50	0.15	-50.40
15000	0.15	-51.70	0.97	-129.00	0.97	-129.00	0.15	-51.70
15050	0.14	-53.00	0.97	-129.50	0.97	-129.50	0.14	-53.00
15100	0.14	-52.20	0.97	-130.20	0.97	-130.20	0.14	-52.20
15150	0.13	-51.40	0.97	-130.80	0.97	-130.80	0.13	-51.40
15200	0.13	-52.10	0.97	-131.40	0.97	-131.40	0.13	-52.10
15250	0.13	-52.70	0.97	-132.00	0.97	-132.00	0.13	-52.70
15300	0.12	-50.20	0.97	-132.70	0.97	-132.70	0.12	-50.20
15350	0.11	-47.70	0.97	-133.40	0.97	-133.40	0.11	-47.70
15400	0.11	-48.30	0.97	-133.80	0.97	-133.80	0.11	-48.30
15450	0.10	-48.90	0.97	-134.20	0.97	-134.20	0.10	-48.90
15500	0.09	-48.00	0.98	-134.90	0.98	-134.90	0.09	-48.00
15550	0.08	-47.10	0.98	-135.70	0.98	-135.70	0.08	-47.10
15600	0.08	-46.40	0.98	-136.10	0.98	-136.10	0.08	-46.40
15650	0.08	-45.70	0.98	-136.60	0.98	-136.60	0.08	-45.70
15700	0.07	-46.10	0.98	-137.00	0.98	-137.00	0.07	-46.10
15750	0.06	-46.50	0.98	-137.50	0.98	-137.50	0.06	-46.50
15800	0.05	-39.50	0.98	-138.30	0.98	-138.30	0.05	-39.50
15850	0.04	-32.50	0.98	-139.00	0.98	-139.00	0.04	-32.50
15900	0.03	-22.70	0.98	-139.50	0.98	-139.50	0.03	-22.70
15950	0.01	-12.90	0.99	-140.00	0.99	-140.00	0.01	-12.90
16000	0.01	33.10	0.98	-140.60	0.98	-140.60	0.01	33.10
16050	0.01	79.10	0.98	-141.20	0.98	-141.20	0.01	79.10
16100	0.03	98.50	0.98	-141.80	0.98	-141.80	0.03	98.50
16150	0.04	117.90	0.98	-142.40	0.98	-142.40	0.04	117.90
16200	0.05	119.70	0.98	-143.10	0.98	-143.10	0.05	119.70
16250	0.06	121.40	0.98	-143.80	0.98	-143.80	0.06	121.40
16300	0.07	121.60	0.98	-144.30	0.98	-144.30	0.07	121.60
16350	0.08	121.80	0.98	-144.90	0.98	-144.90	0.08	121.80
16400	0.09	123.50	0.98	-145.40	0.98	-145.40	0.09	123.50
16450	0.10	125.20	0.98	-146.00	0.98	-146.00	0.10	125.20
16500	0.11	125.00	0.98	-146.40	0.98	-146.40	0.11	125.00
16550	0.12	124.80	0.98	-146.80	0.98	-146.80	0.12	124.80
16600	0.13	125.70	0.98	-147.60	0.98	-147.60	0.13	125.70
16650	0.15	126.60	0.98	-148.50	0.98	-148.50	0.15	126.60
16700	0.15	128.50	0.98	-149.10	0.98	-149.10	0.15	128.50
16750	0.16	130.40	0.97	-149.60	0.97	-149.60	0.16	130.40
16800	0.16	130.00	0.98	-150.20	0.98	-150.20	0.16	130.00
16850	0.17	129.50	0.98	-150.90	0.98	-150.90	0.17	129.50
16900	0.18	127.70	0.97	-151.50	0.97	-151.50	0.18	127.70
16950	0.19	125.90	0.97	-152.20	0.97	-152.20	0.19	125.90
17000	0.19	126.20	0.97	-152.80	0.97	-152.80	0.19	126.20
17050	0.20	126.50	0.97	-153.50	0.97	-153.50	0.20	126.50
17100	0.20	126.30	0.97	-154.10	0.97	-154.10	0.20	126.30
17150	0.21	126.20	0.96	-154.80	0.96	-154.80	0.21	126.20
17200	0.21	125.60	0.96	-155.20	0.96	-155.20	0.21	125.60
17250	0.22	125.00	0.96	-155.70	0.96	-155.70	0.22	125.00
17300	0.22	124.30	0.96	-156.50	0.96	-156.50	0.22	124.30
17350	0.22	123.60	0.96	-157.30	0.96	-157.30	0.22	123.60
17400	0.23	123.00	0.96	-157.70	0.96	-157.70	0.23	123.00
17450	0.23	122.50	0.96	-158.10	0.96	-158.10	0.23	122.50
17500	0.23	121.80	0.96	-158.50	0.96	-158.50	0.23	121.80
17550	0.23	121.20	0.96	-159.00	0.96	-159.00	0.23	121.20
17600	0.23	122.20	0.96	-159.60	0.96	-159.60	0.23	122.20
17650	0.23	123.10	0.96	-160.20	0.96	-160.20	0.23	123.10
17700	0.23	121.40	0.96	-160.60	0.96	-160.60	0.23	121.40
17750	0.23	119.70	0.96	-160.90	0.96	-160.90	0.23	119.70
17800	0.23	120.90	0.96	-161.50	0.96	-161.50	0.23	120.90
17850	0.22	122.10	0.96	-162.10	0.96	-162.10	0.22	122.10
17900	0.22	123.30	0.96	-162.70	0.96	-162.70	0.22	123.30
17950	0.22	124.40	0.95	-163.40	0.95	-163.40	0.22	124.40
18000	0.21	123.90	0.96	-163.80	0.96	-163.80	0.21	123.90
18050	0.20	123.30	0.96	-164.10	0.96	-164.10	0.20	123.30
18100	0.20	123.50	0.96	-164.50	0.96	-164.50	0.20	123.50
18150	0.21	123.70	0.97	-165.00	0.97	-165.00	0.21	123.70
18200	0.20	124.00	0.97	-165.50	0.97	-165.50	0.20	124.00
18250	0.19	124.30	0.97	-166.00	0.97	-166.00	0.19	124.30
18300	0.18	125.50	0.97	-166.60	0.97	-166.60	0.18	125.50
18350	0.18	126.60	0.97	-167.20	0.97	-167.20	0.18	126.60
18400	0.17	125.60	0.97	-167.70	0.97	-167.70	0.17	125.60
18450	0.15	124.60	0.98	-168.20	0.98	-168.20	0.15	124.60
18500	0.14	124.90	0.97	-168.70	0.97	-168.70	0.14	124.90
18550	0.14	125.20	0.97	-169.30	0.97	-169.30	0.14	125.20
18600	0.13	123.10	0.98	-169.90	0.98	-169.90	0.13	123.10
18650	0.12	121.10	0.98	-170.50	0.98	-170.50	0.12	121.10
