# MHZ S MA R 50

      50  0.00   44.10    0.99    1.40    0.99    1.40    0.00   44.10
     100  0.01   60.70    1.00    0.90    1.00    0.90    0.01   60.70
     150  0.01   77.40    1.00    0.40    1.00    0.40    0.01   77.40
     200  0.01   72.80    1.00    0.10    1.00    0.10    0.01   72.80
     250  0.01   68.30    1.00   -0.20    1.00   -0.20    0.01   68.30
     300  0.02   73.30    1.00   -0.60    1.00   -0.60    0.02   73.30
     350  0.02   78.20    1.00   -1.00    1.00   -1.00    0.02   78.20
     400  0.02   72.70    1.00   -1.40    1.00   -1.40    0.02   72.70
     450  0.03   67.20    0.99   -1.70    0.99   -1.70    0.03   67.20
     500  0.03   73.90    1.00   -2.10    1.00   -2.10    0.03   73.90
     550  0.04   80.60    1.00   -2.60    1.00   -2.60    0.04   80.60
     600  0.04   79.20    1.00   -2.90    1.00   -2.90    0.04   79.20
     650  0.04   77.80    1.00   -3.20    1.00   -3.20    0.04   77.80
     700  0.05   79.80    0.99   -3.60    0.99   -3.60    0.05   79.80
     750  0.05   81.80    0.99   -4.00    0.99   -4.00    0.05   81.80
     800  0.05   77.30    0.99   -4.40    0.99   -4.40    0.05   77.30
     850  0.05   72.80    0.99   -4.80    0.99   -4.80    0.05   72.80
     900  0.06   75.20    0.99   -5.10    0.99   -5.10    0.06   75.20
     950  0.06   77.70    0.99   -5.50    0.99   -5.50    0.06   77.70
    1000  0.07   75.20    0.99   -5.80    0.99   -5.80    0.07   75.20
    1050  0.07   72.70    0.99   -6.20    0.99   -6.20    0.07   72.70
    1100  0.07   74.40    0.99   -6.60    0.99   -6.60    0.07   74.40
    1150  0.08   76.20    0.99   -6.90    0.99   -6.90    0.08   76.20
    1200  0.08   75.70    0.99   -7.20    0.99   -7.20    0.08   75.70
    1250  0.08   75.20    0.99   -7.50    0.99   -7.50    0.08   75.20
    1300  0.09   75.50    0.99   -7.90    0.99   -7.90    0.09   75.50
    1350  0.09   75.70    0.99   -8.20    0.99   -8.20    0.09   75.70
    1400  0.09   74.60    0.99   -8.60    0.99   -8.60    0.09   74.60
    1450  0.09   73.40    0.99   -8.90    0.99   -8.90    0.09   73.40
    1500  0.10   73.40    0.99   -9.30    0.99   -9.30    0.10   73.40
    1550  0.10   73.40    0.99   -9.60    0.99   -9.60    0.10   73.40
    1600  0.11   72.80    0.99   -10.00   0.99   -10.00   0.11   72.80
    1650  0.11   72.20    0.99   -10.40   0.99   -10.40   0.11   72.20
    1700  0.12   72.40    0.99   -10.60   0.99   -10.60   0.12   72.40
    1750  0.12   72.70    0.99   -10.90   0.99   -10.90   0.12   72.70
    1800  0.12   72.20    0.99   -11.30   0.99   -11.30   0.12   72.20
    1850  0.13   71.80    0.99   -11.60   0.99   -11.60   0.13   71.80
    1900  0.13   71.90    0.99   -12.00   0.99   -12.00   0.13   71.90
    1950  0.13   72.00    0.98   -12.40   0.98   -12.40   0.13   72.00
    2000  0.14   71.10    0.98   -12.70   0.98   -12.70   0.14   71.10
    2050  0.14   70.20    0.98   -13.00   0.98   -13.00   0.14   70.20
    2100  0.14   70.60    0.98   -13.40   0.98   -13.40   0.14   70.60
    2150  0.15   71.00    0.98   -13.70   0.98   -13.70   0.15   71.00
    2200  0.15   70.10    0.98   -14.00   0.98   -14.00   0.15   70.10
    2250  0.16   69.30    0.98   -14.30   0.98   -14.30   0.16   69.30
    2300  0.16   69.70    0.98   -14.70   0.98   -14.70   0.16   69.70
    2350  0.17   70.20    0.98   -15.00   0.98   -15.00   0.17   70.20
    2400  0.17   70.20    0.98   -15.30   0.98   -15.30   0.17   70.20
    2450  0.17   70.20    0.97   -15.70   0.97   -15.70   0.17   70.20
    2500  0.18   70.20    0.97   -16.00   0.97   -16.00   0.18   70.20
    2550  0.18   70.10    0.97   -16.40   0.97   -16.40   0.18   70.10
    2600  0.18   69.70    0.97   -16.60   0.97   -16.60   0.18   69.70
    2650  0.19   69.30    0.97   -16.90   0.97   -16.90   0.19   69.30
    2700  0.19   69.50    0.97   -17.30   0.97   -17.30   0.19   69.50
    2750  0.19   69.70    0.97   -17.60   0.97   -17.60   0.19   69.70
    2800  0.20   69.40    0.97   -17.90   0.97   -17.90   0.20   69.40
    2850  0.20   69.20    0.97   -18.20   0.97   -18.20   0.20   69.20
    2900  0.21   68.90    0.97   -18.60   0.97   -18.60   0.21   68.90
    2950  0.21   68.70    0.97   -19.10   0.97   -19.10   0.21   68.70
    3000  0.22   68.80    0.97   -19.30   0.97   -19.30   0.22   68.80
    3050  0.22   69.00    0.97   -19.60   0.97   -19.60   0.22   69.00
    3100  0.22   68.70    0.97   -19.90   0.97   -19.90   0.22   68.70
    3150  0.23   68.40    0.96   -20.20   0.96   -20.20   0.23   68.40
    3200  0.23   68.70    0.96   -20.50   0.96   -20.50   0.23   68.70
    3250  0.23   69.00    0.96   -20.80   0.96   -20.80   0.23   69.00
    3300  0.24   68.90    0.96   -21.20   0.96   -21.20   0.24   68.90
    3350  0.25   68.70    0.96   -21.60   0.96   -21.60   0.25   68.70
    3400  0.25   68.60    0.96   -21.90   0.96   -21.90   0.25   68.60
    3450  0.25   68.50    0.96   -22.20   0.96   -22.20   0.25   68.50
    3500  0.25   68.60    0.96   -22.40   0.96   -22.40   0.25   68.60
    3550  0.26   68.70    0.96   -22.70   0.96   -22.70   0.26   68.70
    3600  0.26   68.40    0.95   -23.10   0.95   -23.10   0.26   68.40
    3650  0.26   68.10    0.95   -23.60   0.95   -23.60   0.26   68.10
    3700  0.27   68.10    0.95   -23.80   0.95   -23.80   0.27   68.10
    3750  0.27   68.10    0.95   -24.10   0.95   -24.10   0.27   68.10
    3800  0.28   67.90    0.95   -24.60   0.95   -24.60   0.28   67.90
    3850  0.28   67.60    0.95   -25.10   0.95   -25.10   0.28   67.60
    3900  0.28   67.60    0.95   -25.30   0.95   -25.30   0.28   67.60
    3950  0.28   67.60    0.95   -25.50   0.95   -25.50   0.28   67.60
    4000  0.29   67.30    0.95   -25.90   0.95   -25.90   0.29   67.30
    4050  0.30   67.00    0.94   -26.20   0.94   -26.20   0.30   67.00
    4100  0.30   67.00    0.94   -26.60   0.94   -26.60   0.30   67.00
    4150  0.30   66.90    0.95   -27.00   0.95   -27.00   0.30   66.90
    4200  0.31   66.20    0.94   -27.30   0.94   -27.30   0.31   66.20
    4250  0.31   65.50    0.94   -27.60   0.94   -27.60   0.31   65.50
    4300  0.31   65.40    0.94   -27.90   0.94   -27.90   0.31   65.40
    4350  0.32   65.20    0.94   -28.20   0.94   -28.20   0.32   65.20
    4400  0.32   64.40    0.94   -28.70   0.94   -28.70   0.32   64.40
    4450  0.33   63.60    0.94   -29.20   0.94   -29.20   0.33   63.60
    4500  0.33   63.30    0.94   -29.70   0.94   -29.70   0.33   63.30
    4550  0.33   63.10    0.93   -30.20   0.93   -30.20   0.33   63.10
    4600  0.34   62.20    0.93   -30.40   0.93   -30.40   0.34   62.20
    4650  0.34   61.40    0.93   -30.70   0.93   -30.70   0.34   61.40
    4700  0.35   60.90    0.93   -31.10   0.93   -31.10   0.35   60.90
    4750  0.35   60.50    0.93   -31.50   0.93   -31.50   0.35   60.50
    4800  0.35   59.50    0.93   -31.90   0.93   -31.90   0.35   59.50
    4850  0.36   58.60    0.92   -32.20   0.92   -32.20   0.36   58.60
    4900  0.36   58.00    0.92   -32.60   0.92   -32.60   0.36   58.00
    4950  0.37   57.50    0.92   -33.00   0.92   -33.00   0.37   57.50
    5000  0.37   56.50    0.92   -33.20   0.92   -33.20   0.37   56.50
    5050  0.38   55.40    0.92   -33.30   0.92   -33.30   0.38   55.40
    5100  0.38   54.70    0.92   -34.00   0.92   -34.00   0.38   54.70
    5150  0.38   53.90    0.91   -34.70   0.91   -34.70   0.38   53.90
    5200  0.38   53.10    0.91   -35.20   0.91   -35.20   0.38   53.10
    5250  0.39   52.40    0.91   -35.70   0.91   -35.70   0.39   52.40
    5300  0.40   51.50    0.91   -35.80   0.91   -35.80   0.40   51.50
    5350  0.40   50.70    0.90   -35.90   0.90   -35.90   0.40   50.70
    5400  0.40   49.50    0.90   -36.50   0.90   -36.50   0.40   49.50
    5450  0.41   48.30    0.90   -37.00   0.90   -37.00   0.41   48.30
    5500  0.41   47.60    0.90   -37.40   0.90   -37.40   0.41   47.60
    5550  0.41   47.00    0.89   -37.80   0.89   -37.80   0.41   47.00
    5600  0.42   45.70    0.89   -38.30   0.89   -38.30   0.42   45.70
    5650  0.42   44.50    0.89   -38.70   0.89   -38.70   0.42   44.50
    5700  0.43   43.50    0.89   -39.30   0.89   -39.30   0.43   43.50
    5750  0.44   42.50    0.89   -39.80   0.89   -39.80   0.44   42.50
    5800  0.44   41.90    0.88   -40.20   0.88   -40.20   0.44   41.90
    5850  0.43   41.20    0.88   -40.60   0.88   -40.60   0.43   41.20
    5900  0.44   40.40    0.88   -40.90   0.88   -40.90   0.44   40.40
    5950  0.45   39.60    0.87   -41.10   0.87   -41.10   0.45   39.60
    6000  0.44   40.10    0.88   -41.30   0.88   -41.30   0.44   40.10
    6050  0.44   40.50    0.88   -41.40   0.88   -41.40   0.44   40.50
    6100  0.45   39.90    0.88   -41.90   0.88   -41.90   0.45   39.90
    6150  0.45   39.30    0.88   -42.30   0.88   -42.30   0.45   39.30
    6200  0.46   39.30    0.87   -42.60   0.87   -42.60   0.46   39.30
    6250  0.46   39.40    0.87   -42.80   0.87   -42.80   0.46   39.40
    6300  0.46   39.30    0.87   -43.10   0.87   -43.10   0.46   39.30
    6350  0.47   39.30    0.87   -43.50   0.87   -43.50   0.47   39.30
    6400  0.47   39.10    0.86   -43.90   0.86   -43.90   0.47   39.10
    6450  0.47   38.80    0.86   -44.40   0.86   -44.40   0.47   38.80
    6500  0.48   38.80    0.86   -44.80   0.86   -44.80   0.48   38.80
    6550  0.48   38.70    0.85   -45.30   0.85   -45.30   0.48   38.70
    6600  0.48   38.60    0.85   -45.60   0.85   -45.60   0.48   38.60
    6650  0.49   38.60    0.85   -45.90   0.85   -45.90   0.49   38.60
    6700  0.49   38.50    0.85   -46.30   0.85   -46.30   0.49   38.50
    6750  0.50   38.50    0.85   -46.70   0.85   -46.70   0.50   38.50
    6800  0.50   38.50    0.85   -46.90   0.85   -46.90   0.50   38.50
    6850  0.50   38.50    0.84   -47.20   0.84   -47.20   0.50   38.50
    6900  0.50   38.30    0.84   -47.70   0.84   -47.70   0.50   38.30
    6950  0.51   38.20    0.84   -48.30   0.84   -48.30   0.51   38.20
    7000  0.51   38.10    0.83   -48.50   0.83   -48.50   0.51   38.10
    7050  0.51   37.90    0.83   -48.80   0.83   -48.80   0.51   37.90
    7100  0.52   38.10    0.83   -49.20   0.83   -49.20   0.52   38.10
    7150  0.52   38.20    0.83   -49.60   0.83   -49.60   0.52   38.20
    7200  0.53   38.20    0.82   -50.00   0.82   -50.00   0.53   38.20
    7250  0.53   38.20    0.82   -50.30   0.82   -50.30   0.53   38.20
    7300  0.54   38.20    0.82   -50.50   0.82   -50.50   0.54   38.20
    7350  0.54   38.10    0.82   -50.60   0.82   -50.60   0.54   38.10
    7400  0.55   37.70    0.81   -51.20   0.81   -51.20   0.55   37.70
    7450  0.55   37.40    0.81   -51.80   0.81   -51.80   0.55   37.40
    7500  0.55   37.30    0.81   -51.90   0.81   -51.90   0.55   37.30
    7550  0.56   37.30    0.81   -52.00   0.81   -52.00   0.56   37.30
    7600  0.56   36.80    0.81   -52.50   0.81   -52.50   0.56   36.80
    7650  0.56   36.20    0.81   -53.00   0.81   -53.00   0.56   36.20
    7700  0.57   35.70    0.81   -53.30   0.81   -53.30   0.57   35.70
    7750  0.57   35.10    0.80   -53.70   0.80   -53.70   0.57   35.10
    7800  0.58   34.70    0.80   -54.10   0.80   -54.10   0.58   34.70
    7850  0.58   34.40    0.80   -54.50   0.80   -54.50   0.58   34.40
    7900  0.59   33.70    0.80   -54.90   0.80   -54.90   0.59   33.70
    7950  0.60   33.00    0.79   -55.30   0.79   -55.30   0.60   33.00
    8000  0.60   32.00    0.79   -55.80   0.79   -55.80   0.60   32.00
    8050  0.60   31.00    0.79   -56.30   0.79   -56.30   0.60   31.00
    8100  0.60   30.50    0.78   -56.60   0.78   -56.60   0.60   30.50
    8150  0.60   29.90    0.77   -56.80   0.77   -56.80   0.60   29.90
    8200  0.61   29.30    0.77   -57.00   0.77   -57.00   0.61   29.30
    8250  0.61   28.80    0.77   -57.10   0.77   -57.10   0.61   28.80
    8300  0.61   28.20    0.77   -57.50   0.77   -57.50   0.61   28.20
    8350  0.61   27.60    0.76   -57.90   0.76   -57.90   0.61   27.60
    8400  0.62   27.00    0.76   -58.10   0.76   -58.10   0.62   27.00
    8450  0.62   26.40    0.76   -58.30   0.76   -58.30   0.62   26.40
    8500  0.62   26.00    0.75   -58.60   0.75   -58.60   0.62   26.00
    8550  0.63   25.60    0.75   -58.80   0.75   -58.80   0.63   25.60
    8600  0.63   25.10    0.75   -59.00   0.75   -59.00   0.63   25.10
    8650  0.64   24.60    0.74   -59.20   0.74   -59.20   0.64   24.60
    8700  0.64   24.60    0.74   -59.60   0.74   -59.60   0.64   24.60
    8750  0.65   24.50    0.74   -60.00   0.74   -60.00   0.65   24.50
    8800  0.65   23.40    0.74   -60.20   0.74   -60.20   0.65   23.40
    8850  0.65   22.40    0.73   -60.40   0.73   -60.40   0.65   22.40
    8900  0.66   22.50    0.73   -60.60   0.73   -60.60   0.66   22.50
    8950  0.66   22.60    0.73   -60.80   0.73   -60.80   0.66   22.60
    9000  0.66   22.60    0.73   -61.00   0.73   -61.00   0.66   22.60
    9050  0.67   22.50    0.73   -61.20   0.73   -61.20   0.67   22.50
    9100  0.67   22.10    0.73   -61.70   0.73   -61.70   0.67   22.10
    9150  0.68   21.60    0.72   -62.20   0.72   -62.20   0.68   21.60
    9200  0.68   21.70    0.72   -62.40   0.72   -62.40   0.68   21.70
    9250  0.67   21.70    0.71   -62.60   0.71   -62.60   0.67   21.70
    9300  0.68   22.50    0.71   -62.50   0.71   -62.50   0.68   22.50
    9350  0.68   23.30    0.71   -62.30   0.71   -62.30   0.68   23.30
    9400  0.68   22.80    0.71   -62.60   0.71   -62.60   0.68   22.80
    9450  0.68   22.40    0.70   -62.80   0.70   -62.80   0.68   22.40
    9500  0.68   22.80    0.70   -62.90   0.70   -62.90   0.68   22.80
    9550  0.68   23.20    0.70   -63.10   0.70   -63.10   0.68   23.20
    9600  0.69   22.90    0.70   -63.50   0.70   -63.50   0.69   22.90
    9650  0.69   22.70    0.70   -64.00   0.70   -64.00   0.69   22.70
    9700  0.69   22.80    0.70   -64.00   0.70   -64.00   0.69   22.80
    9750  0.69   22.90    0.70   -64.00   0.70   -64.00   0.69   22.90
    9800  0.69   23.20    0.70   -64.20   0.70   -64.20   0.69   23.20
    9850  0.70   23.40    0.70   -64.50   0.70   -64.50   0.70   23.40
    9900  0.70   23.10    0.70   -65.20   0.70   -65.20   0.70   23.10
    9950  0.70   22.80    0.70   -65.90   0.70   -65.90   0.70   22.80
   10000  0.70   22.90    0.69   -65.70   0.69   -65.70   0.70   22.90
   10050  0.70   23.00    0.69   -65.40   0.69   -65.40   0.70   23.00
   10100  0.70   22.30    0.69   -66.20   0.69   -66.20   0.70   22.30
   10150  0.71   21.70    0.69   -66.90   0.69   -66.90   0.71   21.70
   10200  0.71   21.80    0.69   -67.00   0.69   -67.00   0.71   21.80
   10250  0.71   21.90    0.68   -67.10   0.68   -67.10   0.71   21.90
   10300  0.71   21.10    0.68   -67.50   0.68   -67.50   0.71   21.10
   10350  0.72   20.20    0.67   -68.00   0.67   -68.00   0.72   20.20
   10400  0.71   19.80    0.68   -68.20   0.68   -68.20   0.71   19.80
   10450  0.71   19.40    0.68   -68.40   0.68   -68.40   0.71   19.40
   10500  0.72   19.10    0.67   -68.70   0.67   -68.70   0.72   19.10
   10550  0.72   18.80    0.66   -69.10   0.66   -69.10   0.72   18.80
   10600  0.72   17.90    0.67   -69.40   0.67   -69.40   0.72   17.90
   10650  0.72   16.90    0.67   -69.70   0.67   -69.70   0.72   16.90
   10700  0.72   16.60    0.67   -70.10   0.67   -70.10   0.72   16.60
   10750  0.73   16.20    0.66   -70.60   0.66   -70.60   0.73   16.20
   10800  0.73   15.50    0.66   -71.00   0.66   -71.00   0.73   15.50
   10850  0.74   14.80    0.66   -71.40   0.66   -71.40   0.74   14.80
   10900  0.74   14.00    0.65   -71.70   0.65   -71.70   0.74   14.00
   10950  0.75   13.20    0.65   -72.00   0.65   -72.00   0.75   13.20
   11000  0.74   12.60    0.65   -73.00   0.65   -73.00   0.74   12.60
   11050  0.73   12.00    0.64   -74.00   0.64   -74.00   0.73   12.00
   11100  0.74   11.60    0.64   -73.90   0.64   -73.90   0.74   11.60
   11150  0.75   11.20    0.64   -73.70   0.64   -73.70   0.75   11.20
   11200  0.75   10.40    0.63   -74.40   0.63   -74.40   0.75   10.40
   11250  0.75    9.50    0.63   -75.00   0.63   -75.00   0.75    9.50
   11300  0.75    8.70    0.63   -75.40   0.63   -75.40   0.75    8.70
   11350  0.75    7.80    0.63   -75.80   0.63   -75.80   0.75    7.80
   11400  0.75    7.70    0.62   -76.10   0.62   -76.10   0.75    7.70
   11450  0.75    7.60    0.61   -76.30   0.61   -76.30   0.75    7.60
   11500  0.76    6.30    0.61   -76.90   0.61   -76.90   0.76    6.30
   11550  0.77    4.90    0.62   -77.60   0.62   -77.60   0.77    4.90
   11600  0.77    5.50    0.61   -77.70   0.61   -77.70   0.77    5.50
   11650  0.77    6.00    0.60   -77.80   0.60   -77.80   0.77    6.00
   11700  0.78    5.10    0.60   -78.40   0.60   -78.40   0.78    5.10
   11750  0.78    4.10    0.60   -79.10   0.60   -79.10   0.78    4.10
   11800  0.78    4.40    0.60   -79.20   0.60   -79.20   0.78    4.40
   11850  0.79    4.60    0.60   -79.40   0.60   -79.40   0.79    4.60
   11900  0.78    4.10    0.59   -80.00   0.59   -80.00   0.78    4.10
   11950  0.77    3.50    0.58   -80.70   0.58   -80.70   0.77    3.50
   12000  0.79    3.70    0.59   -81.20   0.59   -81.20   0.79    3.70
   12050  0.80    3.90    0.59   -81.70   0.59   -81.70   0.80    3.90
   12100  0.79    3.20    0.58   -82.50   0.58   -82.50   0.79    3.20
   12150  0.78    2.50    0.57   -83.30   0.57   -83.30   0.78    2.50
   12200  0.78    2.60    0.57   -84.00   0.57   -84.00   0.78    2.60
   12250  0.79    2.60    0.57   -84.70   0.57   -84.70   0.79    2.60
   12300  0.79    2.90    0.56   -84.90   0.56   -84.90   0.79    2.90
   12350  0.79    3.20    0.56   -85.20   0.56   -85.20   0.79    3.20
   12400  0.78    2.70    0.55   -85.90   0.55   -85.90   0.78    2.70
   12450  0.78    2.10    0.54   -86.60   0.54   -86.60   0.78    2.10
   12500  0.78    2.50    0.54   -87.00   0.54   -87.00   0.78    2.50
   12550  0.78    2.80    0.53   -87.30   0.53   -87.30   0.78    2.80
   12600  0.79    2.70    0.52   -87.60   0.52   -87.60   0.79    2.70
   12650  0.80    2.60    0.52   -87.90   0.52   -87.90   0.80    2.60
   12700  0.80    2.50    0.51   -88.20   0.51   -88.20   0.80    2.50
   12750  0.80    2.30    0.51   -88.50   0.51   -88.50   0.80    2.30
   12800  0.80    2.80    0.50   -88.30   0.50   -88.30   0.80    2.80
   12850  0.81    3.30    0.50   -88.20   0.50   -88.20   0.81    3.30
   12900  0.81    2.80    0.50   -88.80   0.50   -88.80   0.81    2.80
   12950  0.82    2.30    0.49   -89.50   0.49   -89.50   0.82    2.30
   13000  0.82    2.60    0.49   -89.10   0.49   -89.10   0.82    2.60
   13050  0.82    2.90    0.49   -88.80   0.49   -88.80   0.82    2.90
   13100  0.82    2.30    0.48   -89.60   0.48   -89.60   0.82    2.30
   13150  0.83    1.80    0.48   -90.30   0.48   -90.30   0.83    1.80
   13200  0.84    1.70    0.48   -90.70   0.48   -90.70   0.84    1.70
   13250  0.85    1.50    0.47   -91.10   0.47   -91.10   0.85    1.50
   13300  0.84    1.30    0.47   -91.70   0.47   -91.70   0.84    1.30
   13350  0.83    1.20    0.46   -92.30   0.46   -92.30   0.83    1.20
   13400  0.85    0.70    0.46   -92.70   0.46   -92.70   0.85    0.70
   13450  0.86    0.30    0.46   -93.20   0.46   -93.20   0.86    0.30
   13500  0.85    0.00    0.46   -93.60   0.46   -93.60   0.85    0.00
   13550  0.85   -0.20    0.45   -93.90   0.45   -93.90   0.85   -0.20
   13600  0.86   -0.70    0.45   -94.50   0.45   -94.50   0.86   -0.70
   13650  0.86   -1.30    0.44   -95.20   0.44   -95.20   0.86   -1.30
   13700  0.86   -1.30    0.44   -95.00   0.44   -95.00   0.86   -1.30
   13750  0.86   -1.30    0.43   -94.80   0.43   -94.80   0.86   -1.30
   13800  0.86   -2.00    0.43   -95.20   0.43   -95.20   0.86   -2.00
   13850  0.86   -2.80    0.42   -95.60   0.42   -95.60   0.86   -2.80
   13900  0.86   -3.20    0.42   -95.50   0.42   -95.50   0.86   -3.20
   13950  0.86   -3.70    0.42   -95.40   0.42   -95.40   0.86   -3.70
   14000  0.86   -3.50    0.41   -95.30   0.41   -95.30   0.86   -3.50
   14050  0.86   -3.40    0.41   -95.30   0.41   -95.30   0.86   -3.40
