# MHZ S MA R 50

50	0.96	178.60	0.02	82.30	0.02	82.30	0.96	178.60
100	0.99	177.00	0.04	82.10	0.04	82.10	0.99	177.00
150	1.01	175.30	0.07	81.90	0.07	81.90	1.01	175.30
200	1.00	174.00	0.09	81.20	0.09	81.20	1.00	174.00
250	0.99	172.70	0.11	80.50	0.11	80.50	0.99	172.70
300	0.99	170.80	0.13	78.80	0.13	78.80	0.99	170.80
350	0.99	168.80	0.15	77.10	0.15	77.10	0.99	168.80
400	0.98	167.50	0.17	75.90	0.17	75.90	0.98	167.50
450	0.97	166.30	0.19	74.70	0.19	74.70	0.97	166.30
500	0.97	163.70	0.22	72.70	0.22	72.70	0.97	163.70
550	0.97	161.10	0.25	70.60	0.25	70.60	0.97	161.10
600	0.96	159.50	0.27	69.40	0.27	69.40	0.96	159.50
650	0.96	158.00	0.29	68.30	0.29	68.30	0.96	158.00
700	0.95	156.50	0.31	66.60	0.31	66.60	0.95	156.50
750	0.94	154.90	0.33	64.90	0.33	64.90	0.94	154.90
800	0.93	153.30	0.35	63.30	0.35	63.30	0.93	153.30
850	0.93	151.70	0.37	61.80	0.37	61.80	0.93	151.70
900	0.92	150.30	0.38	60.20	0.38	60.20	0.92	150.30
950	0.91	149.00	0.40	58.60	0.40	58.60	0.91	149.00
1000	0.90	147.30	0.41	57.20	0.41	57.20	0.90	147.30
1050	0.89	145.60	0.43	55.80	0.43	55.80	0.89	145.60
1100	0.88	144.10	0.45	54.40	0.45	54.40	0.88	144.10
1150	0.88	142.70	0.46	52.90	0.46	52.90	0.88	142.70
1200	0.87	141.30	0.48	51.70	0.48	51.70	0.87	141.30
1250	0.86	139.90	0.49	50.40	0.49	50.40	0.86	139.90
1300	0.86	138.70	0.50	49.20	0.50	49.20	0.86	138.70
1350	0.85	137.50	0.52	48.00	0.52	48.00	0.85	137.50
1400	0.84	136.00	0.53	46.60	0.53	46.60	0.84	136.00
1450	0.83	134.50	0.54	45.20	0.54	45.20	0.83	134.50
1500	0.82	133.20	0.56	44.00	0.56	44.00	0.82	133.20
1550	0.82	132.00	0.57	42.80	0.57	42.80	0.82	132.00
1600	0.81	130.60	0.58	41.60	0.58	41.60	0.81	130.60
1650	0.80	129.20	0.59	40.40	0.59	40.40	0.80	129.20
1700	0.79	127.90	0.60	39.20	0.60	39.20	0.79	127.90
1750	0.78	126.70	0.61	38.00	0.61	38.00	0.78	126.70
1800	0.77	125.50	0.62	37.00	0.62	37.00	0.77	125.50
1850	0.77	124.40	0.63	36.00	0.63	36.00	0.77	124.40
1900	0.76	123.10	0.64	34.70	0.64	34.70	0.76	123.10
1950	0.75	121.90	0.65	33.50	0.65	33.50	0.75	121.90
2000	0.74	120.60	0.66	32.30	0.66	32.30	0.74	120.60
2050	0.73	119.40	0.67	31.20	0.67	31.20	0.73	119.40
2100	0.72	118.60	0.68	30.20	0.68	30.20	0.72	118.60
2150	0.71	117.80	0.68	29.20	0.68	29.20	0.71	117.80
2200	0.71	116.40	0.69	28.20	0.69	28.20	0.71	116.40
2250	0.70	115.10	0.70	27.20	0.70	27.20	0.70	115.10
2300	0.69	114.20	0.71	26.10	0.71	26.10	0.69	114.20
2350	0.68	113.30	0.71	25.10	0.71	25.10	0.68	113.30
2400	0.67	112.70	0.72	24.20	0.72	24.20	0.67	112.70
2450	0.66	112.10	0.73	23.30	0.73	23.30	0.66	112.10
2500	0.66	110.80	0.73	22.30	0.73	22.30	0.66	110.80
2550	0.65	109.60	0.74	21.30	0.74	21.30	0.65	109.60
2600	0.64	108.80	0.75	20.30	0.75	20.30	0.64	108.80
2650	0.63	107.90	0.75	19.40	0.75	19.40	0.63	107.90
2700	0.63	107.10	0.76	18.50	0.76	18.50	0.63	107.10
2750	0.62	106.40	0.77	17.50	0.77	17.50	0.62	106.40
2800	0.62	105.40	0.77	16.60	0.77	16.60	0.62	105.40
2850	0.61	104.50	0.78	15.70	0.78	15.70	0.61	104.50
2900	0.60	103.50	0.78	14.70	0.78	14.70	0.60	103.50
2950	0.59	102.50	0.79	13.70	0.79	13.70	0.59	102.50
3000	0.59	101.70	0.80	12.90	0.80	12.90	0.59	101.70
3050	0.58	101.00	0.80	12.00	0.80	12.00	0.58	101.00
3100	0.58	99.90	0.81	11.10	0.81	11.10	0.58	99.90
3150	0.57	98.90	0.81	10.10	0.81	10.10	0.57	98.90
3200	0.56	98.40	0.81	9.30	0.81	9.30	0.56	98.40
3250	0.55	97.90	0.82	8.50	0.82	8.50	0.55	97.90
3300	0.55	97.10	0.82	7.60	0.82	7.60	0.55	97.10
3350	0.55	96.30	0.83	6.60	0.83	6.60	0.55	96.30
3400	0.54	95.60	0.83	5.70	0.83	5.70	0.54	95.60
3450	0.53	94.90	0.83	4.90	0.83	4.90	0.53	94.90
3500	0.52	94.30	0.84	4.20	0.84	4.20	0.52	94.30
3550	0.51	93.70	0.84	3.50	0.84	3.50	0.51	93.70
3600	0.51	93.00	0.85	2.50	0.85	2.50	0.51	93.00
3650	0.50	92.30	0.85	1.50	0.85	1.50	0.50	92.30
3700	0.50	91.50	0.85	0.70	0.85	0.70	0.50	91.50
3750	0.49	90.80	0.86	0.00	0.86	0.00	0.49	90.80
3800	0.49	90.20	0.86	-1.00	0.86	-1.00	0.49	90.20
3850	0.48	89.50	0.87	-2.10	0.87	-2.10	0.48	89.50
3900	0.47	88.90	0.87	-2.70	0.87	-2.70	0.47	88.90
3950	0.47	88.30	0.87	-3.30	0.87	-3.30	0.47	88.30
4000	0.46	87.60	0.88	-4.20	0.88	-4.20	0.46	87.60
4050	0.46	87.00	0.88	-5.10	0.88	-5.10	0.46	87.00
4100	0.45	86.40	0.88	-5.90	0.88	-5.90	0.45	86.40
4150	0.45	85.90	0.89	-6.70	0.89	-6.70	0.45	85.90
4200	0.44	85.00	0.89	-7.50	0.89	-7.50	0.44	85.00
4250	0.43	84.10	0.89	-8.30	0.89	-8.30	0.43	84.10
4300	0.43	83.60	0.89	-8.90	0.89	-8.90	0.43	83.60
4350	0.42	83.10	0.90	-9.60	0.90	-9.60	0.42	83.10
4400	0.42	82.20	0.90	-10.50	0.90	-10.50	0.42	82.20
4450	0.42	81.20	0.90	-11.50	0.90	-11.50	0.42	81.20
4500	0.41	80.90	0.90	-12.40	0.90	-12.40	0.41	80.90
4550	0.41	80.50	0.90	-13.30	0.90	-13.30	0.41	80.50
4600	0.40	79.70	0.91	-13.90	0.91	-13.90	0.40	79.70
4650	0.40	78.80	0.91	-14.50	0.91	-14.50	0.40	78.80
4700	0.39	78.50	0.91	-15.30	0.91	-15.30	0.39	78.50
4750	0.38	78.10	0.91	-16.00	0.91	-16.00	0.38	78.10
4800	0.38	77.10	0.92	-16.70	0.92	-16.70	0.38	77.10
4850	0.38	76.10	0.92	-17.50	0.92	-17.50	0.38	76.10
4900	0.37	75.80	0.92	-18.20	0.92	-18.20	0.37	75.80
4950	0.37	75.50	0.92	-18.90	0.92	-18.90	0.37	75.50
5000	0.36	74.70	0.92	-19.40	0.92	-19.40	0.36	74.70
5050	0.36	73.90	0.93	-19.90	0.93	-19.90	0.36	73.90
5100	0.35	73.40	0.93	-20.90	0.93	-20.90	0.35	73.40
5150	0.35	72.90	0.93	-22.00	0.93	-22.00	0.35	72.90
5200	0.34	72.40	0.94	-22.80	0.94	-22.80	0.34	72.40
5250	0.34	71.90	0.94	-23.70	0.94	-23.70	0.34	71.90
5300	0.33	71.20	0.94	-24.10	0.94	-24.10	0.33	71.20
5350	0.33	70.60	0.94	-24.50	0.94	-24.50	0.33	70.60
5400	0.32	69.80	0.94	-25.30	0.94	-25.30	0.32	69.80
5450	0.32	69.10	0.94	-26.20	0.94	-26.20	0.32	69.10
5500	0.31	68.30	0.94	-26.90	0.94	-26.90	0.31	68.30
5550	0.31	67.60	0.94	-27.60	0.94	-27.60	0.31	67.60
5600	0.30	66.90	0.94	-28.30	0.94	-28.30	0.30	66.90
5650	0.30	66.20	0.95	-29.00	0.95	-29.00	0.30	66.20
5700	0.29	65.20	0.95	-30.00	0.95	-30.00	0.29	65.20
5750	0.29	64.20	0.95	-30.90	0.95	-30.90	0.29	64.20
5800	0.28	63.80	0.95	-31.50	0.95	-31.50	0.28	63.80
5850	0.27	63.30	0.95	-32.10	0.95	-32.10	0.27	63.30
5900	0.27	62.20	0.95	-32.70	0.95	-32.70	0.27	62.20
5950	0.26	61.00	0.95	-33.30	0.95	-33.30	0.26	61.00
6000	0.25	62.50	0.96	-33.80	0.96	-33.80	0.25	62.50
6050	0.24	63.90	0.96	-34.40	0.96	-34.40	0.24	63.90
6100	0.23	63.20	0.96	-35.10	0.96	-35.10	0.23	63.20
6150	0.23	62.50	0.97	-35.80	0.97	-35.80	0.23	62.50
6200	0.22	63.20	0.97	-36.50	0.97	-36.50	0.22	63.20
6250	0.22	63.80	0.97	-37.10	0.97	-37.10	0.22	63.80
6300	0.21	64.20	0.97	-37.70	0.97	-37.70	0.21	64.20
6350	0.21	64.60	0.97	-38.30	0.97	-38.30	0.21	64.60
6400	0.20	64.80	0.97	-39.10	0.97	-39.10	0.20	64.80
6450	0.19	64.90	0.97	-39.80	0.97	-39.80	0.19	64.90
6500	0.19	65.20	0.97	-40.60	0.97	-40.60	0.19	65.20
6550	0.19	65.50	0.97	-41.30	0.97	-41.30	0.19	65.50
6600	0.18	66.30	0.97	-41.90	0.97	-41.90	0.18	66.30
6650	0.18	67.00	0.98	-42.50	0.98	-42.50	0.18	67.00
6700	0.17	66.70	0.98	-43.10	0.98	-43.10	0.17	66.70
6750	0.17	66.50	0.98	-43.80	0.98	-43.80	0.17	66.50
6800	0.17	66.80	0.98	-44.50	0.98	-44.50	0.17	66.80
6850	0.17	67.10	0.98	-45.10	0.98	-45.10	0.17	67.10
6900	0.16	67.30	0.98	-45.80	0.98	-45.80	0.16	67.30
6950	0.16	67.40	0.98	-46.50	0.98	-46.50	0.16	67.40
7000	0.16	67.30	0.98	-47.10	0.98	-47.10	0.16	67.30
7050	0.16	67.20	0.98	-47.70	0.98	-47.70	0.16	67.20
7100	0.16	67.20	0.98	-48.40	0.98	-48.40	0.16	67.20
7150	0.16	67.10	0.98	-49.00	0.98	-49.00	0.16	67.10
7200	0.15	66.90	0.98	-49.70	0.98	-49.70	0.15	66.90
7250	0.15	66.60	0.98	-50.40	0.98	-50.40	0.15	66.60
7300	0.15	66.50	0.98	-50.90	0.98	-50.90	0.15	66.50
7350	0.15	66.50	0.98	-51.50	0.98	-51.50	0.15	66.50
7400	0.15	66.10	0.98	-52.20	0.98	-52.20	0.15	66.10
7450	0.15	65.70	0.98	-53.00	0.98	-53.00	0.15	65.70
7500	0.15	64.90	0.98	-53.50	0.98	-53.50	0.15	64.90
7550	0.15	64.20	0.98	-54.00	0.98	-54.00	0.15	64.20
7600	0.15	63.50	0.98	-54.60	0.98	-54.60	0.15	63.50
7650	0.15	62.90	0.98	-55.30	0.98	-55.30	0.15	62.90
7700	0.15	61.00	0.98	-55.80	0.98	-55.80	0.15	61.00
7750	0.15	59.10	0.98	-56.40	0.98	-56.40	0.15	59.10
7800	0.15	58.70	0.98	-57.00	0.98	-57.00	0.15	58.70
7850	0.15	58.30	0.98	-57.70	0.98	-57.70	0.15	58.30
7900	0.16	56.40	0.98	-58.30	0.98	-58.30	0.16	56.40
7950	0.16	54.50	0.98	-58.90	0.98	-58.90	0.16	54.50
8000	0.16	53.00	0.98	-59.60	0.98	-59.60	0.16	53.00
8050	0.15	51.60	0.98	-60.20	0.98	-60.20	0.15	51.60
8100	0.16	49.80	0.98	-60.70	0.98	-60.70	0.16	49.80
8150	0.16	48.10	0.98	-61.20	0.98	-61.20	0.16	48.10
8200	0.16	45.80	0.98	-61.70	0.98	-61.70	0.16	45.80
8250	0.15	43.50	0.98	-62.20	0.98	-62.20	0.15	43.50
8300	0.15	42.20	0.98	-62.80	0.98	-62.80	0.15	42.20
8350	0.16	41.00	0.98	-63.40	0.98	-63.40	0.16	41.00
8400	0.16	38.40	0.98	-63.90	0.98	-63.90	0.16	38.40
8450	0.15	35.70	0.98	-64.40	0.98	-64.40	0.15	35.70
8500	0.16	34.30	0.98	-65.00	0.98	-65.00	0.16	34.30
8550	0.16	32.80	0.98	-65.50	0.98	-65.50	0.16	32.80
8600	0.16	31.10	0.98	-66.00	0.98	-66.00	0.16	31.10
8650	0.16	29.50	0.98	-66.40	0.98	-66.40	0.16	29.50
8700	0.16	28.90	0.98	-67.10	0.98	-67.10	0.16	28.90
8750	0.16	28.30	0.98	-67.80	0.98	-67.80	0.16	28.30
8800	0.16	25.80	0.98	-68.30	0.98	-68.30	0.16	25.80
8850	0.16	23.30	0.98	-68.70	0.98	-68.70	0.16	23.30
8900	0.16	22.10	0.98	-69.40	0.98	-69.40	0.16	22.10
8950	0.16	21.00	0.98	-70.10	0.98	-70.10	0.16	21.00
9000	0.16	20.00	0.98	-70.40	0.98	-70.40	0.16	20.00
9050	0.16	19.10	0.98	-70.80	0.98	-70.80	0.16	19.10
9100	0.16	17.90	0.98	-71.50	0.98	-71.50	0.16	17.90
9150	0.16	16.70	0.98	-72.20	0.98	-72.20	0.16	16.70
9200	0.16	16.40	0.98	-72.80	0.98	-72.80	0.16	16.40
9250	0.15	16.20	0.98	-73.40	0.98	-73.40	0.15	16.20
9300	0.15	15.80	0.98	-73.70	0.98	-73.70	0.15	15.80
9350	0.14	15.40	0.98	-73.90	0.98	-73.90	0.14	15.40
9400	0.14	13.40	0.98	-74.40	0.98	-74.40	0.14	13.40
9450	0.14	11.40	0.98	-74.80	0.98	-74.80	0.14	11.40
9500	0.14	10.80	0.98	-75.40	0.98	-75.40	0.14	10.80
9550	0.13	10.30	0.98	-76.00	0.98	-76.00	0.13	10.30
9600	0.13	8.30	0.98	-76.60	0.98	-76.60	0.13	8.30
9650	0.13	6.20	0.98	-77.20	0.98	-77.20	0.13	6.20
9700	0.12	6.20	0.98	-77.60	0.98	-77.60	0.12	6.20
9750	0.12	6.20	0.99	-78.10	0.99	-78.10	0.12	6.20
9800	0.11	4.90	0.99	-78.60	0.99	-78.60	0.11	4.90
9850	0.11	3.60	0.99	-79.10	0.99	-79.10	0.11	3.60
9900	0.10	1.80	0.99	-79.80	0.99	-79.80	0.10	1.80
9950	0.10	0.00	0.99	-80.40	0.99	-80.40	0.10	0.00
10000	0.09	0.70	0.99	-80.80	0.99	-80.80	0.09	0.70
10050	0.09	1.40	0.99	-81.10	0.99	-81.10	0.09	1.40
10100	0.08	-5.00	0.99	-81.80	0.99	-81.80	0.08	-5.00
10150	0.08	-11.50	0.99	-82.50	0.99	-82.50	0.08	-11.50
10200	0.07	-9.90	0.99	-82.90	0.99	-82.90	0.07	-9.90
10250	0.06	-8.30	0.99	-83.30	0.99	-83.30	0.06	-8.30
10300	0.06	-11.70	0.99	-84.00	0.99	-84.00	0.06	-11.70
10350	0.06	-15.00	1.00	-84.70	1.00	-84.70	0.06	-15.00
10400	0.05	-18.10	1.00	-85.20	1.00	-85.20	0.05	-18.10
10450	0.04	-21.10	0.99	-85.80	0.99	-85.80	0.04	-21.10
10500	0.04	-18.10	1.00	-86.30	1.00	-86.30	0.04	-18.10
10550	0.04	-15.10	1.00	-86.70	1.00	-86.70	0.04	-15.10
10600	0.03	-28.50	1.00	-87.30	1.00	-87.30	0.03	-28.50
10650	0.01	-41.90	1.00	-87.90	1.00	-87.90	0.01	-41.90
10700	0.02	-30.10	1.00	-88.50	1.00	-88.50	0.02	-30.10
10750	0.02	-18.20	1.00	-89.10	1.00	-89.10	0.02	-18.20
10800	0.01	-32.00	1.00	-89.70	1.00	-89.70	0.01	-32.00
10850	0.00	-45.80	1.00	-90.30	1.00	-90.30	0.00	-45.80
10900	0.00	7.20	1.00	-90.90	1.00	-90.90	0.00	7.20
10950	0.00	60.20	1.00	-91.50	1.00	-91.50	0.00	60.20
11000	0.01	91.40	1.00	-92.10	1.00	-92.10	0.01	91.40
11050	0.01	122.60	1.00	-92.70	1.00	-92.70	0.01	122.60
11100	0.01	122.90	1.00	-93.20	1.00	-93.20	0.01	122.90
11150	0.02	123.20	1.00	-93.80	1.00	-93.80	0.02	123.20
11200	0.02	125.60	1.00	-94.30	1.00	-94.30	0.02	125.60
11250	0.02	128.00	1.00	-94.70	1.00	-94.70	0.02	128.00
11300	0.03	130.10	1.00	-95.30	1.00	-95.30	0.03	130.10
11350	0.03	132.10	1.00	-95.80	1.00	-95.80	0.03	132.10
11400	0.03	130.20	1.00	-96.50	1.00	-96.50	0.03	130.20
11450	0.04	128.20	1.00	-97.20	1.00	-97.20	0.04	128.20
11500	0.04	127.20	1.00	-97.80	1.00	-97.80	0.04	127.20
11550	0.04	126.20	1.00	-98.30	1.00	-98.30	0.04	126.20
11600	0.05	122.70	1.00	-98.90	1.00	-98.90	0.05	122.70
11650	0.05	119.30	0.99	-99.50	0.99	-99.50	0.05	119.30
11700	0.05	122.60	0.99	-100.00	0.99	-100.00	0.05	122.60
11750	0.06	125.90	0.99	-100.60	0.99	-100.60	0.06	125.90
11800	0.06	122.30	0.99	-101.10	0.99	-101.10	0.06	122.30
11850	0.07	118.80	0.99	-101.50	0.99	-101.50	0.07	118.80
11900	0.07	119.70	0.99	-102.10	0.99	-102.10	0.07	119.70
11950	0.07	120.70	0.99	-102.80	0.99	-102.80	0.07	120.70
12000	0.08	118.50	0.99	-103.20	0.99	-103.20	0.08	118.50
12050	0.09	116.30	0.99	-103.70	0.99	-103.70	0.09	116.30
12100	0.09	118.30	0.99	-104.20	0.99	-104.20	0.09	118.30
12150	0.09	120.20	0.99	-104.80	0.99	-104.80	0.09	120.20
12200	0.09	118.70	0.99	-105.40	0.99	-105.40	0.09	118.70
12250	0.09	117.20	0.99	-106.00	0.99	-106.00	0.09	117.20
12300	0.09	117.50	0.99	-106.40	0.99	-106.40	0.09	117.50
12350	0.09	117.80	0.99	-106.80	0.99	-106.80	0.09	117.80
12400	0.09	117.70	0.98	-107.00	0.98	-107.00	0.09	117.70
12450	0.09	117.60	0.98	-107.20	0.98	-107.20	0.09	117.60
12500	0.09	116.40	0.98	-108.10	0.98	-108.10	0.09	116.40
12550	0.09	115.30	0.99	-109.00	0.99	-109.00	0.09	115.30
12600	0.08	116.90	0.98	-109.40	0.98	-109.40	0.08	116.90
12650	0.08	118.60	0.98	-109.80	0.98	-109.80	0.08	118.60
12700	0.07	119.20	0.98	-110.20	0.98	-110.20	0.07	119.20
12750	0.07	119.90	0.98	-110.70	0.98	-110.70	0.07	119.90
12800	0.07	117.10	0.98	-111.10	0.98	-111.10	0.07	117.10
12850	0.07	114.20	0.98	-111.50	0.98	-111.50	0.07	114.20
12900	0.07	118.50	0.98	-112.10	0.98	-112.10	0.07	118.50
12950	0.07	122.80	0.98	-112.70	0.98	-112.70	0.07	122.80
13000	0.06	121.20	0.98	-113.10	0.98	-113.10	0.06	121.20
13050	0.06	119.60	0.99	-113.40	0.99	-113.40	0.06	119.60
13100	0.06	116.50	0.99	-113.90	0.99	-113.90	0.06	116.50
13150	0.06	113.50	0.99	-114.40	0.99	-114.40	0.06	113.50
13200	0.06	108.80	0.98	-114.90	0.98	-114.90	0.06	108.80
13250	0.05	104.00	0.98	-115.40	0.98	-115.40	0.05	104.00
13300	0.05	102.50	0.98	-116.00	0.98	-116.00	0.05	102.50
13350	0.05	101.00	0.99	-116.50	0.99	-116.50	0.05	101.00
13400	0.05	89.60	0.99	-117.10	0.99	-117.10	0.05	89.60
13450	0.05	78.20	0.99	-117.70	0.99	-117.70	0.05	78.20
13500	0.05	78.20	0.99	-118.20	0.99	-118.20	0.05	78.20
13550	0.04	78.10	0.99	-118.70	0.99	-118.70	0.04	78.10
13600	0.04	66.20	0.99	-119.30	0.99	-119.30	0.04	66.20
13650	0.05	54.30	1.00	-119.90	1.00	-119.90	0.05	54.30
13700	0.04	52.00	1.00	-120.40	1.00	-120.40	0.04	52.00
13750	0.04	49.60	1.00	-120.80	1.00	-120.80	0.04	49.60
13800	0.04	36.90	1.00	-121.50	1.00	-121.50	0.04	36.90
13850	0.04	24.20	1.00	-122.10	1.00	-122.10	0.04	24.20
13900	0.04	14.30	1.00	-122.70	1.00	-122.70	0.04	14.30
13950	0.04	4.40	0.99	-123.20	0.99	-123.20	0.04	4.40
14000	0.04	4.10	0.99	-123.70	0.99	-123.70	0.04	4.10
14050	0.05	3.70	0.99	-124.10	0.99	-124.10	0.05	3.70
14100	0.05	-8.10	0.99	-124.70	0.99	-124.70	0.05	-8.10
14150	0.05	-19.80	0.99	-125.30	0.99	-125.30	0.05	-19.80
14200	0.05	-19.00	0.99	-125.90	0.99	-125.90	0.05	-19.00
14250	0.06	-18.20	0.99	-126.40	0.99	-126.40	0.06	-18.20
14300	0.06	-22.00	0.99	-127.00	0.99	-127.00	0.06	-22.00
14350	0.06	-25.80	0.99	-127.60	0.99	-127.60	0.06	-25.80
14400	0.07	-28.60	0.99	-128.10	0.99	-128.10	0.07	-28.60
14450	0.07	-31.40	0.99	-128.50	0.99	-128.50	0.07	-31.40
14500	0.07	-30.40	0.99	-129.30	0.99	-129.30	0.07	-30.40
14550	0.08	-29.40	0.99	-130.00	0.99	-130.00	0.08	-29.40
14600	0.08	-29.60	0.99	-130.40	0.99	-130.40	0.08	-29.60
14650	0.08	-29.80	0.99	-130.80	0.99	-130.80	0.08	-29.80
14700	0.08	-27.80	0.99	-131.40	0.99	-131.40	0.08	-27.80
14750	0.08	-25.80	0.99	-131.90	0.99	-131.90	0.08	-25.80
14800	0.08	-26.40	0.99	-132.40	0.99	-132.40	0.08	-26.40
14850	0.08	-27.10	0.99	-132.90	0.99	-132.90	0.08	-27.10
14900	0.08	-25.40	0.99	-133.40	0.99	-133.40	0.08	-25.40
14950	0.08	-23.80	0.99	-133.90	0.99	-133.90	0.08	-23.80
15000	0.08	-24.80	0.99	-134.40	0.99	-134.40	0.08	-24.80
15050	0.07	-25.70	0.99	-134.80	0.99	-134.80	0.07	-25.70
15100	0.07	-22.80	0.99	-135.40	0.99	-135.40	0.07	-22.80
15150	0.07	-19.90	0.99	-136.00	0.99	-136.00	0.07	-19.90
15200	0.07	-21.20	0.99	-136.50	0.99	-136.50	0.07	-21.20
15250	0.07	-22.40	0.99	-137.00	0.99	-137.00	0.07	-22.40
15300	0.06	-14.40	0.99	-137.60	0.99	-137.60	0.06	-14.40
15350	0.06	-6.30	0.99	-138.20	0.99	-138.20	0.06	-6.30
15400	0.06	-4.40	0.99	-138.60	0.99	-138.60	0.06	-4.40
15450	0.05	-2.40	0.99	-139.00	0.99	-139.00	0.05	-2.40
15500	0.05	9.10	0.99	-139.70	0.99	-139.70	0.05	9.10
15550	0.04	20.70	0.99	-140.30	0.99	-140.30	0.04	20.70
15600	0.05	24.70	0.99	-140.80	0.99	-140.80	0.05	24.70
15650	0.05	28.60	0.99	-141.20	0.99	-141.20	0.05	28.60
15700	0.05	40.60	0.99	-141.70	0.99	-141.70	0.05	40.60
15750	0.05	52.50	0.99	-142.10	0.99	-142.10	0.05	52.50
15800	0.05	57.20	0.99	-142.80	0.99	-142.80	0.05	57.20
15850	0.06	61.90	0.99	-143.50	0.99	-143.50	0.06	61.90
15900	0.07	73.00	0.99	-143.90	0.99	-143.90	0.07	73.00
15950	0.08	84.00	0.99	-144.40	0.99	-144.40	0.08	84.00
16000	0.08	86.70	0.99	-144.90	0.99	-144.90	0.08	86.70
16050	0.09	89.40	0.99	-145.40	0.99	-145.40	0.09	89.40
16100	0.10	94.30	0.99	-145.90	0.99	-145.90	0.10	94.30
16150	0.11	99.20	0.98	-146.40	0.98	-146.40	0.11	99.20
16200	0.12	101.20	0.98	-147.00	0.98	-147.00	0.12	101.20
16250	0.12	103.20	0.98	-147.70	0.98	-147.70	0.12	103.20
16300	0.13	104.10	0.98	-148.10	0.98	-148.10	0.13	104.10
16350	0.14	105.00	0.98	-148.40	0.98	-148.40	0.14	105.00
16400	0.15	107.40	0.98	-149.00	0.98	-149.00	0.15	107.40
16450	0.16	109.70	0.98	-149.50	0.98	-149.50	0.16	109.70
16500	0.17	109.50	0.98	-149.90	0.98	-149.90	0.17	109.50
16550	0.17	109.30	0.98	-150.20	0.98	-150.20	0.17	109.30
16600	0.18	110.70	0.98	-151.00	0.98	-151.00	0.18	110.70
16650	0.19	112.10	0.98	-151.70	0.98	-151.70	0.19	112.10
16700	0.20	113.90	0.97	-152.20	0.97	-152.20	0.20	113.90
16750	0.20	115.70	0.97	-152.70	0.97	-152.70	0.20	115.70
16800	0.20	115.50	0.97	-153.20	0.97	-153.20	0.20	115.50
16850	0.20	115.30	0.98	-153.80	0.98	-153.80	0.20	115.30
16900	0.21	114.20	0.97	-154.30	0.97	-154.30	0.21	114.20
16950	0.22	113.10	0.97	-154.90	0.97	-154.90	0.22	113.10
17000	0.22	113.70	0.97	-155.40	0.97	-155.40	0.22	113.70
17050	0.23	114.20	0.97	-156.00	0.97	-156.00	0.23	114.20
17100	0.23	114.30	0.97	-156.60	0.97	-156.60	0.23	114.30
17150	0.23	114.30	0.96	-157.20	0.96	-157.20	0.23	114.30
17200	0.24	114.00	0.96	-157.60	0.96	-157.60	0.24	114.00
17250	0.24	113.60	0.96	-158.00	0.96	-158.00	0.24	113.60
17300	0.24	113.00	0.96	-158.70	0.96	-158.70	0.24	113.00
17350	0.24	112.40	0.96	-159.40	0.96	-159.40	0.24	112.40
17400	0.25	112.10	0.96	-159.70	0.96	-159.70	0.25	112.10
17450	0.25	111.80	0.96	-160.10	0.96	-160.10	0.25	111.80
17500	0.25	111.40	0.96	-160.50	0.96	-160.50	0.25	111.40
17550	0.25	110.90	0.96	-160.90	0.96	-160.90	0.25	110.90
17600	0.24	111.70	0.96	-161.40	0.96	-161.40	0.24	111.70
17650	0.24	112.50	0.96	-161.90	0.96	-161.90	0.24	112.50
17700	0.24	111.10	0.96	-162.30	0.96	-162.30	0.24	111.10
17750	0.24	109.70	0.96	-162.60	0.96	-162.60	0.24	109.70
17800	0.24	110.70	0.96	-163.20	0.96	-163.20	0.24	110.70
17850	0.23	111.70	0.96	-163.70	0.96	-163.70	0.23	111.70
17900	0.23	112.90	0.96	-164.30	0.96	-164.30	0.23	112.90
17950	0.23	114.20	0.96	-164.90	0.96	-164.90	0.23	114.20
18000	0.22	113.10	0.96	-165.20	0.96	-165.20	0.22	113.10
18050	0.21	112.10	0.97	-165.60	0.97	-165.60	0.21	112.10
18100	0.21	112.40	0.97	-165.90	0.97	-165.90	0.21	112.40
18150	0.21	112.70	0.97	-166.30	0.97	-166.30	0.21	112.70
18200	0.20	112.60	0.97	-166.80	0.97	-166.80	0.20	112.60
18250	0.19	112.50	0.97	-167.30	0.97	-167.30	0.19	112.50
18300	0.18	113.40	0.97	-167.90	0.97	-167.90	0.18	113.40
18350	0.17	114.20	0.97	-168.40	0.97	-168.40	0.17	114.20
18400	0.16	112.00	0.98	-168.90	0.98	-168.90	0.16	112.00
18450	0.15	109.80	0.98	-169.40	0.98	-169.40	0.15	109.80
18500	0.14	109.70	0.98	-169.80	0.98	-169.80	0.14	109.70
18550	0.13	109.60	0.98	-170.30	0.98	-170.30	0.13	109.60
18600	0.12	106.10	0.98	-170.90	0.98	-170.90	0.12	106.10
18650	0.11	102.70	0.99	-171.50	0.99	-171.50	0.11	102.70
18700	0.10	100.20	0.98	-172.00	0.98	-172.00	0.10	100.20
18750	0.09	97.80	0.98	-172.50	0.98	-172.50	0.09	97.80
18800	0.08	95.90	0.99	-173.10	0.99	-173.10	0.08	95.90
18850	0.08	94.00	0.99	-173.70	0.99	-173.70	0.08	94.00
18900	0.07	84.70	0.99	-174.30	0.99	-174.30	0.07	84.70
18950	0.05	75.40	0.99	-174.80	0.99	-174.80	0.05	75.40
