#	mhz	s	ma	r	50
50	0.18081	76.673	0.97073	-9.679	0.97073	-9.679	0.18081	76.673
70	0.24391	72.788	0.95645	-14.839	0.95645	-14.839	0.24391	72.788
90	0.30418	69.179	0.93526	-18.448	0.93526	-18.448	0.30418	69.179
110	0.36332	65.659	0.91426	-21.889	0.91426	-21.889	0.36332	65.659
130	0.4199	62.202	0.89246	-25.593	0.89246	-25.593	0.4199	62.202
150	0.46943	58.941	0.86082	-29.032	0.86082	-29.032	0.46943	58.941
170	0.51854	55.893	0.83129	-31.742	0.83129	-31.742	0.51854	55.893
190	0.56333	52.859	0.80255	-35.09	0.80255	-35.09	0.56333	52.859
210	0.60325	50.161	0.77128	-38.249	0.77128	-38.249	0.60325	50.161
230	0.64027	47.656	0.73968	-41.03	0.73968	-41.03	0.64027	47.656
250	0.67893	44.738	0.71553	-43.887	0.71553	-43.887	0.67893	44.738
270	0.7043	41.917	0.68009	-46.373	0.68009	-46.373	0.7043	41.917
290	0.73104	39.998	0.65008	-48.614	0.65008	-48.614	0.73104	39.998
310	0.75842	37.734	0.62197	-50.947	0.62197	-50.947	0.75842	37.734
330	0.78381	35.035	0.59296	-53.32	0.59296	-53.32	0.78381	35.035
350	0.80269	32.965	0.561	-55.3	0.561	-55.3	0.80269	32.965
370	0.82565	31.548	0.53923	-57.207	0.53923	-57.207	0.82565	31.548
390	0.84479	29.605	0.51143	-59.232	0.51143	-59.232	0.84479	29.605
410	0.8616	27.925	0.48366	-60.82	0.48366	-60.82	0.8616	27.925
430	0.87675	26.594	0.45883	-62.08	0.45883	-62.08	0.87675	26.594
450	0.89015	24.998	0.43666	-63.781	0.43666	-63.781	0.89015	24.998
470	0.89317	23.421	0.40715	-65.079	0.40715	-65.079	0.89317	23.421
490	0.94459	21.624	0.38848	-67.948	0.38848	-67.948	0.94459	21.624
510	0.97298	20.033	0.36849	-69.634	0.36849	-69.634	0.97298	20.033
530	0.95913	18.752	0.34234	-69.542	0.34234	-69.542	0.95913	18.752
550	0.93605	17.556	0.31249	-69.24	0.31249	-69.24	0.93605	17.556
570	0.92972	15.281	0.28515	-70.022	0.28515	-70.022	0.92972	15.281
590	0.92383	13.185	0.25695	-71.099	0.25695	-71.099	0.92383	13.185
610	0.93038	11.043	0.23148	-72.931	0.23148	-72.931	0.93038	11.043
630	0.94572	8.87	0.21018	-75.332	0.21018	-75.332	0.94572	8.87
650	0.95053	6.922	0.19245	-77.473	0.19245	-77.473	0.95053	6.922
670	0.96905	6.356	0.1792	-78.761	0.1792	-78.761	0.96905	6.356
690	0.97948	5.873	0.16617	-79.971	0.16617	-79.971	0.97948	5.873
710	0.98302	5.443	0.15252	-80.715	0.15252	-80.715	0.98302	5.443
730	0.98017	4.991	0.13781	-80.832	0.13781	-80.832	0.98017	4.991
750	0.97076	4.399	0.12201	-80.389	0.12201	-80.389	0.97076	4.399
770	0.96461	3.123	0.10534	-80.607	0.10534	-80.607	0.96461	3.123
790	0.95806	1.693	0.08933	-80.935	0.08933	-80.935	0.95806	1.693
810	0.95667	-0.002	0.07403	-81.492	0.07403	-81.492	0.95667	-0.002
830	0.95992	-1.84	0.05972	-82.302	0.05972	-82.302	0.95992	-1.84
850	0.96124	-3.473	0.04681	-83.294	0.04681	-83.294	0.96124	-3.473
870	0.97427	-4.35	0.03475	-82.272	0.03475	-82.272	0.97427	-4.35
890	0.98693	-5.373	0.02284	-77.946	0.02284	-77.946	0.98693	-5.373
910	0.99478	-6.226	0.01239	-49.208	0.01239	-49.208	0.99478	-6.226
930	0.99979	-6.705	0.00777	4.989	0.00777	4.989	0.99979	-6.705
950	1.01028	-6.713	0.01641	65.633	0.01641	65.633	1.01028	-6.713
970	1.00987	-7.048	0.02846	73.512	0.02846	73.512	1.00987	-7.048
990	1.00731	-7.383	0.04017	77.305	0.04017	77.305	1.00731	-7.383
1010	1.00502	-7.8	0.05153	78.989	0.05153	78.989	1.00502	-7.8
1030	1.00334	-8.344	0.06259	79.582	0.06259	79.582	1.00334	-8.344
1050	1.00054	-9.023	0.07338	79.138	0.07338	79.138	1.00054	-9.023
1070	0.99646	-9.813	0.08394	78.58	0.08394	78.58	0.99646	-9.813
1090	0.99291	-10.557	0.09586	77.721	0.09586	77.721	0.99291	-10.557
1110	0.9892	-11.218	0.10813	77.183	0.10813	77.183	0.9892	-11.218
1130	0.98689	-11.796	0.12025	77.075	0.12025	77.075	0.98689	-11.796
1150	0.98976	-12.332	0.13222	76.988	0.13222	76.988	0.98976	-12.332
1170	0.99202	-12.814	0.14246	77.383	0.14246	77.383	0.99202	-12.814
1190	0.99432	-13.256	0.15249	77.693	0.15249	77.693	0.99432	-13.256
1210	0.98881	-13.765	0.1612	77.73	0.1612	77.73	0.98881	-13.765
1230	0.9783	-14.312	0.1685	77.409	0.1685	77.409	0.9783	-14.312
1250	0.97624	-14.738	0.17534	76.749	0.17534	76.749	0.97624	-14.738
1270	0.97702	-15.49	0.18563	75.466	0.18563	75.466	0.97702	-15.49
1290	0.96749	-16.461	0.19409	74.243	0.19409	74.243	0.96749	-16.461
1310	0.96143	-17.179	0.20349	73.486	0.20349	73.486	0.96143	-17.179
1330	0.96223	-17.742	0.21455	72.987	0.21455	72.987	0.96223	-17.742
1350	0.96292	-18.815	0.22592	71.924	0.22592	71.924	0.96292	-18.815
1370	0.95995	-19.317	0.23404	72.128	0.23404	72.128	0.95995	-19.317
1390	0.96117	-19.813	0.24311	71.943	0.24311	71.943	0.96117	-19.813
1410	0.96125	-20.408	0.25122	71.444	0.25122	71.444	0.96125	-20.408
1430	0.95928	-20.959	0.25791	70.804	0.25791	70.804	0.95928	-20.959
1450	0.95876	-21.081	0.26415	70.299	0.26415	70.299	0.95876	-21.081
1470	0.95933	-21.861	0.27293	69.308	0.27293	69.308	0.95933	-21.861
1490	0.95382	-22.437	0.2805	68.155	0.2805	68.155	0.95382	-22.437
1510	0.948	-22.808	0.28986	67.321	0.28986	67.321	0.948	-22.808
1530	0.94638	-23.123	0.30133	66.834	0.30133	66.834	0.94638	-23.123
1550	0.95221	-23.675	0.31259	66.273	0.31259	66.273	0.95221	-23.675
1570	0.94207	-24.233	0.32226	65.882	0.32226	65.882	0.94207	-24.233
1590	0.93916	-24.927	0.3291	65.792	0.3291	65.792	0.93916	-24.927
1610	0.94057	-25.376	0.33673	65.719	0.33673	65.719	0.94057	-25.376
1630	0.94321	-25.623	0.34495	65.363	0.34495	65.363	0.94321	-25.623
1650	0.94376	-26.128	0.34971	64.408	0.34971	64.408	0.94376	-26.128
1670	0.93028	-26.509	0.35457	63.802	0.35457	63.802	0.93028	-26.509
1690	0.92362	-26.649	0.36172	63.073	0.36172	63.073	0.92362	-26.649
1710	0.92058	-27.042	0.37114	62.278	0.37114	62.278	0.92058	-27.042
1730	0.91778	-27.805	0.38136	61.534	0.38136	61.534	0.91778	-27.805
1750	0.91161	-28.671	0.38951	61.025	0.38951	61.025	0.91161	-28.671
1770	0.91272	-29.045	0.40224	61.011	0.40224	61.011	0.91272	-29.045
1790	0.9088	-29.663	0.41053	60.532	0.41053	60.532	0.9088	-29.663
1810	0.90479	-30.055	0.41592	60.303	0.41592	60.303	0.90479	-30.055
1830	0.90312	-30.253	0.42074	60.362	0.42074	60.362	0.90312	-30.253
1850	0.90371	-30.793	0.42817	60.062	0.42817	60.062	0.90371	-30.793
1870	0.89766	-31.337	0.43108	59.203	0.43108	59.203	0.89766	-31.337
1890	0.89055	-31.618	0.43622	58.595	0.43622	58.595	0.89055	-31.618
1910	0.88809	-31.814	0.44401	57.95	0.44401	57.95	0.88809	-31.814
1930	0.88941	-32.281	0.45384	57.262	0.45384	57.262	0.88941	-32.281
1950	0.88706	-33.556	0.46414	56.804	0.46414	56.804	0.88706	-33.556
1970	0.87633	-33.766	0.47094	56.237	0.47094	56.237	0.87633	-33.766
1990	0.87249	-34.182	0.47849	56.023	0.47849	56.023	0.87249	-34.182
2010	0.87444	-34.655	0.48443	55.973	0.48443	55.973	0.87444	-34.655
2030	0.87741	-35.059	0.48863	55.792	0.48863	55.792	0.87741	-35.059
2050	0.87299	-35.295	0.49325	55.076	0.49325	55.076	0.87299	-35.295
2070	0.865	-35.261	0.4957	54.926	0.4957	54.926	0.865	-35.261
2090	0.86476	-35.398	0.50225	54.255	0.50225	54.255	0.86476	-35.398
2110	0.86076	-35.909	0.50755	53.316	0.50755	53.316	0.86076	-35.909
2130	0.85051	-36.554	0.51131	52.47	0.51131	52.47	0.85051	-36.554
2150	0.84053	-36.651	0.51833	52.187	0.51833	52.187	0.84053	-36.651
2170	0.83718	-37.53	0.52854	51.66	0.52854	51.66	0.83718	-37.53
2190	0.83703	-38.167	0.53657	50.996	0.53657	50.996	0.83703	-38.167
2210	0.8365	-38.554	0.54361	50.693	0.54361	50.693	0.8365	-38.554
2230	0.83316	-38.865	0.5496	50.593	0.5496	50.593	0.83316	-38.865
2250	0.82563	-39.466	0.55323	49.887	0.55323	49.887	0.82563	-39.466
2270	0.81856	-39.661	0.55572	49.457	0.55572	49.457	0.81856	-39.661
2290	0.81765	-39.793	0.56292	48.837	0.56292	48.837	0.81765	-39.793
2310	0.81234	-40.294	0.56859	47.946	0.56859	47.946	0.81234	-40.294
2330	0.80065	-41.101	0.57236	47.083	0.57236	47.083	0.80065	-41.101
2350	0.78913	-41.656	0.57984	46.926	0.57984	46.926	0.78913	-41.656
2370	0.79148	-41.917	0.59366	46.392	0.59366	46.392	0.79148	-41.917
2390	0.78595	-42.744	0.60074	45.801	0.60074	45.801	0.78595	-42.744
2410	0.77841	-43.414	0.60477	45.3	0.60477	45.3	0.77841	-43.414
2430	0.76943	-43.772	0.6083	44.809	0.6083	44.809	0.76943	-43.772
2450	0.75428	-44.218	0.61283	44.021	0.61283	44.021	0.75428	-44.218
2470	0.7293	-43.681	0.60621	43.099	0.60621	43.099	0.7293	-43.681
2490	0.73277	-41.749	0.59759	43.582	0.59759	43.582	0.73277	-41.749
2510	0.74784	-41.019	0.59942	44.219	0.59942	44.219	0.74784	-41.019
2530	0.75982	-41.945	0.61258	44.36	0.61258	44.36	0.75982	-41.945
2550	0.75613	-42.836	0.62642	43.958	0.62642	43.958	0.75613	-42.836
2570	0.75083	-43.667	0.63468	43.162	0.63468	43.162	0.75083	-43.667
2590	0.7482	-44.478	0.64307	42.881	0.64307	42.881	0.7482	-44.478
2610	0.7445	-45.321	0.64978	42.52	0.64978	42.52	0.7445	-45.321
2630	0.73952	-46.041	0.65491	42.097	0.65491	42.097	0.73952	-46.041
2650	0.7366	-46.283	0.66046	42.241	0.66046	42.241	0.7366	-46.283
2670	0.73716	-46.424	0.66171	41.684	0.66171	41.684	0.73716	-46.424
2690	0.73745	-46.902	0.66725	41.147	0.66725	41.147	0.73745	-46.902
2710	0.73022	-47.41	0.67077	40.678	0.67077	40.678	0.73022	-47.41
2730	0.71795	-47.809	0.67296	40.188	0.67296	40.188	0.71795	-47.809
2750	0.7129	-48.129	0.68143	39.45	0.68143	39.45	0.7129	-48.129
2770	0.70447	-48.924	0.68609	38.737	0.68609	38.737	0.70447	-48.924
2790	0.70082	-49.294	0.69192	38.409	0.69192	38.409	0.70082	-49.294
2810	0.69718	-49.677	0.69917	38.195	0.69917	38.195	0.69718	-49.677
2830	0.69217	-50.17	0.70611	37.914	0.70611	37.914	0.69217	-50.17
2850	0.68785	-50.536	0.70901	37.471	0.70901	37.471	0.68785	-50.536
2870	0.6807	-50.669	0.71185	36.781	0.71185	36.781	0.6807	-50.669
2890	0.67585	-51.162	0.71652	36.255	0.71652	36.255	0.67585	-51.162
2910	0.66955	-51.575	0.72208	35.765	0.72208	35.765	0.66955	-51.575
2930	0.66129	-51.913	0.72751	35.215	0.72751	35.215	0.66129	-51.913
2950	0.65374	-52.627	0.7317	34.54	0.7317	34.54	0.65374	-52.627
2970	0.6463	-53.285	0.73785	33.871	0.73785	33.871	0.6463	-53.285
2990	0.64203	-53.96	0.74095	33.331	0.74095	33.331	0.64203	-53.96
3010	0.63738	-54.347	0.74654	32.939	0.74654	32.939	0.63738	-54.347
3030	0.63219	-54.539	0.75429	32.661	0.75429	32.661	0.63219	-54.539
3050	0.6297	-55.028	0.75811	32.42	0.75811	32.42	0.6297	-55.028
3070	0.62094	-55.337	0.7637	32.184	0.7637	32.184	0.62094	-55.337
3090	0.6122	-55.626	0.76679	31.69	0.76679	31.69	0.6122	-55.626
3110	0.60607	-55.889	0.76941	31.074	0.76941	31.074	0.60607	-55.889
3130	0.60238	-56.202	0.77261	30.398	0.77261	30.398	0.60238	-56.202
3150	0.59826	-56.721	0.77641	29.65	0.77641	29.65	0.59826	-56.721
3170	0.58841	-57.445	0.77814	29.401	0.77814	29.401	0.58841	-57.445
3190	0.58121	-57.854	0.78484	28.861	0.78484	28.861	0.58121	-57.854
3210	0.57495	-58.33	0.79166	28.287	0.79166	28.287	0.57495	-58.33
3230	0.56812	-58.902	0.79653	27.781	0.79653	27.781	0.56812	-58.902
3250	0.55945	-59.245	0.80019	27.3	0.80019	27.3	0.55945	-59.245
3270	0.55633	-60.07	0.80112	26.846	0.80112	26.846	0.55633	-60.07
3290	0.54847	-60.542	0.80336	26.399	0.80336	26.399	0.54847	-60.542
3310	0.54211	-60.794	0.80812	25.963	0.80812	25.963	0.54211	-60.794
3330	0.53788	-61.092	0.8138	25.433	0.8138	25.433	0.53788	-61.092
3350	0.53082	-61.83	0.816	24.598	0.816	24.598	0.53082	-61.83
3370	0.51841	-62.172	0.82081	23.964	0.82081	23.964	0.51841	-62.172
3390	0.50935	-62.466	0.82539	23.586	0.82539	23.586	0.50935	-62.466
3410	0.50261	-62.857	0.8326	23.127	0.8326	23.127	0.50261	-62.857
3430	0.4949	-63.51	0.83973	22.486	0.83973	22.486	0.4949	-63.51
3450	0.48071	-64.606	0.83851	21.796	0.83851	21.796	0.48071	-64.606
3470	0.47215	-65.032	0.83906	21.244	0.83906	21.244	0.47215	-65.032
3490	0.46531	-65.209	0.84659	20.606	0.84659	20.606	0.46531	-65.209
3510	0.45829	-65.697	0.85094	19.808	0.85094	19.808	0.45829	-65.697
3530	0.44931	-66.371	0.85133	18.948	0.85133	18.948	0.44931	-66.371
3550	0.4367	-66.419	0.85633	18.294	0.85633	18.294	0.4367	-66.419
3570	0.42539	-66.692	0.86551	17.401	0.86551	17.401	0.42539	-66.692
3590	0.40971	-67.434	0.86781	16.388	0.86781	16.388	0.40971	-67.434
3610	0.39517	-68.137	0.8709	15.65	0.8709	15.65	0.39517	-68.137
3630	0.38323	-68.747	0.87699	15.07	0.87699	15.07	0.38323	-68.747
3650	0.37134	-69.662	0.88286	14.019	0.88286	14.019	0.37134	-69.662
3670	0.3565	-70.042	0.88534	12.928	0.88534	12.928	0.3565	-70.042
3690	0.34205	-70.165	0.88974	11.965	0.88974	11.965	0.34205	-70.165
3710	0.32594	-70.12	0.89329	10.805	0.89329	10.805	0.32594	-70.12
3730	0.30675	-69.969	0.89534	9.411	0.89534	9.411	0.30675	-69.969
3750	0.28366	-69.748	0.89737	8.039	0.89737	8.039	0.28366	-69.748
3770	0.25883	-69.041	0.89784	6.645	0.89784	6.645	0.25883	-69.041
3790	0.23377	-68.27	0.89818	5.046	0.89818	5.046	0.23377	-68.27
3810	0.20845	-66.934	0.90002	3.308	0.90002	3.308	0.20845	-66.934
3830	0.18307	-64.305	0.90206	1.459	0.90206	1.459	0.18307	-64.305
3850	0.15813	-59.425	0.90006	-0.511	0.90006	-0.511	0.15813	-59.425
3870	0.135	-49.112	0.89476	-2.867	0.89476	-2.867	0.135	-49.112
3890	0.1211	-32.679	0.88479	-5.27	0.88479	-5.27	0.1211	-32.679
3910	0.1229	-12.701	0.87147	-7.973	0.87147	-7.973	0.1229	-12.701
3930	0.14424	6.783	0.85405	-11.001	0.85405	-11.001	0.14424	6.783
3950	0.18635	20.267	0.82973	-14.147	0.82973	-14.147	0.18635	20.267
3970	0.24415	25.654	0.79348	-17.806	0.79348	-17.806	0.24415	25.654
3990	0.31124	26.894	0.7495	-21.801	0.7495	-21.801	0.31124	26.894
4010	0.38304	25.372	0.69556	-25.786	0.69556	-25.786	0.38304	25.372
4030	0.45657	22.083	0.62983	-29.556	0.62983	-29.556	0.45657	22.083
4050	0.53048	17.634	0.55091	-33.049	0.55091	-33.049	0.53048	17.634
4070	0.60485	12.276	0.46581	-34.322	0.46581	-34.322	0.60485	12.276
4090	0.66842	6.178	0.38239	-33.18	0.38239	-33.18	0.66842	6.178
4110	0.71933	0.199	0.30602	-27.701	0.30602	-27.701	0.71933	0.199
4130	0.7567	-5.247	0.24656	-16.593	0.24656	-16.593	0.7567	-5.247
4150	0.78065	-10.189	0.21838	0.811	0.21838	0.811	0.78065	-10.189
4170	0.79869	-15.472	0.2379	16.974	0.2379	16.974	0.79869	-15.472
4190	0.8026	-19.88	0.27158	27.896	0.27158	27.896	0.8026	-19.88
4210	0.8024	-23.659	0.31522	34.57	0.31522	34.57	0.8024	-23.659
4230	0.80073	-27.241	0.36206	37.985	0.36206	37.985	0.80073	-27.241
4250	0.79292	-31.245	0.40271	39.126	0.40271	39.126	0.79292	-31.245
4270	0.78339	-34.063	0.44269	39.516	0.44269	39.516	0.78339	-34.063
4290	0.77977	-36.652	0.47869	39.178	0.47869	39.178	0.77977	-36.652
4310	0.76954	-38.581	0.51031	38.654	0.51031	38.654	0.76954	-38.581
4330	0.75272	-40.109	0.53802	38.153	0.53802	38.153	0.75272	-40.109
4350	0.74193	-42.176	0.56316	37.547	0.56316	37.547	0.74193	-42.176
4370	0.73426	-44.296	0.5852	36.469	0.5852	36.469	0.73426	-44.296
4390	0.72089	-45.866	0.60434	35.521	0.60434	35.521	0.72089	-45.866
4410	0.709	-47.306	0.62268	34.565	0.62268	34.565	0.709	-47.306
4430	0.7	-48.668	0.64019	33.671	0.64019	33.671	0.7	-48.668
4450	0.68957	-49.629	0.65471	33.11	0.65471	33.11	0.68957	-49.629
4470	0.68607	-50.52	0.66778	32.421	0.66778	32.421	0.68607	-50.52
4490	0.67575	-51.665	0.67822	31.383	0.67822	31.383	0.67575	-51.665
4510	0.66266	-52.356	0.68811	30.752	0.68811	30.752	0.66266	-52.356
4530	0.65092	-52.847	0.69995	30.431	0.69995	30.431	0.65092	-52.847
4550	0.64474	-54.352	0.71674	29.466	0.71674	29.466	0.64474	-54.352
4570	0.63097	-55.408	0.71782	28.714	0.71782	28.714	0.63097	-55.408
4590	0.62154	-56.044	0.72287	28.316	0.72287	28.316	0.62154	-56.044
4610	0.61751	-56.683	0.73293	27.866	0.73293	27.866	0.61751	-56.683
4630	0.6156	-57.43	0.7437	27.199	0.7437	27.199	0.6156	-57.43
4650	0.60816	-58.076	0.74559	26.392	0.74559	26.392	0.60816	-58.076
4670	0.60141	-58.47	0.75254	25.801	0.75254	25.801	0.60141	-58.47
4690	0.59542	-58.712	0.76185	25.388	0.76185	25.388	0.59542	-58.712
4710	0.58613	-58.92	0.76714	24.859	0.76714	24.859	0.58613	-58.92
4730	0.57424	-59.313	0.76854	24.257	0.76854	24.257	0.57424	-59.313
4750	0.56524	-60.215	0.77264	23.961	0.77264	23.961	0.56524	-60.215
4770	0.56072	-60.815	0.78075	23.351	0.78075	23.351	0.56072	-60.815
4790	0.55149	-61.537	0.78494	22.795	0.78494	22.795	0.55149	-61.537
4810	0.54692	-62.18	0.78862	22.189	0.78862	22.189	0.54692	-62.18
4830	0.54726	-62.622	0.79316	21.616	0.79316	21.616	0.54726	-62.622
4850	0.54365	-62.821	0.79782	21.355	0.79782	21.355	0.54365	-62.821
4870	0.53752	-62.935	0.79922	20.964	0.79922	20.964	0.53752	-62.935
4890	0.5271	-63.301	0.80357	20.291	0.80357	20.291	0.5271	-63.301
4910	0.51971	-63.574	0.8096	19.759	0.8096	19.759	0.51971	-63.574
4930	0.51517	-63.848	0.81491	19.381	0.81491	19.381	0.51517	-63.848
4950	0.50574	-64.663	0.81596	18.767	0.81596	18.767	0.50574	-64.663
4970	0.49628	-65.288	0.81274	18.611	0.81274	18.611	0.49628	-65.288
4990	0.49821	-65.458	0.81982	18.421	0.81982	18.421	0.49821	-65.458
5010	0.49742	-65.809	0.82481	17.935	0.82481	17.935	0.49742	-65.809
5030	0.48998	-66.227	0.82507	17.357	0.82507	17.357	0.48998	-66.227
5050	0.48221	-65.849	0.8277	17.35	0.8277	17.35	0.48221	-65.849
5070	0.47839	-65.749	0.83402	16.9	0.83402	16.9	0.47839	-65.749
5090	0.47176	-65.727	0.83575	16.443	0.83575	16.443	0.47176	-65.727
5110	0.46356	-66.262	0.83485	16.041	0.83485	16.041	0.46356	-66.262
5130	0.4558	-67.139	0.83455	15.701	0.83455	15.701	0.4558	-67.139
5150	0.45134	-67.451	0.83935	15.387	0.83935	15.387	0.45134	-67.451
5170	0.45123	-68.101	0.84432	14.788	0.84432	14.788	0.45123	-68.101
5190	0.4494	-68.454	0.84388	14.252	0.84388	14.252	0.4494	-68.454
5210	0.44612	-68.384	0.84269	13.961	0.84269	13.961	0.44612	-68.384
5230	0.44237	-68.085	0.84443	13.841	0.84443	13.841	0.44237	-68.085
5250	0.43984	-68.071	0.85181	13.559	0.85181	13.559	0.43984	-68.071
5270	0.42531	-68.154	0.84667	13.079	0.84667	13.079	0.42531	-68.154
5290	0.42092	-67.962	0.85104	12.788	0.85104	12.788	0.42092	-67.962
5310	0.41858	-68.21	0.85503	12.466	0.85503	12.466	0.41858	-68.21
5330	0.41459	-68.952	0.85441	11.972	0.85441	11.972	0.41459	-68.952
5350	0.4097	-69.575	0.85065	11.254	0.85065	11.254	0.4097	-69.575
5370	0.40554	-69.651	0.85091	11.184	0.85091	11.184	0.40554	-69.651
5390	0.40496	-69.565	0.85489	10.868	0.85489	10.868	0.40496	-69.565
5410	0.40219	-69.353	0.85614	10.413	0.85614	10.413	0.40219	-69.353
5430	0.39516	-69.082	0.85487	10.025	0.85487	10.025	0.39516	-69.082
5450	0.38551	-68.842	0.85802	10.006	0.85802	10.006	0.38551	-68.842
5470	0.38182	-68.972	0.85703	9.671	0.85703	9.671	0.38182	-68.972
5490	0.37788	-69.468	0.85444	9.011	0.85444	9.011	0.37788	-69.468
5510	0.37326	-69.857	0.85529	8.536	0.85529	8.536	0.37326	-69.857
5530	0.36788	-70.01	0.85797	8.329	0.85797	8.329	0.36788	-70.01
5550	0.36208	-70.146	0.85418	8.049	0.85418	8.049	0.36208	-70.146
5570	0.35842	-70.284	0.85243	7.527	0.85243	7.527	0.35842	-70.284
5590	0.35318	-70.136	0.85524	6.97	0.85524	6.97	0.35318	-70.136
5610	0.34651	-69.962	0.85553	6.501	0.85553	6.501	0.34651	-69.962
5630	0.33916	-69.789	0.85196	6.188	0.85196	6.188	0.33916	-69.789
5650	0.33246	-69.417	0.84881	6.047	0.84881	6.047	0.33246	-69.417
5670	0.32823	-68.466	0.84739	5.858	0.84739	5.858	0.32823	-68.466
5690	0.32766	-67.286	0.84488	5.931	0.84488	5.931	0.32766	-67.286
5710	0.32771	-66.148	0.84234	5.849	0.84234	5.849	0.32771	-66.148
5730	0.3279	-65.289	0.83986	5.608	0.83986	5.608	0.3279	-65.289
5750	0.3304	-64.91	0.83652	5.609	0.83652	5.609	0.3304	-64.91
5770	0.32985	-64.611	0.84632	5.39	0.84632	5.39	0.32985	-64.611
5790	0.32792	-64.76	0.85022	5.293	0.85022	5.293	0.32792	-64.76
5810	0.32469	-65.051	0.85058	4.959	0.85058	4.959	0.32469	-65.051
5830	0.32077	-65.282	0.8488	4.458	0.8488	4.458	0.32077	-65.282
5850	0.31734	-65.356	0.84532	4.288	0.84532	4.288	0.31734	-65.356
5870	0.3177	-65.337	0.84978	3.894	0.84978	3.894	0.3177	-65.337
5890	0.31747	-65.457	0.85012	3.378	0.85012	3.378	0.31747	-65.457
5910	0.31499	-65.408	0.84742	2.941	0.84742	2.941	0.31499	-65.408
5930	0.31094	-64.997	0.8443	2.656	0.8443	2.656	0.31094	-64.997
5950	0.30832	-64.144	0.84496	2.461	0.84496	2.461	0.30832	-64.144
5970	0.30541	-64.162	0.8461	2.064	0.8461	2.064	0.30541	-64.162
5990	0.30051	-64.478	0.84398	1.834	0.84398	1.834	0.30051	-64.478
6010	0.29766	-64.55	0.84195	1.58	0.84195	1.58	0.29766	-64.55
6030	0.29706	-64.263	0.84161	1.235	0.84161	1.235	0.29706	-64.263
6050	0.29508	-63.938	0.84275	0.855	0.84275	0.855	0.29508	-63.938
6070	0.2931	-63.525	0.841	0.662	0.841	0.662	0.2931	-63.525
6090	0.29024	-63.171	0.83761	0.302	0.83761	0.302	0.29024	-63.171
6110	0.28727	-62.568	0.83352	0.115	0.83352	0.115	0.28727	-62.568
6130	0.28502	-61.828	0.83148	0.06	0.83148	0.06	0.28502	-61.828
