# MHZ S MA R 50

      50  0.05   77.80    0.99   -1.20    0.99   -1.20    0.05   77.80
     100  0.10   77.60    0.98   -4.20    0.98   -4.20    0.10   77.60
     150  0.14   77.50    0.98   -7.20    0.98   -7.20    0.14   77.50
     200  0.19   74.80    0.97   -9.90    0.97   -9.90    0.19   74.80
     250  0.23   72.20    0.96   -12.60   0.96   -12.60   0.23   72.20
     300  0.28   70.10    0.95   -15.40   0.95   -15.40   0.28   70.10
     350  0.32   68.10    0.93   -18.20   0.93   -18.20   0.32   68.10
     400  0.36   65.20    0.92   -20.80   0.92   -20.80   0.36   65.20
     450  0.40   62.40    0.90   -23.40   0.90   -23.40   0.40   62.40
     500  0.45   59.80    0.87   -27.30   0.87   -27.30   0.45   59.80
     550  0.50   57.20    0.85   -31.20   0.85   -31.20   0.50   57.20
     600  0.54   54.90    0.83   -33.70   0.83   -33.70   0.54   54.90
     650  0.58   52.70    0.81   -36.30   0.81   -36.30   0.58   52.70
     700  0.60   50.30    0.78   -38.60   0.78   -38.60   0.60   50.30
     750  0.63   47.90    0.76   -40.80   0.76   -40.80   0.63   47.90
     800  0.66   45.30    0.73   -43.20   0.73   -43.20   0.66   45.30
     850  0.69   42.70    0.71   -45.60   0.71   -45.60   0.69   42.70
     900  0.71   40.80    0.68   -47.50   0.68   -47.50   0.71   40.80
     950  0.74   38.80    0.65   -49.40   0.65   -49.40   0.74   38.80
    1000  0.76   37.10    0.63   -51.60   0.63   -51.60   0.76   37.10
    1050  0.78   35.30    0.61   -53.80   0.61   -53.80   0.78   35.30
    1100  0.80   33.20    0.58   -55.60   0.58   -55.60   0.80   33.20
    1150  0.81   31.20    0.56   -57.50   0.56   -57.50   0.81   31.20
    1200  0.83   29.80    0.53   -59.20   0.53   -59.20   0.83   29.80
    1250  0.85   28.40    0.51   -60.90   0.51   -60.90   0.85   28.40
    1300  0.86   26.30    0.49   -62.70   0.49   -62.70   0.86   26.30
    1350  0.87   24.30    0.46   -64.40   0.46   -64.40   0.87   24.30
    1400  0.89   22.80    0.44   -65.90   0.44   -65.90   0.89   22.80
    1450  0.90   21.30    0.41   -67.40   0.41   -67.40   0.90   21.30
    1500  0.91   19.40    0.39   -69.00   0.39   -69.00   0.91   19.40
    1550  0.92   17.60    0.37   -70.70   0.37   -70.70   0.92   17.60
    1600  0.93   16.20    0.35   -72.10   0.35   -72.10   0.93   16.20
    1650  0.94   14.70    0.33   -73.60   0.33   -73.60   0.94   14.70
    1700  0.94   13.50    0.30   -74.70   0.30   -74.70   0.94   13.50
    1750  0.95   12.30    0.28   -75.80   0.28   -75.80   0.95   12.30
    1800  0.96   10.80    0.26   -77.20   0.26   -77.20   0.96   10.80
    1850  0.97    9.30    0.24   -78.60   0.24   -78.60   0.97    9.30
    1900  0.97    7.70    0.22   -79.80   0.22   -79.80   0.97    7.70
    1950  0.97    6.20    0.20   -80.90   0.20   -80.90   0.97    6.20
    2000  0.97    4.90    0.18   -82.00   0.18   -82.00   0.97    4.90
    2050  0.98    3.60    0.16   -83.00   0.16   -83.00   0.98    3.60
    2100  0.98    2.60    0.14   -83.80   0.14   -83.80   0.98    2.60
    2150  0.99    1.60    0.12   -84.50   0.12   -84.50   0.99    1.60
    2200  0.99    0.00    0.10   -85.10   0.10   -85.10   0.99    0.00
    2250  0.99   -1.50    0.09   -85.70   0.09   -85.70   0.99   -1.50
    2300  0.99   -2.30    0.07   -84.90   0.07   -84.90   0.99   -2.30
    2350  0.99   -3.20    0.05   -84.10   0.05   -84.10   0.99   -3.20
    2400  0.99   -4.30    0.03   -75.10   0.03   -75.10   0.99   -4.30
    2450  0.99   -5.50    0.01   -66.10   0.01   -66.10   0.99   -5.50
    2500  0.99   -6.90    0.02   -0.60    0.02   -0.60    0.99   -6.90
    2550  1.00   -8.40    0.02   64.90    0.02   64.90    1.00   -8.40
    2600  0.99   -9.20    0.04   69.20    0.04   69.20    0.99   -9.20
    2650  0.99   -10.00   0.06   73.50    0.06   73.50    0.99   -10.00
    2700  0.99   -11.30   0.07   73.50    0.07   73.50    0.99   -11.30
    2750  0.99   -12.60   0.09   73.60    0.09   73.60    0.99   -12.60
    2800  0.99   -13.50   0.11   73.20    0.11   73.20    0.99   -13.50
    2850  0.99   -14.40   0.12   72.90    0.12   72.90    0.99   -14.40
    2900  0.99   -15.70   0.14   72.00    0.14   72.00    0.99   -15.70
    2950  0.98   -17.00   0.15   71.10    0.15   71.10    0.98   -17.00
    3000  0.98   -18.00   0.17   70.30    0.17   70.30    0.98   -18.00
    3050  0.97   -19.10   0.18   69.50    0.18   69.50    0.97   -19.10
    3100  0.97   -19.80   0.20   68.90    0.20   68.90    0.97   -19.80
    3150  0.97   -20.60   0.21   68.30    0.21   68.30    0.97   -20.60
    3200  0.96   -21.80   0.23   67.40    0.23   67.40    0.96   -21.80
    3250  0.96   -23.00   0.24   66.40    0.24   66.40    0.96   -23.00
    3300  0.95   -23.80   0.25   65.50    0.25   65.50    0.95   -23.80
    3350  0.95   -24.50   0.27   64.70    0.27   64.70    0.95   -24.50
    3400  0.95   -25.60   0.28   64.00    0.28   64.00    0.95   -25.60
    3450  0.95   -26.70   0.29   63.30    0.29   63.30    0.95   -26.70
    3500  0.94   -27.90   0.31   62.30    0.31   62.30    0.94   -27.90
    3550  0.94   -29.00   0.32   61.40    0.32   61.40    0.94   -29.00
    3600  0.93   -29.90   0.33   60.50    0.33   60.50    0.93   -29.90
    3650  0.93   -30.80   0.34   59.60    0.34   59.60    0.93   -30.80
    3700  0.92   -31.90   0.36   58.90    0.36   58.90    0.92   -31.90
    3750  0.92   -32.90   0.37   58.20    0.37   58.20    0.92   -32.90
    3800  0.91   -33.90   0.38   57.30    0.38   57.30    0.91   -33.90
    3850  0.91   -34.80   0.39   56.40    0.39   56.40    0.91   -34.80
    3900  0.90   -36.00   0.40   55.60    0.40   55.60    0.90   -36.00
    3950  0.89   -37.30   0.42   54.90    0.42   54.90    0.89   -37.30
    4000  0.89   -38.10   0.43   54.10    0.43   54.10    0.89   -38.10
    4050  0.88   -38.90   0.44   53.30    0.44   53.30    0.88   -38.90
    4100  0.87   -39.90   0.44   52.60    0.44   52.60    0.87   -39.90
    4150  0.86   -41.00   0.46   51.80    0.46   51.80    0.86   -41.00
    4200  0.86   -41.90   0.47   51.20    0.47   51.20    0.86   -41.90
    4250  0.86   -42.80   0.48   50.60    0.48   50.60    0.86   -42.80
    4300  0.85   -43.90   0.49   49.90    0.49   49.90    0.85   -43.90
    4350  0.84   -45.00   0.50   49.10    0.50   49.10    0.84   -45.00
    4400  0.84   -46.20   0.51   48.10    0.51   48.10    0.84   -46.20
    4450  0.83   -47.40   0.52   47.10    0.52   47.10    0.83   -47.40
    4500  0.82   -48.10   0.52   46.60    0.52   46.60    0.82   -48.10
    4550  0.81   -48.80   0.53   46.10    0.53   46.10    0.81   -48.80
    4600  0.82   -50.10   0.54   45.20    0.54   45.20    0.82   -50.10
    4650  0.82   -51.40   0.56   44.40    0.56   44.40    0.82   -51.40
    4700  0.81   -52.40   0.56   43.70    0.56   43.70    0.81   -52.40
    4750  0.80   -53.40   0.57   43.00    0.57   43.00    0.80   -53.40
    4800  0.79   -54.50   0.57   42.20    0.57   42.20    0.79   -54.50
    4850  0.78   -55.60   0.58   41.40    0.58   41.40    0.78   -55.60
    4900  0.78   -56.20   0.59   40.90    0.59   40.90    0.78   -56.20
    4950  0.78   -56.90   0.60   40.30    0.60   40.30    0.78   -56.90
    5000  0.77   -58.30   0.61   39.50    0.61   39.50    0.77   -58.30
    5050  0.76   -59.70   0.62   38.70    0.62   38.70    0.76   -59.70
    5100  0.75   -60.40   0.62   38.00    0.62   38.00    0.75   -60.40
    5150  0.74   -61.10   0.62   37.30    0.62   37.30    0.74   -61.10
    5200  0.74   -61.60   0.64   36.80    0.64   36.80    0.74   -61.60
    5250  0.74   -62.10   0.65   36.40    0.65   36.40    0.74   -62.10
    5300  0.73   -63.50   0.65   35.40    0.65   35.40    0.73   -63.50
    5350  0.73   -65.00   0.66   34.40    0.66   34.40    0.73   -65.00
    5400  0.72   -65.40   0.66   33.90    0.66   33.90    0.72   -65.40
    5450  0.71   -65.80   0.67   33.40    0.67   33.40    0.71   -65.80
    5500  0.71   -66.60   0.67   32.50    0.67   32.50    0.71   -66.60
    5550  0.70   -67.40   0.68   31.60    0.68   31.60    0.70   -67.40
    5600  0.70   -68.10   0.68   31.00    0.68   31.00    0.70   -68.10
    5650  0.69   -68.80   0.69   30.40    0.69   30.40    0.69   -68.80
    5700  0.68   -69.30   0.69   29.70    0.69   29.70    0.68   -69.30
    5750  0.68   -69.70   0.70   29.10    0.70   29.10    0.68   -69.70
    5800  0.67   -70.30   0.71   28.30    0.71   28.30    0.67   -70.30
    5850  0.66   -70.90   0.71   27.50    0.71   27.50    0.66   -70.90
    5900  0.65   -71.10   0.72   27.20    0.72   27.20    0.65   -71.10
    5950  0.65   -71.30   0.72   26.80    0.72   26.80    0.65   -71.30
    6000  0.64   -72.00   0.73   25.30    0.73   25.30    0.64   -72.00
    6050  0.63   -72.80   0.75   23.80    0.75   23.80    0.63   -72.80
    6100  0.62   -73.00   0.75   23.30    0.75   23.30    0.62   -73.00
    6150  0.61   -73.10   0.76   22.70    0.76   22.70    0.61   -73.10
    6200  0.61   -73.20   0.76   21.90    0.76   21.90    0.61   -73.20
    6250  0.60   -73.20   0.77   21.20    0.77   21.20    0.60   -73.20
    6300  0.59   -73.40   0.77   20.60    0.77   20.60    0.59   -73.40
    6350  0.58   -73.50   0.77   19.90    0.77   19.90    0.58   -73.50
    6400  0.58   -73.80   0.77   19.30    0.77   19.30    0.58   -73.80
    6450  0.57   -74.10   0.77   18.60    0.77   18.60    0.57   -74.10
    6500  0.54   -73.30   0.77   18.70    0.77   18.70    0.54   -73.30
    6550  0.52   -72.50   0.78   18.80    0.78   18.80    0.52   -72.50
    6600  0.52   -71.70   0.79   18.00    0.79   18.00    0.52   -71.70
    6650  0.52   -70.90   0.80   17.20    0.80   17.20    0.52   -70.90
    6700  0.52   -70.10   0.81   16.40    0.81   16.40    0.52   -70.10
    6750  0.51   -69.30   0.81   15.70    0.81   15.70    0.51   -69.30
    6800  0.51   -69.10   0.82   15.00    0.82   15.00    0.51   -69.10
    6850  0.50   -68.90   0.82   14.30    0.82   14.30    0.50   -68.90
    6900  0.49   -68.60   0.82   13.60    0.82   13.60    0.49   -68.60
    6950  0.48   -68.20   0.82   12.90    0.82   12.90    0.48   -68.20
    7000  0.48   -67.80   0.83   12.40    0.83   12.40    0.48   -67.80
    7050  0.47   -67.30   0.83   11.80    0.83   11.80    0.47   -67.30
    7100  0.46   -67.00   0.83   11.20    0.83   11.20    0.46   -67.00
    7150  0.45   -66.60   0.84   10.60    0.84   10.60    0.45   -66.60
    7200  0.45   -66.30   0.84   10.00    0.84   10.00    0.45   -66.30
    7250  0.44   -65.90   0.85    9.40    0.85    9.40    0.44   -65.90
    7300  0.44   -66.20   0.85    8.70    0.85    8.70    0.44   -66.20
    7350  0.43   -66.50   0.86    8.00    0.86    8.00    0.43   -66.50
    7400  0.42   -66.50   0.86    7.30    0.86    7.30    0.42   -66.50
    7450  0.41   -66.50   0.86    6.60    0.86    6.60    0.41   -66.50
    7500  0.40   -66.60   0.87    6.00    0.87    6.00    0.40   -66.60
    7550  0.40   -66.70   0.88    5.40    0.88    5.40    0.40   -66.70
    7600  0.39   -67.20   0.88    4.60    0.88    4.60    0.39   -67.20
    7650  0.37   -67.70   0.88    3.80    0.88    3.80    0.37   -67.70
    7700  0.36   -67.60   0.88    3.30    0.88    3.30    0.36   -67.60
    7750  0.35   -67.40   0.89    2.70    0.89    2.70    0.35   -67.40
    7800  0.34   -67.90   0.89    1.90    0.89    1.90    0.34   -67.90
    7850  0.33   -68.40   0.90    1.10    0.90    1.10    0.33   -68.40
    7900  0.32   -68.50   0.90    0.20    0.90    0.20    0.32   -68.50
    7950  0.31   -68.70   0.91   -0.60    0.91   -0.60    0.31   -68.70
    8000  0.30   -69.30   0.91   -1.50    0.91   -1.50    0.30   -69.30
    8050  0.29   -69.90   0.91   -2.30    0.91   -2.30    0.29   -69.90
    8100  0.27   -69.70   0.92   -2.90    0.92   -2.90    0.27   -69.70
    8150  0.26   -69.40   0.92   -3.50    0.92   -3.50    0.26   -69.40
    8200  0.25   -69.60   0.92   -4.40    0.92   -4.40    0.25   -69.60
    8250  0.24   -69.80   0.93   -5.30    0.93   -5.30    0.24   -69.80
    8300  0.22   -69.00   0.93   -6.10    0.93   -6.10    0.22   -69.00
    8350  0.21   -68.30   0.93   -6.90    0.93   -6.90    0.21   -68.30
    8400  0.20   -67.80   0.94   -7.90    0.94   -7.90    0.20   -67.80
    8450  0.19   -67.30   0.94   -8.90    0.94   -8.90    0.19   -67.30
    8500  0.17   -65.00   0.94   -9.80    0.94   -9.80    0.17   -65.00
    8550  0.16   -62.70   0.95   -10.80   0.95   -10.80   0.16   -62.70
    8600  0.15   -60.00   0.95   -11.70   0.95   -11.70   0.15   -60.00
    8650  0.14   -57.30   0.95   -12.70   0.95   -12.70   0.14   -57.30
    8700  0.12   -51.40   0.95   -13.90   0.95   -13.90   0.12   -51.40
    8750  0.11   -45.50   0.95   -15.10   0.95   -15.10   0.11   -45.50
    8800  0.10   -39.60   0.95   -16.00   0.95   -16.00   0.10   -39.60
    8850  0.10   -33.80   0.95   -16.90   0.95   -16.90   0.10   -33.80
    8900  0.10   -22.60   0.95   -18.20   0.95   -18.20   0.10   -22.60
    8950  0.09   -11.40   0.95   -19.40   0.95   -19.40   0.09   -11.40
    9000  0.10   -2.10    0.95   -20.40   0.95   -20.40   0.10   -2.10
    9050  0.11    7.10    0.95   -21.30   0.95   -21.30   0.11    7.10
    9100  0.12   14.80    0.94   -22.60   0.94   -22.60   0.12   14.80
    9150  0.13   22.40    0.94   -23.90   0.94   -23.90   0.13   22.40
    9200  0.14   26.70    0.94   -25.10   0.94   -25.10   0.14   26.70
    9250  0.16   31.10    0.93   -26.30   0.93   -26.30   0.16   31.10
    9300  0.17   34.20    0.93   -27.30   0.93   -27.30   0.17   34.20
    9350  0.19   37.40    0.93   -28.30   0.93   -28.30   0.19   37.40
    9400  0.21   38.10    0.92   -29.50   0.92   -29.50   0.21   38.10
    9450  0.23   38.80    0.91   -30.70   0.91   -30.70   0.23   38.80
    9500  0.24   39.70    0.90   -32.10   0.90   -32.10   0.24   39.70
    9550  0.26   40.50    0.90   -33.40   0.90   -33.40   0.26   40.50
    9600  0.29   39.90    0.89   -35.00   0.89   -35.00   0.29   39.90
    9650  0.31   39.30    0.88   -36.50   0.88   -36.50   0.31   39.30
    9700  0.33   38.90    0.87   -37.90   0.87   -37.90   0.33   38.90
    9750  0.35   38.40    0.86   -39.20   0.86   -39.20   0.35   38.40
    9800  0.38   37.40    0.84   -40.80   0.84   -40.80   0.38   37.40
    9850  0.41   36.40    0.83   -42.30   0.83   -42.30   0.41   36.40
    9900  0.43   34.80    0.82   -44.30   0.82   -44.30   0.43   34.80
    9950  0.46   33.20    0.80   -46.30   0.80   -46.30   0.46   33.20
   10000  0.48   31.50    0.78   -47.70   0.78   -47.70   0.48   31.50
   10050  0.51   29.80    0.75   -49.10   0.75   -49.10   0.51   29.80
   10100  0.53   27.00    0.73   -51.30   0.73   -51.30   0.53   27.00
   10150  0.56   24.20    0.71   -53.60   0.71   -53.60   0.56   24.20
   10200  0.59   21.90    0.68   -55.30   0.68   -55.30   0.59   21.90
   10250  0.61   19.60    0.64   -57.10   0.64   -57.10   0.61   19.60
   10300  0.64   15.80    0.60   -59.10   0.60   -59.10   0.64   15.80
   10350  0.67   12.10    0.56   -61.10   0.56   -61.10   0.67   12.10
   10400  0.69    8.50    0.52   -62.70   0.52   -62.70   0.69    8.50
   10450  0.71    4.80    0.48   -64.20   0.48   -64.20   0.71    4.80
   10500  0.74    1.30    0.43   -64.80   0.43   -64.80   0.74    1.30
   10550  0.76   -2.30    0.38   -65.40   0.38   -65.40   0.76   -2.30
   10600  0.77   -7.20    0.33   -64.10   0.33   -64.10   0.77   -7.20
   10650  0.79   -12.20   0.28   -62.70   0.28   -62.70   0.79   -12.20
   10700  0.80   -15.90   0.24   -54.70   0.24   -54.70   0.80   -15.90
   10750  0.81   -19.60   0.19   -46.70   0.19   -46.70   0.81   -19.60
   10800  0.82   -24.40   0.18   -29.50   0.18   -29.50   0.82   -24.40
   10850  0.82   -29.20   0.17   -12.20   0.17   -12.20   0.82   -29.20
   10900  0.81   -34.00   0.20    0.50    0.20    0.50    0.81   -34.00
   10950  0.81   -38.70   0.23   13.10    0.23   13.10    0.81   -38.70
   11000  0.78   -42.50   0.28   17.00    0.28   17.00    0.78   -42.50
   11050  0.75   -46.20   0.32   20.90    0.32   20.90    0.75   -46.20
   11100  0.75   -50.30   0.37   21.30    0.37   21.30    0.75   -50.30
   11150  0.74   -54.50   0.42   21.60    0.42   21.60    0.74   -54.50
   11200  0.71   -57.80   0.46   20.60    0.46   20.60    0.71   -57.80
   11250  0.68   -61.10   0.50   19.60    0.50   19.60    0.68   -61.10
   11300  0.66   -64.60   0.54   17.90    0.54   17.90    0.66   -64.60
   11350  0.64   -68.10   0.58   16.10    0.58   16.10    0.64   -68.10
   11400  0.62   -69.90   0.61   14.70    0.61   14.70    0.62   -69.90
   11450  0.60   -71.80   0.64   13.30    0.64   13.30    0.60   -71.80
   11500  0.58   -74.60   0.67   11.10    0.67   11.10    0.58   -74.60
   11550  0.56   -77.40   0.70    9.00    0.70    9.00    0.56   -77.40
   11600  0.54   -78.10   0.72    7.40    0.72    7.40    0.54   -78.10
   11650  0.52   -78.90   0.74    5.90    0.74    5.90    0.52   -78.90
   11700  0.49   -80.60   0.76    4.10    0.76    4.10    0.49   -80.60
   11750  0.47   -82.30   0.77    2.40    0.77    2.40    0.47   -82.30
   11800  0.45   -83.40   0.79    0.80    0.79    0.80    0.45   -83.40
   11850  0.43   -84.40   0.81   -0.80    0.81   -0.80    0.43   -84.40
   11900  0.41   -84.80   0.82   -2.10    0.82   -2.10    0.41   -84.80
   11950  0.39   -85.10   0.83   -3.40    0.83   -3.40    0.39   -85.10
   12000  0.37   -86.20   0.84   -5.10    0.84   -5.10    0.37   -86.20
   12050  0.35   -87.30   0.85   -6.70    0.85   -6.70    0.35   -87.30
   12100  0.34   -87.50   0.85   -7.80    0.85   -7.80    0.34   -87.50
   12150  0.32   -87.70   0.85   -8.90    0.85   -8.90    0.32   -87.70
   12200  0.31   -88.40   0.86   -10.20   0.86   -10.20   0.31   -88.40
   12250  0.29   -89.10   0.86   -11.50   0.86   -11.50   0.29   -89.10
   12300  0.28   -88.60   0.87   -12.50   0.87   -12.50   0.28   -88.60
   12350  0.27   -88.10   0.87   -13.40   0.87   -13.40   0.27   -88.10
   12400  0.25   -88.70   0.87   -14.00   0.87   -14.00   0.25   -88.70
   12450  0.24   -89.20   0.87   -14.70   0.87   -14.70   0.24   -89.20
   12500  0.22   -88.10   0.88   -15.90   0.88   -15.90   0.22   -88.10
   12550  0.21   -86.90   0.88   -17.10   0.88   -17.10   0.21   -86.90
   12600  0.19   -86.30   0.88   -17.80   0.88   -17.80   0.19   -86.30
   12650  0.18   -85.60   0.89   -18.60   0.89   -18.60   0.18   -85.60
   12700  0.17   -82.70   0.89   -19.40   0.89   -19.40   0.17   -82.70
   12750  0.16   -79.80   0.89   -20.30   0.89   -20.30   0.16   -79.80
   12800  0.15   -74.80   0.89   -20.90   0.89   -20.90   0.15   -74.80
   12850  0.14   -69.90   0.89   -21.60   0.89   -21.60   0.14   -69.90
   12900  0.13   -66.10   0.90   -22.60   0.90   -22.60   0.13   -66.10
   12950  0.12   -62.40   0.90   -23.60   0.90   -23.60   0.12   -62.40
   13000  0.12   -56.90   0.90   -24.20   0.90   -24.20   0.12   -56.90
   13050  0.12   -51.40   0.90   -24.80   0.90   -24.80   0.12   -51.40
   13100  0.12   -45.90   0.91   -25.70   0.91   -25.70   0.12   -45.90
   13150  0.12   -40.40   0.91   -26.60   0.91   -26.60   0.12   -40.40
   13200  0.12   -35.30   0.90   -27.40   0.90   -27.40   0.12   -35.30
   13250  0.12   -30.10   0.90   -28.20   0.90   -28.20   0.12   -30.10
   13300  0.12   -26.50   0.90   -29.00   0.90   -29.00   0.12   -26.50
   13350  0.12   -22.80   0.91   -29.90   0.91   -29.90   0.12   -22.80
   13400  0.13   -17.20   0.91   -30.80   0.91   -30.80   0.13   -17.20
   13450  0.14   -11.60   0.91   -31.70   0.91   -31.70   0.14   -11.60
   13500  0.13   -9.20    0.91   -32.40   0.91   -32.40   0.13   -9.20
   13550  0.13   -6.70    0.91   -33.10   0.91   -33.10   0.13   -6.70
   13600  0.14   -2.20    0.91   -34.00   0.91   -34.00   0.14   -2.20
   13650  0.15    2.20    0.91   -34.90   0.91   -34.90   0.15    2.20
   13700  0.16    4.80    0.91   -35.60   0.91   -35.60   0.16    4.80
   13750  0.16    7.30    0.91   -36.20   0.91   -36.20   0.16    7.30
   13800  0.17   10.20    0.91   -37.20   0.91   -37.20   0.17   10.20
   13850  0.18   13.10    0.91   -38.10   0.91   -38.10   0.18   13.10
   13900  0.19   13.20    0.91   -38.90   0.91   -38.90   0.19   13.20
