# MHZ S MA R 50

50	0.96	173.80	0.10	79.80	0.10	79.80	0.96	173.80
100	0.96	168.00	0.20	75.20	0.20	75.20	0.96	168.00
150	0.96	162.20	0.29	70.60	0.29	70.60	0.96	162.20
200	0.92	157.40	0.37	65.80	0.37	65.80	0.92	157.40
250	0.88	152.60	0.45	61.10	0.45	61.10	0.88	152.60
300	0.85	148.00	0.51	56.20	0.51	56.20	0.85	148.00
350	0.81	143.30	0.58	51.40	0.58	51.40	0.81	143.30
400	0.76	139.80	0.62	47.80	0.62	47.80	0.76	139.80
450	0.72	136.20	0.67	44.20	0.67	44.20	0.72	136.20
500	0.67	130.90	0.73	39.40	0.73	39.40	0.67	130.90
550	0.62	125.60	0.79	34.70	0.79	34.70	0.62	125.60
600	0.59	123.40	0.81	31.90	0.81	31.90	0.59	123.40
650	0.56	121.20	0.83	29.10	0.83	29.10	0.56	121.20
700	0.52	118.60	0.85	26.80	0.85	26.80	0.52	118.60
750	0.49	116.00	0.87	24.40	0.87	24.40	0.49	116.00
800	0.47	114.50	0.88	22.30	0.88	22.30	0.47	114.50
850	0.44	112.90	0.89	20.10	0.89	20.10	0.44	112.90
900	0.41	111.20	0.90	18.20	0.90	18.20	0.41	111.20
950	0.39	109.50	0.92	16.30	0.92	16.30	0.39	109.50
1000	0.37	108.20	0.92	14.60	0.92	14.60	0.37	108.20
1050	0.34	107.00	0.93	12.80	0.93	12.80	0.34	107.00
1100	0.33	105.10	0.94	11.30	0.94	11.30	0.33	105.10
1150	0.31	103.30	0.95	9.80	0.95	9.80	0.31	103.30
1200	0.29	102.30	0.95	8.40	0.95	8.40	0.29	102.30
1250	0.28	101.30	0.95	7.00	0.95	7.00	0.28	101.30
1300	0.26	99.80	0.96	5.70	0.96	5.70	0.26	99.80
1350	0.25	98.30	0.97	4.30	0.97	4.30	0.25	98.30
1400	0.23	97.50	0.97	3.10	0.97	3.10	0.23	97.50
1450	0.22	96.60	0.97	1.90	0.97	1.90	0.22	96.60
1500	0.21	95.60	0.97	0.70	0.97	0.70	0.21	95.60
1550	0.20	94.60	0.97	-0.50	0.97	-0.50	0.20	94.60
1600	0.19	93.50	0.98	-1.60	0.98	-1.60	0.19	93.50
1650	0.18	92.30	0.98	-2.70	0.98	-2.70	0.18	92.30
1700	0.17	92.30	0.98	-3.80	0.98	-3.80	0.17	92.30
1750	0.16	92.20	0.98	-4.90	0.98	-4.90	0.16	92.20
1800	0.15	91.50	0.99	-5.90	0.99	-5.90	0.15	91.50
1850	0.14	90.90	0.99	-6.80	0.99	-6.80	0.14	90.90
1900	0.13	91.00	0.99	-7.80	0.99	-7.80	0.13	91.00
1950	0.12	91.10	0.99	-8.70	0.99	-8.70	0.12	91.10
2000	0.11	91.50	0.99	-9.80	0.99	-9.80	0.11	91.50
2050	0.10	91.80	0.99	-10.80	0.99	-10.80	0.10	91.80
2100	0.09	93.50	0.99	-11.70	0.99	-11.70	0.09	93.50
2150	0.08	95.20	0.99	-12.60	0.99	-12.60	0.08	95.20
2200	0.08	98.20	0.99	-13.60	0.99	-13.60	0.08	98.20
2250	0.07	101.10	0.99	-14.50	0.99	-14.50	0.07	101.10
2300	0.06	106.50	0.99	-15.40	0.99	-15.40	0.06	106.50
2350	0.05	111.80	0.99	-16.20	0.99	-16.20	0.05	111.80
2400	0.05	121.80	0.99	-17.20	0.99	-17.20	0.05	121.80
2450	0.04	131.80	0.99	-18.20	0.99	-18.20	0.04	131.80
2500	0.04	147.00	0.99	-19.10	0.99	-19.10	0.04	147.00
2550	0.04	162.20	0.99	-20.00	0.99	-20.00	0.04	162.20
2600	0.04	-5.30	0.99	-20.80	0.99	-20.80	0.04	-5.30
2650	0.05	-172.70	0.99	-21.60	0.99	-21.60	0.05	-172.70
2700	0.05	-165.50	0.99	-22.50	0.99	-22.50	0.05	-165.50
2750	0.06	-158.30	0.99	-23.30	0.99	-23.30	0.06	-158.30
2800	0.07	-152.70	0.99	-24.10	0.99	-24.10	0.07	-152.70
2850	0.08	-147.20	0.99	-24.90	0.99	-24.90	0.08	-147.20
2900	0.09	-145.70	0.99	-25.90	0.99	-25.90	0.09	-145.70
2950	0.09	-144.20	0.99	-26.90	0.99	-26.90	0.09	-144.20
3000	0.10	-140.90	0.99	-27.60	0.99	-27.60	0.10	-140.90
3050	0.11	-137.60	0.99	-28.40	0.99	-28.40	0.11	-137.60
3100	0.12	-138.00	0.98	-29.30	0.98	-29.30	0.12	-138.00
3150	0.12	-138.40	0.98	-30.20	0.98	-30.20	0.12	-138.40
3200	0.13	-136.40	0.98	-30.90	0.98	-30.90	0.13	-136.40
3250	0.13	-134.40	0.98	-31.50	0.98	-31.50	0.13	-134.40
3300	0.14	-134.70	0.98	-32.40	0.98	-32.40	0.14	-134.70
3350	0.14	-135.10	0.98	-33.30	0.98	-33.30	0.14	-135.10
3400	0.15	-134.90	0.98	-34.10	0.98	-34.10	0.15	-134.90
3450	0.15	-134.70	0.98	-34.80	0.98	-34.80	0.15	-134.70
3500	0.15	-134.60	0.98	-35.60	0.98	-35.60	0.15	-134.60
3550	0.16	-134.50	0.98	-36.40	0.98	-36.40	0.16	-134.50
3600	0.16	-134.90	0.98	-37.10	0.98	-37.10	0.16	-134.90
3650	0.17	-135.20	0.98	-37.90	0.98	-37.90	0.17	-135.20
3700	0.17	-135.10	0.98	-38.80	0.98	-38.80	0.17	-135.10
3750	0.17	-135.00	0.98	-39.70	0.98	-39.70	0.17	-135.00
3800	0.17	-135.40	0.98	-40.40	0.98	-40.40	0.17	-135.40
3850	0.18	-135.80	0.98	-41.10	0.98	-41.10	0.18	-135.80
3900	0.18	-136.50	0.98	-42.10	0.98	-42.10	0.18	-136.50
3950	0.19	-137.20	0.97	-43.20	0.97	-43.20	0.19	-137.20
4000	0.19	-137.30	0.97	-43.90	0.97	-43.90	0.19	-137.30
4050	0.20	-137.40	0.97	-44.60	0.97	-44.60	0.20	-137.40
4100	0.20	-137.90	0.97	-45.40	0.97	-45.40	0.20	-137.90
4150	0.20	-138.50	0.97	-46.30	0.97	-46.30	0.20	-138.50
4200	0.21	-139.20	0.97	-47.20	0.97	-47.20	0.21	-139.20
4250	0.22	-140.00	0.97	-48.10	0.97	-48.10	0.22	-140.00
4300	0.23	-140.40	0.96	-48.80	0.96	-48.80	0.23	-140.40
4350	0.23	-140.90	0.96	-49.40	0.96	-49.40	0.23	-140.90
4400	0.24	-141.60	0.96	-50.40	0.96	-50.40	0.24	-141.60
4450	0.25	-142.40	0.96	-51.30	0.96	-51.30	0.25	-142.40
4500	0.26	-142.70	0.95	-52.30	0.95	-52.30	0.26	-142.70
4550	0.27	-143.00	0.95	-53.20	0.95	-53.20	0.27	-143.00
4600	0.28	-144.20	0.95	-54.20	0.95	-54.20	0.28	-144.20
4650	0.29	-145.40	0.95	-55.30	0.95	-55.30	0.29	-145.40
4700	0.30	-145.90	0.94	-56.00	0.94	-56.00	0.30	-145.90
4750	0.31	-146.40	0.94	-56.80	0.94	-56.80	0.31	-146.40
4800	0.32	-147.10	0.93	-57.60	0.93	-57.60	0.32	-147.10
4850	0.33	-147.80	0.93	-58.40	0.93	-58.40	0.33	-147.80
4900	0.34	-148.70	0.93	-59.30	0.93	-59.30	0.34	-148.70
4950	0.35	-149.60	0.93	-60.30	0.93	-60.30	0.35	-149.60
5000	0.36	-150.50	0.92	-61.10	0.92	-61.10	0.36	-150.50
5050	0.36	-151.40	0.91	-61.90	0.91	-61.90	0.36	-151.40
5100	0.37	-152.20	0.91	-62.60	0.91	-62.60	0.37	-152.20
5150	0.37	-153.00	0.91	-63.30	0.91	-63.30	0.37	-153.00
5200	0.38	-154.00	0.91	-64.10	0.91	-64.10	0.38	-154.00
5250	0.39	-155.00	0.91	-65.00	0.91	-65.00	0.39	-155.00
5300	0.40	-156.60	0.90	-66.00	0.90	-66.00	0.40	-156.60
5350	0.41	-158.20	0.90	-67.10	0.90	-67.10	0.41	-158.20
5400	0.41	-159.30	0.89	-67.90	0.89	-67.90	0.41	-159.30
5450	0.42	-160.40	0.89	-68.80	0.89	-68.80	0.42	-160.40
5500	0.42	-162.20	0.89	-69.70	0.89	-69.70	0.42	-162.20
5550	0.43	-163.90	0.88	-70.70	0.88	-70.70	0.43	-163.90
5600	0.43	-165.30	0.88	-71.60	0.88	-71.60	0.43	-165.30
5650	0.44	-166.70	0.88	-72.60	0.88	-72.60	0.44	-166.70
5700	0.45	-168.40	0.88	-73.60	0.88	-73.60	0.45	-168.40
5750	0.46	-170.20	0.87	-74.60	0.87	-74.60	0.46	-170.20
5800	0.46	-172.00	0.87	-75.60	0.87	-75.60	0.46	-172.00
5850	0.46	-173.80	0.86	-76.60	0.86	-76.60	0.46	-173.80
5900	0.47	-175.50	0.86	-77.60	0.86	-77.60	0.47	-175.50
5950	0.49	-177.30	0.85	-78.60	0.85	-78.60	0.49	-177.30
6000	0.50	-178.50	0.84	-79.80	0.84	-79.80	0.50	-178.50
6050	0.52	-179.70	0.83	-81.00	0.83	-81.00	0.52	-179.70
6100	0.53	-1.10	0.82	-81.90	0.82	-81.90	0.53	-1.10
6150	0.55	177.40	0.81	-82.80	0.81	-82.80	0.55	177.40
6200	0.56	175.50	0.80	-83.90	0.80	-83.90	0.56	175.50
6250	0.57	173.60	0.80	-85.00	0.80	-85.00	0.57	173.60
6300	0.58	172.60	0.79	-85.90	0.79	-85.90	0.58	172.60
6350	0.59	171.60	0.77	-86.90	0.77	-86.90	0.59	171.60
6400	0.60	170.50	0.76	-87.80	0.76	-87.80	0.60	170.50
6450	0.61	169.40	0.75	-88.80	0.75	-88.80	0.61	169.40
6500	0.62	168.50	0.74	-89.80	0.74	-89.80	0.62	168.50
6550	0.63	167.60	0.73	-90.80	0.73	-90.80	0.63	167.60
6600	0.64	166.60	0.73	-91.70	0.73	-91.70	0.64	166.60
6650	0.66	165.60	0.72	-92.70	0.72	-92.70	0.66	165.60
6700	0.66	165.00	0.71	-93.50	0.71	-93.50	0.66	165.00
6750	0.67	164.40	0.70	-94.30	0.70	-94.30	0.67	164.40
6800	0.68	163.10	0.69	-95.50	0.69	-95.50	0.68	163.10
6850	0.70	161.70	0.68	-96.60	0.68	-96.60	0.70	161.70
6900	0.70	161.10	0.67	-97.60	0.67	-97.60	0.70	161.10
6950	0.71	160.40	0.66	-98.50	0.66	-98.50	0.71	160.40
7000	0.72	159.00	0.65	-99.80	0.65	-99.80	0.72	159.00
7050	0.74	157.50	0.64	-101.20	0.64	-101.20	0.74	157.50
7100	0.74	156.30	0.63	-102.30	0.63	-102.30	0.74	156.30
7150	0.75	155.10	0.62	-103.40	0.62	-103.40	0.75	155.10
7200	0.76	153.50	0.61	-105.10	0.61	-105.10	0.76	153.50
7250	0.78	151.90	0.60	-106.70	0.60	-106.70	0.78	151.90
7300	0.78	150.00	0.58	-108.20	0.58	-108.20	0.78	150.00
7350	0.79	148.00	0.56	-109.60	0.56	-109.60	0.79	148.00
7400	0.80	146.10	0.55	-111.20	0.55	-111.20	0.80	146.10
7450	0.80	144.20	0.53	-112.90	0.53	-112.90	0.80	144.20
7500	0.82	141.60	0.51	-114.70	0.51	-114.70	0.82	141.60
7550	0.83	139.00	0.49	-116.60	0.49	-116.60	0.83	139.00
7600	0.83	136.60	0.46	-118.20	0.46	-118.20	0.83	136.60
7650	0.84	134.20	0.44	-119.70	0.44	-119.70	0.84	134.20
7700	0.85	131.20	0.41	-121.70	0.41	-121.70	0.85	131.20
7750	0.86	128.20	0.39	-123.60	0.39	-123.60	0.86	128.20
7800	0.87	124.90	0.36	-125.20	0.36	-125.20	0.87	124.90
7850	0.87	121.60	0.33	-126.70	0.33	-126.70	0.87	121.60
7900	0.88	118.90	0.30	-127.50	0.30	-127.50	0.88	118.90
7950	0.89	116.20	0.27	-128.30	0.27	-128.30	0.89	116.20
8000	0.90	113.00	0.23	-128.10	0.23	-128.10	0.90	113.00
8050	0.91	109.90	0.20	-127.90	0.20	-127.90	0.91	109.90
8100	0.91	106.80	0.17	-125.40	0.17	-125.40	0.91	106.80
8150	0.91	103.60	0.14	-122.80	0.14	-122.80	0.91	103.60
8200	0.92	101.40	0.11	-112.00	0.11	-112.00	0.92	101.40
8250	0.92	99.20	0.09	-101.10	0.09	-101.10	0.92	99.20
8300	0.92	96.60	0.09	-79.20	0.09	-79.20	0.92	96.60
8350	0.92	94.10	0.08	-57.30	0.08	-57.30	0.92	94.10
8400	0.92	92.30	0.10	-43.00	0.10	-43.00	0.92	92.30
8450	0.92	90.50	0.12	-28.80	0.12	-28.80	0.92	90.50
8500	0.91	88.50	0.15	-24.40	0.15	-24.40	0.91	88.50
8550	0.89	86.50	0.18	-20.00	0.18	-20.00	0.89	86.50
8600	0.89	84.70	0.21	-18.90	0.21	-18.90	0.89	84.70
8650	0.89	82.90	0.25	-17.80	0.25	-17.80	0.89	82.90
8700	0.88	81.40	0.28	-18.30	0.28	-18.30	0.88	81.40
8750	0.87	79.80	0.31	-18.70	0.31	-18.70	0.87	79.80
8800	0.86	77.50	0.34	-20.00	0.34	-20.00	0.86	77.50
8850	0.86	75.10	0.37	-21.20	0.37	-21.20	0.86	75.10
8900	0.84	73.70	0.40	-22.80	0.40	-22.80	0.84	73.70
8950	0.82	72.40	0.43	-24.30	0.43	-24.30	0.82	72.40
9000	0.80	70.30	0.46	-26.30	0.46	-26.30	0.80	70.30
9050	0.79	68.30	0.49	-28.20	0.49	-28.20	0.79	68.30
9100	0.77	66.10	0.51	-30.50	0.51	-30.50	0.77	66.10
9150	0.76	64.00	0.54	-32.70	0.54	-32.70	0.76	64.00
9200	0.73	61.20	0.56	-35.20	0.56	-35.20	0.73	61.20
9250	0.69	58.40	0.57	-37.70	0.57	-37.70	0.69	58.40
9300	0.67	57.50	0.60	-39.80	0.60	-39.80	0.67	57.50
9350	0.65	56.50	0.62	-42.00	0.62	-42.00	0.65	56.50
9400	0.62	55.20	0.62	-45.50	0.62	-45.50	0.62	55.20
9450	0.60	53.80	0.62	-48.90	0.62	-48.90	0.60	53.80
9500	0.60	54.50	0.60	-49.60	0.60	-49.60	0.60	54.50
9550	0.60	55.20	0.57	-50.30	0.57	-50.30	0.60	55.20
9600	0.62	52.90	0.59	-49.30	0.59	-49.30	0.62	52.90
9650	0.63	50.60	0.60	-48.40	0.60	-48.40	0.63	50.60
9700	0.62	48.20	0.62	-48.90	0.62	-48.90	0.62	48.20
9750	0.61	45.90	0.63	-49.40	0.63	-49.40	0.61	45.90
9800	0.61	45.30	0.64	-50.10	0.64	-50.10	0.61	45.30
9850	0.60	44.70	0.66	-50.80	0.66	-50.80	0.60	44.70
9900	0.60	43.40	0.67	-52.00	0.67	-52.00	0.60	43.40
9950	0.61	42.00	0.68	-53.20	0.68	-53.20	0.61	42.00
10000	0.59	41.10	0.69	-53.60	0.69	-53.60	0.59	41.10
10050	0.58	40.10	0.69	-54.10	0.69	-54.10	0.58	40.10
10100	0.58	40.40	0.70	-54.90	0.70	-54.90	0.58	40.40
10150	0.58	40.70	0.72	-55.70	0.72	-55.70	0.58	40.70
10200	0.57	39.40	0.73	-56.40	0.73	-56.40	0.57	39.40
10250	0.56	38.10	0.74	-57.20	0.74	-57.20	0.56	38.10
10300	0.55	38.20	0.74	-58.00	0.74	-58.00	0.55	38.20
10350	0.53	38.30	0.75	-58.90	0.75	-58.90	0.53	38.30
10400	0.52	37.40	0.76	-59.60	0.76	-59.60	0.52	37.40
10450	0.50	36.40	0.78	-60.40	0.78	-60.40	0.50	36.40
10500	0.49	36.00	0.78	-61.50	0.78	-61.50	0.49	36.00
10550	0.47	35.50	0.79	-62.70	0.79	-62.70	0.47	35.50
10600	0.46	35.80	0.80	-63.40	0.80	-63.40	0.46	35.80
10650	0.45	36.20	0.81	-64.10	0.81	-64.10	0.45	36.20
10700	0.43	35.00	0.81	-64.90	0.81	-64.90	0.43	35.00
10750	0.42	33.80	0.82	-65.70	0.82	-65.70	0.42	33.80
10800	0.41	32.80	0.83	-66.20	0.83	-66.20	0.41	32.80
10850	0.40	31.80	0.85	-66.60	0.85	-66.60	0.40	31.80
10900	0.38	28.00	0.86	-67.80	0.86	-67.80	0.38	28.00
10950	0.36	24.10	0.88	-69.00	0.88	-69.00	0.36	24.10
11000	0.33	21.80	0.89	-70.70	0.89	-70.70	0.33	21.80
11050	0.30	19.50	0.90	-72.40	0.90	-72.40	0.30	19.50
11100	0.29	15.50	0.90	-73.60	0.90	-73.60	0.29	15.50
11150	0.28	11.60	0.91	-74.90	0.91	-74.90	0.28	11.60
11200	0.26	8.10	0.92	-76.40	0.92	-76.40	0.26	8.10
11250	0.24	4.60	0.92	-77.90	0.92	-77.90	0.24	4.60
11300	0.23	0.70	0.92	-79.10	0.92	-79.10	0.23	0.70
11350	0.22	-3.20	0.93	-80.40	0.93	-80.40	0.22	-3.20
11400	0.22	-5.90	0.92	-81.50	0.92	-81.50	0.22	-5.90
11450	0.21	-8.70	0.92	-82.50	0.92	-82.50	0.21	-8.70
11500	0.21	-10.60	0.92	-83.60	0.92	-83.60	0.21	-10.60
11550	0.21	-12.40	0.93	-84.70	0.93	-84.70	0.21	-12.40
11600	0.21	-13.10	0.93	-85.60	0.93	-85.60	0.21	-13.10
11650	0.21	-13.80	0.93	-86.50	0.93	-86.50	0.21	-13.80
11700	0.21	-14.10	0.93	-87.40	0.93	-87.40	0.21	-14.10
11750	0.21	-14.50	0.93	-88.30	0.93	-88.30	0.21	-14.50
11800	0.21	-12.70	0.93	-89.00	0.93	-89.00	0.21	-12.70
11850	0.21	-10.80	0.93	-89.60	0.93	-89.60	0.21	-10.80
11900	0.21	-8.90	0.93	-90.40	0.93	-90.40	0.21	-8.90
11950	0.20	-7.10	0.93	-91.20	0.93	-91.20	0.20	-7.10
12000	0.20	-6.30	0.93	-92.00	0.93	-92.00	0.20	-6.30
12050	0.20	-5.50	0.94	-92.80	0.94	-92.80	0.20	-5.50
12100	0.20	-1.90	0.94	-93.60	0.94	-93.60	0.20	-1.90
12150	0.20	1.70	0.94	-94.50	0.94	-94.50	0.20	1.70
12200	0.20	4.20	0.94	-95.20	0.94	-95.20	0.20	4.20
12250	0.20	6.70	0.94	-95.90	0.94	-95.90	0.20	6.70
12300	0.19	11.70	0.94	-96.70	0.94	-96.70	0.19	11.70
12350	0.19	16.60	0.94	-97.40	0.94	-97.40	0.19	16.60
12400	0.19	19.00	0.94	-98.30	0.94	-98.30	0.19	19.00
12450	0.19	21.50	0.95	-99.20	0.95	-99.20	0.19	21.50
12500	0.19	26.90	0.95	-100.00	0.95	-100.00	0.19	26.90
12550	0.19	32.30	0.95	-100.80	0.95	-100.80	0.19	32.30
12600	0.19	35.90	0.95	-101.50	0.95	-101.50	0.19	35.90
12650	0.19	39.50	0.94	-102.30	0.94	-102.30	0.19	39.50
12700	0.19	42.70	0.94	-103.20	0.94	-103.20	0.19	42.70
12750	0.19	45.90	0.94	-104.00	0.94	-104.00	0.19	45.90
12800	0.18	49.80	0.94	-104.90	0.94	-104.90	0.18	49.80
12850	0.18	53.70	0.94	-105.90	0.94	-105.90	0.18	53.70
12900	0.17	56.60	0.94	-106.70	0.94	-106.70	0.17	56.60
12950	0.17	59.50	0.94	-107.40	0.94	-107.40	0.17	59.50
13000	0.16	62.20	0.94	-108.30	0.94	-108.30	0.16	62.20
13050	0.15	65.00	0.94	-109.20	0.94	-109.20	0.15	65.00
13100	0.14	68.00	0.93	-110.00	0.93	-110.00	0.14	68.00
13150	0.13	70.90	0.93	-110.80	0.93	-110.80	0.13	70.90
13200	0.12	71.70	0.93	-111.40	0.93	-111.40	0.12	71.70
13250	0.12	72.40	0.92	-112.00	0.92	-112.00	0.12	72.40
13300	0.10	75.30	0.92	-113.10	0.92	-113.10	0.10	75.30
13350	0.08	78.20	0.91	-114.20	0.91	-114.20	0.08	78.20
13400	0.07	76.40	0.91	-114.90	0.91	-114.90	0.07	76.40
13450	0.07	74.60	0.90	-115.70	0.90	-115.70	0.07	74.60
13500	0.05	64.50	0.90	-116.30	0.90	-116.30	0.05	64.50
13550	0.04	54.40	0.89	-116.80	0.89	-116.80	0.04	54.40
13600	0.03	24.20	0.89	-117.30	0.89	-117.30	0.03	24.20
13650	0.02	-6.10	0.88	-117.90	0.88	-117.90	0.02	-6.10
13700	0.04	-22.80	0.88	-118.20	0.88	-118.20	0.04	-22.80
13750	0.05	-39.60	0.87	-118.50	0.87	-118.50	0.05	-39.60
13800	0.07	-47.80	0.87	-118.60	0.87	-118.60	0.07	-47.80
13850	0.08	-56.00	0.86	-118.70	0.86	-118.70	0.08	-56.00
13900	0.10	-53.70	0.86	-118.90	0.86	-118.90	0.10	-53.70
13950	0.12	-51.30	0.86	-119.00	0.86	-119.00	0.12	-51.30
14000	0.13	-51.50	0.86	-119.20	0.86	-119.20	0.13	-51.50
14050	0.14	-51.70	0.87	-119.40	0.87	-119.40	0.14	-51.70
14100	0.15	-50.20	0.87	-119.70	0.87	-119.70	0.15	-50.20
14150	0.16	-48.70	0.87	-119.90	0.87	-119.90	0.16	-48.70
14200	0.17	-46.40	0.87	-120.30	0.87	-120.30	0.17	-46.40
14250	0.18	-44.10	0.88	-120.80	0.88	-120.80	0.18	-44.10
14300	0.18	-42.00	0.88	-121.20	0.88	-121.20	0.18	-42.00
14350	0.17	-39.80	0.89	-121.60	0.89	-121.60	0.17	-39.80
14400	0.18	-37.30	0.89	-122.30	0.89	-122.30	0.18	-37.30
14450	0.19	-34.80	0.89	-123.00	0.89	-123.00	0.19	-34.80
14500	0.18	-31.70	0.90	-123.40	0.90	-123.40	0.18	-31.70
14550	0.17	-28.60	0.90	-123.80	0.90	-123.80	0.17	-28.60
14600	0.17	-24.30	0.90	-124.50	0.90	-124.50	0.17	-24.30
14650	0.17	-20.10	0.91	-125.20	0.91	-125.20	0.17	-20.10
14700	0.16	-17.30	0.91	-125.90	0.91	-125.90	0.16	-17.30
14750	0.15	-14.50	0.92	-126.60	0.92	-126.60	0.15	-14.50
14800	0.15	-8.90	0.92	-127.40	0.92	-127.40	0.15	-8.90
14850	0.15	-3.20	0.92	-128.20	0.92	-128.20	0.15	-3.20
14900	0.13	1.90	0.93	-128.70	0.93	-128.70	0.13	1.90
14950	0.12	7.00	0.93	-129.30	0.93	-129.30	0.12	7.00
15000	0.12	11.40	0.93	-130.20	0.93	-130.20	0.12	11.40
15050	0.12	15.70	0.94	-131.10	0.94	-131.10	0.12	15.70
15100	0.10	19.50	0.94	-131.60	0.94	-131.60	0.10	19.50
15150	0.10	23.30	0.94	-132.10	0.94	-132.10	0.10	23.30
15200	0.09	27.90	0.95	-132.70	0.95	-132.70	0.09	27.90
15250	0.09	32.40	0.95	-133.30	0.95	-133.30	0.09	32.40
15300	0.08	32.90	0.95	-134.10	0.95	-134.10	0.08	32.90
15350	0.07	33.30	0.95	-135.00	0.95	-135.00	0.07	33.30
15400	0.06	35.90	0.95	-135.60	0.95	-135.60	0.06	35.90
15450	0.06	38.50	0.95	-136.30	0.95	-136.30	0.06	38.50
15500	0.05	32.10	0.95	-136.90	0.95	-136.90	0.05	32.10
15550	0.05	25.60	0.95	-137.50	0.95	-137.50	0.05	25.60
15600	0.03	26.30	0.95	-138.20	0.95	-138.20	0.03	26.30
15650	0.02	27.00	0.95	-138.80	0.95	-138.80	0.02	27.00
15700	0.03	15.10	0.95	-139.60	0.95	-139.60	0.03	15.10
15750	0.03	3.20	0.95	-140.40	0.95	-140.40	0.03	3.20
15800	0.02	-23.10	0.95	-141.00	0.95	-141.00	0.02	-23.10
15850	0.01	-49.40	0.95	-141.60	0.95	-141.60	0.01	-49.40
15900	0.01	-11.30	0.95	-142.50	0.95	-142.50	0.01	-11.30
15950	0.02	26.90	0.95	-143.30	0.95	-143.30	0.02	26.90
16000	0.02	68.20	0.95	-144.00	0.95	-144.00	0.02	68.20
16050	0.02	109.60	0.95	-144.80	0.95	-144.80	0.02	109.60
16100	0.03	112.50	0.95	-145.80	0.95	-145.80	0.03	112.50
16150	0.05	115.30	0.94	-146.80	0.94	-146.80	0.05	115.30
16200	0.06	112.90	0.94	-147.80	0.94	-147.80	0.06	112.90
16250	0.07	110.40	0.94	-148.80	0.94	-148.80	0.07	110.40
16300	0.09	112.80	0.93	-149.70	0.93	-149.70	0.09	112.80
16350	0.12	115.20	0.93	-150.60	0.93	-150.60	0.12	115.20
16400	0.14	113.40	0.92	-151.50	0.92	-151.50	0.14	113.40
16450	0.15	111.60	0.92	-152.30	0.92	-152.30	0.15	111.60
16500	0.17	111.80	0.90	-153.10	0.90	-153.10	0.17	111.80
16550	0.18	112.00	0.89	-154.00	0.89	-154.00	0.18	112.00
16600	0.20	108.30	0.89	-154.90	0.89	-154.90	0.20	108.30
16650	0.23	104.50	0.89	-155.90	0.89	-155.90	0.23	104.50
16700	0.25	103.10	0.88	-156.60	0.88	-156.60	0.25	103.10
16750	0.26	101.70	0.87	-157.40	0.87	-157.40	0.26	101.70
16800	0.29	98.70	0.86	-158.40	0.86	-158.40	0.29	98.70
16850	0.31	95.60	0.85	-159.30	0.85	-159.30	0.31	95.60
16900	0.33	91.70	0.84	-160.40	0.84	-160.40	0.33	91.70
16950	0.35	87.70	0.83	-161.50	0.83	-161.50	0.35	87.70
17000	0.37	84.10	0.81	-162.50	0.81	-162.50	0.37	84.10
17050	0.38	80.50	0.79	-163.50	0.79	-163.50	0.38	80.50
17100	0.40	75.00	0.76	-164.60	0.76	-164.60	0.40	75.00
17150	0.42	69.60	0.73	-165.60	0.73	-165.60	0.42	69.60
17200	0.42	62.50	0.69	-164.80	0.69	-164.80	0.42	62.50
17250	0.42	55.30	0.65	-164.00	0.65	-164.00	0.42	55.30
17300	0.39	49.00	0.62	-159.50	0.62	-159.50	0.39	49.00
17350	0.36	42.60	0.59	-155.00	0.59	-155.00	0.36	42.60
17400	0.30	38.40	0.63	-150.10	0.63	-150.10	0.30	38.40
17450	0.24	34.20	0.66	-145.30	0.66	-145.30	0.24	34.20
17500	0.19	44.30	0.72	-145.50	0.72	-145.50	0.19	44.30
17550	0.15	54.30	0.77	-145.70	0.77	-145.70	0.15	54.30
17600	0.16	65.10	0.80	-147.50	0.80	-147.50	0.16	65.10
17650	0.17	75.80	0.83	-149.20	0.83	-149.20	0.17	75.80
17700	0.17	80.90	0.85	-150.70	0.85	-150.70	0.17	80.90
17750	0.18	86.00	0.86	-152.20	0.86	-152.20	0.18	86.00
17800	0.19	87.40	0.87	-153.60	0.87	-153.60	0.19	87.40
17850	0.19	88.80	0.88	-154.90	0.88	-154.90	0.19	88.80
17900	0.19	88.20	0.88	-155.90	0.88	-155.90	0.19	88.20
17950	0.19	87.60	0.89	-156.90	0.89	-156.90	0.19	87.60
18000	0.18	88.10	0.89	-158.00	0.89	-158.00	0.18	88.10
18050	0.17	88.60	0.89	-159.10	0.89	-159.10	0.17	88.60
18100	0.17	85.40	0.90	-159.90	0.90	-159.90	0.17	85.40
18150	0.16	82.10	0.90	-160.70	0.90	-160.70	0.16	82.10
18200	0.14	79.00	0.91	-161.80	0.91	-161.80	0.14	79.00
18250	0.14	75.90	0.91	-162.90	0.91	-162.90	0.14	75.90
18300	0.13	68.30	0.92	-163.70	0.92	-163.70	0.13	68.30
18350	0.13	60.60	0.92	-164.50	0.92	-164.50	0.13	60.60
18400	0.13	55.30	0.92	-165.60	0.92	-165.60	0.13	55.30
18450	0.13	49.90	0.92	-166.60	0.92	-166.60	0.13	49.90
18500	0.15	45.60	0.92	-167.50	0.92	-167.50	0.15	45.60
18550	0.16	41.30	0.92	-168.30	0.92	-168.30	0.16	41.30
18600	0.16	39.80	0.92	-169.50	0.92	-169.50	0.16	39.80
18650	0.17	38.20	0.92	-170.70	0.92	-170.70	0.17	38.20
18700	0.18	36.70	0.91	-171.70	0.91	-171.70	0.18	36.70
