#	mhz	s	ma	r	50
50	0.77616	145.452	0.54749	52.907	0.54749	52.907	0.77616	145.452
70	0.69832	136.224	0.68319	43.448	0.68319	43.448	0.69832	136.224
90	0.60964	128.943	0.76418	36.511	0.76418	36.511	0.60964	128.943
110	0.5324	123.409	0.82215	31.488	0.82215	31.488	0.5324	123.409
130	0.4721	119.041	0.86863	27.613	0.86863	27.613	0.4721	119.041
150	0.41753	114.879	0.89497	23.957	0.89497	23.957	0.41753	114.879
170	0.3759	112.145	0.91434	21.367	0.91434	21.367	0.3759	112.145
190	0.34216	109.558	0.93119	19.32	0.93119	19.32	0.34216	109.558
210	0.3115	107.42	0.94385	17.454	0.94385	17.454	0.3115	107.42
230	0.28305	105.803	0.95397	15.712	0.95397	15.712	0.28305	105.803
250	0.25987	104.548	0.96649	14.348	0.96649	14.348	0.25987	104.548
270	0.23632	102.846	0.96794	13.051	0.96794	13.051	0.23632	102.846
290	0.21514	101.158	0.97182	12.015	0.97182	12.015	0.21514	101.158
310	0.19772	99.27	0.97701	11.014	0.97701	11.014	0.19772	99.27
330	0.18353	97.197	0.98305	10.041	0.98305	10.041	0.18353	97.197
350	0.17014	95.184	0.99014	9.305	0.99014	9.305	0.17014	95.184
370	0.16032	93.89	0.98883	8.501	0.98883	8.501	0.16032	93.89
390	0.15133	92.831	0.99138	7.869	0.99138	7.869	0.15133	92.831
410	0.14274	92.113	0.99323	7.157	0.99323	7.157	0.14274	92.113
430	0.13415	91.656	0.994	6.448	0.994	6.448	0.13415	91.656
450	0.12519	91.205	0.99751	6.154	0.99751	6.154	0.12519	91.205
470	0.11642	91.3	0.9956	5.575	0.9956	5.575	0.11642	91.3
490	0.10936	89.045	0.99899	4.949	0.99899	4.949	0.10936	89.045
510	0.10206	88.137	1.00178	4.285	1.00178	4.285	0.10206	88.137
530	0.09366	89.295	1.00112	3.717	1.00112	3.717	0.09366	89.295
550	0.08441	90.254	0.99716	3.499	0.99716	3.499	0.08441	90.254
570	0.07521	90.125	1.00026	2.85	1.00026	2.85	0.07521	90.125
590	0.0664	89.076	1.00366	2.423	1.00366	2.423	0.0664	89.076
610	0.05849	86.439	1.00377	1.98	1.00377	1.98	0.05849	86.439
630	0.05194	82.524	1.00172	1.548	1.00172	1.548	0.05194	82.524
650	0.04713	78.613	1.00342	1.426	1.00342	1.426	0.04713	78.613
670	0.04426	76.07	1.00664	1.01	1.00664	1.01	0.04426	76.07
690	0.04083	74.117	1.00799	0.872	1.00799	0.872	0.04083	74.117
710	0.03723	72.226	1.00754	0.685	1.00754	0.685	0.03723	72.226
730	0.03338	69.921	1.00575	0.336	1.00575	0.336	0.03338	69.921
750	0.02875	66.772	1.00348	-0.073	1.00348	-0.073	0.02875	66.772
770	0.02402	61.214	1.00183	-0.219	1.00183	-0.219	0.02402	61.214
790	0.02088	52.7	1.00574	-0.522	1.00574	-0.522	0.02088	52.7
810	0.01858	41.851	1.00827	-0.844	1.00827	-0.844	0.01858	41.851
830	0.01689	30.152	1.00779	-1.114	1.00779	-1.114	0.01689	30.152
850	0.01616	19.959	1.00796	-1.336	1.00796	-1.336	0.01616	19.959
870	0.01508	11.133	1.0095	-1.503	1.0095	-1.503	0.01508	11.133
890	0.014	-0.267	1.00865	-1.832	1.00865	-1.832	0.014	-0.267
910	0.01373	-15.342	1.00642	-2.079	1.00642	-2.079	0.01373	-15.342
930	0.01479	-32.409	1.0043	-2.205	1.0043	-2.205	0.01479	-32.409
950	0.01743	-46.992	1.00422	-2.376	1.00422	-2.376	0.01743	-46.992
970	0.02177	-52.918	1.00325	-2.573	1.00325	-2.573	0.02177	-52.918
990	0.02526	-55.856	1.00492	-2.889	1.00492	-2.889	0.02526	-55.856
1010	0.02791	-57.161	1.00626	-3.106	1.00626	-3.106	0.02791	-57.161
1030	0.02994	-57.936	1.00656	-3.236	1.00656	-3.236	0.02994	-57.936
1050	0.03174	-59.029	1.0074	-3.522	1.0074	-3.522	0.03174	-59.029
1070	0.03295	-63.083	1.007	-3.696	1.007	-3.696	0.03295	-63.083
1090	0.03498	-67.252	1.00628	-4.039	1.00628	-4.039	0.03498	-67.252
1110	0.03822	-71.056	1.00646	-4.303	1.00646	-4.303	0.03822	-71.056
1130	0.04257	-73.986	1.00691	-4.468	1.00691	-4.468	0.04257	-73.986
1150	0.04747	-75.505	1.00509	-4.741	1.00509	-4.741	0.04747	-75.505
1170	0.05203	-75.443	1.00559	-5.012	1.00559	-5.012	0.05203	-75.443
1190	0.05529	-74.811	1.00753	-5.129	1.00753	-5.129	0.05529	-74.811
1210	0.05771	-74.102	1.00897	-5.129	1.00897	-5.129	0.05771	-74.102
1230	0.05949	-73.83	1.00939	-5.172	1.00939	-5.172	0.05949	-73.83
1250	0.06058	-74.525	1.00961	-5.544	1.00961	-5.544	0.06058	-74.525
1270	0.06206	-76.118	1.00836	-5.785	1.00836	-5.785	0.06206	-76.118
1290	0.06417	-78.019	1.00556	-5.994	1.00556	-5.994	0.06417	-78.019
1310	0.06724	-79.937	1.00503	-6.235	1.00503	-6.235	0.06724	-79.937
1330	0.07114	-81.512	1.00612	-6.511	1.00612	-6.511	0.07114	-81.512
1350	0.07531	-82.318	1.00369	-6.766	1.00369	-6.766	0.07531	-82.318
1370	0.07968	-81.786	1.005	-6.826	1.005	-6.826	0.07968	-81.786
1390	0.08264	-81.328	1.00601	-6.937	1.00601	-6.937	0.08264	-81.328
1410	0.08476	-80.996	1.0046	-7.138	1.0046	-7.138	0.08476	-80.996
1430	0.08647	-80.874	1.00256	-7.38	1.00256	-7.38	0.08647	-80.874
1450	0.08803	-81.071	1.00558	-7.526	1.00558	-7.526	0.08803	-81.071
1470	0.08962	-82.636	1.00267	-7.515	1.00267	-7.515	0.08962	-82.636
1490	0.09203	-83.789	0.99855	-7.773	0.99855	-7.773	0.09203	-83.789
1510	0.09496	-84.804	0.99858	-8.041	0.99858	-8.041	0.09496	-84.804
1530	0.09825	-85.719	1.00165	-8.252	1.00165	-8.252	0.09825	-85.719
1550	0.10193	-86.346	1.00016	-8.54	1.00016	-8.54	0.10193	-86.346
1570	0.10487	-86.547	1.00173	-8.821	1.00173	-8.821	0.10487	-86.547
1590	0.10749	-86.683	1.00282	-8.903	1.00282	-8.903	0.10749	-86.683
1610	0.10986	-86.749	1.00375	-9.031	1.00375	-9.031	0.10986	-86.749
1630	0.11213	-86.907	1.00452	-9.276	1.00452	-9.276	0.11213	-86.907
1650	0.11448	-87.485	1.00489	-9.548	1.00489	-9.548	0.11448	-87.485
1670	0.11645	-88.111	1.00247	-9.567	1.00247	-9.567	0.11645	-88.111
1690	0.1187	-88.406	1.00052	-9.708	1.00052	-9.708	0.1187	-88.406
1710	0.12138	-88.842	0.99835	-10.022	0.99835	-10.022	0.12138	-88.842
1730	0.12432	-89.483	0.99689	-10.375	0.99689	-10.375	0.12432	-89.483
1750	0.12701	-89.99	0.99875	-10.452	0.99875	-10.452	0.12701	-89.99
1770	0.12989	-90.448	0.99832	-10.625	0.99832	-10.625	0.12989	-90.448
1790	0.13242	-90.674	0.99861	-10.811	0.99861	-10.811	0.13242	-90.674
1810	0.13507	-90.892	0.9991	-11.045	0.9991	-11.045	0.13507	-90.892
1830	0.13779	-91.238	1.00053	-11.23	1.00053	-11.23	0.13779	-91.238
1850	0.13999	-91.768	1.00491	-11.145	1.00491	-11.145	0.13999	-91.768
1870	0.14224	-91.781	0.99953	-11.458	0.99953	-11.458	0.14224	-91.781
1890	0.14445	-92.176	0.997	-11.657	0.997	-11.657	0.14445	-92.176
1910	0.14714	-92.566	0.99692	-11.833	0.99692	-11.833	0.14714	-92.566
1930	0.15043	-92.972	0.99752	-12.072	0.99752	-12.072	0.15043	-92.972
1950	0.15397	-93.819	0.99559	-12.46	0.99559	-12.46	0.15397	-93.819
1970	0.15651	-93.958	0.99638	-12.627	0.99638	-12.627	0.15651	-93.958
1990	0.15968	-93.89	0.99463	-12.911	0.99463	-12.911	0.15968	-93.89
2010	0.16284	-93.687	0.99349	-13.061	0.99349	-13.061	0.16284	-93.687
2030	0.16546	-93.489	0.99449	-13.04	0.99449	-13.04	0.16546	-93.489
2050	0.16714	-93.504	0.99759	-13.024	0.99759	-13.024	0.16714	-93.504
2070	0.16711	-93.381	0.99453	-13.168	0.99453	-13.168	0.16711	-93.381
2090	0.16765	-93.563	0.99348	-13.276	0.99348	-13.276	0.16765	-93.563
2110	0.16865	-93.979	0.99276	-13.503	0.99276	-13.503	0.16865	-93.979
2130	0.16994	-94.555	0.99152	-13.819	0.99152	-13.819	0.16994	-94.555
2150	0.17123	-95.212	0.98978	-14.005	0.98978	-14.005	0.17123	-95.212
2170	0.17476	-95.99	0.99018	-14.35	0.99018	-14.35	0.17476	-95.99
2190	0.17844	-96.449	0.99472	-14.615	0.99472	-14.615	0.17844	-96.449
2210	0.18195	-96.572	0.9954	-14.75	0.9954	-14.75	0.18195	-96.572
2230	0.18453	-96.484	0.99117	-14.823	0.99117	-14.823	0.18453	-96.484
2250	0.18504	-96.461	0.988	-15.018	0.988	-15.018	0.18504	-96.461
2270	0.18542	-96.438	0.98534	-15.4	0.98534	-15.4	0.18542	-96.438
2290	0.18617	-96.671	0.98666	-15.462	0.98666	-15.462	0.18617	-96.671
2310	0.18697	-97.128	0.98638	-15.557	0.98638	-15.557	0.18697	-97.128
2330	0.18777	-97.797	0.98395	-15.785	0.98395	-15.785	0.18777	-97.797
2350	0.18876	-98.685	0.98389	-16.001	0.98389	-16.001	0.18876	-98.685
2370	0.19179	-99.497	0.98483	-16.398	0.98483	-16.398	0.19179	-99.497
2390	0.19438	-100.147	0.98443	-16.74	0.98443	-16.74	0.19438	-100.147
2410	0.19739	-100.681	0.98297	-16.927	0.98297	-16.927	0.19739	-100.681
2430	0.20011	-100.999	0.98172	-16.995	0.98172	-16.995	0.20011	-100.999
2450	0.20028	-100.849	0.98287	-17.111	0.98287	-17.111	0.20028	-100.849
2470	0.19845	-101.096	0.9802	-17.707	0.9802	-17.707	0.19845	-101.096
2490	0.19311	-100.574	0.97386	-17.79	0.97386	-17.79	0.19311	-100.574
2510	0.1922	-99.075	0.96996	-17.615	0.96996	-17.615	0.1922	-99.075
2530	0.19759	-97.695	0.97153	-17.459	0.97153	-17.459	0.19759	-97.695
2550	0.20505	-98.833	0.97852	-17.626	0.97852	-17.626	0.20505	-98.833
2570	0.20968	-100.025	0.97715	-17.945	0.97715	-17.945	0.20968	-100.025
2590	0.21585	-100.859	0.97871	-18.211	0.97871	-18.211	0.21585	-100.859
2610	0.21998	-101.549	0.97885	-18.536	0.97885	-18.536	0.21998	-101.549
2630	0.22192	-101.973	0.97789	-18.792	0.97789	-18.792	0.22192	-101.973
2650	0.22486	-101.667	0.98092	-18.611	0.98092	-18.611	0.22486	-101.667
2670	0.22579	-101.517	0.98024	-18.962	0.98024	-18.962	0.22579	-101.517
2690	0.22595	-101.915	0.97902	-19.232	0.97902	-19.232	0.22595	-101.915
2710	0.22593	-102.534	0.97651	-19.35	0.97651	-19.35	0.22593	-102.534
2730	0.22657	-103.243	0.97447	-19.442	0.97447	-19.442	0.22657	-103.243
2750	0.22898	-104.108	0.97715	-19.834	0.97715	-19.834	0.22898	-104.108
2770	0.23208	-105.034	0.97304	-20.118	0.97304	-20.118	0.23208	-105.034
2790	0.23683	-105.342	0.97214	-20.318	0.97214	-20.318	0.23683	-105.342
2810	0.24045	-105.402	0.97432	-20.537	0.97432	-20.537	0.24045	-105.402
2830	0.24235	-105.345	0.97621	-20.793	0.97621	-20.793	0.24235	-105.345
2850	0.24421	-105.058	0.97118	-21.024	0.97118	-21.024	0.24421	-105.058
2870	0.24418	-105.309	0.96776	-21.298	0.96776	-21.298	0.24418	-105.309
2890	0.24423	-105.923	0.9722	-21.532	0.9722	-21.532	0.24423	-105.923
2910	0.24575	-106.673	0.97597	-21.707	0.97597	-21.707	0.24575	-106.673
2930	0.24894	-107.436	0.97489	-21.937	0.97489	-21.937	0.24894	-107.436
2950	0.25277	-108.186	0.96919	-22.466	0.96919	-22.466	0.25277	-108.186
2970	0.25699	-108.803	0.96414	-22.895	0.96414	-22.895	0.25699	-108.803
2990	0.26148	-109.259	0.96458	-22.975	0.96458	-22.975	0.26148	-109.259
3010	0.26469	-109.434	0.96578	-23.153	0.96578	-23.153	0.26469	-109.434
3030	0.26707	-109.517	0.96537	-23.588	0.96537	-23.588	0.26707	-109.517
3050	0.27114	-110.008	0.96331	-24.155	0.96331	-24.155	0.27114	-110.008
3070	0.27118	-110.442	0.96488	-23.993	0.96488	-23.993	0.27118	-110.442
3090	0.27333	-110.89	0.96338	-24.115	0.96338	-24.115	0.27333	-110.89
3110	0.27639	-111.437	0.96087	-24.461	0.96087	-24.461	0.27639	-111.437
3130	0.28025	-112.046	0.95792	-24.932	0.95792	-24.932	0.28025	-112.046
3150	0.2859	-112.559	0.95363	-25.387	0.95363	-25.387	0.2859	-112.559
3170	0.28937	-113.071	0.95339	-25.558	0.95339	-25.558	0.28937	-113.071
3190	0.29242	-113.669	0.95329	-25.876	0.95329	-25.876	0.29242	-113.669
3210	0.29518	-114.392	0.95156	-26.199	0.95156	-26.199	0.29518	-114.392
3230	0.29844	-115.28	0.94887	-26.536	0.94887	-26.536	0.29844	-115.28
3250	0.30371	-116.368	0.94827	-27.038	0.94827	-27.038	0.30371	-116.368
3270	0.3109	-116.87	0.94856	-27.223	0.94856	-27.223	0.3109	-116.87
3290	0.31677	-117.181	0.94699	-27.475	0.94699	-27.475	0.31677	-117.181
3310	0.32261	-117.345	0.94379	-27.768	0.94379	-27.768	0.32261	-117.345
3330	0.32855	-117.478	0.93962	-28.114	0.93962	-28.114	0.32855	-117.478
3350	0.33361	-117.773	0.9356	-28.565	0.9356	-28.565	0.33361	-117.773
3370	0.33426	-118.732	0.93355	-28.982	0.93355	-28.982	0.33426	-118.732
3390	0.33716	-119.368	0.93128	-29.368	0.93128	-29.368	0.33716	-119.368
3410	0.34281	-120.316	0.92997	-29.657	0.92997	-29.657	0.34281	-120.316
3430	0.35027	-121.669	0.92777	-29.995	0.92777	-29.995	0.35027	-121.669
3450	0.3571	-122.974	0.91985	-30.738	0.91985	-30.738	0.3571	-122.974
3470	0.36586	-123.708	0.91691	-31.155	0.91691	-31.155	0.36586	-123.708
3490	0.37564	-124.134	0.91595	-31.611	0.91595	-31.611	0.37564	-124.134
3510	0.38316	-124.689	0.90969	-32.255	0.90969	-32.255	0.38316	-124.689
3530	0.38887	-125.538	0.89985	-32.972	0.89985	-32.972	0.38887	-125.538
3550	0.39698	-126.573	0.89719	-33.382	0.89719	-33.382	0.39698	-126.573
3570	0.40474	-128.103	0.89085	-34.38	0.89085	-34.38	0.40474	-128.103
3590	0.41117	-129.795	0.88	-35.189	0.88	-35.189	0.41117	-129.795
3610	0.42264	-131.547	0.87096	-35.796	0.87096	-35.796	0.42264	-131.547
3630	0.43886	-133.353	0.86425	-36.425	0.86425	-36.425	0.43886	-133.353
3650	0.45287	-135.3	0.85465	-37.54	0.85465	-37.54	0.45287	-135.3
3670	0.4673	-136.537	0.84151	-38.283	0.84151	-38.283	0.4673	-136.537
3690	0.48345	-137.997	0.82882	-38.909	0.82882	-38.909	0.48345	-137.997
3710	0.49704	-139.865	0.81209	-40.018	0.81209	-40.018	0.49704	-139.865
3730	0.50893	-142.212	0.79066	-41.537	0.79066	-41.537	0.50893	-142.212
3750	0.52518	-144.995	0.76773	-42.711	0.76773	-42.711	0.52518	-144.995
3770	0.54208	-148.512	0.73762	-44.206	0.73762	-44.206	0.54208	-148.512
3790	0.56276	-152.387	0.70341	-45.407	0.70341	-45.407	0.56276	-152.387
3810	0.58565	-156.705	0.66498	-46.506	0.66498	-46.506	0.58565	-156.705
3830	0.60944	-161.481	0.61982	-47.479	0.61982	-47.479	0.60944	-161.481
3850	0.63306	-166.655	0.56298	-48.079	0.56298	-48.079	0.63306	-166.655
3870	0.64997	-172.756	0.49814	-46.715	0.49814	-46.715	0.64997	-172.756
3890	0.65766	35.954	0.42899	-42.281	0.42899	-42.281	0.65766	35.954
3910	0.65348	171.804	0.37168	-33.081	0.37168	-33.081	0.65348	171.804
3930	0.63756	162.937	0.3445	-19.329	0.3445	-19.329	0.63756	162.937
3950	0.61282	153.309	0.36794	-3.145	0.36794	-3.145	0.61282	153.309
3970	0.56329	143.302	0.446	5.519	0.446	5.519	0.56329	143.302
3990	0.50634	133.895	0.53677	8.913	0.53677	8.913	0.50634	133.895
4010	0.44179	125.106	0.628	8.974	0.628	8.974	0.44179	125.106
4030	0.37275	117.07	0.70931	7.19	0.70931	7.19	0.37275	117.07
4050	0.30565	110.036	0.77222	4.592	0.77222	4.592	0.30565	110.036
4070	0.24528	102.987	0.81853	1.884	0.81853	1.884	0.24528	102.987
4090	0.19259	95.602	0.85838	-0.706	0.85838	-0.706	0.19259	95.602
4110	0.14763	87.652	0.88806	-3.181	0.88806	-3.181	0.14763	87.652
4130	0.10996	79.003	0.90702	-5.424	0.90702	-5.424	0.10996	79.003
4150	0.07862	69.615	0.91794	-7.2	0.91794	-7.2	0.07862	69.615
4170	0.0525	55.331	0.9366	-9.149	0.9366	-9.149	0.0525	55.331
4190	0.03284	23.273	0.94727	-10.635	0.94727	-10.635	0.03284	23.273
4210	0.02874	-21.039	0.95491	-12.115	0.95491	-12.115	0.02874	-21.039
4230	0.04087	-62.772	0.96018	-13.529	0.96018	-13.529	0.04087	-62.772
4250	0.06152	-77.782	0.95941	-14.298	0.95941	-14.298	0.06152	-77.782
4270	0.08065	-82.775	0.96493	-15.418	0.96493	-15.418	0.08065	-82.775
4290	0.09681	-85.726	0.96769	-16.577	0.96769	-16.577	0.09681	-85.726
4310	0.10983	-87.66	0.97022	-17.49	0.97022	-17.49	0.10983	-87.66
4330	0.12067	-89.629	0.97253	-18.173	0.97253	-18.173	0.12067	-89.629
4350	0.1314	-92.719	0.97208	-18.938	0.97208	-18.938	0.1314	-92.719
4370	0.14242	-95.938	0.97298	-19.929	0.97298	-19.929	0.14242	-95.938
4390	0.15348	-98.596	0.97451	-20.621	0.97451	-20.621	0.15348	-98.596
4410	0.16504	-100.679	0.97509	-21.232	0.97509	-21.232	0.16504	-100.679
4430	0.17709	-102.013	0.97424	-21.793	0.97424	-21.793	0.17709	-102.013
4450	0.18913	-102.267	0.9726	-22.146	0.9726	-22.146	0.18913	-102.267
4470	0.19768	-102.644	0.97083	-22.884	0.97083	-22.884	0.19768	-102.644
4490	0.20402	-103.097	0.9669	-23.575	0.9669	-23.575	0.20402	-103.097
4510	0.2093	-103.65	0.96552	-23.956	0.96552	-23.956	0.2093	-103.65
4530	0.21437	-104.645	0.96758	-24.208	0.96758	-24.208	0.21437	-104.645
4550	0.21987	-106.735	0.97017	-24.962	0.97017	-24.962	0.21987	-106.735
4570	0.22496	-108.541	0.96158	-25.069	0.96158	-25.069	0.22496	-108.541
4590	0.23448	-109.702	0.96161	-25.54	0.96161	-25.54	0.23448	-109.702
4610	0.24481	-110.346	0.96401	-26.05	0.96401	-26.05	0.24481	-110.346
4630	0.25399	-110.635	0.96419	-26.427	0.96419	-26.427	0.25399	-110.635
4650	0.26176	-110.758	0.95919	-26.656	0.95919	-26.656	0.26176	-110.758
4670	0.26622	-110.732	0.95908	-27.418	0.95908	-27.418	0.26622	-110.732
4690	0.27062	-111.121	0.96074	-27.681	0.96074	-27.681	0.27062	-111.121
4710	0.27432	-111.556	0.96102	-28.043	0.96102	-28.043	0.27432	-111.556
4730	0.27732	-112.159	0.95853	-28.554	0.95853	-28.554	0.27732	-112.159
4750	0.28029	-113.545	0.95362	-28.708	0.95362	-28.708	0.28029	-113.545
4770	0.2884	-114.494	0.95468	-29.139	0.95468	-29.139	0.2884	-114.494
4790	0.29426	-115.286	0.95239	-29.536	0.95239	-29.536	0.29426	-115.286
4810	0.30179	-115.612	0.9504	-29.924	0.9504	-29.924	0.30179	-115.612
4830	0.31034	-115.551	0.94925	-30.291	0.94925	-30.291	0.31034	-115.551
4850	0.31462	-115.575	0.94641	-30.591	0.94641	-30.591	0.31462	-115.575
4870	0.31547	-115.838	0.94334	-31.012	0.94334	-31.012	0.31547	-115.838
4890	0.31787	-116.458	0.94143	-31.335	0.94143	-31.335	0.31787	-116.458
4910	0.32161	-117.152	0.94475	-31.515	0.94475	-31.515	0.32161	-117.152
4930	0.32642	-117.95	0.94779	-31.753	0.94779	-31.753	0.32642	-117.95
4950	0.33196	-119.204	0.93535	-32.495	0.93535	-32.495	0.33196	-119.204
4970	0.33613	-119.885	0.93269	-32.721	0.93269	-32.721	0.33613	-119.885
4990	0.34653	-119.936	0.93571	-32.936	0.93571	-32.936	0.34653	-119.936
5010	0.3536	-120.031	0.93288	-33.189	0.93288	-33.189	0.3536	-120.031
5030	0.35565	-120.222	0.92556	-33.406	0.92556	-33.406	0.35565	-120.222
5050	0.35884	-119.932	0.92801	-33.39	0.92801	-33.39	0.35884	-119.932
5070	0.36136	-120.707	0.92946	-34.075	0.92946	-34.075	0.36136	-120.707
5090	0.36539	-121.58	0.92159	-34.524	0.92159	-34.524	0.36539	-121.58
5110	0.3701	-122.361	0.91672	-34.732	0.91672	-34.732	0.3701	-122.361
5130	0.37561	-122.996	0.91794	-34.86	0.91794	-34.86	0.37561	-122.996
5150	0.38298	-123.574	0.91912	-35.238	0.91912	-35.238	0.38298	-123.574
5170	0.39551	-123.887	0.91853	-36.086	0.91853	-36.086	0.39551	-123.887
5190	0.3993	-123.883	0.9134	-36.383	0.9134	-36.383	0.3993	-123.883
5210	0.40219	-123.77	0.91213	-36.391	0.91213	-36.391	0.40219	-123.77
5230	0.4062	-123.794	0.91424	-36.43	0.91424	-36.43	0.4062	-123.794
5250	0.4075	-124.239	0.91032	-36.878	0.91032	-36.878	0.4075	-124.239
5270	0.40766	-124.724	0.90283	-37.022	0.90283	-37.022	0.40766	-124.724
5290	0.41471	-125.32	0.90524	-37.248	0.90524	-37.248	0.41471	-125.32
5310	0.42303	-125.952	0.90442	-37.616	0.90442	-37.616	0.42303	-125.952
5330	0.42985	-126.508	0.89714	-38.037	0.89714	-38.037	0.42985	-126.508
5350	0.43525	-126.843	0.89012	-38.274	0.89012	-38.274	0.43525	-126.843
5370	0.44284	-126.29	0.89549	-38.359	0.89549	-38.359	0.44284	-126.29
5390	0.44874	-126.402	0.89262	-38.839	0.89262	-38.839	0.44874	-126.402
5410	0.45139	-126.58	0.88828	-39.156	0.88828	-39.156	0.45139	-126.58
5430	0.45154	-126.704	0.88468	-39.21	0.88468	-39.21	0.45154	-126.704
5450	0.45234	-127.139	0.87956	-39.37	0.87956	-39.37	0.45234	-127.139
5470	0.45569	-127.654	0.87287	-39.577	0.87287	-39.577	0.45569	-127.654
5490	0.46211	-128.394	0.87262	-40.086	0.87262	-40.086	0.46211	-128.394
5510	0.46954	-128.931	0.87167	-40.477	0.87167	-40.477	0.46954	-128.931
5530	0.47644	-129.146	0.86765	-40.695	0.86765	-40.695	0.47644	-129.146
5550	0.48181	-129.221	0.86293	-41.045	0.86293	-41.045	0.48181	-129.221
5570	0.48744	-129.17	0.85961	-40.919	0.85961	-40.919	0.48744	-129.17
5590	0.4915	-129.426	0.85665	-41.366	0.85665	-41.366	0.4915	-129.426
5610	0.49519	-129.638	0.85477	-41.829	0.85477	-41.829	0.49519	-129.638
5630	0.49924	-129.816	0.85235	-42.005	0.85235	-42.005	0.49924	-129.816
5650	0.50384	-130.33	0.84544	-41.844	0.84544	-41.844	0.50384	-130.33
5670	0.51174	-130.942	0.84554	-42.308	0.84554	-42.308	0.51174	-130.942
5690	0.51886	-131.447	0.84389	-42.676	0.84389	-42.676	0.51886	-131.447
5710	0.52376	-131.671	0.83896	-43.025	0.83896	-43.025	0.52376	-131.671
5730	0.52662	-131.688	0.832	-43.287	0.832	-43.287	0.52662	-131.688
5750	0.52927	-131.819	0.82697	-43.258	0.82697	-43.258	0.52927	-131.819
5770	0.53197	-132.131	0.83055	-43.614	0.83055	-43.614	0.53197	-132.131
5790	0.53539	-132.278	0.82717	-43.523	0.82717	-43.523	0.53539	-132.278
5810	0.53899	-132.446	0.82321	-43.692	0.82321	-43.692	0.53899	-132.446
5830	0.54245	-132.734	0.8207	-44.103	0.8207	-44.103	0.54245	-132.734
5850	0.54563	-133.16	0.81728	-44.011	0.81728	-44.011	0.54563	-133.16
5870	0.54978	-133.522	0.81681	-44.57	0.81681	-44.57	0.54978	-133.522
5890	0.55567	-133.983	0.81478	-44.993	0.81478	-44.993	0.55567	-133.983
5910	0.56166	-134.372	0.81246	-45.228	0.81246	-45.228	0.56166	-134.372
