#	mhz	s	ma	r	50
50	0.94021	166.858	0.21875	72.47	0.21875	72.47	0.94021	166.858
70	0.94419	162.08	0.30695	68.729	0.30695	68.729	0.94419	162.08
90	0.91344	156.891	0.37886	63.958	0.37886	63.958	0.91344	156.891
110	0.87705	152.675	0.44414	60.07	0.44414	60.07	0.87705	152.675
130	0.84629	149.24	0.50627	57.059	0.50627	57.059	0.84629	149.24
150	0.81463	144.827	0.56253	52.993	0.56253	52.993	0.81463	144.827
170	0.7733	141.474	0.60572	50.029	0.60572	50.029	0.7733	141.474
190	0.74305	138.324	0.65053	47.064	0.65053	47.064	0.74305	138.324
210	0.71376	135.263	0.68859	44.323	0.68859	44.323	0.71376	135.263
230	0.68208	132.529	0.72026	41.876	0.72026	41.876	0.68208	132.529
250	0.65148	130.712	0.75455	39.647	0.75455	39.647	0.65148	130.712
270	0.62007	127.924	0.77792	37.12	0.77792	37.12	0.62007	127.924
290	0.58865	125.692	0.79741	35.212	0.79741	35.212	0.58865	125.692
310	0.56104	123.595	0.8172	33.553	0.8172	33.553	0.56104	123.595
330	0.53691	121.447	0.83749	31.933	0.83749	31.933	0.53691	121.447
350	0.51182	119.298	0.85454	30.301	0.85454	30.301	0.51182	119.298
370	0.49112	117.739	0.86405	28.829	0.86405	28.829	0.49112	117.739
390	0.47484	116.16	0.87801	27.533	0.87801	27.533	0.47484	116.16
410	0.45901	114.825	0.88879	26.196	0.88879	26.196	0.45901	114.825
430	0.44168	113.731	0.89544	24.898	0.89544	24.898	0.44168	113.731
450	0.42291	112.607	0.9037	24.02	0.9037	24.02	0.42291	112.607
470	0.40529	111.847	0.91121	22.685	0.91121	22.685	0.40529	111.847
490	0.39372	109.381	0.92719	21.891	0.92719	21.891	0.39372	109.381
510	0.37984	108.218	0.93455	20.921	0.93455	20.921	0.37984	108.218
530	0.36124	108.805	0.93061	19.625	0.93061	19.625	0.36124	108.805
550	0.34148	109.022	0.9271	18.425	0.9271	18.425	0.34148	109.022
570	0.318	108.572	0.93295	16.907	0.93295	16.907	0.318	108.572
590	0.29572	107.656	0.93762	15.742	0.93762	15.742	0.29572	107.656
610	0.27669	105.891	0.94478	14.722	0.94478	14.722	0.27669	105.891
630	0.26208	103.514	0.95478	13.818	0.95478	13.818	0.26208	103.514
650	0.25227	101.379	0.96461	13.193	0.96461	13.193	0.25227	101.379
670	0.24827	100.052	0.97091	12.805	0.97091	12.805	0.24827	100.052
690	0.24374	99.245	0.97471	12.56	0.97471	12.56	0.24374	99.245
710	0.23841	98.841	0.97553	12.23	0.97553	12.23	0.23841	98.841
730	0.2314	98.707	0.97358	11.745	0.97358	11.745	0.2314	98.707
750	0.22123	98.692	0.96968	11.193	0.96968	11.193	0.22123	98.692
770	0.21111	98.589	0.97322	10.357	0.97322	10.357	0.21111	98.589
790	0.20096	97.406	0.97713	9.564	0.97713	9.564	0.20096	97.406
810	0.19069	95.835	0.98096	8.99	0.98096	8.99	0.19069	95.835
830	0.18166	94.193	0.98532	8.585	0.98532	8.585	0.18166	94.193
850	0.17668	92.418	0.99178	8.08	0.99178	8.08	0.17668	92.418
870	0.1735	91.239	0.99833	7.917	0.99833	7.917	0.1735	91.239
890	0.17097	90.589	1.00092	7.714	1.00092	7.714	0.17097	90.589
910	0.16766	90.319	0.9998	7.54	0.9998	7.54	0.16766	90.319
930	0.16294	90.305	0.99611	7.347	0.99611	7.347	0.16294	90.305
950	0.15698	90.451	0.99188	6.966	0.99188	6.966	0.15698	90.451
970	0.15049	90.1	0.99303	6.714	0.99303	6.714	0.15049	90.1
990	0.14421	89.516	0.99371	6.302	0.99371	6.302	0.14421	89.516
1010	0.1382	88.504	0.99467	5.91	0.99467	5.91	0.1382	88.504
1030	0.13278	87.186	0.9962	5.556	0.9962	5.556	0.13278	87.186
1050	0.12855	86.008	0.99815	5.097	0.99815	5.097	0.12855	86.008
1070	0.12499	85.195	1.00171	4.956	1.00171	4.956	0.12499	85.195
1090	0.12163	84.735	1.00124	4.557	1.00124	4.557	0.12163	84.735
1110	0.11765	84.419	1.0008	4.203	1.0008	4.203	0.11765	84.419
1130	0.11273	84.149	1.00069	3.997	1.00069	3.997	0.11273	84.149
1150	0.10712	83.943	0.99742	3.842	0.99742	3.842	0.10712	83.943
1170	0.10141	83.213	0.99731	3.519	0.99731	3.519	0.10141	83.213
1190	0.09591	81.89	0.99749	3.162	0.99749	3.162	0.09591	81.89
1210	0.09118	80.296	0.99924	2.834	0.99924	2.834	0.09118	80.296
1230	0.08728	78.606	1.00161	2.524	1.00161	2.524	0.08728	78.606
1250	0.08378	76.846	1.00143	2.145	1.00143	2.145	0.08378	76.846
1270	0.08038	76.001	1.00335	1.742	1.00335	1.742	0.08038	76.001
1290	0.0766	75.122	1.00209	1.52	1.00209	1.52	0.0766	75.122
1310	0.07262	74.235	1.00257	1.345	1.00257	1.345	0.07262	74.235
1330	0.06857	73.067	1.00509	1.115	1.00509	1.115	0.06857	73.067
1350	0.06457	71.049	1.00528	0.758	1.00528	0.758	0.06457	71.049
1370	0.06051	68.594	1.00442	0.625	1.00442	0.625	0.06051	68.594
1390	0.05729	65.841	1.00264	0.371	1.00264	0.371	0.05729	65.841
1410	0.05467	62.909	1.00269	0.055	1.00269	0.055	0.05467	62.909
1430	0.05233	60.111	1.00463	-0.25	1.00463	-0.25	0.05233	60.111
1450	0.0499	57.956	1.00577	-0.455	1.00577	-0.455	0.0499	57.956
1470	0.04709	56.022	1.00764	-0.541	1.00764	-0.541	0.04709	56.022
1490	0.04424	53.763	1.00669	-0.79	1.00669	-0.79	0.04424	53.763
1510	0.04152	50.938	1.00661	-1.035	1.00661	-1.035	0.04152	50.938
1530	0.03902	47.545	1.00818	-1.207	1.00818	-1.207	0.03902	47.545
1550	0.03679	43.815	1.00931	-1.344	1.00931	-1.344	0.03679	43.815
1570	0.03456	39.368	1.00584	-1.658	1.00584	-1.658	0.03456	39.368
1590	0.033	34.499	1.00756	-1.957	1.00756	-1.957	0.033	34.499
1610	0.03163	29.403	1.00868	-2.183	1.00868	-2.183	0.03163	29.403
1630	0.03018	24.051	1.0086	-2.352	1.0086	-2.352	0.03018	24.051
1650	0.02868	18.192	1.01193	-2.555	1.01193	-2.555	0.02868	18.192
1670	0.02806	12.088	1.01	-2.868	1.01	-2.868	0.02806	12.088
1690	0.02786	6.111	1.00916	-2.963	1.00916	-2.963	0.02786	6.111
1710	0.02787	-0.065	1.00815	-3.15	1.00815	-3.15	0.02787	-0.065
1730	0.0279	-6.103	1.00804	-3.448	1.00804	-3.448	0.0279	-6.103
1750	0.02775	-11.006	1.0123	-3.588	1.0123	-3.588	0.02775	-11.006
1770	0.02769	-16.546	1.00853	-3.802	1.00853	-3.802	0.02769	-16.546
1790	0.02808	-22.92	1.0071	-4.079	1.0071	-4.079	0.02808	-22.92
1810	0.02894	-29.643	1.0077	-4.286	1.0077	-4.286	0.02894	-29.643
1830	0.03034	-36.126	1.0097	-4.406	1.0097	-4.406	0.03034	-36.126
1850	0.03234	-41.684	1.01207	-4.531	1.01207	-4.531	0.03234	-41.684
1870	0.03467	-45.071	1.0076	-4.858	1.0076	-4.858	0.03467	-45.071
1890	0.037	-48.152	1.00769	-5.053	1.00769	-5.053	0.037	-48.152
1910	0.03922	-50.625	1.00964	-5.171	1.00964	-5.171	0.03922	-50.625
1930	0.04138	-53.005	1.01076	-5.308	1.01076	-5.308	0.04138	-53.005
1950	0.04371	-56.623	1.00835	-5.596	1.00835	-5.596	0.04371	-56.623
1970	0.04569	-58.842	1.0083	-5.791	1.0083	-5.791	0.04569	-58.842
1990	0.04856	-60.824	1.00806	-6.097	1.00806	-6.097	0.04856	-60.824
2010	0.05183	-62.329	1.00845	-6.34	1.00845	-6.34	0.05183	-62.329
2030	0.05499	-63.288	1.00872	-6.441	1.00872	-6.441	0.05499	-63.288
2050	0.05746	-63.802	1.0066	-6.413	1.0066	-6.413	0.05746	-63.802
2070	0.0589	-63.611	1.00602	-6.638	1.00602	-6.638	0.0589	-63.611
2090	0.06036	-63.962	1.00474	-6.784	1.00474	-6.784	0.06036	-63.962
2110	0.06154	-64.769	1.00547	-7.061	1.00547	-7.061	0.06154	-64.769
2130	0.06239	-65.992	1.00709	-7.403	1.00709	-7.403	0.06239	-65.992
2150	0.06308	-67.64	1.00466	-7.461	1.00466	-7.461	0.06308	-67.64
2170	0.06523	-69.309	1.00325	-7.628	1.00325	-7.628	0.06523	-69.309
2190	0.068	-70.83	1.00511	-8.02	1.00511	-8.02	0.068	-70.83
2210	0.07092	-71.876	1.00687	-8.235	1.00687	-8.235	0.07092	-71.876
2230	0.07352	-72.335	1.00663	-8.238	1.00663	-8.238	0.07352	-72.335
2250	0.07529	-72.309	1.00399	-8.361	1.00399	-8.361	0.07529	-72.309
2270	0.07693	-72.015	1.00491	-8.81	1.00491	-8.81	0.07693	-72.015
2290	0.07793	-72.22	1.00344	-8.923	1.00344	-8.923	0.07793	-72.22
2310	0.07842	-72.692	1.00194	-9.02	1.00194	-9.02	0.07842	-72.692
2330	0.07864	-73.456	1.00129	-9.22	1.00129	-9.22	0.07864	-73.456
2350	0.07885	-74.785	1.00089	-9.452	1.00089	-9.452	0.07885	-74.785
2370	0.08067	-76.296	1.00428	-9.733	1.00428	-9.733	0.08067	-76.296
2390	0.08267	-77.77	1.00343	-9.868	1.00343	-9.868	0.08267	-77.77
2410	0.08515	-78.892	1.00279	-9.932	1.00279	-9.932	0.08515	-78.892
2430	0.08789	-79.398	1.00446	-9.964	1.00446	-9.964	0.08789	-79.398
2450	0.09015	-79.075	1.00814	-9.969	1.00814	-9.969	0.09015	-79.075
2470	0.09225	-79.001	1.0	-10.267	1.0	-10.267	0.09225	-79.001
2490	0.09289	-78.84	1.00059	-10.554	1.00059	-10.554	0.09289	-78.84
2510	0.09295	-79.085	1.00168	-10.796	1.00168	-10.796	0.09295	-79.085
2530	0.09298	-79.878	1.00061	-10.99	1.00061	-10.99	0.09298	-79.878
2550	0.09316	-81.012	1.00033	-11.168	1.00033	-11.168	0.09316	-81.012
2570	0.09455	-82.365	0.99953	-11.324	0.99953	-11.324	0.09455	-82.365
2590	0.09732	-83.743	0.99981	-11.469	0.99981	-11.469	0.09732	-83.743
2610	0.10019	-84.551	0.99996	-11.697	0.99996	-11.697	0.10019	-84.551
2630	0.10269	-84.589	1.00091	-11.908	1.00091	-11.908	0.10269	-84.589
2650	0.10513	-84.06	1.00575	-11.801	1.00575	-11.801	0.10513	-84.06
2670	0.10592	-83.295	1.0017	-12.052	1.0017	-12.052	0.10592	-83.295
2690	0.10552	-83.268	1.00044	-12.288	1.00044	-12.288	0.10552	-83.268
2710	0.10476	-83.712	0.9996	-12.397	0.9996	-12.397	0.10476	-83.712
2730	0.10444	-84.606	0.99947	-12.466	0.99947	-12.466	0.10444	-84.606
2750	0.10531	-86.17	1.00299	-12.778	1.00299	-12.778	0.10531	-86.17
2770	0.10777	-87.611	0.99979	-13.054	0.99979	-13.054	0.10777	-87.611
2790	0.11116	-88.385	1.00091	-13.058	1.00091	-13.058	0.11116	-88.385
2810	0.11401	-88.222	1.00306	-13.077	1.00306	-13.077	0.11401	-88.222
2830	0.1159	-87.441	1.00329	-13.26	1.00329	-13.26	0.1159	-87.441
2850	0.11742	-86.957	0.99893	-13.624	0.99893	-13.624	0.11742	-86.957
2870	0.11668	-86.595	0.99741	-13.821	0.99741	-13.821	0.11668	-86.595
2890	0.11591	-87.006	0.99969	-13.852	0.99969	-13.852	0.11591	-87.006
2910	0.11611	-87.822	1.00298	-13.961	1.00298	-13.961	0.11611	-87.822
2930	0.11745	-88.857	1.00391	-14.249	1.00391	-14.249	0.11745	-88.857
2950	0.11929	-90.117	0.99851	-14.673	0.99851	-14.673	0.11929	-90.117
2970	0.12177	-90.536	0.99951	-14.935	0.99951	-14.935	0.12177	-90.536
2990	0.12521	-91.039	0.99984	-15.041	0.99984	-15.041	0.12521	-91.039
3010	0.12742	-90.696	0.99927	-15.131	0.99927	-15.131	0.12742	-90.696
3030	0.12832	-89.933	0.99803	-15.293	0.99803	-15.293	0.12832	-89.933
3050	0.1299	-90.528	0.99689	-15.572	0.99689	-15.572	0.1299	-90.528
3070	0.12949	-91.057	1.00133	-15.579	1.00133	-15.579	0.12949	-91.057
3090	0.12977	-91.497	1.00015	-15.575	1.00015	-15.575	0.12977	-91.497
3110	0.13121	-91.948	0.9985	-15.813	0.9985	-15.813	0.13121	-91.948
3130	0.13366	-92.368	0.99766	-16.211	0.99766	-16.211	0.13366	-92.368
3150	0.13636	-92.569	0.99503	-16.355	0.99503	-16.355	0.13636	-92.569
3170	0.13736	-93.026	0.99708	-16.797	0.99708	-16.797	0.13736	-93.026
3190	0.13858	-93.231	0.9967	-16.873	0.9967	-16.873	0.13858	-93.231
3210	0.13956	-93.7	0.99659	-16.956	0.99659	-16.956	0.13956	-93.7
3230	0.14037	-94.507	0.99735	-17.163	0.99735	-17.163	0.14037	-94.507
3250	0.14159	-95.29	0.99746	-17.354	0.99746	-17.354	0.14159	-95.29
3270	0.1445	-96.363	0.99503	-17.411	0.99503	-17.411	0.1445	-96.363
3290	0.14733	-96.76	0.9947	-17.499	0.9947	-17.499	0.14733	-96.76
3310	0.15092	-96.539	0.99489	-17.694	0.99489	-17.694	0.15092	-96.539
3330	0.15461	-96.04	0.99492	-17.964	0.99492	-17.964	0.15461	-96.04
3350	0.15624	-95.888	0.99491	-18.162	0.99491	-18.162	0.15624	-95.888
3370	0.15545	-96.007	0.99327	-18.361	0.99327	-18.361	0.15545	-96.007
3390	0.15528	-96.382	0.99274	-18.423	0.99274	-18.423	0.15528	-96.382
3410	0.15632	-97.156	0.9923	-18.422	0.9923	-18.422	0.15632	-97.156
3430	0.15829	-98.381	0.99097	-18.525	0.99097	-18.525	0.15829	-98.381
3450	0.16004	-100.023	0.98778	-18.989	0.98778	-18.989	0.16004	-100.023
3470	0.16381	-100.148	0.98891	-19.085	0.98891	-19.085	0.16381	-100.148
3490	0.16872	-99.871	0.99092	-19.304	0.99092	-19.304	0.16872	-99.871
3510	0.17233	-99.527	0.98845	-19.463	0.98845	-19.463	0.17233	-99.527
3530	0.17382	-99.247	0.98439	-19.543	0.98439	-19.543	0.17382	-99.247
3550	0.174	-98.952	0.98984	-19.687	0.98984	-19.687	0.174	-98.952
3570	0.17435	-99.259	0.99284	-20.091	0.99284	-20.091	0.17435	-99.259
3590	0.17409	-100.19	0.98947	-20.405	0.98947	-20.405	0.17409	-100.19
3610	0.17564	-101.408	0.98855	-20.511	0.98855	-20.511	0.17564	-101.408
3630	0.17937	-102.616	0.99074	-20.519	0.99074	-20.519	0.17937	-102.616
3650	0.18363	-103.557	0.98854	-20.766	0.98854	-20.766	0.18363	-103.557
3670	0.18818	-103.396	0.98929	-20.972	0.98929	-20.972	0.18818	-103.396
3690	0.1918	-102.992	0.98838	-20.991	0.98838	-20.991	0.1918	-102.992
3710	0.19403	-102.559	0.98626	-21.231	0.98626	-21.231	0.19403	-102.559
3730	0.19503	-102.302	0.98467	-21.641	0.98467	-21.641	0.19503	-102.302
3750	0.19561	-102.414	0.98666	-21.713	0.98666	-21.713	0.19561	-102.414
3770	0.19461	-103.217	0.98315	-21.914	0.98315	-21.914	0.19461	-103.217
3790	0.19555	-104.327	0.98198	-22.046	0.98198	-22.046	0.19555	-104.327
3810	0.19847	-105.484	0.98326	-22.255	0.98326	-22.255	0.19847	-105.484
3830	0.20305	-106.381	0.9854	-22.532	0.9854	-22.532	0.20305	-106.381
3850	0.20868	-106.67	0.98505	-22.713	0.98505	-22.713	0.20868	-106.67
3870	0.21265	-106.413	0.98616	-23.015	0.98616	-23.015	0.21265	-106.413
3890	0.21566	-106.247	0.98459	-23.088	0.98459	-23.088	0.21566	-106.247
3910	0.21668	-106.12	0.98255	-23.237	0.98255	-23.237	0.21668	-106.12
3930	0.21632	-106.058	0.98203	-23.45	0.98203	-23.45	0.21632	-106.058
3950	0.21692	-106.17	0.98476	-23.399	0.98476	-23.399	0.21692	-106.17
3970	0.21852	-107.119	0.98104	-23.772	0.98104	-23.772	0.21852	-107.119
3990	0.22118	-108.362	0.97833	-24.122	0.97833	-24.122	0.22118	-108.362
4010	0.22494	-109.348	0.9774	-24.309	0.9774	-24.309	0.22494	-109.348
4030	0.22957	-109.815	0.97703	-24.354	0.97703	-24.354	0.22957	-109.815
4050	0.23457	-109.79	0.97403	-24.445	0.97403	-24.445	0.23457	-109.79
4070	0.23958	-109.591	0.97365	-24.83	0.97365	-24.83	0.23958	-109.591
4090	0.24136	-109.364	0.97521	-25.065	0.97521	-25.065	0.24136	-109.364
4110	0.24144	-109.208	0.97604	-25.226	0.97604	-25.226	0.24144	-109.208
4130	0.24087	-109.264	0.97451	-25.368	0.97451	-25.368	0.24087	-109.264
4150	0.2403	-109.725	0.97002	-25.522	0.97002	-25.522	0.2403	-109.725
4170	0.24231	-111.151	0.97303	-25.952	0.97303	-25.952	0.24231	-111.151
4190	0.24482	-112.088	0.97185	-25.966	0.97185	-25.966	0.24482	-112.088
4210	0.24963	-112.717	0.97368	-26.207	0.97368	-26.207	0.24963	-112.717
4230	0.25596	-113.14	0.97559	-26.644	0.97559	-26.644	0.25596	-113.14
4250	0.26046	-113.378	0.96444	-26.563	0.96444	-26.563	0.26046	-113.378
4270	0.26515	-113.397	0.96674	-26.721	0.96674	-26.721	0.26515	-113.397
4290	0.26754	-113.253	0.96691	-27.079	0.96691	-27.079	0.26754	-113.253
4310	0.26818	-112.985	0.96923	-27.246	0.96923	-27.246	0.26818	-112.985
4330	0.26783	-112.932	0.97222	-27.268	0.97222	-27.268	0.26783	-112.932
4350	0.26746	-113.734	0.96854	-27.629	0.96854	-27.629	0.26746	-113.734
4370	0.27115	-114.717	0.96488	-27.842	0.96488	-27.842	0.27115	-114.717
4390	0.27519	-115.386	0.96526	-27.991	0.96526	-27.991	0.27519	-115.386
4410	0.28015	-115.907	0.9657	-28.256	0.9657	-28.256	0.28015	-115.907
4430	0.28584	-116.162	0.96478	-28.578	0.96478	-28.578	0.28584	-116.162
4450	0.29134	-115.746	0.96363	-28.662	0.96363	-28.662	0.29134	-115.746
4470	0.29236	-115.791	0.96392	-28.958	0.96392	-28.958	0.29236	-115.791
4490	0.29344	-115.726	0.95917	-29.225	0.95917	-29.225	0.29344	-115.726
4510	0.29402	-115.675	0.95734	-29.331	0.95734	-29.331	0.29402	-115.675
4530	0.29464	-115.996	0.95975	-29.427	0.95975	-29.427	0.29464	-115.996
4550	0.29693	-117.276	0.96108	-29.947	0.96108	-29.947	0.29693	-117.276
4570	0.29843	-118.239	0.95404	-30.033	0.95404	-30.033	0.29843	-118.239
4590	0.30363	-118.725	0.95223	-30.163	0.95223	-30.163	0.30363	-118.725
4610	0.3101	-118.872	0.95378	-30.4	0.95378	-30.4	0.3101	-118.872
4630	0.31592	-118.842	0.95462	-30.651	0.95462	-30.651	0.31592	-118.842
4650	0.31965	-118.819	0.94855	-30.675	0.94855	-30.675	0.31965	-118.819
4670	0.32136	-118.619	0.95149	-31.046	0.95149	-31.046	0.32136	-118.619
4690	0.32261	-118.512	0.95283	-31.215	0.95283	-31.215	0.32261	-118.512
4710	0.32249	-118.909	0.95117	-31.445	0.95117	-31.445	0.32249	-118.909
4730	0.32227	-119.743	0.94692	-31.745	0.94692	-31.745	0.32227	-119.743
4750	0.3254	-120.477	0.94234	-31.875	0.94234	-31.875	0.3254	-120.477
4770	0.33182	-120.765	0.94687	-32.016	0.94687	-32.016	0.33182	-120.765
4790	0.33536	-121.151	0.94543	-32.376	0.94543	-32.376	0.33536	-121.151
4810	0.34072	-121.306	0.94279	-32.688	0.94279	-32.688	0.34072	-121.306
4830	0.3475	-121.224	0.94198	-32.876	0.94198	-32.876	0.3475	-121.224
4850	0.35027	-121.225	0.94422	-33.053	0.94422	-33.053	0.35027	-121.225
4870	0.35013	-121.384	0.93883	-33.482	0.93883	-33.482	0.35013	-121.384
4890	0.35042	-121.519	0.93603	-33.735	0.93603	-33.735	0.35042	-121.519
4910	0.35251	-122.028	0.93826	-33.906	0.93826	-33.906	0.35251	-122.028
4930	0.3563	-122.944	0.94069	-34.141	0.94069	-34.141	0.3563	-122.944
4950	0.36028	-123.941	0.93121	-34.636	0.93121	-34.636	0.36028	-123.941
4970	0.36601	-123.975	0.9277	-34.72	0.9277	-34.72	0.36601	-123.975
4990	0.37412	-123.824	0.93292	-34.71	0.93292	-34.71	0.37412	-123.824
5010	0.37851	-124.003	0.93051	-34.994	0.93051	-34.994	0.37851	-124.003
5030	0.37884	-124.359	0.92116	-35.418	0.92116	-35.418	0.37884	-124.359
5050	0.38049	-124.078	0.92262	-35.286	0.92262	-35.286	0.38049	-124.078
5070	0.38329	-124.624	0.92396	-35.944	0.92396	-35.944	0.38329	-124.624
5090	0.38579	-125.288	0.91687	-36.17	0.91687	-36.17	0.38579	-125.288
5110	0.38953	-125.952	0.91339	-36.321	0.91339	-36.321	0.38953	-125.952
5130	0.39519	-126.601	0.91609	-36.539	0.91609	-36.539	0.39519	-126.601
5150	0.40267	-127.322	0.91804	-36.752	0.91804	-36.752	0.40267	-127.322
5170	0.41074	-127.011	0.915	-37.162	0.915	-37.162	0.41074	-127.011
5190	0.41519	-126.952	0.90812	-37.579	0.90812	-37.579	0.41519	-126.952
5210	0.41911	-126.822	0.90586	-37.721	0.90586	-37.721	0.41911	-126.822
5230	0.42273	-126.754	0.90823	-37.774	0.90823	-37.774	0.42273	-126.754
5250	0.42341	-127.338	0.90687	-38.392	0.90687	-38.392	0.42341	-127.338
5270	0.42278	-127.931	0.89345	-38.513	0.89345	-38.513	0.42278	-127.931
5290	0.42971	-128.277	0.89537	-38.378	0.89537	-38.378	0.42971	-128.277
5310	0.4379	-128.665	0.89621	-38.648	0.89621	-38.648	0.4379	-128.665
5330	0.44429	-129.193	0.88987	-39.255	0.88987	-39.255	0.44429	-129.193
5350	0.44903	-129.772	0.88059	-39.389	0.88059	-39.389	0.44903	-129.772
5370	0.45569	-129.192	0.88423	-39.114	0.88423	-39.114	0.45569	-129.192
5390	0.46131	-129.31	0.88421	-39.53	0.88421	-39.53	0.46131	-129.31
5410	0.4639	-129.4	0.88343	-39.93	0.88343	-39.93	0.4639	-129.4
5430	0.46376	-129.333	0.88324	-40.047	0.88324	-40.047	0.46376	-129.333
5450	0.46346	-129.574	0.88342	-40.056	0.88342	-40.056	0.46346	-129.574
5470	0.46583	-130.323	0.87336	-40.344	0.87336	-40.344	0.46583	-130.323
5490	0.47218	-131.214	0.8718	-40.817	0.8718	-40.817	0.47218	-131.214
5510	0.47969	-131.718	0.87041	-41.204	0.87041	-41.204	0.47969	-131.718
5530	0.48628	-131.777	0.8657	-41.424	0.8657	-41.424	0.48628	-131.777
5550	0.49061	-131.808	0.859	-41.584	0.859	-41.584	0.49061	-131.808
5570	0.49451	-131.741	0.86008	-41.726	0.86008	-41.726	0.49451	-131.741
5590	0.49811	-132.103	0.85948	-42.018	0.85948	-42.018	0.49811	-132.103
5610	0.50081	-132.349	0.85633	-42.392	0.85633	-42.392	0.50081	-132.349
5630	0.50339	-132.42	0.85171	-42.714	0.85171	-42.714	0.50339	-132.42
5650	0.50792	-132.738	0.84859	-42.778	0.84859	-42.778	0.50792	-132.738
5670	0.51742	-133.231	0.84883	-43.198	0.84883	-43.198	0.51742	-133.231
5690	0.52359	-133.587	0.84609	-43.537	0.84609	-43.537	0.52359	-133.587
5710	0.52803	-133.722	0.84211	-43.882	0.84211	-43.882	0.52803	-133.722
5730	0.53214	-133.754	0.83694	-44.066	0.83694	-44.066	0.53214	-133.754
5750	0.5371	-134.005	0.82893	-43.674	0.82893	-43.674	0.5371	-134.005
5770	0.54178	-133.755	0.83267	-44.265	0.83267	-44.265	0.54178	-133.755
5790	0.54204	-134.054	0.82853	-44.325	0.82853	-44.325	0.54204	-134.054
5810	0.54327	-134.363	0.82392	-44.59	0.82392	-44.59	0.54327	-134.363
5830	0.54661	-134.552	0.8214	-45.036	0.8214	-45.036	0.54661	-134.552
5850	0.54895	-134.899	0.81869	-44.881	0.81869	-44.881	0.54895	-134.899
5870	0.55651	-135.635	0.81604	-45.578	0.81604	-45.578	0.55651	-135.635
5890	0.56071	-135.936	0.81037	-45.888	0.81037	-45.888	0.56071	-135.936
5910	0.56496	-136.086	0.80726	-46.118	0.80726	-46.118	0.56496	-136.086
5930	0.56948	-136.229	0.80715	-46.372	0.80715	-46.372	0.56948	-136.229
5950	0.57126	-136.366	0.80535	-46.552	0.80535	-46.552	0.57126	-136.366
