# MHZ S MA R 50

50	0.67	137.20	0.68	44.20	0.68	44.20	0.67	137.20
100	0.49	124.10	0.81	31.00	0.81	31.00	0.49	124.10
150	0.31	111.00	0.94	17.80	0.94	17.80	0.31	111.00
200	0.24	108.00	0.96	13.60	0.96	13.60	0.24	108.00
250	0.18	104.90	0.98	9.40	0.98	9.40	0.18	104.90
300	0.14	104.70	0.99	7.00	0.99	7.00	0.14	104.70
350	0.11	104.40	0.99	4.60	0.99	4.60	0.11	104.40
400	0.09	104.80	0.99	3.00	0.99	3.00	0.09	104.80
450	0.06	105.20	1.00	1.50	1.00	1.50	0.06	105.20
500	0.05	111.70	1.00	0.00	1.00	0.00	0.05	111.70
550	0.04	118.10	1.00	-1.50	1.00	-1.50	0.04	118.10
600	0.03	136.20	1.00	-2.60	1.00	-2.60	0.03	136.20
650	0.03	154.40	1.00	-3.70	1.00	-3.70	0.03	154.40
700	0.03	-0.50	1.00	-4.70	1.00	-4.70	0.03	-0.50
750	0.03	-155.40	1.00	-5.60	1.00	-5.60	0.03	-155.40
800	0.03	-144.90	1.00	-6.60	1.00	-6.60	0.03	-144.90
850	0.04	-134.40	1.00	-7.50	1.00	-7.50	0.04	-134.40
900	0.05	-130.20	1.00	-8.40	1.00	-8.40	0.05	-130.20
950	0.05	-125.90	1.00	-9.30	1.00	-9.30	0.05	-125.90
1000	0.06	-123.80	1.00	-10.10	1.00	-10.10	0.06	-123.80
1050	0.07	-121.60	1.00	-10.90	1.00	-10.90	0.07	-121.60
1100	0.07	-120.60	1.00	-11.80	1.00	-11.80	0.07	-120.60
1150	0.08	-119.70	0.99	-12.60	0.99	-12.60	0.08	-119.70
1200	0.09	-119.30	0.99	-13.50	0.99	-13.50	0.09	-119.30
1250	0.09	-119.00	1.00	-14.30	1.00	-14.30	0.09	-119.00
1300	0.10	-119.60	0.99	-15.10	0.99	-15.10	0.10	-119.60
1350	0.10	-120.20	0.99	-15.90	0.99	-15.90	0.10	-120.20
1400	0.11	-120.00	0.99	-16.70	0.99	-16.70	0.11	-120.00
1450	0.12	-119.80	0.99	-17.50	0.99	-17.50	0.12	-119.80
1500	0.12	-120.70	0.99	-18.40	0.99	-18.40	0.12	-120.70
1550	0.13	-121.70	0.99	-19.20	0.99	-19.20	0.13	-121.70
1600	0.14	-122.00	0.99	-20.10	0.99	-20.10	0.14	-122.00
1650	0.14	-122.30	0.99	-20.90	0.99	-20.90	0.14	-122.30
1700	0.15	-123.60	0.99	-21.80	0.99	-21.80	0.15	-123.60
1750	0.16	-125.00	0.99	-22.70	0.99	-22.70	0.16	-125.00
1800	0.16	-125.40	0.98	-23.50	0.98	-23.50	0.16	-125.40
1850	0.17	-125.80	0.98	-24.40	0.98	-24.40	0.17	-125.80
1900	0.18	-126.90	0.98	-25.20	0.98	-25.20	0.18	-126.90
1950	0.19	-127.90	0.98	-26.00	0.98	-26.00	0.19	-127.90
2000	0.19	-128.90	0.98	-27.00	0.98	-27.00	0.19	-128.90
2050	0.20	-129.90	0.98	-28.00	0.98	-28.00	0.20	-129.90
2100	0.20	-130.10	0.97	-28.70	0.97	-28.70	0.20	-130.10
2150	0.21	-130.40	0.97	-29.40	0.97	-29.40	0.21	-130.40
2200	0.22	-131.20	0.97	-30.40	0.97	-30.40	0.22	-131.20
2250	0.23	-132.00	0.97	-31.40	0.97	-31.40	0.23	-132.00
2300	0.24	-132.40	0.96	-32.30	0.96	-32.30	0.24	-132.40
2350	0.25	-132.80	0.96	-33.20	0.96	-33.20	0.25	-132.80
2400	0.27	-134.00	0.96	-34.20	0.96	-34.20	0.27	-134.00
2450	0.28	-135.30	0.95	-35.30	0.95	-35.30	0.28	-135.30
2500	0.29	-135.50	0.95	-36.20	0.95	-36.20	0.29	-135.50
2550	0.30	-135.70	0.94	-37.20	0.94	-37.20	0.30	-135.70
2600	0.31	-136.50	0.94	-38.10	0.94	-38.10	0.31	-136.50
2650	0.33	-137.20	0.94	-39.10	0.94	-39.10	0.33	-137.20
2700	0.34	-137.60	0.93	-40.10	0.93	-40.10	0.34	-137.60
2750	0.35	-138.00	0.92	-41.10	0.92	-41.10	0.35	-138.00
2800	0.36	-138.50	0.92	-42.10	0.92	-42.10	0.36	-138.50
2850	0.38	-139.00	0.92	-43.20	0.92	-43.20	0.38	-139.00
2900	0.39	-139.80	0.91	-44.50	0.91	-44.50	0.39	-139.80
2950	0.40	-140.60	0.90	-45.90	0.90	-45.90	0.40	-140.60
3000	0.42	-141.20	0.89	-47.20	0.89	-47.20	0.42	-141.20
3050	0.44	-141.80	0.88	-48.50	0.88	-48.50	0.44	-141.80
3100	0.46	-144.00	0.86	-50.30	0.86	-50.30	0.46	-144.00
3150	0.49	-146.10	0.84	-52.20	0.84	-52.20	0.49	-146.10
3200	0.51	-149.00	0.81	-54.40	0.81	-54.40	0.51	-149.00
3250	0.54	-151.80	0.77	-56.70	0.77	-56.70	0.54	-151.80
3300	0.59	-159.50	0.68	-58.30	0.68	-58.30	0.59	-159.50
3350	0.63	-167.20	0.59	-59.90	0.59	-59.90	0.63	-167.20
3400	0.57	-4.90	0.56	-41.40	0.56	-41.40	0.57	-4.90
3450	0.52	157.30	0.52	-22.80	0.52	-22.80	0.52	157.30
3500	0.35	157.70	0.68	-24.90	0.68	-24.90	0.35	157.70
3550	0.19	158.00	0.85	-27.00	0.85	-27.00	0.19	158.00
3600	0.19	0.60	0.89	-31.80	0.89	-31.80	0.19	0.60
3650	0.18	-156.80	0.93	-36.70	0.93	-36.70	0.18	-156.80
3700	0.20	-150.60	0.93	-39.70	0.93	-39.70	0.20	-150.60
3750	0.23	-144.30	0.94	-42.70	0.94	-42.70	0.23	-144.30
3800	0.25	-143.10	0.94	-44.60	0.94	-44.60	0.25	-143.10
3850	0.28	-141.90	0.94	-46.50	0.94	-46.50	0.28	-141.90
3900	0.29	-142.20	0.93	-48.40	0.93	-48.40	0.29	-142.20
3950	0.30	-142.50	0.93	-50.20	0.93	-50.20	0.30	-142.50
4000	0.32	-142.60	0.93	-51.50	0.93	-51.50	0.32	-142.60
4050	0.33	-142.80	0.92	-52.80	0.92	-52.80	0.33	-142.80
4100	0.34	-143.40	0.92	-54.00	0.92	-54.00	0.34	-143.40
4150	0.35	-144.00	0.91	-55.30	0.91	-55.30	0.35	-144.00
4200	0.37	-145.10	0.91	-56.60	0.91	-56.60	0.37	-145.10
4250	0.38	-146.20	0.91	-58.00	0.91	-58.00	0.38	-146.20
4300	0.40	-146.90	0.90	-58.90	0.90	-58.90	0.40	-146.90
4350	0.41	-147.60	0.89	-59.90	0.89	-59.90	0.41	-147.60
4400	0.42	-148.70	0.89	-61.10	0.89	-61.10	0.42	-148.70
4450	0.43	-149.70	0.88	-62.40	0.88	-62.40	0.43	-149.70
4500	0.45	-150.50	0.88	-63.50	0.88	-63.50	0.45	-150.50
4550	0.46	-151.20	0.87	-64.70	0.87	-64.70	0.46	-151.20
4600	0.47	-152.80	0.86	-66.00	0.86	-66.00	0.47	-152.80
4650	0.48	-154.40	0.86	-67.30	0.86	-67.30	0.48	-154.40
4700	0.50	-155.30	0.85	-68.30	0.85	-68.30	0.50	-155.30
4750	0.51	-156.20	0.84	-69.20	0.84	-69.20	0.51	-156.20
4800	0.51	-157.30	0.83	-70.20	0.83	-70.20	0.51	-157.30
4850	0.52	-158.50	0.82	-71.20	0.82	-71.20	0.52	-158.50
4900	0.54	-159.90	0.81	-72.30	0.81	-72.30	0.54	-159.90
4950	0.55	-161.20	0.81	-73.40	0.81	-73.40	0.55	-161.20
5000	0.56	-162.10	0.80	-74.30	0.80	-74.30	0.56	-162.10
5050	0.57	-162.90	0.79	-75.10	0.79	-75.10	0.57	-162.90
5100	0.57	-164.20	0.78	-76.20	0.78	-76.20	0.57	-164.20
5150	0.58	-165.50	0.78	-77.20	0.78	-77.20	0.58	-165.50
5200	0.60	-167.10	0.77	-78.40	0.77	-78.40	0.60	-167.10
5250	0.61	-168.60	0.76	-79.60	0.76	-79.60	0.61	-168.60
5300	0.62	-170.70	0.75	-81.00	0.75	-81.00	0.62	-170.70
5350	0.63	-172.80	0.73	-82.40	0.73	-82.40	0.63	-172.80
5400	0.64	-174.50	0.72	-83.60	0.72	-83.60	0.64	-174.50
5450	0.65	-176.30	0.71	-84.90	0.71	-84.90	0.65	-176.30
5500	0.66	1.40	0.70	-86.30	0.70	-86.30	0.66	1.40
5550	0.67	179.10	0.68	-87.80	0.68	-87.80	0.67	179.10
5600	0.69	176.70	0.66	-89.20	0.66	-89.20	0.69	176.70
5650	0.70	174.30	0.65	-90.70	0.65	-90.70	0.70	174.30
5700	0.71	171.50	0.62	-92.30	0.62	-92.30	0.71	171.50
5750	0.73	168.80	0.60	-94.00	0.60	-94.00	0.73	168.80
5800	0.74	165.10	0.56	-95.50	0.56	-95.50	0.74	165.10
5850	0.75	161.50	0.53	-97.00	0.53	-97.00	0.75	161.50
5900	0.77	157.40	0.48	-97.60	0.48	-97.60	0.77	157.40
5950	0.78	153.40	0.43	-98.20	0.43	-98.20	0.78	153.40
6000	0.79	148.70	0.37	-93.90	0.37	-93.90	0.79	148.70
6050	0.80	144.10	0.31	-89.60	0.31	-89.60	0.80	144.10
6100	0.77	137.70	0.29	-72.10	0.29	-72.10	0.77	137.70
6150	0.74	131.20	0.27	-54.60	0.27	-54.60	0.74	131.20
6200	0.67	125.10	0.37	-45.80	0.37	-45.80	0.67	125.10
6250	0.59	118.90	0.47	-37.00	0.47	-37.00	0.59	118.90
6300	0.49	120.50	0.58	-42.10	0.58	-42.10	0.49	120.50
6350	0.38	122.10	0.69	-47.20	0.69	-47.20	0.38	122.10
6400	0.35	134.90	0.73	-53.90	0.73	-53.90	0.35	134.90
6450	0.32	147.70	0.78	-60.50	0.78	-60.50	0.32	147.70
6500	0.36	155.40	0.79	-65.70	0.79	-65.70	0.36	155.40
6550	0.39	163.00	0.80	-70.80	0.80	-70.80	0.39	163.00
6600	0.44	164.80	0.79	-74.60	0.79	-74.60	0.44	164.80
6650	0.48	166.50	0.78	-78.30	0.78	-78.30	0.48	166.50
6700	0.51	166.70	0.77	-81.00	0.77	-81.00	0.51	166.70
6750	0.54	166.90	0.76	-83.60	0.76	-83.60	0.54	166.90
6800	0.57	165.70	0.74	-86.00	0.74	-86.00	0.57	165.70
6850	0.60	164.50	0.73	-88.50	0.73	-88.50	0.60	164.50
6900	0.62	163.90	0.71	-90.30	0.71	-90.30	0.62	163.90
6950	0.63	163.20	0.70	-92.20	0.70	-92.20	0.63	163.20
7000	0.65	161.70	0.69	-94.20	0.69	-94.20	0.65	161.70
7050	0.68	160.10	0.67	-96.20	0.67	-96.20	0.68	160.10
7100	0.69	158.80	0.66	-97.80	0.66	-97.80	0.69	158.80
7150	0.70	157.50	0.64	-99.40	0.64	-99.40	0.70	157.50
7200	0.72	155.90	0.63	-101.40	0.63	-101.40	0.72	155.90
7250	0.74	154.20	0.62	-103.40	0.62	-103.40	0.74	154.20
7300	0.75	152.10	0.59	-105.10	0.59	-105.10	0.75	152.10
7350	0.76	150.00	0.57	-106.80	0.57	-106.80	0.76	150.00
7400	0.77	147.90	0.56	-108.60	0.56	-108.60	0.77	147.90
7450	0.78	145.90	0.54	-110.30	0.54	-110.30	0.78	145.90
7500	0.79	143.00	0.51	-112.20	0.51	-112.20	0.79	143.00
7550	0.81	140.20	0.48	-114.00	0.48	-114.00	0.81	140.20
7600	0.81	137.40	0.46	-114.90	0.46	-114.90	0.81	137.40
7650	0.81	134.60	0.43	-115.80	0.43	-115.80	0.81	134.60
7700	0.80	131.70	0.41	-115.40	0.41	-115.40	0.80	131.70
7750	0.80	128.70	0.38	-115.10	0.38	-115.10	0.80	128.70
7800	0.81	126.70	0.37	-116.70	0.37	-116.70	0.81	126.70
7850	0.81	124.70	0.35	-118.30	0.35	-118.30	0.81	124.70
7900	0.83	122.10	0.32	-120.10	0.32	-120.10	0.83	122.10
7950	0.85	119.60	0.29	-122.00	0.29	-122.00	0.85	119.60
8000	0.87	116.20	0.26	-121.80	0.26	-121.80	0.87	116.20
8050	0.88	112.80	0.22	-121.50	0.22	-121.50	0.88	112.80
8100	0.88	109.40	0.19	-117.60	0.19	-117.60	0.88	109.40
8150	0.89	105.90	0.16	-113.70	0.16	-113.70	0.89	105.90
8200	0.89	103.40	0.13	-100.40	0.13	-100.40	0.89	103.40
8250	0.89	100.80	0.11	-87.10	0.11	-87.10	0.89	100.80
8300	0.89	97.90	0.12	-69.20	0.12	-69.20	0.89	97.90
8350	0.88	94.90	0.13	-51.20	0.13	-51.20	0.88	94.90
8400	0.88	92.70	0.16	-41.90	0.16	-41.90	0.88	92.70
8450	0.87	90.40	0.19	-32.70	0.19	-32.70	0.87	90.40
8500	0.85	87.90	0.23	-30.30	0.23	-30.30	0.85	87.90
8550	0.83	85.40	0.27	-28.00	0.27	-28.00	0.83	85.40
8600	0.82	83.00	0.31	-28.40	0.31	-28.40	0.82	83.00
8650	0.81	80.60	0.36	-28.80	0.36	-28.80	0.81	80.60
8700	0.78	78.50	0.40	-30.70	0.40	-30.70	0.78	78.50
8750	0.75	76.30	0.45	-32.70	0.45	-32.70	0.75	76.30
8800	0.72	73.50	0.49	-35.70	0.49	-35.70	0.72	73.50
8850	0.68	70.60	0.54	-38.70	0.54	-38.70	0.68	70.60
8900	0.63	69.10	0.58	-42.30	0.58	-42.30	0.63	69.10
8950	0.58	67.60	0.62	-46.00	0.62	-46.00	0.58	67.60
9000	0.53	66.40	0.66	-50.30	0.66	-50.30	0.53	66.40
9050	0.48	65.30	0.69	-54.70	0.69	-54.70	0.48	65.30
9100	0.43	66.80	0.72	-59.60	0.72	-59.60	0.43	66.80
9150	0.37	68.30	0.74	-64.50	0.74	-64.50	0.37	68.30
9200	0.32	75.00	0.75	-69.90	0.75	-69.90	0.32	75.00
9250	0.28	81.70	0.76	-75.40	0.76	-75.40	0.28	81.70
9300	0.28	94.30	0.75	-80.50	0.75	-80.50	0.28	94.30
9350	0.29	106.90	0.74	-85.70	0.74	-85.70	0.29	106.90
9400	0.34	111.90	0.71	-91.20	0.71	-91.20	0.34	111.90
9450	0.38	116.90	0.68	-96.80	0.68	-96.80	0.38	116.90
9500	0.44	115.60	0.62	-101.20	0.62	-101.20	0.44	115.60
9550	0.50	114.40	0.56	-105.70	0.56	-105.70	0.50	114.40
9600	0.56	110.50	0.50	-108.00	0.50	-108.00	0.56	110.50
9650	0.61	106.60	0.44	-110.30	0.44	-110.30	0.61	106.60
9700	0.64	101.80	0.39	-108.40	0.39	-108.40	0.64	101.80
9750	0.67	97.00	0.33	-106.50	0.33	-106.50	0.67	97.00
9800	0.68	93.60	0.30	-99.70	0.30	-99.70	0.68	93.60
9850	0.70	90.30	0.27	-92.90	0.27	-92.90	0.70	90.30
9900	0.72	86.20	0.26	-84.60	0.26	-84.60	0.72	86.20
9950	0.73	82.10	0.26	-76.20	0.26	-76.20	0.73	82.10
10000	0.72	79.00	0.28	-69.70	0.28	-69.70	0.72	79.00
10050	0.71	76.00	0.29	-63.10	0.29	-63.10	0.71	76.00
10100	0.72	74.10	0.32	-60.00	0.32	-60.00	0.72	74.10
10150	0.72	72.10	0.36	-57.00	0.36	-57.00	0.72	72.10
10200	0.70	69.40	0.39	-56.60	0.39	-56.60	0.70	69.40
10250	0.68	66.60	0.42	-56.30	0.42	-56.30	0.68	66.60
10300	0.65	65.50	0.45	-58.10	0.45	-58.10	0.65	65.50
10350	0.62	64.40	0.48	-59.90	0.48	-59.90	0.62	64.40
10400	0.58	64.50	0.51	-63.10	0.51	-63.10	0.58	64.50
10450	0.53	64.60	0.53	-66.30	0.53	-66.30	0.53	64.60
10500	0.51	70.00	0.52	-71.50	0.52	-71.50	0.51	70.00
10550	0.48	75.40	0.51	-76.70	0.51	-76.70	0.48	75.40
10600	0.53	79.40	0.47	-77.60	0.47	-77.60	0.53	79.40
10650	0.57	83.30	0.42	-78.40	0.42	-78.40	0.57	83.30
10700	0.61	81.50	0.40	-73.10	0.40	-73.10	0.61	81.50
10750	0.65	79.70	0.37	-67.90	0.37	-67.90	0.65	79.70
10800	0.67	76.60	0.39	-61.70	0.39	-61.70	0.67	76.60
10850	0.69	73.50	0.41	-55.60	0.41	-55.60	0.69	73.50
10900	0.68	68.60	0.46	-53.60	0.46	-53.60	0.68	68.60
10950	0.67	63.70	0.50	-51.60	0.50	-51.60	0.67	63.70
11000	0.64	59.70	0.55	-53.10	0.55	-53.10	0.64	59.70
11050	0.61	55.70	0.59	-54.60	0.59	-54.60	0.61	55.70
11100	0.59	51.10	0.63	-56.20	0.63	-56.20	0.59	51.10
11150	0.56	46.50	0.66	-57.90	0.66	-57.90	0.56	46.50
11200	0.53	42.40	0.69	-60.60	0.69	-60.60	0.53	42.40
11250	0.49	38.20	0.72	-63.40	0.72	-63.40	0.49	38.20
11300	0.46	34.10	0.74	-65.70	0.74	-65.70	0.46	34.10
11350	0.43	30.00	0.76	-68.10	0.76	-68.10	0.43	30.00
11400	0.41	26.40	0.77	-70.30	0.77	-70.30	0.41	26.40
11450	0.38	22.80	0.78	-72.60	0.78	-72.60	0.38	22.80
11500	0.36	19.70	0.80	-74.70	0.80	-74.70	0.36	19.70
11550	0.34	16.70	0.81	-76.90	0.81	-76.90	0.34	16.70
11600	0.33	14.70	0.82	-78.90	0.82	-78.90	0.33	14.70
11650	0.31	12.70	0.82	-81.00	0.82	-81.00	0.31	12.70
11700	0.29	11.50	0.83	-83.10	0.83	-83.10	0.29	11.50
11750	0.28	10.30	0.84	-85.10	0.84	-85.10	0.28	10.30
11800	0.26	11.80	0.84	-87.10	0.84	-87.10	0.26	11.80
11850	0.25	13.20	0.84	-89.00	0.84	-89.00	0.25	13.20
11900	0.23	17.40	0.84	-91.30	0.84	-91.30	0.23	17.40
11950	0.21	21.60	0.84	-93.60	0.84	-93.60	0.21	21.60
12000	0.20	27.90	0.84	-96.10	0.84	-96.10	0.20	27.90
12050	0.20	34.20	0.84	-98.60	0.84	-98.60	0.20	34.20
12100	0.21	44.40	0.82	-101.50	0.82	-101.50	0.21	44.40
12150	0.22	54.60	0.80	-104.40	0.80	-104.40	0.22	54.60
12200	0.26	60.30	0.76	-107.00	0.76	-107.00	0.26	60.30
12250	0.30	66.00	0.73	-109.60	0.73	-109.60	0.30	66.00
12300	0.36	67.40	0.67	-110.70	0.67	-110.70	0.36	67.40
12350	0.41	68.80	0.62	-111.90	0.62	-111.90	0.41	68.80
12400	0.47	64.30	0.57	-108.90	0.57	-108.90	0.47	64.30
12450	0.52	59.80	0.52	-106.00	0.52	-106.00	0.52	59.80
12500	0.54	55.80	0.51	-99.30	0.51	-99.30	0.54	55.80
12550	0.56	51.80	0.51	-92.70	0.51	-92.70	0.56	51.80
12600	0.54	48.10	0.56	-89.90	0.56	-89.90	0.54	48.10
12650	0.53	44.30	0.60	-87.10	0.60	-87.10	0.53	44.30
12700	0.50	42.10	0.64	-87.90	0.64	-87.90	0.50	42.10
12750	0.47	40.00	0.69	-88.70	0.69	-88.70	0.47	40.00
12800	0.43	40.60	0.72	-91.30	0.72	-91.30	0.43	40.60
12850	0.40	41.20	0.74	-93.90	0.74	-93.90	0.40	41.20
12900	0.37	44.50	0.75	-96.70	0.75	-96.70	0.37	44.50
12950	0.34	47.70	0.76	-99.50	0.76	-99.50	0.34	47.70
13000	0.33	53.40	0.74	-102.20	0.74	-102.20	0.33	53.40
13050	0.32	59.20	0.73	-104.90	0.73	-104.90	0.32	59.20
13100	0.34	61.30	0.69	-105.60	0.69	-105.60	0.34	61.30
13150	0.36	63.50	0.66	-106.20	0.66	-106.20	0.36	63.50
13200	0.38	58.20	0.65	-103.50	0.65	-103.50	0.38	58.20
13250	0.39	52.90	0.63	-100.70	0.63	-100.70	0.39	52.90
13300	0.36	47.50	0.66	-99.90	0.66	-99.90	0.36	47.50
13350	0.33	42.20	0.68	-99.10	0.68	-99.10	0.33	42.20
13400	0.31	35.30	0.70	-99.90	0.70	-99.90	0.31	35.30
13450	0.29	28.40	0.72	-100.60	0.72	-100.60	0.29	28.40
13500	0.26	22.30	0.73	-101.70	0.73	-101.70	0.26	22.30
13550	0.24	16.30	0.74	-102.80	0.74	-102.80	0.24	16.30
13600	0.22	10.70	0.74	-103.90	0.74	-103.90	0.22	10.70
13650	0.21	5.00	0.75	-105.00	0.75	-105.00	0.21	5.00
13700	0.21	-0.90	0.75	-105.60	0.75	-105.60	0.21	-0.90
13750	0.21	-6.80	0.75	-106.20	0.75	-106.20	0.21	-6.80
13800	0.21	-12.40	0.75	-106.80	0.75	-106.80	0.21	-12.40
13850	0.20	-18.00	0.75	-107.30	0.75	-107.30	0.20	-18.00
13900	0.21	-20.60	0.76	-107.80	0.76	-107.80	0.21	-20.60
13950	0.22	-23.10	0.77	-108.20	0.77	-108.20	0.22	-23.10
14000	0.23	-25.60	0.78	-108.90	0.78	-108.90	0.23	-25.60
14050	0.24	-28.10	0.78	-109.50	0.78	-109.50	0.24	-28.10
14100	0.25	-28.90	0.79	-110.40	0.79	-110.40	0.25	-28.90
14150	0.25	-29.80	0.80	-111.20	0.80	-111.20	0.25	-29.80
14200	0.25	-29.70	0.81	-112.40	0.81	-112.40	0.25	-29.70
14250	0.26	-29.60	0.81	-113.60	0.81	-113.60	0.26	-29.60
14300	0.25	-28.40	0.82	-114.90	0.82	-114.90	0.25	-28.40
14350	0.24	-27.20	0.82	-116.20	0.82	-116.20	0.24	-27.20
14400	0.24	-25.10	0.83	-117.90	0.83	-117.90	0.24	-25.10
14450	0.24	-23.10	0.83	-119.60	0.83	-119.60	0.24	-23.10
14500	0.22	-17.30	0.82	-121.10	0.82	-121.10	0.22	-17.30
14550	0.20	-11.40	0.81	-122.60	0.81	-122.60	0.20	-11.40
14600	0.21	-1.60	0.80	-124.50	0.80	-124.50	0.21	-1.60
14650	0.21	8.20	0.78	-126.30	0.78	-126.30	0.21	8.20
14700	0.23	17.40	0.75	-127.60	0.75	-127.60	0.23	17.40
14750	0.26	26.60	0.72	-128.90	0.72	-128.90	0.26	26.60
14800	0.32	26.70	0.68	-127.40	0.68	-127.40	0.32	26.70
14850	0.38	26.70	0.64	-125.90	0.64	-125.90	0.38	26.70
14900	0.40	22.20	0.64	-121.60	0.64	-121.60	0.40	22.20
14950	0.43	17.70	0.65	-117.30	0.65	-117.30	0.43	17.70
15000	0.42	11.90	0.69	-116.50	0.69	-116.50	0.42	11.90
15050	0.41	6.20	0.72	-115.70	0.72	-115.70	0.41	6.20
15100	0.38	3.80	0.75	-116.40	0.75	-116.40	0.38	3.80
15150	0.35	1.30	0.78	-117.00	0.78	-117.00	0.35	1.30
15200	0.33	0.40	0.80	-118.50	0.80	-118.50	0.33	0.40
15250	0.31	-0.60	0.82	-119.90	0.82	-119.90	0.31	-0.60
15300	0.29	-1.80	0.82	-121.80	0.82	-121.80	0.29	-1.80
15350	0.28	-3.00	0.83	-123.60	0.83	-123.60	0.28	-3.00
15400	0.27	-2.10	0.82	-124.80	0.82	-124.80	0.27	-2.10
15450	0.26	-1.20	0.81	-125.90	0.81	-125.90	0.26	-1.20
15500	0.27	-2.20	0.80	-126.30	0.80	-126.30	0.27	-2.20
15550	0.28	-3.20	0.79	-126.70	0.79	-126.70	0.28	-3.20
15600	0.28	-6.80	0.78	-126.00	0.78	-126.00	0.28	-6.80
15650	0.28	-10.30	0.78	-125.30	0.78	-125.30	0.28	-10.30
15700	0.30	-14.00	0.78	-124.90	0.78	-124.90	0.30	-14.00
15750	0.31	-17.80	0.79	-124.50	0.79	-124.50	0.31	-17.80
15800	0.30	-22.50	0.81	-124.50	0.81	-124.50	0.30	-22.50
15850	0.29	-27.20	0.82	-124.50	0.82	-124.50	0.29	-27.20
15900	0.29	-28.40	0.83	-125.10	0.83	-125.10	0.29	-28.40
15950	0.29	-29.60	0.84	-125.70	0.84	-125.70	0.29	-29.60
16000	0.28	-32.70	0.86	-126.40	0.86	-126.40	0.28	-32.70
16050	0.27	-35.70	0.87	-127.10	0.87	-127.10	0.27	-35.70
16100	0.25	-36.70	0.87	-128.30	0.87	-128.30	0.25	-36.70
16150	0.23	-37.80	0.88	-129.40	0.88	-129.40	0.23	-37.80
16200	0.22	-38.70	0.88	-130.40	0.88	-130.40	0.22	-38.70
16250	0.21	-39.70	0.89	-131.30	0.89	-131.30	0.21	-39.70
16300	0.19	-40.80	0.89	-132.30	0.89	-132.30	0.19	-40.80
16350	0.16	-41.90	0.90	-133.30	0.90	-133.30	0.16	-41.90
16400	0.15	-41.00	0.90	-134.10	0.90	-134.10	0.15	-41.00
16450	0.14	-40.00	0.90	-134.90	0.90	-134.90	0.14	-40.00
16500	0.13	-46.10	0.90	-135.60	0.90	-135.60	0.13	-46.10
16550	0.11	-52.10	0.90	-136.40	0.90	-136.40	0.11	-52.10
16600	0.09	-50.40	0.91	-137.40	0.91	-137.40	0.09	-50.40
16650	0.07	-48.70	0.92	-138.30	0.92	-138.30	0.07	-48.70
16700	0.05	-56.30	0.92	-139.30	0.92	-139.30	0.05	-56.30
16750	0.03	-63.80	0.92	-140.30	0.92	-140.30	0.03	-63.80
16800	0.03	27.90	0.92	-141.30	0.92	-141.30	0.03	27.90
16850	0.02	119.50	0.92	-142.20	0.92	-142.20	0.02	119.50
16900	0.04	111.90	0.91	-143.20	0.91	-143.20	0.04	111.90
16950	0.06	104.30	0.91	-144.20	0.91	-144.20	0.06	104.30
17000	0.08	105.00	0.91	-145.00	0.91	-145.00	0.08	105.00
17050	0.10	105.60	0.91	-145.80	0.91	-145.80	0.10	105.60
17100	0.12	101.20	0.90	-146.80	0.90	-146.80	0.12	101.20
17150	0.14	96.70	0.90	-147.80	0.90	-147.80	0.14	96.70
17200	0.16	94.10	0.90	-148.30	0.90	-148.30	0.16	94.10
17250	0.17	91.50	0.89	-148.90	0.89	-148.90	0.17	91.50
17300	0.19	91.10	0.89	-149.60	0.89	-149.60	0.19	91.10
17350	0.22	90.70	0.89	-150.40	0.89	-150.40	0.22	90.70
17400	0.22	88.50	0.88	-150.80	0.88	-150.80	0.22	88.50
17450	0.22	86.40	0.88	-151.20	0.88	-151.20	0.22	86.40
17500	0.22	86.30	0.88	-151.80	0.88	-151.80	0.22	86.30
17550	0.23	86.10	0.88	-152.50	0.88	-152.50	0.23	86.10
17600	0.23	84.70	0.88	-153.20	0.88	-153.20	0.23	84.70
17650	0.24	83.30	0.88	-153.90	0.88	-153.90	0.24	83.30
17700	0.24	83.20	0.88	-154.50	0.88	-154.50	0.24	83.20
17750	0.23	83.10	0.88	-155.00	0.88	-155.00	0.23	83.10
17800	0.23	82.40	0.88	-155.80	0.88	-155.80	0.23	82.40
17850	0.23	81.80	0.88	-156.50	0.88	-156.50	0.23	81.80
17900	0.22	79.90	0.88	-157.10	0.88	-157.10	0.22	79.90
17950	0.21	78.00	0.88	-157.80	0.88	-157.80	0.21	78.00
18000	0.20	76.50	0.88	-158.70	0.88	-158.70	0.20	76.50
18050	0.19	75.10	0.87	-159.60	0.87	-159.60	0.19	75.10
18100	0.19	69.70	0.87	-160.40	0.87	-160.40	0.19	69.70
18150	0.18	64.30	0.87	-161.10	0.87	-161.10	0.18	64.30
18200	0.18	57.00	0.86	-162.00	0.86	-162.00	0.18	57.00
18250	0.18	49.70	0.85	-162.90	0.85	-162.90	0.18	49.70
18300	0.19	38.90	0.83	-163.00	0.83	-163.00	0.19	38.90
18350	0.20	28.10	0.81	-163.10	0.81	-163.10	0.20	28.10
18400	0.22	17.60	0.80	-162.00	0.80	-162.00	0.22	17.60
18450	0.23	7.10	0.78	-160.90	0.78	-160.90	0.23	7.10
18500	0.24	-1.10	0.80	-159.30	0.80	-159.30	0.24	-1.10
18550	0.26	-9.20	0.81	-157.60	0.81	-157.60	0.26	-9.20
18600	0.24	-16.10	0.84	-157.60	0.84	-157.60	0.24	-16.10
