# MHZ S MA R 50

      50  0.80   35.80    0.58   -49.00   0.58   -49.00   0.80   35.80
      60  0.82   33.10    0.54   -51.70   0.54   -51.70   0.82   33.10
      70  0.84   30.40    0.49   -54.40   0.49   -54.40   0.84   30.40
      80  0.86   27.60    0.45   -57.10   0.45   -57.10   0.86   27.60
      90  0.87   24.90    0.41   -59.80   0.41   -59.80   0.87   24.90
     100  0.89   22.20    0.37   -62.50   0.37   -62.50   0.89   22.20
     110  0.91   19.50    0.32   -65.30   0.32   -65.30   0.91   19.50
     120  0.93   16.70    0.28   -68.00   0.28   -68.00   0.93   16.70
     130  0.94   14.00    0.24   -70.70   0.24   -70.70   0.94   14.00
     140  0.96   11.30    0.19   -73.40   0.19   -73.40   0.96   11.30
     150  0.98    8.60    0.15   -76.10   0.15   -76.10   0.98    8.60
     160  0.98    7.50    0.14   -61.10   0.14   -61.10   0.98    7.50
     170  0.98    6.40    0.12   -46.20   0.12   -46.20   0.98    6.40
     180  0.99    5.20    0.11   -31.30   0.11   -31.30   0.99    5.20
     190  0.99    4.10    0.10   -16.40   0.10   -16.40   0.99    4.10
     200  0.99    3.00    0.09   -1.50    0.09   -1.50    0.99    3.00
     210  1.00    1.90    0.07   13.40    0.07   13.40    1.00    1.90
     220  1.00    0.80    0.06   28.30    0.06   28.30    1.00    0.80
     230  1.00   -0.30    0.05   43.20    0.05   43.20    1.00   -0.30
     240  1.00   -1.40    0.03   58.10    0.03   58.10    1.00   -1.40
     250  1.01   -2.50    0.02   73.00    0.02   73.00    1.01   -2.50
     260  1.00   -3.10    0.03   73.80    0.03   73.80    1.00   -3.10
     270  1.00   -3.70    0.04   74.60    0.04   74.60    1.00   -3.70
     280  1.00   -4.40    0.06   75.40    0.06   75.40    1.00   -4.40
     290  1.00   -5.00    0.07   76.20    0.07   76.20    1.00   -5.00
     300  1.00   -5.60    0.08   77.00    0.08   77.00    1.00   -5.60
     310  1.00   -6.20    0.09   77.80    0.09   77.80    1.00   -6.20
     320  1.00   -6.80    0.10   78.50    0.10   78.50    1.00   -6.80
     330  0.99   -7.40    0.11   79.30    0.11   79.30    0.99   -7.40
     340  0.99   -8.00    0.12   80.10    0.12   80.10    0.99   -8.00
     350  0.99   -8.70    0.14   80.90    0.14   80.90    0.99   -8.70
     360  0.99   -9.30    0.14   80.40    0.14   80.40    0.99   -9.30
     370  0.99   -9.90    0.15   79.80    0.15   79.80    0.99   -9.90
     380  0.99   -10.50   0.16   79.30    0.16   79.30    0.99   -10.50
     390  0.98   -11.20   0.17   78.80    0.17   78.80    0.98   -11.20
     400  0.98   -11.80   0.18   78.20    0.18   78.20    0.98   -11.80
     410  0.98   -12.40   0.19   77.70    0.19   77.70    0.98   -12.40
     420  0.98   -13.00   0.20   77.10    0.20   77.10    0.98   -13.00
     430  0.98   -13.60   0.21   76.60    0.21   76.60    0.98   -13.60
     440  0.98   -14.30   0.22   76.10    0.22   76.10    0.98   -14.30
     450  0.97   -14.90   0.23   75.50    0.23   75.50    0.97   -14.90
     460  0.97   -15.10   0.23   75.20    0.23   75.20    0.97   -15.10
     470  0.96   -15.30   0.24   74.80    0.24   74.80    0.96   -15.30
     480  0.96   -15.50   0.25   74.50    0.25   74.50    0.96   -15.50
     490  0.95   -15.70   0.25   74.10    0.25   74.10    0.95   -15.70
     500  0.95   -15.90   0.25   73.80    0.25   73.80    0.95   -15.90
     510  0.95   -16.00   0.26   73.40    0.26   73.40    0.95   -16.00
     520  0.94   -16.20   0.27   73.10    0.27   73.10    0.94   -16.20
     530  0.94   -16.40   0.27   72.70    0.27   72.70    0.94   -16.40
     540  0.93   -16.60   0.28   72.30    0.28   72.30    0.93   -16.60
     550  0.93   -16.80   0.28   72.00    0.28   72.00    0.93   -16.80
     560  0.93   -17.30   0.29   71.50    0.29   71.50    0.93   -17.30
     570  0.93   -17.70   0.29   71.00    0.29   71.00    0.93   -17.70
     580  0.93   -18.20   0.30   70.50    0.30   70.50    0.93   -18.20
     590  0.92   -18.70   0.31   70.00    0.31   70.00    0.92   -18.70
     600  0.92   -19.10   0.31   69.50    0.31   69.50    0.92   -19.10
     610  0.92   -19.60   0.32   69.00    0.32   69.00    0.92   -19.60
     620  0.92   -20.00   0.33   68.40    0.33   68.40    0.92   -20.00
     630  0.92   -20.50   0.34   67.90    0.34   67.90    0.92   -20.50
     640  0.92   -21.00   0.34   67.40    0.34   67.40    0.92   -21.00
     650  0.92   -21.40   0.35   66.90    0.35   66.90    0.92   -21.40
     660  0.92   -21.90   0.36   66.50    0.36   66.50    0.92   -21.90
     670  0.91   -22.30   0.36   66.10    0.36   66.10    0.91   -22.30
     680  0.91   -22.80   0.37   65.70    0.37   65.70    0.91   -22.80
     690  0.90   -23.20   0.38   65.20    0.38   65.20    0.90   -23.20
     700  0.90   -23.70   0.38   64.80    0.38   64.80    0.90   -23.70
     710  0.90   -24.10   0.39   64.40    0.39   64.40    0.90   -24.10
     720  0.89   -24.60   0.39   64.00    0.39   64.00    0.89   -24.60
     730  0.89   -25.00   0.40   63.60    0.40   63.60    0.89   -25.00
     740  0.89   -25.50   0.41   63.10    0.41   63.10    0.89   -25.50
     750  0.88   -25.90   0.41   62.70    0.41   62.70    0.88   -25.90
     760  0.88   -26.40   0.42   62.30    0.42   62.30    0.88   -26.40
     770  0.88   -26.80   0.43   61.80    0.43   61.80    0.88   -26.80
     780  0.88   -27.20   0.43   61.40    0.43   61.40    0.88   -27.20
     790  0.87   -27.70   0.44   61.00    0.44   61.00    0.87   -27.70
     800  0.87   -28.10   0.44   60.50    0.44   60.50    0.87   -28.10
     810  0.87   -28.60   0.45   60.10    0.45   60.10    0.87   -28.60
     820  0.87   -29.00   0.46   59.60    0.46   59.60    0.87   -29.00
     830  0.86   -29.50   0.46   59.20    0.46   59.20    0.86   -29.50
     840  0.86   -29.90   0.47   58.70    0.47   58.70    0.86   -29.90
     850  0.86   -30.40   0.47   58.30    0.47   58.30    0.86   -30.40
     860  0.86   -30.80   0.48   57.80    0.48   57.80    0.86   -30.80
     870  0.85   -31.20   0.49   57.40    0.49   57.40    0.85   -31.20
     880  0.85   -31.70   0.49   56.90    0.49   56.90    0.85   -31.70
     890  0.85   -32.10   0.50   56.50    0.50   56.50    0.85   -32.10
     900  0.84   -32.50   0.50   56.00    0.50   56.00    0.84   -32.50
     910  0.84   -33.00   0.51   55.50    0.51   55.50    0.84   -33.00
     920  0.84   -33.40   0.52   55.10    0.52   55.10    0.84   -33.40
     930  0.83   -33.80   0.52   54.60    0.52   54.60    0.83   -33.80
     940  0.83   -34.30   0.53   54.20    0.53   54.20    0.83   -34.30
     950  0.83   -34.70   0.54   53.70    0.54   53.70    0.83   -34.70
     960  0.82   -35.00   0.54   53.00    0.54   53.00    0.82   -35.00
     970  0.81   -35.40   0.55   52.40    0.55   52.40    0.81   -35.40
     980  0.81   -35.70   0.56   51.70    0.56   51.70    0.81   -35.70
     990  0.80   -36.10   0.56   51.00    0.56   51.00    0.80   -36.10
    1000  0.79   -36.40   0.57   50.40    0.57   50.40    0.79   -36.40
    1010  0.79   -36.80   0.57   49.70    0.57   49.70    0.79   -36.80
    1020  0.78   -37.10   0.58   49.00    0.58   49.00    0.78   -37.10
    1030  0.77   -37.50   0.59   48.40    0.59   48.40    0.77   -37.50
    1040  0.77   -37.80   0.59   47.70    0.59   47.70    0.77   -37.80
    1050  0.76   -38.20   0.60   47.00    0.60   47.00    0.76   -38.20
    1060  0.75   -38.30   0.60   45.50    0.60   45.50    0.75   -38.30
    1070  0.73   -38.40   0.61   43.90    0.61   43.90    0.73   -38.40
    1080  0.71   -38.50   0.61   42.40    0.61   42.40    0.71   -38.50
    1090  0.69   -38.70   0.61   40.80    0.61   40.80    0.69   -38.70
    1100  0.67   -38.80   0.62   39.30    0.62   39.30    0.67   -38.80
    1110  0.66   -38.90   0.62   37.80    0.62   37.80    0.66   -38.90
    1120  0.64   -39.00   0.62   36.20    0.62   36.20    0.64   -39.00
    1130  0.62   -39.10   0.63   34.70    0.63   34.70    0.62   -39.10
    1140  0.60   -39.20   0.63   33.10    0.63   33.10    0.60   -39.20
    1150  0.59   -39.30   0.63   31.60    0.63   31.60    0.59   -39.30
    1160  0.60   -37.80   0.61   32.60    0.61   32.60    0.60   -37.80
    1170  0.62   -36.20   0.59   33.70    0.59   33.70    0.62   -36.20
    1180  0.64   -34.60   0.56   34.70    0.56   34.70    0.64   -34.60
    1190  0.66   -33.10   0.54   35.70    0.54   35.70    0.66   -33.10
    1200  0.68   -31.50   0.52   36.80    0.52   36.80    0.68   -31.50
    1210  0.70   -30.00   0.50   37.80    0.50   37.80    0.70   -30.00
    1220  0.71   -28.40   0.47   38.80    0.47   38.80    0.71   -28.40
    1230  0.73   -26.80   0.45   39.90    0.45   39.90    0.73   -26.80
    1240  0.75   -25.30   0.43   40.90    0.43   40.90    0.75   -25.30
    1250  0.77   -23.70   0.40   42.00    0.40   42.00    0.77   -23.70
    1260  0.77   -25.00   0.42   42.60    0.42   42.60    0.77   -25.00
    1270  0.77   -26.20   0.43   43.30    0.43   43.30    0.77   -26.20
    1280  0.77   -27.50   0.45   44.00    0.45   44.00    0.77   -27.50
    1290  0.77   -28.80   0.46   44.60    0.46   44.60    0.77   -28.80
    1300  0.78   -30.00   0.47   45.30    0.47   45.30    0.78   -30.00
    1310  0.78   -31.30   0.49   46.00    0.49   46.00    0.78   -31.30
    1320  0.78   -32.50   0.50   46.60    0.50   46.60    0.78   -32.50
    1330  0.78   -33.80   0.52   47.30    0.52   47.30    0.78   -33.80
    1340  0.78   -35.10   0.53   47.90    0.53   47.90    0.78   -35.10
    1350  0.78   -36.30   0.55   48.60    0.55   48.60    0.78   -36.30
    1360  0.78   -36.80   0.55   48.30    0.55   48.30    0.78   -36.80
    1370  0.78   -37.30   0.56   48.00    0.56   48.00    0.78   -37.30
    1380  0.78   -37.90   0.57   47.70    0.57   47.70    0.78   -37.90
    1390  0.77   -38.40   0.57   47.40    0.57   47.40    0.77   -38.40
    1400  0.77   -38.90   0.58   47.10    0.58   47.10    0.77   -38.90
    1410  0.77   -39.40   0.59   46.80    0.59   46.80    0.77   -39.40
    1420  0.77   -39.90   0.60   46.50    0.60   46.50    0.77   -39.90
    1430  0.76   -40.40   0.60   46.20    0.60   46.20    0.76   -40.40
    1440  0.76   -40.90   0.61   46.00    0.61   46.00    0.76   -40.90
    1450  0.76   -41.40   0.62   45.70    0.62   45.70    0.76   -41.40
    1460  0.76   -41.80   0.62   45.30    0.62   45.30    0.76   -41.80
    1470  0.75   -42.30   0.63   45.00    0.63   45.00    0.75   -42.30
    1480  0.75   -42.70   0.63   44.70    0.63   44.70    0.75   -42.70
    1490  0.75   -43.10   0.64   44.30    0.64   44.30    0.75   -43.10
    1500  0.74   -43.50   0.64   44.00    0.64   44.00    0.74   -43.50
    1510  0.74   -43.90   0.65   43.70    0.65   43.70    0.74   -43.90
    1520  0.73   -44.30   0.65   43.30    0.65   43.30    0.73   -44.30
    1530  0.73   -44.70   0.65   43.00    0.65   43.00    0.73   -44.70
    1540  0.73   -45.20   0.66   42.70    0.66   42.70    0.73   -45.20
    1550  0.72   -45.60   0.66   42.30    0.66   42.30    0.72   -45.60
    1560  0.72   -45.90   0.67   42.00    0.67   42.00    0.72   -45.90
    1570  0.71   -46.20   0.67   41.70    0.67   41.70    0.71   -46.20
    1580  0.71   -46.50   0.68   41.30    0.68   41.30    0.71   -46.50
    1590  0.71   -46.80   0.68   41.00    0.68   41.00    0.71   -46.80
    1600  0.70   -47.10   0.68   40.70    0.68   40.70    0.70   -47.10
    1610  0.70   -47.40   0.69   40.40    0.69   40.40    0.70   -47.40
    1620  0.70   -47.70   0.69   40.10    0.69   40.10    0.70   -47.70
    1630  0.69   -48.00   0.69   39.70    0.69   39.70    0.69   -48.00
    1640  0.69   -48.30   0.70   39.40    0.70   39.40    0.69   -48.30
    1650  0.69   -48.60   0.70   39.10    0.70   39.10    0.69   -48.60
    1660  0.69   -48.90   0.70   38.80    0.70   38.80    0.69   -48.90
    1670  0.68   -49.10   0.71   38.60    0.71   38.60    0.68   -49.10
    1680  0.68   -49.40   0.71   38.30    0.71   38.30    0.68   -49.40
    1690  0.67   -49.60   0.71   38.10    0.71   38.10    0.67   -49.60
    1700  0.67   -49.90   0.72   37.80    0.72   37.80    0.67   -49.90
    1710  0.67   -50.10   0.72   37.60    0.72   37.60    0.67   -50.10
    1720  0.66   -50.30   0.72   37.30    0.72   37.30    0.66   -50.30
    1730  0.66   -50.60   0.73   37.00    0.73   37.00    0.66   -50.60
    1740  0.65   -50.80   0.73   36.80    0.73   36.80    0.65   -50.80
    1750  0.65   -51.10   0.73   36.50    0.73   36.50    0.65   -51.10
    1760  0.65   -51.40   0.74   36.20    0.74   36.20    0.65   -51.40
    1770  0.64   -51.70   0.74   35.90    0.74   35.90    0.64   -51.70
    1780  0.64   -52.00   0.74   35.50    0.74   35.50    0.64   -52.00
    1790  0.64   -52.30   0.75   35.20    0.75   35.20    0.64   -52.30
    1800  0.63   -52.60   0.75   34.90    0.75   34.90    0.63   -52.60
    1810  0.63   -52.90   0.75   34.50    0.75   34.50    0.63   -52.90
    1820  0.63   -53.20   0.75   34.20    0.75   34.20    0.63   -53.20
    1830  0.62   -53.50   0.75   33.90    0.75   33.90    0.62   -53.50
    1840  0.62   -53.80   0.76   33.50    0.76   33.50    0.62   -53.80
    1850  0.62   -54.10   0.76   33.20    0.76   33.20    0.62   -54.10
    1860  0.61   -54.40   0.76   32.90    0.76   32.90    0.61   -54.40
    1870  0.61   -54.60   0.76   32.50    0.76   32.50    0.61   -54.60
    1880  0.60   -54.90   0.77   32.20    0.77   32.20    0.60   -54.90
    1890  0.60   -55.20   0.77   31.90    0.77   31.90    0.60   -55.20
    1900  0.59   -55.50   0.77   31.60    0.77   31.60    0.59   -55.50
    1910  0.59   -55.80   0.77   31.30    0.77   31.30    0.59   -55.80
    1920  0.58   -56.00   0.78   30.90    0.78   30.90    0.58   -56.00
    1930  0.58   -56.30   0.78   30.60    0.78   30.60    0.58   -56.30
    1940  0.57   -56.60   0.78   30.30    0.78   30.30    0.57   -56.60
    1950  0.57   -56.90   0.78   30.00    0.78   30.00    0.57   -56.90
    1960  0.56   -56.90   0.78   29.50    0.78   29.50    0.56   -56.90
    1970  0.56   -57.00   0.79   29.00    0.79   29.00    0.56   -57.00
    1980  0.55   -57.10   0.79   28.60    0.79   28.60    0.55   -57.10
    1990  0.55   -57.10   0.79   28.10    0.79   28.10    0.55   -57.10
    2000  0.54   -57.20   0.79   27.60    0.79   27.60    0.54   -57.20
    2010  0.54   -57.20   0.79   27.20    0.79   27.20    0.54   -57.20
    2020  0.53   -57.30   0.79   26.70    0.79   26.70    0.53   -57.30
    2030  0.52   -57.40   0.79   26.20    0.79   26.20    0.52   -57.40
    2040  0.52   -57.40   0.79   25.80    0.79   25.80    0.52   -57.40
    2050  0.51   -57.50   0.79   25.30    0.79   25.30    0.51   -57.50
    2060  0.51   -56.50   0.79   24.80    0.79   24.80    0.51   -56.50
    2070  0.50   -55.50   0.78   24.30    0.78   24.30    0.50   -55.50
    2080  0.50   -54.50   0.77   23.80    0.77   23.80    0.50   -54.50
    2090  0.49   -53.50   0.76   23.30    0.76   23.30    0.49   -53.50
    2100  0.49   -52.50   0.76   22.80    0.76   22.80    0.49   -52.50
    2110  0.48   -51.50   0.75   22.30    0.75   22.30    0.48   -51.50
    2120  0.48   -50.50   0.74   21.80    0.74   21.80    0.48   -50.50
    2130  0.47   -49.50   0.74   21.30    0.74   21.30    0.47   -49.50
    2140  0.47   -48.50   0.73   20.70    0.73   20.70    0.47   -48.50
    2150  0.47   -47.50   0.72   20.20    0.72   20.20    0.47   -47.50
    2160  0.48   -47.70   0.72   21.10    0.72   21.10    0.48   -47.70
    2170  0.49   -47.80   0.72   21.90    0.72   21.90    0.49   -47.80
    2180  0.50   -48.00   0.71   22.80    0.71   22.80    0.50   -48.00
    2190  0.51   -48.20   0.71   23.70    0.71   23.70    0.51   -48.20
    2200  0.52   -48.40   0.71   24.50    0.71   24.50    0.52   -48.40
    2210  0.53   -48.60   0.71   25.40    0.71   25.40    0.53   -48.60
    2220  0.54   -48.80   0.70   26.20    0.70   26.20    0.54   -48.80
    2230  0.56   -49.00   0.70   27.10    0.70   27.10    0.56   -49.00
    2240  0.57   -49.20   0.70   27.90    0.70   27.90    0.57   -49.20
    2250  0.58   -49.40   0.70   28.80    0.70   28.80    0.58   -49.40
    2260  0.58   -50.10   0.71   28.80    0.71   28.80    0.58   -50.10
    2270  0.57   -50.90   0.71   28.80    0.71   28.80    0.57   -50.90
    2280  0.57   -51.60   0.72   28.70    0.72   28.70    0.57   -51.60
    2290  0.57   -52.40   0.73   28.70    0.73   28.70    0.57   -52.40
    2300  0.57   -53.10   0.74   28.70    0.74   28.70    0.57   -53.10
    2310  0.57   -53.90   0.75   28.70    0.75   28.70    0.57   -53.90
    2320  0.57   -54.60   0.75   28.70    0.75   28.70    0.57   -54.60
    2330  0.57   -55.40   0.76   28.70    0.76   28.70    0.57   -55.40
    2340  0.56   -56.10   0.77   28.70    0.77   28.70    0.56   -56.10
    2350  0.56   -56.80   0.78   28.60    0.78   28.60    0.56   -56.80
    2360  0.56   -57.20   0.78   28.40    0.78   28.40    0.56   -57.20
    2370  0.56   -57.60   0.78   28.20    0.78   28.20    0.56   -57.60
    2380  0.56   -58.00   0.79   27.90    0.79   27.90    0.56   -58.00
    2390  0.55   -58.40   0.79   27.70    0.79   27.70    0.55   -58.40
    2400  0.55   -58.80   0.79   27.50    0.79   27.50    0.55   -58.80
    2410  0.55   -59.20   0.80   27.20    0.80   27.20    0.55   -59.20
    2420  0.54   -59.60   0.80   27.00    0.80   27.00    0.54   -59.60
    2430  0.54   -60.10   0.80   26.70    0.80   26.70    0.54   -60.10
    2440  0.54   -60.50   0.80   26.50    0.80   26.50    0.54   -60.50
    2450  0.54   -60.90   0.81   26.30    0.81   26.30    0.54   -60.90
    2460  0.53   -61.20   0.81   26.10    0.81   26.10    0.53   -61.20
    2470  0.53   -61.60   0.81   25.80    0.81   25.80    0.53   -61.60
    2480  0.53   -61.90   0.81   25.60    0.81   25.60    0.53   -61.90
    2490  0.52   -62.30   0.82   25.40    0.82   25.40    0.52   -62.30
    2500  0.52   -62.60   0.82   25.20    0.82   25.20    0.52   -62.60
    2510  0.52   -63.00   0.82   25.00    0.82   25.00    0.52   -63.00
    2520  0.51   -63.30   0.82   24.80    0.82   24.80    0.51   -63.30
    2530  0.51   -63.70   0.83   24.60    0.83   24.60    0.51   -63.70
    2540  0.51   -64.00   0.83   24.40    0.83   24.40    0.51   -64.00
    2550  0.50   -64.40   0.83   24.20    0.83   24.20    0.50   -64.40
    2560  0.50   -64.50   0.83   24.00    0.83   24.00    0.50   -64.50
    2570  0.50   -64.70   0.84   23.80    0.84   23.80    0.50   -64.70
    2580  0.50   -64.80   0.84   23.60    0.84   23.60    0.50   -64.80
    2590  0.49   -65.00   0.84   23.40    0.84   23.40    0.49   -65.00
    2600  0.49   -65.10   0.84   23.20    0.84   23.20    0.49   -65.10
    2610  0.49   -65.30   0.84   23.00    0.84   23.00    0.49   -65.30
    2620  0.49   -65.50   0.85   22.80    0.85   22.80    0.49   -65.50
    2630  0.48   -65.60   0.85   22.60    0.85   22.60    0.48   -65.60
    2640  0.48   -65.80   0.85   22.50    0.85   22.50    0.48   -65.80
    2650  0.48   -65.90   0.85   22.30    0.85   22.30    0.48   -65.90
    2660  0.47   -66.10   0.85   22.10    0.85   22.10    0.47   -66.10
    2670  0.47   -66.30   0.85   21.90    0.85   21.90    0.47   -66.30
    2680  0.47   -66.50   0.85   21.70    0.85   21.70    0.47   -66.50
    2690  0.47   -66.70   0.86   21.50    0.86   21.50    0.47   -66.70
    2700  0.46   -66.90   0.86   21.30    0.86   21.30    0.46   -66.90
    2710  0.46   -67.10   0.86   21.10    0.86   21.10    0.46   -67.10
    2720  0.46   -67.30   0.86   20.90    0.86   20.90    0.46   -67.30
    2730  0.46   -67.50   0.86   20.70    0.86   20.70    0.46   -67.50
    2740  0.45   -67.70   0.86   20.50    0.86   20.50    0.45   -67.70
    2750  0.45   -67.90   0.86   20.30    0.86   20.30    0.45   -67.90
    2760  0.45   -68.10   0.86   20.10    0.86   20.10    0.45   -68.10
    2770  0.45   -68.20   0.86   19.90    0.86   19.90    0.45   -68.20
    2780  0.44   -68.40   0.87   19.70    0.87   19.70    0.44   -68.40
    2790  0.44   -68.60   0.87   19.50    0.87   19.50    0.44   -68.60
    2800  0.44   -68.70   0.87   19.30    0.87   19.30    0.44   -68.70
    2810  0.44   -68.90   0.87   19.10    0.87   19.10    0.44   -68.90
    2820  0.43   -69.00   0.87   18.90    0.87   18.90    0.43   -69.00
