#	mhz	s	ma	r	50
50	0.13079	79.272	0.98228	-6.812	0.98228	-6.812	0.13079	79.272
70	0.17485	76.613	0.97618	-10.572	0.97618	-10.572	0.17485	76.613
90	0.21984	74.054	0.96409	-13.482	0.96409	-13.482	0.21984	74.054
110	0.26473	71.533	0.95281	-16.085	0.95281	-16.085	0.26473	71.533
130	0.30827	69.097	0.94195	-18.657	0.94195	-18.657	0.30827	69.097
150	0.34906	66.895	0.92393	-21.197	0.92393	-21.197	0.34906	66.895
170	0.38958	64.449	0.90297	-23.677	0.90297	-23.677	0.38958	64.449
190	0.4274	62.071	0.88425	-26.317	0.88425	-26.317	0.4274	62.071
210	0.46364	59.958	0.86483	-28.746	0.86483	-28.746	0.46364	59.958
230	0.49942	57.956	0.84584	-30.931	0.84584	-30.931	0.49942	57.956
250	0.53587	55.551	0.83248	-33.18	0.83248	-33.18	0.53587	55.551
270	0.56035	53.016	0.80782	-35.628	0.80782	-35.628	0.56035	53.016
290	0.58709	51.157	0.78538	-37.516	0.78538	-37.516	0.58709	51.157
310	0.61651	49.106	0.76589	-39.475	0.76589	-39.475	0.61651	49.106
330	0.64554	46.785	0.74698	-41.624	0.74698	-41.624	0.64554	46.785
350	0.6677	44.904	0.72311	-43.572	0.72311	-43.572	0.6677	44.904
370	0.69339	43.629	0.70409	-45.347	0.70409	-45.347	0.69339	43.629
390	0.71589	41.839	0.68267	-47.021	0.68267	-47.021	0.71589	41.839
410	0.73544	40.2	0.66095	-48.604	0.66095	-48.604	0.73544	40.2
430	0.75345	38.771	0.64026	-50.116	0.64026	-50.116	0.75345	38.771
450	0.7725	37.0	0.62118	-51.587	0.62118	-51.587	0.7725	37.0
470	0.78118	35.804	0.59527	-52.995	0.59527	-52.995	0.78118	35.804
490	0.83361	34.607	0.58255	-55.775	0.58255	-55.775	0.83361	34.607
510	0.86289	33.246	0.56477	-57.377	0.56477	-57.377	0.86289	33.246
530	0.8523	31.598	0.5366	-57.412	0.5366	-57.412	0.8523	31.598
550	0.83531	29.581	0.5056	-57.655	0.5056	-57.655	0.83531	29.581
570	0.83791	27.126	0.47471	-58.838	0.47471	-58.838	0.83791	27.126
590	0.84127	24.882	0.44381	-60.241	0.44381	-60.241	0.84127	24.882
610	0.85463	22.418	0.41721	-62.345	0.41721	-62.345	0.85463	22.418
630	0.87564	19.94	0.39641	-64.927	0.39641	-64.927	0.87564	19.94
650	0.89042	18.285	0.38012	-67.059	0.38012	-67.059	0.89042	18.285
670	0.90901	17.884	0.37186	-68.505	0.37186	-68.505	0.90901	17.884
690	0.9264	17.698	0.3628	-69.476	0.3628	-69.476	0.9264	17.698
710	0.93325	17.299	0.35118	-70.052	0.35118	-70.052	0.93325	17.299
730	0.92882	16.68	0.33658	-70.362	0.33658	-70.362	0.92882	16.68
750	0.92099	16.26	0.31997	-70.586	0.31997	-70.586	0.92099	16.26
770	0.91783	14.707	0.30191	-71.199	0.30191	-71.199	0.91783	14.707
790	0.91357	13.165	0.28331	-72.103	0.28331	-72.103	0.91357	13.165
810	0.91693	11.297	0.26547	-73.582	0.26547	-73.582	0.91693	11.297
830	0.92771	9.296	0.2494	-75.559	0.2494	-75.559	0.92771	9.296
850	0.93679	7.89	0.23576	-77.592	0.23576	-77.592	0.93679	7.89
870	0.95278	6.932	0.2265	-78.796	0.2265	-78.796	0.95278	6.932
890	0.96957	6.055	0.21927	-80.098	0.21927	-80.098	0.96957	6.055
910	0.9811	5.448	0.21132	-80.996	0.21132	-80.996	0.9811	5.448
930	0.9876	5.243	0.20178	-81.212	0.20178	-81.212	0.9876	5.243
950	0.99563	5.509	0.19164	-80.689	0.19164	-80.689	0.99563	5.509
970	0.99631	5.079	0.17978	-80.741	0.17978	-80.741	0.99631	5.079
990	0.99318	4.581	0.16665	-80.886	0.16665	-80.886	0.99318	4.581
1010	0.99282	3.975	0.15357	-81.135	0.15357	-81.135	0.99282	3.975
1030	0.99511	3.332	0.14098	-81.635	0.14098	-81.635	0.99511	3.332
1050	0.99321	2.825	0.12838	-82.676	0.12838	-82.676	0.99321	2.825
1070	0.99499	2.108	0.11823	-83.7	0.11823	-83.7	0.99499	2.108
1090	0.99636	1.369	0.10857	-84.57	0.10857	-84.57	0.99636	1.369
1110	0.99622	0.769	0.09907	-84.995	0.09907	-84.995	0.99622	0.769
1130	0.99554	0.327	0.08946	-84.942	0.08946	-84.942	0.99554	0.327
1150	0.99738	-0.081	0.07954	-84.637	0.07954	-84.637	0.99738	-0.081
1170	0.99685	-0.558	0.06892	-83.938	0.06892	-83.938	0.99685	-0.558
1190	0.99438	-1.066	0.05844	-83.135	0.05844	-83.135	0.99438	-1.066
1210	0.99148	-1.762	0.04789	-82.286	0.04789	-82.286	0.99148	-1.762
1230	0.9882	-2.485	0.03748	-81.278	0.03748	-81.278	0.9882	-2.485
1250	0.98313	-2.751	0.02779	-79.825	0.02779	-79.825	0.98313	-2.751
1270	0.99245	-3.578	0.01881	-74.985	0.01881	-74.985	0.99245	-3.578
1290	0.98654	-4.544	0.01042	-56.642	0.01042	-56.642	0.98654	-4.544
1310	0.98233	-5.257	0.0071	-7.131	0.0071	-7.131	0.98233	-5.257
1330	0.98522	-5.778	0.01035	54.046	0.01035	54.046	0.98522	-5.778
1350	0.98909	-6.626	0.01871	70.219	0.01871	70.219	0.98909	-6.626
1370	0.98425	-7.198	0.0272	74.696	0.0272	74.696	0.98425	-7.198
1390	0.98671	-7.684	0.0357	77.267	0.0357	77.267	0.98671	-7.684
1410	0.98921	-8.248	0.04403	78.377	0.04403	78.377	0.98921	-8.248
1430	0.98987	-8.802	0.05208	78.679	0.05208	78.679	0.98987	-8.802
1450	0.99215	-9.004	0.0598	79.037	0.0598	79.037	0.99215	-9.004
1470	0.99781	-9.466	0.06803	78.506	0.06803	78.506	0.99781	-9.466
1490	0.99442	-10.144	0.07615	77.655	0.07615	77.655	0.99442	-10.144
1510	0.99096	-10.567	0.08466	77.219	0.08466	77.219	0.99096	-10.567
1530	0.99157	-10.749	0.09363	77.16	0.09363	77.16	0.99157	-10.749
1550	0.99547	-11.193	0.10272	76.671	0.10272	76.671	0.99547	-11.193
1570	0.98944	-12.127	0.11093	76.728	0.11093	76.728	0.98944	-12.127
1590	0.9896	-12.498	0.1183	76.761	0.1183	76.761	0.9896	-12.498
1610	0.99108	-12.655	0.12562	76.726	0.12562	76.726	0.99108	-12.655
1630	0.99224	-12.865	0.13305	76.513	0.13305	76.513	0.99224	-12.865
1650	0.99471	-13.31	0.14013	75.95	0.14013	75.95	0.99471	-13.31
1670	0.98441	-13.973	0.14619	75.182	0.14619	75.182	0.98441	-13.973
1690	0.98252	-14.053	0.15389	74.584	0.15389	74.584	0.98252	-14.053
1710	0.98287	-14.36	0.16287	74.025	0.16287	74.025	0.98287	-14.36
1730	0.98187	-15.05	0.17191	73.447	0.17191	73.447	0.98187	-15.05
1750	0.97846	-15.62	0.17896	72.857	0.17896	72.857	0.97846	-15.62
1770	0.98103	-15.87	0.18797	73.009	0.18797	73.009	0.98103	-15.87
1790	0.97978	-16.369	0.19523	72.819	0.19523	72.819	0.97978	-16.369
1810	0.97684	-16.783	0.20144	72.724	0.20144	72.724	0.97684	-16.783
1830	0.97446	-17.081	0.20738	72.749	0.20738	72.749	0.97446	-17.081
1850	0.97499	-17.534	0.21388	72.5	0.21388	72.5	0.97499	-17.534
1870	0.97216	-18.196	0.21873	71.403	0.21873	71.403	0.97216	-18.196
1890	0.96628	-18.323	0.22481	70.81	0.22481	70.81	0.96628	-18.323
1910	0.96745	-18.46	0.23253	70.338	0.23253	70.338	0.96745	-18.46
1930	0.97485	-19.006	0.24132	69.746	0.24132	69.746	0.97485	-19.006
1950	0.97677	-20.212	0.24959	68.936	0.24959	68.936	0.97677	-20.212
1970	0.96205	-20.225	0.25671	68.874	0.25671	68.874	0.96205	-20.225
1990	0.95978	-20.389	0.26352	68.882	0.26352	68.882	0.95978	-20.389
2010	0.96304	-20.742	0.26973	68.95	0.26973	68.95	0.96304	-20.742
2030	0.96595	-21.21	0.27558	68.942	0.27558	68.942	0.96595	-21.21
2050	0.96372	-21.608	0.28188	68.595	0.28188	68.595	0.96372	-21.608
2070	0.95609	-21.638	0.28393	68.0	0.28393	68.0	0.95609	-21.638
2090	0.95505	-21.804	0.28981	67.396	0.28981	67.396	0.95505	-21.804
2110	0.95406	-22.27	0.29623	66.494	0.29623	66.494	0.95406	-22.27
2130	0.95	-22.821	0.30188	65.538	0.30188	65.538	0.95	-22.821
2150	0.94317	-22.871	0.30738	65.309	0.30738	65.309	0.94317	-22.871
2170	0.94408	-23.474	0.31672	64.952	0.31672	64.952	0.94408	-23.474
2190	0.9447	-24.107	0.32413	64.424	0.32413	64.424	0.9447	-24.107
2210	0.9446	-24.463	0.33086	64.205	0.33086	64.205	0.9446	-24.463
2230	0.94299	-24.65	0.33697	64.146	0.33697	64.146	0.94299	-24.65
2250	0.93869	-25.199	0.34128	63.47	0.34128	63.47	0.93869	-25.199
2270	0.9324	-25.293	0.34394	63.019	0.34394	63.019	0.9324	-25.293
2290	0.9328	-25.422	0.35039	62.709	0.35039	62.709	0.9328	-25.422
2310	0.9321	-25.964	0.35769	62.044	0.35769	62.044	0.9321	-25.964
2330	0.92552	-26.758	0.36431	61.125	0.36431	61.125	0.92552	-26.758
2350	0.91125	-27.107	0.37009	60.645	0.37009	60.645	0.91125	-27.107
2370	0.91918	-27.074	0.3799	60.523	0.3799	60.523	0.91918	-27.074
2390	0.92011	-27.565	0.38805	60.119	0.38805	60.119	0.92011	-27.565
2410	0.91788	-28.089	0.39383	59.86	0.39383	59.86	0.91788	-28.089
2430	0.91476	-28.328	0.39795	59.848	0.39795	59.848	0.91476	-28.328
2450	0.9115	-28.139	0.40249	59.862	0.40249	59.862	0.9115	-28.139
2470	0.9128	-28.912	0.40692	59.277	0.40692	59.277	0.9128	-28.912
2490	0.90899	-29.192	0.41133	58.758	0.41133	58.758	0.90899	-29.192
2510	0.90373	-29.414	0.41611	58.282	0.41611	58.282	0.90373	-29.414
2530	0.90019	-29.777	0.4218	57.793	0.4218	57.793	0.90019	-29.777
2550	0.90104	-30.25	0.4291	57.208	0.4291	57.208	0.90104	-30.25
2570	0.89286	-30.577	0.43502	56.751	0.43502	56.751	0.89286	-30.577
2590	0.89132	-30.931	0.44154	56.728	0.44154	56.728	0.89132	-30.931
2610	0.88785	-31.46	0.44805	56.514	0.44805	56.514	0.88785	-31.46
2630	0.88197	-32.01	0.45381	56.141	0.45381	56.141	0.88197	-32.01
2650	0.88126	-32.128	0.4579	56.3	0.4579	56.3	0.88126	-32.128
2670	0.88335	-32.331	0.46204	55.835	0.46204	55.835	0.88335	-32.331
2690	0.88254	-32.75	0.46612	55.276	0.46612	55.276	0.88254	-32.75
2710	0.8773	-33.085	0.46937	54.822	0.46937	54.822	0.8773	-33.085
2730	0.8703	-33.282	0.4734	54.427	0.4734	54.427	0.8703	-33.282
2750	0.86843	-33.543	0.48222	53.806	0.48222	53.806	0.86843	-33.543
2770	0.86477	-34.075	0.4846	53.27	0.4846	53.27	0.86477	-34.075
2790	0.85934	-34.487	0.49054	52.908	0.49054	52.908	0.85934	-34.487
2810	0.85678	-34.89	0.4975	52.64	0.4975	52.64	0.85678	-34.89
2830	0.85616	-35.272	0.50321	52.417	0.50321	52.417	0.85616	-35.272
2850	0.85094	-35.495	0.50567	52.212	0.50567	52.212	0.85094	-35.495
2870	0.84869	-35.778	0.51179	51.6	0.51179	51.6	0.84869	-35.778
2890	0.84439	-36.369	0.51674	51.117	0.51674	51.117	0.84439	-36.369
2910	0.84019	-36.731	0.52193	50.665	0.52193	50.665	0.84019	-36.731
2930	0.83539	-36.844	0.52729	50.114	0.52729	50.114	0.83539	-36.844
2950	0.82636	-37.209	0.53129	49.302	0.53129	49.302	0.82636	-37.209
2970	0.824	-38.165	0.53974	48.778	0.53974	48.778	0.824	-38.165
2990	0.82343	-38.728	0.54466	48.458	0.54466	48.458	0.82343	-38.728
3010	0.82169	-38.97	0.54969	48.367	0.54969	48.367	0.82169	-38.97
3030	0.81949	-39.129	0.55606	48.308	0.55606	48.308	0.81949	-39.129
3050	0.82121	-39.607	0.56258	47.858	0.56258	47.858	0.82121	-39.607
3070	0.81293	-40.104	0.56625	47.585	0.56625	47.585	0.81293	-40.104
3090	0.80374	-40.21	0.56771	47.3	0.56771	47.3	0.80374	-40.21
3110	0.7998	-40.305	0.57103	46.832	0.57103	46.832	0.7998	-40.305
3130	0.79965	-40.606	0.57679	46.153	0.57679	46.153	0.79965	-40.606
3150	0.79414	-41.166	0.58202	45.376	0.58202	45.376	0.79414	-41.166
3170	0.78902	-42.078	0.58303	45.011	0.58303	45.011	0.78902	-42.078
3190	0.78364	-42.48	0.58814	44.647	0.58814	44.647	0.78364	-42.48
3210	0.77676	-43.07	0.59389	44.232	0.59389	44.232	0.77676	-43.07
3230	0.76666	-43.888	0.59723	43.782	0.59723	43.782	0.76666	-43.888
3250	0.75112	-44.317	0.59561	43.381	0.59561	43.381	0.75112	-44.317
3270	0.73887	-43.34	0.59358	43.694	0.59358	43.694	0.73887	-43.34
3290	0.74121	-42.575	0.60031	43.903	0.60031	43.903	0.74121	-42.575
3310	0.749	-42.357	0.6082	43.774	0.6082	43.774	0.749	-42.357
3330	0.75639	-42.696	0.61474	43.283	0.61474	43.283	0.75639	-42.696
3350	0.76088	-43.281	0.62245	42.616	0.62245	42.616	0.76088	-43.281
3370	0.75305	-43.945	0.62481	42.04	0.62481	42.04	0.75305	-43.945
3390	0.74706	-44.01	0.62895	41.793	0.62895	41.793	0.74706	-44.01
3410	0.74607	-44.178	0.63587	41.687	0.63587	41.687	0.74607	-44.178
3430	0.74659	-44.836	0.64294	41.403	0.64294	41.403	0.74659	-44.836
3450	0.73841	-46.05	0.64391	40.489	0.64391	40.489	0.73841	-46.05
3470	0.73161	-46.193	0.64267	40.503	0.64267	40.503	0.73161	-46.193
3490	0.73125	-46.305	0.64986	40.248	0.64986	40.248	0.73125	-46.305
3510	0.73069	-46.805	0.65543	39.701	0.65543	39.701	0.73069	-46.805
3530	0.72699	-47.498	0.65751	39.069	0.65751	39.069	0.72699	-47.498
3550	0.72091	-47.577	0.66242	38.793	0.66242	38.793	0.72091	-47.577
3570	0.72139	-47.677	0.67012	38.257	0.67012	38.257	0.72139	-47.677
3590	0.71287	-48.253	0.67306	37.626	0.67306	37.626	0.71287	-48.253
3610	0.70521	-48.764	0.67651	37.417	0.67651	37.417	0.70521	-48.764
3630	0.70245	-49.155	0.68307	37.422	0.68307	37.422	0.70245	-49.155
3650	0.70283	-49.856	0.69268	36.707	0.69268	36.707	0.70283	-49.856
3670	0.69804	-50.354	0.69078	36.313	0.69078	36.313	0.69804	-50.354
3690	0.69516	-50.338	0.69406	36.414	0.69406	36.414	0.69516	-50.338
3710	0.69366	-50.504	0.69808	36.036	0.69808	36.036	0.69366	-50.504
3730	0.69087	-50.996	0.70083	35.149	0.70083	35.149	0.69087	-50.996
3750	0.68204	-51.403	0.70272	34.671	0.70272	34.671	0.68204	-51.403
3770	0.67442	-51.373	0.70685	34.378	0.70685	34.378	0.67442	-51.373
3790	0.66943	-51.827	0.71191	33.926	0.71191	33.926	0.66943	-51.827
3810	0.66504	-52.445	0.71781	33.382	0.71781	33.382	0.66504	-52.445
3830	0.66092	-53.035	0.72313	32.891	0.72313	32.891	0.66092	-53.035
3850	0.65842	-53.534	0.72511	32.667	0.72511	32.667	0.65842	-53.534
3870	0.6556	-53.541	0.72974	32.542	0.72974	32.542	0.6556	-53.541
3890	0.65548	-53.942	0.73348	32.221	0.73348	32.221	0.65548	-53.942
3910	0.65128	-54.35	0.73624	31.641	0.73624	31.641	0.65128	-54.35
3930	0.64289	-54.524	0.73847	31.066	0.73847	31.066	0.64289	-54.524
3950	0.63685	-54.366	0.74112	31.084	0.74112	31.084	0.63685	-54.366
3970	0.63315	-54.826	0.74738	30.526	0.74738	30.526	0.63315	-54.826
3990	0.62805	-55.622	0.74842	29.902	0.74842	29.902	0.62805	-55.622
4010	0.62096	-56.241	0.75023	29.432	0.75023	29.432	0.62096	-56.241
4030	0.61434	-56.559	0.75454	29.12	0.75454	29.12	0.61434	-56.559
4050	0.61367	-56.84	0.75877	28.752	0.75877	28.752	0.61367	-56.84
4070	0.61054	-57.272	0.76185	28.417	0.76185	28.417	0.61054	-57.272
4090	0.60598	-57.886	0.76701	27.757	0.76701	27.757	0.60598	-57.886
4110	0.59962	-58.223	0.77006	27.126	0.77006	27.126	0.59962	-58.223
4130	0.59194	-58.223	0.77111	26.721	0.77111	26.721	0.59194	-58.223
4150	0.58422	-58.224	0.77449	26.591	0.77449	26.591	0.58422	-58.224
4170	0.57852	-59.226	0.78169	25.935	0.78169	25.935	0.57852	-59.226
4190	0.57247	-59.582	0.7845	25.534	0.7845	25.534	0.57247	-59.582
4210	0.56687	-59.916	0.78795	25.07	0.78795	25.07	0.56687	-59.916
4230	0.56136	-60.486	0.79182	24.52	0.79182	24.52	0.56136	-60.486
4250	0.55434	-61.185	0.79064	24.151	0.79064	24.151	0.55434	-61.185
4270	0.55008	-61.449	0.79785	23.576	0.79785	23.576	0.55008	-61.449
4290	0.54687	-61.727	0.80277	22.96	0.80277	22.96	0.54687	-61.727
4310	0.54003	-61.735	0.8066	22.548	0.8066	22.548	0.54003	-61.735
4330	0.5301	-61.676	0.81035	22.221	0.81035	22.221	0.5301	-61.676
4350	0.52281	-62.241	0.8148	21.497	0.8148	21.497	0.52281	-62.241
4370	0.51737	-63.199	0.818	20.881	0.818	20.881	0.51737	-63.199
4390	0.51031	-63.641	0.82229	20.289	0.82229	20.289	0.51031	-63.641
4410	0.50306	-64.122	0.82675	19.646	0.82675	19.646	0.50306	-64.122
4430	0.49627	-64.616	0.83026	19.059	0.83026	19.059	0.49627	-64.616
4450	0.4898	-64.518	0.83143	18.818	0.83143	18.818	0.4898	-64.518
4470	0.48436	-64.818	0.8373	18.172	0.8373	18.172	0.48436	-64.818
4490	0.47519	-65.219	0.83798	17.287	0.83798	17.287	0.47519	-65.219
4510	0.46327	-65.237	0.83959	16.715	0.83959	16.715	0.46327	-65.237
4530	0.45068	-65.205	0.84559	16.366	0.84559	16.366	0.45068	-65.205
4550	0.44059	-66.268	0.85684	15.514	0.85684	15.514	0.44059	-66.268
4570	0.42876	-66.931	0.85541	14.741	0.85541	14.741	0.42876	-66.931
4590	0.4179	-67.454	0.85609	14.224	0.85609	14.224	0.4179	-67.454
4610	0.40964	-67.938	0.86059	13.59	0.86059	13.59	0.40964	-67.938
4630	0.40228	-68.333	0.86609	12.754	0.86609	12.754	0.40228	-68.333
4650	0.39092	-68.436	0.8652	11.916	0.8652	11.916	0.39092	-68.436
4670	0.37961	-68.535	0.8706	10.935	0.8706	10.935	0.37961	-68.535
4690	0.36655	-68.267	0.87648	10.15	0.87648	10.15	0.36655	-68.267
4710	0.35113	-68.137	0.88002	9.229	0.88002	9.229	0.35113	-68.137
4730	0.33409	-68.249	0.8814	8.129	0.8814	8.129	0.33409	-68.249
4750	0.31758	-68.307	0.88383	7.087	0.88383	7.087	0.31758	-68.307
4770	0.2994	-68.625	0.88681	6.097	0.88681	6.097	0.2994	-68.625
4790	0.28146	-68.879	0.88877	5.065	0.88877	5.065	0.28146	-68.879
4810	0.26522	-68.883	0.88921	3.824	0.88921	3.824	0.26522	-68.883
4830	0.24984	-68.104	0.89014	2.448	0.89014	2.448	0.24984	-68.104
4850	0.23221	-65.667	0.89606	1.247	0.89606	1.247	0.23221	-65.667
4870	0.21115	-62.942	0.89509	-0.452	0.89509	-0.452	0.21115	-62.942
4890	0.18863	-59.139	0.89137	-1.946	0.89137	-1.946	0.18863	-59.139
4910	0.16673	-53.969	0.88912	-3.582	0.88912	-3.582	0.16673	-53.969
4930	0.14666	-46.976	0.887	-5.41	0.887	-5.41	0.14666	-46.976
4950	0.12868	-37.547	0.87807	-7.18	0.87807	-7.18	0.12868	-37.547
4970	0.12145	-24.679	0.87306	-9.392	0.87306	-9.392	0.12145	-24.679
4990	0.12562	-10.444	0.86551	-11.492	0.86551	-11.492	0.12562	-10.444
5010	0.14194	2.865	0.8557	-13.651	0.8557	-13.651	0.14194	2.865
5030	0.16953	13.7	0.8428	-16.048	0.8428	-16.048	0.16953	13.7
5050	0.20582	21.265	0.82491	-18.869	0.82491	-18.869	0.20582	21.265
5070	0.25092	25.476	0.79872	-21.648	0.79872	-21.648	0.25092	25.476
5090	0.30151	27.611	0.77271	-24.46	0.77271	-24.46	0.30151	27.611
5110	0.35337	27.813	0.73862	-27.654	0.73862	-27.654	0.35337	27.813
5130	0.40526	26.445	0.69508	-31.075	0.69508	-31.075	0.40526	26.445
5150	0.45891	24.09	0.64762	-34.063	0.64762	-34.063	0.45891	24.09
5170	0.51983	21.223	0.59726	-36.882	0.59726	-36.882	0.51983	21.223
5190	0.57726	17.13	0.53895	-39.962	0.53895	-39.962	0.57726	17.13
5210	0.629	13.053	0.47454	-42.223	0.47454	-42.223	0.629	13.053
5230	0.67671	9.483	0.40821	-42.894	0.40821	-42.894	0.67671	9.483
5250	0.72587	6.159	0.34644	-41.513	0.34644	-41.513	0.72587	6.159
5270	0.75939	1.425	0.28485	-38.835	0.28485	-38.835	0.75939	1.425
5290	0.77992	-2.553	0.23303	-31.162	0.23303	-31.162	0.77992	-2.553
5310	0.80058	-6.088	0.19822	-18.603	0.19822	-18.603	0.80058	-6.088
5330	0.82194	-9.851	0.18374	-3.098	0.18374	-3.098	0.82194	-9.851
5350	0.83201	-14.865	0.18905	11.573	0.18905	11.573	0.83201	-14.865
5370	0.82885	-17.984	0.21398	22.812	0.21398	22.812	0.82885	-17.984
5390	0.84184	-20.741	0.24817	29.978	0.24817	29.978	0.84184	-20.741
5410	0.8475	-23.496	0.28411	34.383	0.28411	34.383	0.8475	-23.496
5430	0.83946	-26.139	0.3185	36.975	0.3185	36.975	0.83946	-26.139
5450	0.82839	-28.087	0.35219	38.338	0.35219	38.338	0.82839	-28.087
5470	0.8206	-30.17	0.38347	38.624	0.38347	38.624	0.8206	-30.17
5490	0.81043	-32.323	0.41141	38.353	0.41141	38.353	0.81043	-32.323
5510	0.80118	-34.206	0.43835	37.955	0.43835	37.955	0.80118	-34.206
5530	0.79344	-35.97	0.46415	37.45	0.46415	37.45	0.79344	-35.97
5550	0.7852	-38.253	0.48615	36.443	0.48615	36.443	0.7852	-38.253
5570	0.76808	-39.596	0.50338	36.251	0.50338	36.251	0.76808	-39.596
5590	0.76193	-40.784	0.52429	35.395	0.52429	35.395	0.76193	-40.784
5610	0.75662	-42.062	0.5434	34.309	0.5434	34.309	0.75662	-42.062
5630	0.74711	-43.406	0.55841	33.323	0.55841	33.323	0.74711	-43.406
5650	0.73342	-44.518	0.57017	32.662	0.57017	32.662	0.73342	-44.518
5670	0.72818	-45.27	0.58499	32.232	0.58499	32.232	0.72818	-45.27
5690	0.72377	-46.26	0.59986	31.431	0.59986	31.431	0.72377	-46.26
5710	0.71489	-47.214	0.6105	30.479	0.6105	30.479	0.71489	-47.214
5730	0.70218	-48.016	0.61559	29.618	0.61559	29.618	0.70218	-48.016
5750	0.69222	-48.712	0.61672	29.116	0.61672	29.116	0.69222	-48.712
5770	0.68646	-48.943	0.63583	28.332	0.63583	28.332	0.68646	-48.943
5790	0.67868	-49.635	0.64732	27.802	0.64732	27.802	0.67868	-49.635
5810	0.66888	-50.485	0.65406	27.094	0.65406	27.094	0.66888	-50.485
5830	0.65769	-51.22	0.65854	26.379	0.65854	26.379	0.65769	-51.22
5850	0.64632	-51.593	0.66281	26.429	0.66281	26.429	0.64632	-51.593
5870	0.64569	-52.125	0.67157	25.335	0.67157	25.335	0.64569	-52.125
5890	0.64126	-53.071	0.67758	24.43	0.67758	24.43	0.64126	-53.071
5910	0.63387	-53.736	0.68202	23.792	0.68202	23.792	0.63387	-53.736
5930	0.62584	-53.905	0.68736	23.334	0.68736	23.334	0.62584	-53.905
5950	0.62098	-53.852	0.69732	22.809	0.69732	22.809	0.62098	-53.852
5970	0.61409	-54.774	0.69932	21.946	0.69932	21.946	0.61409	-54.774
5990	0.60271	-55.605	0.70112	21.573	0.70112	21.573	0.60271	-55.605
6010	0.59641	-56.055	0.70622	21.196	0.70622	21.196	0.59641	-56.055
6030	0.59507	-56.233	0.71285	20.609	0.71285	20.609	0.59507	-56.233
6050	0.58895	-56.654	0.71406	19.902	0.71406	19.902	0.58895	-56.654
6070	0.58279	-56.975	0.7165	19.496	0.7165	19.496	0.58279	-56.975
6090	0.5764	-57.422	0.71822	18.92	0.71822	18.92	0.5764	-57.422
6110	0.56909	-57.5	0.71896	18.558	0.71896	18.558	0.56909	-57.5
