# MHZ S MA R 50

50	0.96	177.60	0.04	81.30	0.04	81.30	0.96	177.60
100	0.98	174.90	0.08	80.20	0.08	80.20	0.98	174.90
150	1.00	172.10	0.12	79.20	0.12	79.20	1.00	172.10
200	0.98	169.90	0.16	77.40	0.16	77.40	0.98	169.90
250	0.97	167.60	0.20	75.60	0.20	75.60	0.97	167.60
300	0.96	164.70	0.24	72.90	0.24	72.90	0.96	164.70
350	0.96	161.90	0.27	70.10	0.27	70.10	0.96	161.90
400	0.94	159.70	0.31	68.00	0.31	68.00	0.94	159.70
450	0.93	157.50	0.34	65.90	0.34	65.90	0.93	157.50
500	0.91	153.80	0.39	62.50	0.39	62.50	0.91	153.80
550	0.89	150.00	0.44	59.10	0.44	59.10	0.89	150.00
600	0.88	147.70	0.47	57.10	0.47	57.10	0.88	147.70
650	0.86	145.40	0.50	55.10	0.50	55.10	0.86	145.40
700	0.85	143.40	0.53	52.90	0.53	52.90	0.85	143.40
750	0.83	141.40	0.55	50.60	0.55	50.60	0.83	141.40
800	0.81	139.20	0.58	48.50	0.58	48.50	0.81	139.20
850	0.79	137.00	0.60	46.30	0.60	46.30	0.79	137.00
900	0.77	135.40	0.62	44.40	0.62	44.40	0.77	135.40
950	0.75	133.70	0.64	42.40	0.64	42.40	0.75	133.70
1000	0.74	131.70	0.66	40.60	0.66	40.60	0.74	131.70
1050	0.72	129.60	0.68	38.80	0.68	38.80	0.72	129.60
1100	0.70	127.90	0.70	37.00	0.70	37.00	0.70	127.90
1150	0.69	126.20	0.71	35.30	0.71	35.30	0.69	126.20
1200	0.68	124.60	0.73	33.80	0.73	33.80	0.68	124.60
1250	0.66	123.10	0.74	32.30	0.74	32.30	0.66	123.10
1300	0.65	121.70	0.75	30.90	0.75	30.90	0.65	121.70
1350	0.64	120.40	0.77	29.40	0.77	29.40	0.64	120.40
1400	0.62	118.80	0.78	27.90	0.78	27.90	0.62	118.80
1450	0.60	117.30	0.79	26.40	0.79	26.40	0.60	117.30
1500	0.59	116.00	0.80	25.10	0.80	25.10	0.59	116.00
1550	0.58	114.70	0.81	23.70	0.81	23.70	0.58	114.70
1600	0.56	113.20	0.82	22.40	0.82	22.40	0.56	113.20
1650	0.55	111.70	0.83	21.10	0.83	21.10	0.55	111.70
1700	0.54	110.60	0.83	19.90	0.83	19.90	0.54	110.60
1750	0.53	109.40	0.84	18.70	0.84	18.70	0.53	109.40
1800	0.52	108.20	0.85	17.60	0.85	17.60	0.52	108.20
1850	0.51	107.00	0.86	16.50	0.86	16.50	0.51	107.00
1900	0.50	105.90	0.86	15.30	0.86	15.30	0.50	105.90
1950	0.48	104.80	0.87	14.00	0.87	14.00	0.48	104.80
2000	0.47	103.60	0.87	12.90	0.87	12.90	0.47	103.60
2050	0.46	102.50	0.88	11.80	0.88	11.80	0.46	102.50
2100	0.45	101.70	0.88	10.80	0.88	10.80	0.45	101.70
2150	0.44	101.00	0.89	9.80	0.89	9.80	0.44	101.00
2200	0.43	99.80	0.89	8.80	0.89	8.80	0.43	99.80
2250	0.42	98.50	0.90	7.80	0.90	7.80	0.42	98.50
2300	0.41	97.80	0.90	6.80	0.90	6.80	0.41	97.80
2350	0.40	97.00	0.90	5.80	0.90	5.80	0.40	97.00
2400	0.39	96.40	0.91	4.90	0.91	4.90	0.39	96.40
2450	0.38	95.90	0.91	3.90	0.91	3.90	0.38	95.90
2500	0.38	94.90	0.92	3.00	0.92	3.00	0.38	94.90
2550	0.37	93.80	0.92	2.00	0.92	2.00	0.37	93.80
2600	0.36	93.10	0.92	1.20	0.92	1.20	0.36	93.10
2650	0.35	92.30	0.93	0.30	0.93	0.30	0.35	92.30
2700	0.34	91.80	0.93	-0.60	0.93	-0.60	0.34	91.80
2750	0.33	91.30	0.93	-1.60	0.93	-1.60	0.33	91.30
2800	0.32	90.40	0.94	-2.40	0.94	-2.40	0.32	90.40
2850	0.32	89.50	0.94	-3.20	0.94	-3.20	0.32	89.50
2900	0.31	88.70	0.94	-4.20	0.94	-4.20	0.31	88.70
2950	0.30	88.00	0.94	-5.20	0.94	-5.20	0.30	88.00
3000	0.30	87.40	0.95	-5.90	0.95	-5.90	0.30	87.40
3050	0.29	86.80	0.95	-6.70	0.95	-6.70	0.29	86.80
3100	0.28	86.00	0.95	-7.50	0.95	-7.50	0.28	86.00
3150	0.28	85.20	0.95	-8.40	0.95	-8.40	0.28	85.20
3200	0.27	84.90	0.95	-9.20	0.95	-9.20	0.27	84.90
3250	0.26	84.70	0.95	-10.00	0.95	-10.00	0.26	84.70
3300	0.26	84.10	0.96	-10.80	0.96	-10.80	0.26	84.10
3350	0.25	83.50	0.96	-11.70	0.96	-11.70	0.25	83.50
3400	0.25	83.20	0.96	-12.50	0.96	-12.50	0.25	83.20
3450	0.24	82.90	0.96	-13.30	0.96	-13.30	0.24	82.90
3500	0.23	82.60	0.96	-14.00	0.96	-14.00	0.23	82.60
3550	0.22	82.20	0.97	-14.70	0.97	-14.70	0.22	82.20
3600	0.22	81.70	0.97	-15.60	0.97	-15.60	0.22	81.70
3650	0.21	81.30	0.97	-16.40	0.97	-16.40	0.21	81.30
3700	0.21	80.90	0.97	-17.20	0.97	-17.20	0.21	80.90
3750	0.20	80.60	0.97	-17.90	0.97	-17.90	0.20	80.60
3800	0.20	80.40	0.97	-18.80	0.97	-18.80	0.20	80.40
3850	0.19	80.10	0.97	-19.70	0.97	-19.70	0.19	80.10
3900	0.19	80.10	0.97	-20.30	0.97	-20.30	0.19	80.10
3950	0.18	80.10	0.98	-20.90	0.98	-20.90	0.18	80.10
4000	0.18	79.90	0.98	-21.60	0.98	-21.60	0.18	79.90
4050	0.17	79.60	0.98	-22.40	0.98	-22.40	0.17	79.60
4100	0.17	79.90	0.98	-23.10	0.98	-23.10	0.17	79.90
4150	0.16	80.10	0.98	-23.90	0.98	-23.90	0.16	80.10
4200	0.16	79.60	0.98	-24.60	0.98	-24.60	0.16	79.60
4250	0.15	79.10	0.98	-25.30	0.98	-25.30	0.15	79.10
4300	0.15	79.70	0.98	-25.90	0.98	-25.90	0.15	79.70
4350	0.14	80.30	0.98	-26.50	0.98	-26.50	0.14	80.30
4400	0.14	79.50	0.98	-27.40	0.98	-27.40	0.14	79.50
4450	0.14	78.60	0.99	-28.30	0.99	-28.30	0.14	78.60
4500	0.13	80.00	0.99	-29.00	0.99	-29.00	0.13	80.00
4550	0.13	81.30	0.99	-29.80	0.99	-29.80	0.13	81.30
4600	0.13	80.70	0.99	-30.50	0.99	-30.50	0.13	80.70
4650	0.12	80.10	0.99	-31.10	0.99	-31.10	0.12	80.10
4700	0.12	81.30	0.99	-31.80	0.99	-31.80	0.12	81.30
4750	0.12	82.50	0.99	-32.50	0.99	-32.50	0.12	82.50
4800	0.11	82.20	0.99	-33.10	0.99	-33.10	0.11	82.20
4850	0.11	81.80	0.99	-33.80	0.99	-33.80	0.11	81.80
4900	0.10	83.30	0.99	-34.50	0.99	-34.50	0.10	83.30
4950	0.10	84.70	0.99	-35.20	0.99	-35.20	0.10	84.70
5000	0.10	85.00	0.99	-35.70	0.99	-35.70	0.10	85.00
5050	0.10	85.40	0.99	-36.10	0.99	-36.10	0.10	85.40
5100	0.09	87.20	0.99	-37.00	0.99	-37.00	0.09	87.20
5150	0.09	89.10	0.99	-37.90	0.99	-37.90	0.09	89.10
5200	0.09	90.10	1.00	-38.70	1.00	-38.70	0.09	90.10
5250	0.08	91.10	1.00	-39.40	1.00	-39.40	0.08	91.10
5300	0.08	93.20	1.00	-39.90	1.00	-39.90	0.08	93.20
5350	0.08	95.20	0.99	-40.50	0.99	-40.50	0.08	95.20
5400	0.07	96.80	0.99	-41.10	0.99	-41.10	0.07	96.80
5450	0.07	98.50	1.00	-41.80	1.00	-41.80	0.07	98.50
5500	0.06	101.20	0.99	-42.50	0.99	-42.50	0.06	101.20
5550	0.06	103.90	0.99	-43.30	0.99	-43.30	0.06	103.90
5600	0.06	107.30	0.99	-43.90	0.99	-43.90	0.06	107.30
5650	0.06	110.80	0.99	-44.50	0.99	-44.50	0.06	110.80
5700	0.05	113.30	0.99	-45.30	0.99	-45.30	0.05	113.30
5750	0.05	115.80	0.99	-46.10	0.99	-46.10	0.05	115.80
5800	0.05	124.50	0.99	-46.80	0.99	-46.80	0.05	124.50
5850	0.05	133.30	0.99	-47.50	0.99	-47.50	0.05	133.30
5900	0.05	133.90	0.99	-48.00	0.99	-48.00	0.05	133.90
5950	0.05	134.60	0.99	-48.50	0.99	-48.50	0.05	134.60
6000	0.06	150.20	0.99	-49.30	0.99	-49.30	0.06	150.20
6050	0.07	165.90	0.99	-50.00	0.99	-50.00	0.07	165.90
6100	0.07	166.90	0.99	-50.70	0.99	-50.70	0.07	166.90
6150	0.07	167.90	0.99	-51.30	0.99	-51.30	0.07	167.90
6200	0.08	169.10	0.99	-51.90	0.99	-51.90	0.08	169.10
6250	0.09	170.30	0.99	-52.50	0.99	-52.50	0.09	170.30
6300	0.09	170.40	0.99	-53.10	0.99	-53.10	0.09	170.40
6350	0.10	170.50	0.99	-53.60	0.99	-53.60	0.10	170.50
6400	0.10	171.80	0.99	-54.30	0.99	-54.30	0.10	171.80
6450	0.11	173.10	0.98	-55.00	0.98	-55.00	0.11	173.10
6500	0.11	172.30	0.98	-55.70	0.98	-55.70	0.11	172.30
6550	0.11	171.40	0.98	-56.40	0.98	-56.40	0.11	171.40
6600	0.12	172.40	0.98	-56.80	0.98	-56.80	0.12	172.40
6650	0.13	173.40	0.98	-57.30	0.98	-57.30	0.13	173.40
6700	0.13	173.00	0.99	-57.90	0.99	-57.90	0.13	173.00
6750	0.13	172.60	0.99	-58.50	0.99	-58.50	0.13	172.60
6800	0.13	172.50	0.99	-59.10	0.99	-59.10	0.13	172.50
6850	0.13	172.40	0.98	-59.80	0.98	-59.80	0.13	172.40
6900	0.14	171.60	0.98	-60.30	0.98	-60.30	0.14	171.60
6950	0.14	170.80	0.98	-60.90	0.98	-60.90	0.14	170.80
7000	0.14	170.70	0.98	-61.50	0.98	-61.50	0.14	170.70
7050	0.14	170.60	0.98	-62.10	0.98	-62.10	0.14	170.60
7100	0.14	169.80	0.98	-62.70	0.98	-62.70	0.14	169.80
7150	0.14	168.90	0.98	-63.30	0.98	-63.30	0.14	168.90
7200	0.15	167.90	0.98	-64.00	0.98	-64.00	0.15	167.90
7250	0.15	166.80	0.98	-64.70	0.98	-64.70	0.15	166.80
7300	0.15	165.70	0.98	-65.20	0.98	-65.20	0.15	165.70
7350	0.15	164.50	0.98	-65.80	0.98	-65.80	0.15	164.50
7400	0.15	163.50	0.98	-66.50	0.98	-66.50	0.15	163.50
7450	0.15	162.50	0.98	-67.20	0.98	-67.20	0.15	162.50
7500	0.16	161.80	0.98	-67.80	0.98	-67.80	0.16	161.80
7550	0.16	161.10	0.98	-68.40	0.98	-68.40	0.16	161.10
7600	0.16	160.20	0.98	-68.90	0.98	-68.90	0.16	160.20
7650	0.16	159.30	0.98	-69.50	0.98	-69.50	0.16	159.30
7700	0.16	158.00	0.98	-70.10	0.98	-70.10	0.16	158.00
7750	0.15	156.80	0.98	-70.60	0.98	-70.60	0.15	156.80
7800	0.16	156.20	0.98	-71.30	0.98	-71.30	0.16	156.20
7850	0.16	155.60	0.98	-72.00	0.98	-72.00	0.16	155.60
7900	0.16	153.70	0.98	-72.70	0.98	-72.70	0.16	153.70
7950	0.15	151.80	0.98	-73.30	0.98	-73.30	0.15	151.80
8000	0.15	152.50	0.98	-74.00	0.98	-74.00	0.15	152.50
8050	0.16	153.10	0.98	-74.70	0.98	-74.70	0.16	153.10
8100	0.15	151.70	0.98	-75.20	0.98	-75.20	0.15	151.70
8150	0.15	150.20	0.98	-75.80	0.98	-75.80	0.15	150.20
8200	0.15	151.40	0.98	-76.40	0.98	-76.40	0.15	151.40
8250	0.15	152.60	0.98	-77.00	0.98	-77.00	0.15	152.60
8300	0.15	151.20	0.98	-77.70	0.98	-77.70	0.15	151.20
8350	0.15	149.90	0.98	-78.40	0.98	-78.40	0.15	149.90
8400	0.14	151.50	0.98	-79.00	0.98	-79.00	0.14	151.50
8450	0.14	153.10	0.98	-79.70	0.98	-79.70	0.14	153.10
8500	0.14	152.20	0.98	-80.40	0.98	-80.40	0.14	152.20
8550	0.14	151.30	0.98	-81.10	0.98	-81.10	0.14	151.30
8600	0.14	152.30	0.98	-81.70	0.98	-81.70	0.14	152.30
8650	0.14	153.30	0.98	-82.30	0.98	-82.30	0.14	153.30
8700	0.14	153.10	0.98	-83.20	0.98	-83.20	0.14	153.10
8750	0.14	152.90	0.98	-84.10	0.98	-84.10	0.14	152.90
8800	0.15	154.50	0.98	-84.60	0.98	-84.60	0.15	154.50
8850	0.15	156.10	0.98	-85.10	0.98	-85.10	0.15	156.10
8900	0.15	156.50	0.98	-86.10	0.98	-86.10	0.15	156.50
8950	0.15	157.00	0.98	-87.00	0.98	-87.00	0.15	157.00
9000	0.15	157.90	0.98	-87.50	0.98	-87.50	0.15	157.90
9050	0.16	158.80	0.98	-88.00	0.98	-88.00	0.16	158.80
9100	0.16	159.40	0.98	-88.80	0.98	-88.80	0.16	159.40
9150	0.17	160.00	0.98	-89.60	0.98	-89.60	0.17	160.00
9200	0.17	159.50	0.98	-90.60	0.98	-90.60	0.17	159.50
9250	0.18	159.10	0.98	-91.60	0.98	-91.60	0.18	159.10
9300	0.19	160.90	0.98	-92.10	0.98	-92.10	0.19	160.90
9350	0.19	162.80	0.97	-92.60	0.97	-92.60	0.19	162.80
9400	0.20	163.60	0.97	-93.30	0.97	-93.30	0.20	163.60
9450	0.20	164.40	0.96	-94.00	0.96	-94.00	0.20	164.40
9500	0.21	164.60	0.96	-94.90	0.96	-94.90	0.21	164.60
9550	0.22	164.80	0.96	-95.80	0.96	-95.80	0.22	164.80
9600	0.22	165.70	0.96	-96.60	0.96	-96.60	0.22	165.70
9650	0.23	166.60	0.95	-97.40	0.95	-97.40	0.23	166.60
9700	0.24	166.00	0.95	-98.20	0.95	-98.20	0.24	166.00
9750	0.25	165.40	0.95	-99.00	0.95	-99.00	0.25	165.40
9800	0.26	165.70	0.95	-99.70	0.95	-99.70	0.26	165.70
9850	0.26	166.00	0.95	-100.40	0.95	-100.40	0.26	166.00
9900	0.28	166.30	0.95	-101.20	0.95	-101.20	0.28	166.30
9950	0.29	166.60	0.95	-102.00	0.95	-102.00	0.29	166.60
10000	0.30	164.70	0.94	-102.80	0.94	-102.80	0.30	164.70
10050	0.31	162.80	0.93	-103.60	0.93	-103.60	0.31	162.80
10100	0.32	164.20	0.93	-104.40	0.93	-104.40	0.32	164.20
10150	0.33	165.60	0.93	-105.10	0.93	-105.10	0.33	165.60
10200	0.34	163.90	0.92	-105.90	0.92	-105.90	0.34	163.90
10250	0.35	162.20	0.92	-106.70	0.92	-106.70	0.35	162.20
10300	0.36	161.10	0.92	-107.70	0.92	-107.70	0.36	161.10
10350	0.37	160.10	0.91	-108.80	0.91	-108.80	0.37	160.10
10400	0.38	158.80	0.90	-109.60	0.90	-109.60	0.38	158.80
10450	0.39	157.60	0.89	-110.30	0.89	-110.30	0.39	157.60
10500	0.40	155.90	0.89	-111.20	0.89	-111.20	0.40	155.90
10550	0.41	154.30	0.89	-112.00	0.89	-112.00	0.41	154.30
10600	0.42	153.20	0.88	-112.60	0.88	-112.60	0.42	153.20
10650	0.43	152.10	0.87	-113.20	0.87	-113.20	0.43	152.10
10700	0.43	150.70	0.87	-114.30	0.87	-114.30	0.43	150.70
10750	0.44	149.20	0.87	-115.30	0.87	-115.30	0.44	149.20
10800	0.45	148.20	0.86	-116.20	0.86	-116.20	0.45	148.20
10850	0.46	147.20	0.86	-117.00	0.86	-117.00	0.46	147.20
10900	0.47	145.30	0.85	-118.00	0.85	-118.00	0.47	145.30
10950	0.47	143.40	0.84	-119.10	0.84	-119.10	0.47	143.40
11000	0.48	142.70	0.84	-120.10	0.84	-120.10	0.48	142.70
11050	0.49	141.90	0.85	-121.20	0.85	-121.20	0.49	141.90
11100	0.51	139.70	0.83	-122.30	0.83	-122.30	0.51	139.70
11150	0.52	137.60	0.82	-123.50	0.82	-123.50	0.52	137.60
11200	0.53	136.30	0.81	-124.40	0.81	-124.40	0.53	136.30
11250	0.54	135.10	0.81	-125.40	0.81	-125.40	0.54	135.10
11300	0.55	133.60	0.80	-126.40	0.80	-126.40	0.55	133.60
11350	0.56	132.10	0.79	-127.40	0.79	-127.40	0.56	132.10
11400	0.57	130.20	0.78	-129.00	0.78	-129.00	0.57	130.20
11450	0.58	128.40	0.76	-130.50	0.76	-130.50	0.58	128.40
11500	0.59	126.60	0.75	-131.40	0.75	-131.40	0.59	126.60
11550	0.60	124.90	0.74	-132.30	0.74	-132.30	0.60	124.90
11600	0.62	123.00	0.73	-133.70	0.73	-133.70	0.62	123.00
11650	0.63	121.10	0.71	-135.10	0.71	-135.10	0.63	121.10
11700	0.64	119.60	0.69	-136.30	0.69	-136.30	0.64	119.60
11750	0.66	118.20	0.68	-137.40	0.68	-137.40	0.66	118.20
11800	0.67	116.20	0.66	-138.50	0.66	-138.50	0.67	116.20
11850	0.68	114.30	0.64	-139.50	0.64	-139.50	0.68	114.30
11900	0.69	112.50	0.63	-141.10	0.63	-141.10	0.69	112.50
11950	0.70	110.60	0.61	-142.80	0.61	-142.80	0.70	110.60
12000	0.72	109.10	0.59	-143.30	0.59	-143.30	0.72	109.10
12050	0.74	107.50	0.56	-143.90	0.56	-143.90	0.74	107.50
12100	0.75	105.30	0.54	-145.40	0.54	-145.40	0.75	105.30
12150	0.76	103.00	0.52	-146.90	0.52	-146.90	0.76	103.00
12200	0.78	101.10	0.49	-147.90	0.49	-147.90	0.78	101.10
12250	0.80	99.10	0.47	-148.80	0.47	-148.80	0.80	99.10
12300	0.80	97.10	0.43	-149.40	0.43	-149.40	0.80	97.10
12350	0.81	95.00	0.40	-150.10	0.40	-150.10	0.81	95.00
12400	0.82	92.20	0.37	-149.80	0.37	-149.80	0.82	92.20
12450	0.83	89.40	0.34	-149.50	0.34	-149.50	0.83	89.40
12500	0.83	86.60	0.30	-147.90	0.30	-147.90	0.83	86.60
12550	0.84	83.80	0.26	-146.30	0.26	-146.30	0.84	83.80
12600	0.84	80.60	0.23	-140.30	0.23	-140.30	0.84	80.60
12650	0.85	77.50	0.20	-134.30	0.20	-134.30	0.85	77.50
12700	0.84	74.30	0.19	-121.80	0.19	-121.80	0.84	74.30
12750	0.84	71.10	0.18	-109.20	0.18	-109.20	0.84	71.10
12800	0.83	67.60	0.19	-97.60	0.19	-97.60	0.83	67.60
12850	0.82	64.10	0.21	-86.00	0.21	-86.00	0.82	64.10
12900	0.81	60.90	0.24	-80.20	0.24	-80.20	0.81	60.90
12950	0.81	57.80	0.28	-74.30	0.28	-74.30	0.81	57.80
13000	0.78	54.10	0.32	-72.50	0.32	-72.50	0.78	54.10
13050	0.76	50.40	0.35	-70.60	0.35	-70.60	0.76	50.40
13100	0.75	47.10	0.40	-71.00	0.40	-71.00	0.75	47.10
13150	0.74	43.90	0.44	-71.30	0.44	-71.30	0.74	43.90
13200	0.72	40.60	0.48	-72.40	0.48	-72.40	0.72	40.60
13250	0.70	37.30	0.51	-73.60	0.51	-73.60	0.70	37.30
13300	0.68	34.20	0.55	-75.40	0.55	-75.40	0.68	34.20
13350	0.65	31.20	0.58	-77.30	0.58	-77.30	0.65	31.20
13400	0.64	28.00	0.61	-79.10	0.61	-79.10	0.64	28.00
13450	0.63	24.80	0.64	-80.90	0.64	-80.90	0.63	24.80
13500	0.60	22.30	0.66	-82.80	0.66	-82.80	0.60	22.30
13550	0.58	19.70	0.68	-84.60	0.68	-84.60	0.58	19.70
13600	0.57	17.10	0.70	-86.60	0.70	-86.60	0.57	17.10
13650	0.56	14.40	0.73	-88.50	0.73	-88.50	0.56	14.40
13700	0.54	12.30	0.74	-89.80	0.74	-89.80	0.54	12.30
13750	0.52	10.20	0.75	-91.10	0.75	-91.10	0.52	10.20
13800	0.51	7.40	0.76	-92.70	0.76	-92.70	0.51	7.40
13850	0.51	4.50	0.78	-94.40	0.78	-94.40	0.51	4.50
13900	0.49	1.90	0.79	-95.60	0.79	-95.60	0.49	1.90
13950	0.48	-0.60	0.80	-96.90	0.80	-96.90	0.48	-0.60
14000	0.47	-2.20	0.81	-98.00	0.81	-98.00	0.47	-2.20
14050	0.46	-3.70	0.81	-99.10	0.81	-99.10	0.46	-3.70
14100	0.45	-7.20	0.83	-100.50	0.83	-100.50	0.45	-7.20
14150	0.44	-10.80	0.84	-101.80	0.84	-101.80	0.44	-10.80
14200	0.44	-12.30	0.85	-103.00	0.85	-103.00	0.44	-12.30
14250	0.43	-13.80	0.86	-104.10	0.86	-104.10	0.43	-13.80
14300	0.42	-16.10	0.86	-105.40	0.86	-105.40	0.42	-16.10
14350	0.41	-18.40	0.86	-106.60	0.86	-106.60	0.41	-18.40
14400	0.41	-20.20	0.87	-107.50	0.87	-107.50	0.41	-20.20
14450	0.40	-21.90	0.87	-108.40	0.87	-108.40	0.40	-21.90
14500	0.40	-23.10	0.88	-109.60	0.88	-109.60	0.40	-23.10
14550	0.40	-24.30	0.88	-110.80	0.88	-110.80	0.40	-24.30
14600	0.39	-25.50	0.89	-111.70	0.89	-111.70	0.39	-25.50
14650	0.38	-26.60	0.89	-112.70	0.89	-112.70	0.38	-26.60
14700	0.38	-27.20	0.89	-113.50	0.89	-113.50	0.38	-27.20
14750	0.37	-27.70	0.89	-114.40	0.89	-114.40	0.37	-27.70
14800	0.36	-28.90	0.90	-115.30	0.90	-115.30	0.36	-28.90
14850	0.35	-30.20	0.90	-116.20	0.90	-116.20	0.35	-30.20
14900	0.35	-30.20	0.90	-117.00	0.90	-117.00	0.35	-30.20
14950	0.34	-30.30	0.91	-117.80	0.91	-117.80	0.34	-30.30
15000	0.33	-31.50	0.91	-118.60	0.91	-118.60	0.33	-31.50
15050	0.32	-32.60	0.91	-119.40	0.91	-119.40	0.32	-32.60
15100	0.32	-32.00	0.91	-120.20	0.91	-120.20	0.32	-32.00
15150	0.31	-31.50	0.92	-121.10	0.92	-121.10	0.31	-31.50
15200	0.30	-32.10	0.92	-121.90	0.92	-121.90	0.30	-32.10
15250	0.30	-32.70	0.92	-122.80	0.92	-122.80	0.30	-32.70
15300	0.29	-31.20	0.92	-123.80	0.92	-123.80	0.29	-31.20
15350	0.28	-29.70	0.92	-124.80	0.92	-124.80	0.28	-29.70
15400	0.27	-29.20	0.92	-125.20	0.92	-125.20	0.27	-29.20
15450	0.26	-28.70	0.92	-125.70	0.92	-125.70	0.26	-28.70
15500	0.25	-27.10	0.92	-126.50	0.92	-126.50	0.25	-27.10
15550	0.24	-25.50	0.92	-127.40	0.92	-127.40	0.24	-25.50
15600	0.24	-25.10	0.92	-127.70	0.92	-127.70	0.24	-25.10
15650	0.24	-24.70	0.92	-128.00	0.92	-128.00	0.24	-24.70
15700	0.23	-24.50	0.92	-128.50	0.92	-128.50	0.23	-24.50
15750	0.22	-24.30	0.92	-128.90	0.92	-128.90	0.22	-24.30
15800	0.22	-23.30	0.93	-129.60	0.93	-129.60	0.22	-23.30
15850	0.21	-22.30	0.94	-130.40	0.94	-130.40	0.21	-22.30
15900	0.20	-22.30	0.94	-130.90	0.94	-130.90	0.20	-22.30
15950	0.18	-22.30	0.95	-131.40	0.95	-131.40	0.18	-22.30
16000	0.17	-20.60	0.95	-132.10	0.95	-132.10	0.17	-20.60
16050	0.16	-19.00	0.95	-132.80	0.95	-132.80	0.16	-19.00
16100	0.14	-16.50	0.96	-133.60	0.96	-133.60	0.14	-16.50
16150	0.12	-14.00	0.96	-134.30	0.96	-134.30	0.12	-14.00
16200	0.11	-10.50	0.96	-135.20	0.96	-135.20	0.11	-10.50
16250	0.10	-7.00	0.96	-136.00	0.96	-136.00	0.10	-7.00
16300	0.09	-1.40	0.96	-136.60	0.96	-136.60	0.09	-1.40
16350	0.09	4.10	0.95	-137.30	0.95	-137.30	0.09	4.10
16400	0.09	11.20	0.95	-137.80	0.95	-137.80	0.09	11.20
16450	0.08	18.30	0.95	-138.20	0.95	-138.20	0.08	18.30
16500	0.08	18.20	0.95	-138.40	0.95	-138.40	0.08	18.20
16550	0.08	18.20	0.96	-138.50	0.96	-138.50	0.08	18.20
16600	0.07	29.10	0.96	-139.40	0.96	-139.40	0.07	29.10
16650	0.05	40.10	0.97	-140.20	0.97	-140.20	0.05	40.10
16700	0.05	52.30	0.97	-140.90	0.97	-140.90	0.05	52.30
16750	0.04	64.60	0.98	-141.70	0.98	-141.70	0.04	64.60
16800	0.04	75.00	0.98	-142.50	0.98	-142.50	0.04	75.00
16850	0.04	85.40	0.99	-143.30	0.99	-143.30	0.04	85.40
16900	0.05	91.90	0.98	-144.00	0.98	-144.00	0.05	91.90
16950	0.06	98.50	0.98	-144.80	0.98	-144.80	0.06	98.50
17000	0.07	104.00	0.98	-145.60	0.98	-145.60	0.07	104.00
17050	0.07	109.60	0.99	-146.50	0.99	-146.50	0.07	109.60
17100	0.08	111.90	0.98	-147.20	0.98	-147.20	0.08	111.90
17150	0.09	114.10	0.98	-148.00	0.98	-148.00	0.09	114.10
17200	0.09	115.00	0.98	-148.60	0.98	-148.60	0.09	115.00
17250	0.10	116.00	0.98	-149.30	0.98	-149.30	0.10	116.00
17300	0.10	115.70	0.98	-150.10	0.98	-150.10	0.10	115.70
17350	0.10	115.50	0.98	-151.00	0.98	-151.00	0.10	115.50
17400	0.11	116.00	0.98	-151.50	0.98	-151.50	0.11	116.00
17450	0.12	116.50	0.98	-152.10	0.98	-152.10	0.12	116.50
17500	0.12	115.70	0.98	-152.70	0.98	-152.70	0.12	115.70
17550	0.12	114.90	0.98	-153.30	0.98	-153.30	0.12	114.90
17600	0.12	116.90	0.98	-154.00	0.98	-154.00	0.12	116.90
17650	0.12	118.90	0.98	-154.70	0.98	-154.70	0.12	118.90
17700	0.13	116.50	0.98	-155.20	0.98	-155.20	0.13	116.50
17750	0.13	114.10	0.98	-155.70	0.98	-155.70	0.13	114.10
17800	0.13	116.40	0.98	-156.40	0.98	-156.40	0.13	116.40
17850	0.12	118.70	0.98	-157.10	0.98	-157.10	0.12	118.70
17900	0.13	120.90	0.98	-157.80	0.98	-157.80	0.13	120.90
17950	0.13	123.10	0.98	-158.50	0.98	-158.50	0.13	123.10
18000	0.12	121.90	0.98	-158.90	0.98	-158.90	0.12	121.90
18050	0.11	120.70	0.98	-159.40	0.98	-159.40	0.11	120.70
18100	0.11	121.20	0.98	-159.90	0.98	-159.90	0.11	121.20
18150	0.11	121.70	0.98	-160.40	0.98	-160.40	0.11	121.70
18200	0.10	122.00	0.98	-160.90	0.98	-160.90	0.10	122.00
18250	0.10	122.30	0.98	-161.50	0.98	-161.50	0.10	122.30
18300	0.09	125.10	0.98	-162.20	0.98	-162.20	0.09	125.10
18350	0.09	127.90	0.98	-162.90	0.98	-162.90	0.09	127.90
18400	0.08	125.00	0.99	-163.40	0.99	-163.40	0.08	125.00
18450	0.06	122.20	0.99	-163.90	0.99	-163.90	0.06	122.20
18500	0.05	123.80	0.99	-164.50	0.99	-164.50	0.05	123.80
18550	0.05	125.50	0.99	-165.10	0.99	-165.10	0.05	125.50
18600	0.04	117.90	0.99	-165.80	0.99	-165.80	0.04	117.90
18650	0.03	110.40	0.99	-166.40	0.99	-166.40	0.03	110.40
18700	0.02	102.60	0.99	-167.00	0.99	-167.00	0.02	102.60
18750	0.01	94.80	0.99	-167.50	0.99	-167.50	0.01	94.80
