#	mhz	s	ma	r	50			
50	0.32	114.60	0.92	21.00	0.92	21.00	0.32	114.60
100	0.21	109.50	0.95	13.50	0.95	13.50	0.21	109.50
150	0.10	104.40	0.99	6.10	0.99	6.10	0.10	104.40
200	0.07	106.50	0.99	3.90	0.99	3.90	0.07	106.50
250	0.04	108.60	1.00	1.70	1.00	1.70	0.04	108.60
300	0.03	-30.90	1.00	0.20	1.00	0.20	0.03	-30.90
350	0.01	-170.40	1.00	-1.30	1.00	-1.30	0.01	-170.40
400	0.02	-139.80	1.00	-2.50	1.00	-2.50	0.02	-139.80
450	0.03	-109.20	1.00	-3.70	1.00	-3.70	0.03	-109.20
500	0.04	-110.70	1.00	-4.60	1.00	-4.60	0.04	-110.70
550	0.05	-112.10	1.00	-5.50	1.00	-5.50	0.05	-112.10
600	0.06	-111.10	1.00	-6.40	1.00	-6.40	0.06	-111.10
650	0.07	-110.00	1.00	-7.40	1.00	-7.40	0.07	-110.00
700	0.08	-109.60	1.00	-8.40	1.00	-8.40	0.08	-109.60
750	0.09	-109.20	1.00	-9.40	1.00	-9.40	0.09	-109.20
800	0.09	-108.70	0.99	-10.30	0.99	-10.30	0.09	-108.70
850	0.10	-108.10	0.99	-11.30	0.99	-11.30	0.10	-108.10
900	0.11	-109.00	0.99	-12.20	0.99	-12.20	0.11	-109.00
950	0.12	-109.90	0.99	-13.20	0.99	-13.20	0.12	-109.90
1000	0.13	-109.80	0.99	-14.10	0.99	-14.10	0.13	-109.80
1050	0.14	-109.60	0.99	-15.00	0.99	-15.00	0.14	-109.60
1100	0.15	-110.90	0.99	-15.90	0.99	-15.90	0.15	-110.90
1150	0.16	-112.10	0.98	-16.90	0.98	-16.90	0.16	-112.10
1200	0.17	-113.10	0.98	-17.80	0.98	-17.80	0.17	-113.10
1250	0.18	-114.10	0.98	-18.80	0.98	-18.80	0.18	-114.10
1300	0.19	-115.10	0.98	-19.80	0.98	-19.80	0.19	-115.10
1350	0.20	-116.20	0.97	-20.90	0.97	-20.90	0.20	-116.20
1400	0.21	-117.00	0.97	-22.00	0.97	-22.00	0.21	-117.00
1450	0.23	-117.90	0.97	-23.20	0.97	-23.20	0.23	-117.90
1500	0.24	-119.50	0.96	-24.50	0.96	-24.50	0.24	-119.50
1550	0.26	-121.10	0.95	-25.80	0.95	-25.80	0.26	-121.10
1600	0.29	-124.80	0.93	-27.60	0.93	-27.60	0.29	-124.80
1650	0.31	-128.50	0.91	-29.50	0.91	-29.50	0.31	-128.50
1700	0.32	-144.00	0.83	-26.90	0.83	-26.90	0.32	-144.00
1750	0.33	-159.60	0.76	-24.40	0.76	-24.40	0.33	-159.60
1800	0.25	-151.00	0.85	-23.10	0.85	-23.10	0.25	-151.00
1850	0.18	-142.40	0.93	-21.80	0.93	-21.80	0.18	-142.40
1900	0.20	-136.20	0.94	-24.10	0.94	-24.10	0.20	-136.20
1950	0.22	-130.00	0.96	-26.40	0.96	-26.40	0.22	-130.00
2000	0.24	-129.60	0.95	-27.90	0.95	-27.90	0.24	-129.60
2050	0.25	-129.20	0.95	-29.40	0.95	-29.40	0.25	-129.20
2100	0.27	-129.60	0.95	-30.80	0.95	-30.80	0.27	-129.60
2150	0.28	-130.00	0.95	-32.10	0.95	-32.10	0.28	-130.00
2200	0.29	-130.80	0.95	-33.10	0.95	-33.10	0.29	-130.80
2250	0.31	-131.60	0.94	-34.10	0.94	-34.10	0.31	-131.60
2300	0.32	-132.60	0.94	-35.40	0.94	-35.40	0.32	-132.60
2350	0.33	-133.50	0.94	-36.60	0.94	-36.60	0.33	-133.50
2400	0.34	-134.10	0.93	-37.70	0.93	-37.70	0.34	-134.10
2450	0.35	-134.70	0.92	-38.80	0.92	-38.80	0.35	-134.70
2500	0.36	-136.00	0.92	-39.80	0.92	-39.80	0.36	-136.00
2550	0.37	-137.20	0.91	-40.80	0.91	-40.80	0.37	-137.20
2600	0.38	-138.00	0.91	-41.90	0.91	-41.90	0.38	-138.00
2650	0.40	-138.70	0.90	-43.00	0.90	-43.00	0.40	-138.70
2700	0.41	-139.90	0.90	-44.20	0.90	-44.20	0.41	-139.90
2750	0.42	-141.10	0.89	-45.40	0.89	-45.40	0.42	-141.10
2800	0.44	-142.40	0.88	-46.60	0.88	-46.60	0.44	-142.40
2850	0.45	-143.60	0.88	-47.80	0.88	-47.80	0.45	-143.60
2900	0.46	-145.40	0.86	-49.20	0.86	-49.20	0.46	-145.40
2950	0.48	-147.20	0.84	-50.60	0.84	-50.60	0.48	-147.20
3000	0.49	-149.80	0.82	-51.70	0.82	-51.70	0.49	-149.80
3050	0.51	-152.50	0.80	-52.90	0.80	-52.90	0.51	-152.50
3100	0.51	-158.00	0.76	-52.10	0.76	-52.10	0.51	-158.00
3150	0.52	-163.40	0.71	-51.30	0.71	-51.30	0.52	-163.40
3200	0.45	-164.30	0.74	-47.30	0.74	-47.30	0.45	-164.30
3250	0.39	-165.10	0.77	-43.30	0.77	-43.30	0.39	-165.10
3300	0.40	-159.30	0.81	-45.60	0.81	-45.60	0.40	-159.30
3350	0.40	-153.40	0.85	-47.90	0.85	-47.90	0.40	-153.40
3400	0.43	-152.70	0.85	-50.20	0.85	-50.20	0.43	-152.70
3450	0.46	-151.90	0.85	-52.40	0.85	-52.40	0.46	-151.90
3500	0.47	-152.50	0.85	-54.10	0.85	-54.10	0.47	-152.50
3550	0.49	-153.10	0.84	-55.90	0.84	-55.90	0.49	-153.10
3600	0.50	-153.50	0.84	-57.20	0.84	-57.20	0.50	-153.50
3650	0.52	-154.00	0.83	-58.60	0.83	-58.60	0.52	-154.00
3700	0.53	-155.40	0.82	-60.00	0.82	-60.00	0.53	-155.40
3750	0.54	-156.80	0.81	-61.40	0.81	-61.40	0.54	-156.80
3800	0.56	-157.60	0.81	-62.80	0.81	-62.80	0.56	-157.60
3850	0.57	-158.50	0.80	-64.10	0.80	-64.10	0.57	-158.50
3900	0.58	-159.80	0.79	-65.20	0.79	-65.20	0.58	-159.80
3950	0.59	-161.10	0.78	-66.30	0.78	-66.30	0.59	-161.10
4000	0.60	-162.10	0.77	-67.40	0.77	-67.40	0.60	-162.10
4050	0.61	-163.20	0.76	-68.60	0.76	-68.60	0.61	-163.20
4100	0.62	-164.40	0.75	-69.70	0.75	-69.70	0.62	-164.40
4150	0.63	-165.60	0.74	-70.90	0.74	-70.90	0.63	-165.60
4200	0.64	-167.30	0.73	-72.30	0.73	-72.30	0.64	-167.30
4250	0.65	-169.10	0.71	-73.70	0.71	-73.70	0.65	-169.10
4300	0.67	-170.60	0.70	-74.70	0.70	-74.70	0.67	-170.60
4350	0.68	-172.20	0.68	-75.80	0.68	-75.80	0.68	-172.20
4400	0.69	-174.40	0.66	-77.20	0.66	-77.20	0.69	-174.40
4450	0.70	-176.60	0.64	-78.60	0.64	-78.60	0.70	-176.60
4500	0.71	0.80	0.61	-79.20	0.61	-79.20	0.71	0.80
4550	0.73	178.20	0.58	-79.90	0.58	-79.90	0.73	178.20
4600	0.72	174.00	0.54	-77.90	0.54	-77.90	0.72	174.00
4650	0.71	169.90	0.50	-76.00	0.50	-76.00	0.71	169.90
4700	0.66	167.10	0.51	-69.10	0.51	-69.10	0.66	167.10
4750	0.61	164.40	0.51	-62.20	0.51	-62.20	0.61	164.40
4800	0.56	168.00	0.58	-62.40	0.58	-62.40	0.56	168.00
4850	0.52	171.70	0.65	-62.60	0.65	-62.60	0.52	171.70
4900	0.55	175.20	0.67	-66.90	0.67	-66.90	0.55	175.20
4950	0.57	178.60	0.69	-71.10	0.69	-71.10	0.57	178.60
5000	0.60	178.90	0.69	-73.90	0.69	-73.90	0.60	178.90
5050	0.62	179.10	0.69	-76.60	0.69	-76.60	0.62	179.10
5100	0.65	178.20	0.68	-79.10	0.68	-79.10	0.65	178.20
5150	0.67	177.30	0.67	-81.60	0.67	-81.60	0.67	177.30
5200	0.69	176.00	0.66	-83.90	0.66	-83.90	0.69	176.00
5250	0.72	174.70	0.65	-86.30	0.65	-86.30	0.72	174.70
5300	0.73	173.20	0.62	-87.70	0.62	-87.70	0.73	173.20
5350	0.74	171.70	0.60	-89.10	0.60	-89.10	0.74	171.70
5400	0.75	170.50	0.59	-90.40	0.59	-90.40	0.75	170.50
5450	0.77	169.30	0.58	-91.80	0.58	-91.80	0.77	169.30
5500	0.78	167.90	0.56	-93.10	0.56	-93.10	0.78	167.90
5550	0.79	166.40	0.54	-94.50	0.54	-94.50	0.79	166.40
5600	0.80	164.90	0.52	-95.60	0.52	-95.60	0.80	164.90
5650	0.81	163.50	0.50	-96.70	0.50	-96.70	0.81	163.50
5700	0.82	161.50	0.48	-97.90	0.48	-97.90	0.82	161.50
5750	0.83	159.60	0.46	-99.10	0.46	-99.10	0.83	159.60
5800	0.83	157.90	0.44	-99.60	0.44	-99.60	0.83	157.90
5850	0.84	156.20	0.41	-100.10	0.41	-100.10	0.84	156.20
5900	0.84	153.60	0.38	-98.90	0.38	-98.90	0.84	153.60
5950	0.84	151.00	0.35	-97.80	0.35	-97.80	0.84	151.00
6000	0.83	149.30	0.33	-92.40	0.33	-92.40	0.83	149.30
6050	0.82	147.50	0.30	-87.00	0.30	-87.00	0.82	147.50
6100	0.78	146.00	0.33	-80.50	0.33	-80.50	0.78	146.00
6150	0.74	144.50	0.35	-74.00	0.35	-74.00	0.74	144.50
6200	0.71	147.10	0.40	-75.70	0.40	-75.70	0.71	147.10
6250	0.69	149.60	0.44	-77.30	0.44	-77.30	0.69	149.60
6300	0.71	151.70	0.46	-82.70	0.46	-82.70	0.71	151.70
6350	0.73	153.70	0.47	-88.00	0.47	-88.00	0.73	153.70
6400	0.76	153.60	0.46	-92.40	0.46	-92.40	0.76	153.60
6450	0.79	153.40	0.44	-96.70	0.44	-96.70	0.79	153.40
6500	0.81	152.00	0.42	-99.60	0.42	-99.60	0.81	152.00
6550	0.83	150.50	0.40	-102.50	0.40	-102.50	0.83	150.50
6600	0.85	149.50	0.38	-104.30	0.38	-104.30	0.85	149.50
6650	0.87	148.40	0.36	-106.20	0.36	-106.20	0.87	148.40
6700	0.88	146.80	0.34	-107.40	0.34	-107.40	0.88	146.80
6750	0.89	145.20	0.32	-108.70	0.32	-108.70	0.89	145.20
6800	0.89	143.70	0.30	-109.80	0.30	-109.80	0.89	143.70
6850	0.90	142.20	0.28	-110.80	0.28	-110.80	0.90	142.20
6900	0.91	140.70	0.26	-111.70	0.26	-111.70	0.91	140.70
6950	0.92	139.20	0.24	-112.70	0.24	-112.70	0.92	139.20
7000	0.93	137.40	0.22	-113.20	0.22	-113.20	0.93	137.40
7050	0.93	135.50	0.20	-113.70	0.20	-113.70	0.93	135.50
7100	0.93	133.70	0.18	-112.80	0.18	-112.80	0.93	133.70
7150	0.94	131.90	0.16	-111.90	0.16	-111.90	0.94	131.90
7200	0.94	129.80	0.13	-108.80	0.13	-108.80	0.94	129.80
7250	0.94	127.70	0.11	-105.70	0.11	-105.70	0.94	127.70
7300	0.94	125.70	0.09	-96.20	0.09	-96.20	0.94	125.70
7350	0.94	123.80	0.08	-86.70	0.08	-86.70	0.94	123.80
7400	0.94	121.70	0.07	-69.40	0.07	-69.40	0.94	121.70
7450	0.94	119.60	0.07	-52.10	0.07	-52.10	0.94	119.60
7500	0.94	117.50	0.08	-37.80	0.08	-37.80	0.94	117.50
7550	0.93	115.50	0.09	-23.50	0.09	-23.50	0.93	115.50
7600	0.93	113.40	0.11	-17.30	0.11	-17.30	0.93	113.40
7650	0.93	111.40	0.13	-11.10	0.13	-11.10	0.93	111.40
7700	0.93	108.80	0.16	-9.20	0.16	-9.20	0.93	108.80
7750	0.92	106.20	0.18	-7.30	0.18	-7.30	0.92	106.20
7800	0.91	104.20	0.20	-7.20	0.20	-7.20	0.91	104.20
7850	0.91	102.10	0.23	-7.10	0.23	-7.10	0.91	102.10
7900	0.90	99.60	0.25	-7.80	0.25	-7.80	0.90	99.60
7950	0.90	97.00	0.27	-8.50	0.27	-8.50	0.90	97.00
8000	0.89	94.90	0.30	-10.00	0.30	-10.00	0.89	94.90
8050	0.88	92.70	0.32	-11.40	0.32	-11.40	0.88	92.70
8100	0.86	90.00	0.34	-13.50	0.34	-13.50	0.86	90.00
8150	0.85	87.30	0.37	-15.60	0.37	-15.60	0.85	87.30
8200	0.83	85.80	0.38	-17.60	0.38	-17.60	0.83	85.80
8250	0.81	84.30	0.40	-19.60	0.40	-19.60	0.81	84.30
8300	0.79	82.40	0.42	-22.50	0.42	-22.50	0.79	82.40
8350	0.77	80.60	0.43	-25.50	0.43	-25.50	0.77	80.60
8400	0.76	80.30	0.44	-27.90	0.44	-27.90	0.76	80.30
8450	0.74	80.00	0.44	-30.30	0.44	-30.30	0.74	80.00
8500	0.74	79.50	0.43	-31.40	0.43	-31.40	0.74	79.50
8550	0.74	78.90	0.42	-32.40	0.42	-32.40	0.74	78.90
8600	0.75	77.90	0.43	-31.30	0.43	-31.30	0.75	77.90
8650	0.76	76.90	0.43	-30.20	0.43	-30.20	0.76	76.90
8700	0.76	75.40	0.44	-29.80	0.44	-29.80	0.76	75.40
8750	0.76	73.80	0.46	-29.40	0.46	-29.40	0.76	73.80
8800	0.76	71.60	0.48	-30.20	0.48	-30.20	0.76	71.60
8850	0.75	69.40	0.50	-30.90	0.50	-30.90	0.75	69.40
8900	0.74	68.40	0.51	-31.90	0.51	-31.90	0.74	68.40
8950	0.73	67.40	0.52	-33.00	0.52	-33.00	0.73	67.40
9000	0.72	66.60	0.54	-34.00	0.54	-34.00	0.72	66.60
9050	0.72	65.70	0.55	-34.90	0.55	-34.90	0.72	65.70
9100	0.71	64.40	0.56	-36.30	0.56	-36.30	0.71	64.40
9150	0.71	63.00	0.58	-37.70	0.58	-37.70	0.71	63.00
9200	0.69	61.90	0.59	-39.40	0.59	-39.40	0.69	61.90
9250	0.67	60.80	0.60	-41.10	0.60	-41.10	0.67	60.80
9300	0.65	61.40	0.61	-42.50	0.61	-42.50	0.65	61.40
9350	0.64	61.90	0.62	-43.80	0.62	-43.80	0.64	61.90
9400	0.62	61.90	0.61	-45.90	0.61	-45.90	0.62	61.90
9450	0.60	61.80	0.61	-48.10	0.61	-48.10	0.60	61.80
9500	0.59	63.60	0.60	-49.60	0.60	-49.60	0.59	63.60
9550	0.58	65.40	0.59	-51.00	0.59	-51.00	0.58	65.40
9600	0.59	66.20	0.58	-51.30	0.58	-51.30	0.59	66.20
9650	0.60	67.10	0.57	-51.50	0.57	-51.50	0.60	67.10
9700	0.61	67.00	0.56	-50.30	0.56	-50.30	0.61	67.00
9750	0.62	66.80	0.56	-49.10	0.56	-49.10	0.62	66.80
9800	0.62	66.00	0.57	-48.50	0.57	-48.50	0.62	66.00
9850	0.62	65.10	0.59	-47.80	0.59	-47.80	0.62	65.10
9900	0.62	64.10	0.60	-48.30	0.60	-48.30	0.62	64.10
9950	0.62	63.10	0.62	-48.80	0.62	-48.80	0.62	63.10
10000	0.62	61.90	0.62	-48.80	0.62	-48.80	0.62	61.90
10050	0.61	60.80	0.63	-48.90	0.63	-48.90	0.61	60.80
10100	0.60	59.90	0.65	-49.80	0.65	-49.80	0.60	59.90
10150	0.59	59.10	0.66	-50.60	0.66	-50.60	0.59	59.10
10200	0.58	58.40	0.67	-51.20	0.67	-51.20	0.58	58.40
10250	0.58	57.60	0.68	-51.80	0.68	-51.80	0.58	57.60
10300	0.57	56.20	0.69	-52.90	0.69	-52.90	0.57	56.20
10350	0.56	54.70	0.70	-54.00	0.70	-54.00	0.56	54.70
10400	0.54	54.20	0.71	-54.80	0.71	-54.80	0.54	54.20
10450	0.52	53.60	0.72	-55.50	0.72	-55.50	0.52	53.60
10500	0.52	52.70	0.72	-56.80	0.72	-56.80	0.52	52.70
10550	0.51	51.90	0.73	-58.00	0.73	-58.00	0.51	51.90
10600	0.50	51.80	0.73	-58.70	0.73	-58.70	0.50	51.80
10650	0.48	51.80	0.74	-59.30	0.74	-59.30	0.48	51.80
10700	0.48	50.80	0.74	-60.20	0.74	-60.20	0.48	50.80
10750	0.48	49.90	0.74	-61.20	0.74	-61.20	0.48	49.90
10800	0.47	48.80	0.75	-61.80	0.75	-61.80	0.47	48.80
10850	0.46	47.80	0.76	-62.50	0.76	-62.50	0.46	47.80
10900	0.45	46.60	0.77	-63.60	0.77	-63.60	0.45	46.60
10950	0.44	45.40	0.78	-64.70	0.78	-64.70	0.44	45.40
11000	0.42	45.50	0.79	-66.60	0.79	-66.60	0.42	45.50
11050	0.40	45.60	0.79	-68.60	0.79	-68.60	0.40	45.60
11100	0.40	47.50	0.78	-69.60	0.78	-69.60	0.40	47.50
11150	0.39	49.50	0.77	-70.60	0.77	-70.60	0.39	49.50
11200	0.40	50.30	0.75	-70.80	0.75	-70.80	0.40	50.30
11250	0.41	51.10	0.75	-71.00	0.75	-71.00	0.41	51.10
11300	0.42	49.80	0.75	-70.30	0.75	-70.30	0.42	49.80
11350	0.43	48.60	0.75	-69.60	0.75	-69.60	0.43	48.60
11400	0.43	46.50	0.76	-69.70	0.76	-69.70	0.43	46.50
11450	0.43	44.40	0.77	-69.80	0.77	-69.80	0.43	44.40
11500	0.43	41.90	0.79	-70.30	0.79	-70.30	0.43	41.90
11550	0.42	39.40	0.81	-70.90	0.81	-70.90	0.42	39.40
11600	0.41	38.60	0.82	-71.70	0.82	-71.70	0.41	38.60
11650	0.41	37.80	0.83	-72.60	0.83	-72.60	0.41	37.80
11700	0.39	36.30	0.84	-73.80	0.84	-73.80	0.39	36.30
11750	0.38	34.90	0.85	-75.00	0.85	-75.00	0.38	34.90
11800	0.37	34.40	0.87	-76.00	0.87	-76.00	0.37	34.40
11850	0.36	33.80	0.88	-76.90	0.88	-76.90	0.36	33.80
11900	0.35	33.10	0.88	-78.30	0.88	-78.30	0.35	33.10
11950	0.34	32.30	0.88	-79.70	0.88	-79.70	0.34	32.30
12000	0.33	33.40	0.89	-80.70	0.89	-80.70	0.33	33.40
12050	0.32	34.60	0.90	-81.70	0.90	-81.70	0.32	34.60
12100	0.31	33.70	0.90	-83.00	0.90	-83.00	0.31	33.70
12150	0.29	32.80	0.90	-84.30	0.90	-84.30	0.29	32.80
12200	0.28	33.90	0.90	-85.50	0.90	-85.50	0.28	33.90
12250	0.28	35.00	0.91	-86.70	0.91	-86.70	0.28	35.00
12300	0.27	35.30	0.91	-87.70	0.91	-87.70	0.27	35.30
12350	0.26	35.70	0.91	-88.60	0.91	-88.60	0.26	35.70
12400	0.25	35.80	0.91	-89.60	0.91	-89.60	0.25	35.80
12450	0.24	36.00	0.90	-90.50	0.90	-90.50	0.24	36.00
12500	0.24	37.20	0.90	-91.80	0.90	-91.80	0.24	37.20
12550	0.23	38.50	0.90	-93.10	0.90	-93.10	0.23	38.50
12600	0.23	39.20	0.89	-94.00	0.89	-94.00	0.23	39.20
12650	0.22	40.00	0.89	-94.90	0.89	-94.90	0.22	40.00
12700	0.22	40.40	0.88	-95.50	0.88	-95.50	0.22	40.40
12750	0.23	40.80	0.88	-96.10	0.88	-96.10	0.23	40.80
12800	0.23	40.50	0.87	-96.20	0.87	-96.20	0.23	40.50
12850	0.24	40.10	0.86	-96.30	0.86	-96.30	0.24	40.10
12900	0.24	38.30	0.87	-96.50	0.87	-96.50	0.24	38.30
12950	0.24	36.40	0.87	-96.60	0.87	-96.60	0.24	36.40
13000	0.24	32.90	0.88	-96.80	0.88	-96.80	0.24	32.90
13050	0.23	29.30	0.89	-97.00	0.89	-97.00	0.23	29.30
13100	0.23	27.80	0.90	-97.90	0.90	-97.90	0.23	27.80
13150	0.22	26.40	0.91	-98.70	0.91	-98.70	0.22	26.40
13200	0.22	24.90	0.91	-99.60	0.91	-99.60	0.22	24.90
13250	0.22	23.30	0.91	-100.40	0.91	-100.40	0.22	23.30
13300	0.21	22.70	0.92	-101.50	0.92	-101.50	0.21	22.70
13350	0.20	22.10	0.92	-102.50	0.92	-102.50	0.20	22.10
13400	0.20	20.70	0.93	-103.50	0.93	-103.50	0.20	20.70
13450	0.20	19.30	0.93	-104.60	0.93	-104.60	0.20	19.30
13500	0.20	18.80	0.93	-105.40	0.93	-105.40	0.20	18.80
13550	0.19	18.30	0.93	-106.30	0.93	-106.30	0.19	18.30
13600	0.19	17.30	0.93	-107.30	0.93	-107.30	0.19	17.30
13650	0.20	16.40	0.94	-108.30	0.94	-108.30	0.20	16.40
13700	0.19	15.30	0.93	-108.90	0.93	-108.90	0.19	15.30
13750	0.19	14.30	0.93	-109.50	0.93	-109.50	0.19	14.30
13800	0.19	11.70	0.93	-110.40	0.93	-110.40	0.19	11.70
13850	0.20	9.10	0.93	-111.20	0.93	-111.20	0.20	9.10
13900	0.19	6.40	0.94	-111.90	0.94	-111.90	0.19	6.40
13950	0.19	3.80	0.94	-112.60	0.94	-112.60	0.19	3.80
14000	0.19	3.20	0.94	-113.30	0.94	-113.30	0.19	3.20
14050	0.19	2.60	0.94	-114.10	0.94	-114.10	0.19	2.60
14100	0.18	-1.50	0.94	-115.00	0.94	-115.00	0.18	-1.50
14150	0.18	-5.60	0.94	-115.90	0.94	-115.90	0.18	-5.60
14200	0.18	-5.90	0.95	-116.90	0.95	-116.90	0.18	-5.90
14250	0.18	-6.30	0.95	-117.80	0.95	-117.80	0.18	-6.30
14300	0.17	-7.90	0.94	-118.80	0.94	-118.80	0.17	-7.90
14350	0.17	-9.60	0.94	-119.80	0.94	-119.80	0.17	-9.60
14400	0.17	-10.20	0.94	-120.60	0.94	-120.60	0.17	-10.20
14450	0.16	-10.80	0.94	-121.40	0.94	-121.40	0.16	-10.80
14500	0.16	-10.00	0.94	-122.60	0.94	-122.60	0.16	-10.00
14550	0.16	-9.30	0.94	-123.80	0.94	-123.80	0.16	-9.30
14600	0.16	-8.20	0.94	-124.70	0.94	-124.70	0.16	-8.20
14650	0.16	-7.10	0.94	-125.50	0.94	-125.50	0.16	-7.10
14700	0.15	-4.10	0.93	-126.60	0.93	-126.60	0.15	-4.10
14750	0.15	-1.10	0.93	-127.70	0.93	-127.70	0.15	-1.10
14800	0.15	1.70	0.93	-128.80	0.93	-128.80	0.15	1.70
14850	0.14	4.60	0.93	-129.90	0.93	-129.90	0.14	4.60
14900	0.15	9.90	0.92	-131.00	0.92	-131.00	0.15	9.90
14950	0.15	15.10	0.91	-132.10	0.91	-132.10	0.15	15.10
15000	0.15	19.50	0.90	-133.40	0.90	-133.40	0.15	19.50
15050	0.16	23.80	0.89	-134.60	0.89	-134.60	0.16	23.80
15100	0.17	29.20	0.88	-135.80	0.88	-135.80	0.17	29.20
15150	0.18	34.50	0.87	-137.10	0.87	-137.10	0.18	34.50
15200	0.20	35.80	0.85	-138.20	0.85	-138.20	0.20	35.80
15250	0.22	37.10	0.83	-139.30	0.83	-139.30	0.22	37.10
15300	0.25	38.20	0.81	-140.10	0.81	-140.10	0.25	38.20
15350	0.28	39.30	0.78	-140.90	0.78	-140.90	0.28	39.30
15400	0.30	37.20	0.76	-140.50	0.76	-140.50	0.30	37.20
15450	0.31	35.10	0.73	-140.10	0.73	-140.10	0.31	35.10
15500	0.33	33.60	0.71	-139.00	0.71	-139.00	0.33	33.60
15550	0.35	32.10	0.70	-137.90	0.70	-137.90	0.35	32.10
15600	0.36	28.80	0.69	-136.10	0.69	-136.10	0.36	28.80
15650	0.37	25.50	0.69	-134.40	0.69	-134.40	0.37	25.50
15700	0.37	23.40	0.70	-133.10	0.70	-133.10	0.37	23.40
15750	0.37	21.20	0.70	-131.70	0.70	-131.70	0.37	21.20
15800	0.36	19.50	0.72	-131.40	0.72	-131.40	0.36	19.50
15850	0.36	17.70	0.74	-131.00	0.74	-131.00	0.36	17.70
15900	0.34	17.30	0.76	-131.20	0.76	-131.20	0.34	17.30
15950	0.33	16.90	0.77	-131.50	0.77	-131.50	0.33	16.90
16000	0.31	18.50	0.78	-132.30	0.78	-132.30	0.31	18.50
16050	0.30	20.10	0.79	-133.20	0.79	-133.20	0.30	20.10
16100	0.29	23.00	0.80	-134.30	0.80	-134.30	0.29	23.00
16150	0.28	25.80	0.80	-135.50	0.80	-135.50	0.28	25.80
16200	0.28	27.90	0.79	-136.60	0.79	-136.60	0.28	27.90
16250	0.28	30.00	0.79	-137.70	0.79	-137.70	0.28	30.00
16300	0.28	31.80	0.78	-138.30	0.78	-138.30	0.28	31.80
16350	0.29	33.60	0.77	-138.90	0.77	-138.90	0.29	33.60
16400	0.30	35.40	0.75	-139.40	0.75	-139.40	0.30	35.40
16450	0.31	37.30	0.74	-139.90	0.74	-139.90	0.31	37.30
16500	0.32	35.40	0.72	-139.10	0.72	-139.10	0.32	35.40
16550	0.34	33.50	0.70	-138.20	0.70	-138.20	0.34	33.50
16600	0.34	29.90	0.70	-136.40	0.70	-136.40	0.34	29.90
16650	0.35	26.30	0.69	-134.50	0.69	-134.50	0.35	26.30
16700	0.33	20.40	0.71	-132.70	0.71	-132.70	0.33	20.40
16750	0.32	14.50	0.73	-130.90	0.73	-130.90	0.32	14.50
16800	0.30	9.50	0.76	-130.60	0.76	-130.60	0.30	9.50
16850	0.28	4.50	0.79	-130.30	0.79	-130.30	0.28	4.50
16900	0.25	1.90	0.81	-130.90	0.81	-130.90	0.25	1.90
16950	0.22	-0.80	0.83	-131.60	0.83	-131.60	0.22	-0.80
17000	0.19	-2.60	0.85	-132.70	0.85	-132.70	0.19	-2.60
17050	0.17	-4.40	0.87	-133.90	0.87	-133.90	0.17	-4.40
17100	0.15	-4.80	0.88	-135.20	0.88	-135.20	0.15	-4.80
17150	0.13	-5.30	0.89	-136.40	0.89	-136.40	0.13	-5.30
17200	0.11	-2.70	0.90	-137.60	0.90	-137.60	0.11	-2.70
17250	0.09	-0.20	0.92	-138.70	0.92	-138.70	0.09	-0.20
17300	0.08	3.20	0.92	-140.00	0.92	-140.00	0.08	3.20
17350	0.07	6.60	0.93	-141.30	0.93	-141.30	0.07	6.60
17400	0.06	17.60	0.93	-142.30	0.93	-142.30	0.06	17.60
17450	0.05	28.60	0.93	-143.20	0.93	-143.20	0.05	28.60
17500	0.05	36.40	0.93	-144.30	0.93	-144.30	0.05	36.40
17550	0.05	44.20	0.93	-145.30	0.93	-145.30	0.05	44.20
17600	0.05	49.90	0.93	-146.20	0.93	-146.20	0.05	49.90
17650	0.04	55.60	0.94	-147.10	0.94	-147.10	0.04	55.60
17700	0.05	61.50	0.94	-147.80	0.94	-147.80	0.05	61.50
17750	0.05	67.40	0.94	-148.50	0.94	-148.50	0.05	67.40
17800	0.04	73.80	0.94	-149.30	0.94	-149.30	0.04	73.80
17850	0.04	80.10	0.94	-150.10	0.94	-150.10	0.04	80.10
17900	0.04	94.50	0.94	-150.90	0.94	-150.90	0.04	94.50
17950	0.04	108.90	0.94	-151.70	0.94	-151.70	0.04	108.90
18000	0.04	105.10	0.94	-152.30	0.94	-152.30	0.04	105.10
18050	0.03	101.30	0.95	-153.00	0.95	-153.00	0.03	101.30
18100	0.04	106.50	0.95	-153.70	0.95	-153.70	0.04	106.50
18150	0.05	111.70	0.95	-154.40	0.95	-154.40	0.05	111.70
18200	0.04	110.30	0.95	-155.10	0.95	-155.10	0.04	110.30
18250	0.04	108.80	0.95	-155.80	0.95	-155.80	0.04	108.80
18300	0.03	113.10	0.95	-156.70	0.95	-156.70	0.03	113.10
18350	0.03	117.40	0.95	-157.60	0.95	-157.60	0.03	117.40
18400	0.02	87.80	0.95	-158.20	0.95	-158.20	0.02	87.80
18450	0.02	58.10	0.95	-158.80	0.95	-158.80	0.02	58.10
18500	0.02	40.00	0.95	-159.50	0.95	-159.50	0.02	40.00
18550	0.02	21.90	0.94	-160.20	0.94	-160.20	0.02	21.90
18600	0.03	5.40	0.94	-160.80	0.94	-160.80	0.03	5.40
18650	0.03	-11.00	0.95	-161.50	0.95	-161.50	0.03	-11.00
18700	0.04	-23.50	0.94	-162.00	0.94	-162.00	0.04	-23.50
18750	0.05	-35.90	0.94	-162.50	0.94	-162.50	0.05	-35.90
