# MHZ S MA R 50

      50  0.02   73.00    1.00   -0.30    1.00   -0.30    0.02   73.00
     100  0.05   76.90    1.00   -1.70    1.00   -1.70    0.05   76.90
     150  0.08   80.90    0.99   -3.20    0.99   -3.20    0.08   80.90
     200  0.10   80.10    0.99   -4.70    0.99   -4.70    0.10   80.10
     250  0.12   79.40    0.99   -6.30    0.99   -6.30    0.12   79.40
     300  0.14   78.10    0.98   -7.90    0.98   -7.90    0.14   78.10
     350  0.17   76.70    0.98   -9.50    0.98   -9.50    0.17   76.70
     400  0.19   74.80    0.97   -10.90   0.97   -10.90   0.19   74.80
     450  0.21   72.90    0.97   -12.40   0.97   -12.40   0.21   72.90
     500  0.26   74.70    0.96   -14.80   0.96   -14.80   0.26   74.70
     550  0.30   76.60    0.95   -17.20   0.95   -17.20   0.30   76.60
     600  0.32   75.10    0.94   -18.80   0.94   -18.80   0.32   75.10
     650  0.34   73.70    0.94   -20.40   0.94   -20.40   0.34   73.70
     700  0.36   72.50    0.93   -22.10   0.93   -22.10   0.36   72.50
     750  0.39   71.30    0.92   -23.70   0.92   -23.70   0.39   71.30
     800  0.41   69.20    0.91   -25.30   0.91   -25.30   0.41   69.20
     850  0.43   67.10    0.90   -26.90   0.90   -26.90   0.43   67.10
     900  0.46   65.60    0.88   -28.60   0.88   -28.60   0.46   65.60
     950  0.49   64.00    0.87   -30.20   0.87   -30.20   0.49   64.00
    1000  0.51   62.20    0.86   -31.90   0.86   -31.90   0.51   62.20
    1050  0.53   60.40    0.84   -33.60   0.84   -33.60   0.53   60.40
    1100  0.55   58.90    0.83   -35.40   0.83   -35.40   0.55   58.90
    1150  0.58   57.30    0.81   -37.20   0.81   -37.20   0.58   57.30
    1200  0.60   55.60    0.80   -38.70   0.80   -38.70   0.60   55.60
    1250  0.62   53.80    0.78   -40.30   0.78   -40.30   0.62   53.80
    1300  0.64   51.90    0.76   -42.10   0.76   -42.10   0.64   51.90
    1350  0.67   49.90    0.75   -43.90   0.75   -43.90   0.67   49.90
    1400  0.68   48.20    0.73   -45.40   0.73   -45.40   0.68   48.20
    1450  0.70   46.40    0.70   -46.90   0.70   -46.90   0.70   46.40
    1500  0.72   44.40    0.69   -48.80   0.69   -48.80   0.72   44.40
    1550  0.74   42.30    0.67   -50.70   0.67   -50.70   0.74   42.30
    1600  0.76   40.30    0.64   -52.30   0.64   -52.30   0.76   40.30
    1650  0.78   38.20    0.62   -54.00   0.62   -54.00   0.78   38.20
    1700  0.79   36.40    0.60   -55.70   0.60   -55.70   0.79   36.40
    1750  0.80   34.70    0.58   -57.40   0.58   -57.40   0.80   34.70
    1800  0.82   32.60    0.56   -59.00   0.56   -59.00   0.82   32.60
    1850  0.84   30.50    0.54   -60.60   0.54   -60.60   0.84   30.50
    1900  0.85   28.50    0.51   -62.30   0.51   -62.30   0.85   28.50
    1950  0.86   26.40    0.49   -63.90   0.49   -63.90   0.86   26.40
    2000  0.87   24.30    0.46   -65.60   0.46   -65.60   0.87   24.30
    2050  0.88   22.20    0.44   -67.30   0.44   -67.30   0.88   22.20
    2100  0.90   20.50    0.41   -68.80   0.41   -68.80   0.90   20.50
    2150  0.91   18.80    0.39   -70.40   0.39   -70.40   0.91   18.80
    2200  0.92   16.50    0.36   -72.20   0.36   -72.20   0.92   16.50
    2250  0.93   14.20    0.34   -74.00   0.34   -74.00   0.93   14.20
    2300  0.94   12.60    0.31   -75.30   0.31   -75.30   0.94   12.60
    2350  0.95   11.00    0.28   -76.60   0.28   -76.60   0.95   11.00
    2400  0.95    8.80    0.26   -78.40   0.26   -78.40   0.95    8.80
    2450  0.96    6.70    0.23   -80.20   0.23   -80.20   0.96    6.70
    2500  0.97    4.70    0.20   -81.60   0.20   -81.60   0.97    4.70
    2550  0.98    2.70    0.17   -83.10   0.17   -83.10   0.98    2.70
    2600  0.98    0.90    0.14   -83.90   0.14   -83.90   0.98    0.90
    2650  0.98   -0.80    0.12   -84.70   0.12   -84.70   0.98   -0.80
    2700  0.98   -2.50    0.09   -84.20   0.09   -84.20   0.98   -2.50
    2750  0.99   -4.30    0.06   -83.80   0.06   -83.80   0.99   -4.30
    2800  0.99   -6.30    0.04   -61.80   0.04   -61.80   0.99   -6.30
    2850  0.99   -8.20    0.01   -39.70   0.01   -39.70   0.99   -8.20
    2900  0.99   -9.80    0.03   13.20    0.03   13.20    0.99   -9.80
    2950  0.99   -11.40   0.05   66.20    0.05   66.20    0.99   -11.40
    3000  0.99   -13.20   0.07   67.90    0.07   67.90    0.99   -13.20
    3050  0.98   -15.00   0.10   69.70    0.10   69.70    0.98   -15.00
    3100  0.98   -16.80   0.12   69.20    0.12   69.20    0.98   -16.80
    3150  0.97   -18.50   0.15   68.70    0.15   68.70    0.97   -18.50
    3200  0.97   -19.70   0.17   67.80    0.17   67.80    0.97   -19.70
    3250  0.97   -21.00   0.20   67.00    0.20   67.00    0.97   -21.00
    3300  0.96   -22.50   0.22   65.70    0.22   65.70    0.96   -22.50
    3350  0.96   -24.00   0.24   64.40    0.24   64.40    0.96   -24.00
    3400  0.95   -25.30   0.26   63.40    0.26   63.40    0.95   -25.30
    3450  0.95   -26.70   0.28   62.40    0.28   62.40    0.95   -26.70
    3500  0.94   -28.10   0.31   61.20    0.31   61.20    0.94   -28.10
    3550  0.93   -29.60   0.33   60.00    0.33   60.00    0.93   -29.60
    3600  0.92   -30.70   0.34   59.00    0.34   59.00    0.92   -30.70
    3650  0.91   -31.90   0.36   57.90    0.36   57.90    0.91   -31.90
    3700  0.91   -33.40   0.38   56.70    0.38   56.70    0.91   -33.40
    3750  0.90   -34.90   0.40   55.60    0.40   55.60    0.90   -34.90
    3800  0.89   -36.10   0.42   54.60    0.42   54.60    0.89   -36.10
    3850  0.88   -37.30   0.44   53.70    0.44   53.70    0.88   -37.30
    3900  0.87   -38.70   0.45   52.30    0.45   52.30    0.87   -38.70
    3950  0.86   -40.10   0.47   50.90    0.47   50.90    0.86   -40.10
    4000  0.85   -41.40   0.49   50.00    0.49   50.00    0.85   -41.40
    4050  0.84   -42.70   0.50   49.10    0.50   49.10    0.84   -42.70
    4100  0.83   -43.70   0.52   48.00    0.52   48.00    0.83   -43.70
    4150  0.82   -44.80   0.53   47.00    0.53   47.00    0.82   -44.80
    4200  0.81   -46.30   0.55   46.00    0.55   46.00    0.81   -46.30
    4250  0.81   -47.80   0.56   45.00    0.56   45.00    0.81   -47.80
    4300  0.80   -48.90   0.57   44.10    0.57   44.10    0.80   -48.90
    4350  0.78   -50.10   0.59   43.20    0.59   43.20    0.78   -50.10
    4400  0.77   -51.50   0.60   42.10    0.60   42.10    0.77   -51.50
    4450  0.76   -52.90   0.61   40.90    0.61   40.90    0.76   -52.90
    4500  0.75   -53.60   0.62   40.10    0.62   40.10    0.75   -53.60
    4550  0.74   -54.30   0.63   39.20    0.63   39.20    0.74   -54.30
    4600  0.74   -56.00   0.65   38.00    0.65   38.00    0.74   -56.00
    4650  0.74   -57.70   0.66   36.80    0.66   36.80    0.74   -57.70
    4700  0.72   -58.60   0.67   35.90    0.67   35.90    0.72   -58.60
    4750  0.71   -59.60   0.68   35.00    0.68   35.00    0.71   -59.60
    4800  0.69   -60.80   0.68   34.00    0.68   34.00    0.69   -60.80
    4850  0.68   -62.00   0.69   33.00    0.69   33.00    0.68   -62.00
    4900  0.68   -62.70   0.70   32.30    0.70   32.30    0.68   -62.70
    4950  0.68   -63.40   0.71   31.50    0.71   31.50    0.68   -63.40
    5000  0.66   -64.80   0.72   30.40    0.72   30.40    0.66   -64.80
    5050  0.65   -66.10   0.72   29.20    0.72   29.20    0.65   -66.10
    5100  0.64   -66.60   0.73   28.60    0.73   28.60    0.64   -66.60
    5150  0.63   -67.00   0.74   28.00    0.74   28.00    0.63   -67.00
    5200  0.62   -67.40   0.74   27.50    0.74   27.50    0.62   -67.40
    5250  0.62   -67.70   0.75   27.10    0.75   27.10    0.62   -67.70
    5300  0.61   -68.90   0.76   25.80    0.76   25.80    0.61   -68.90
    5350  0.61   -70.00   0.77   24.60    0.77   24.60    0.61   -70.00
    5400  0.60   -70.40   0.77   23.90    0.77   23.90    0.60   -70.40
    5450  0.58   -70.80   0.78   23.30    0.78   23.30    0.58   -70.80
    5500  0.58   -71.40   0.79   22.50    0.79   22.50    0.58   -71.40
    5550  0.57   -72.00   0.79   21.70    0.79   21.70    0.57   -72.00
    5600  0.56   -72.60   0.80   21.00    0.80   21.00    0.56   -72.60
    5650  0.55   -73.20   0.80   20.20    0.80   20.20    0.55   -73.20
    5700  0.54   -73.90   0.81   19.50    0.81   19.50    0.54   -73.90
    5750  0.54   -74.50   0.81   18.90    0.81   18.90    0.54   -74.50
    5800  0.53   -74.50   0.82   18.20    0.82   18.20    0.53   -74.50
    5850  0.52   -74.50   0.82   17.50    0.82   17.50    0.52   -74.50
    5900  0.51   -74.90   0.82   16.90    0.82   16.90    0.51   -74.90
    5950  0.50   -75.30   0.83   16.40    0.83   16.40    0.50   -75.30
    6000  0.49   -76.50   0.84   15.10    0.84   15.10    0.49   -76.50
    6050  0.48   -77.70   0.85   13.80    0.85   13.80    0.48   -77.70
    6100  0.47   -77.80   0.85   13.40    0.85   13.40    0.47   -77.80
    6150  0.47   -77.90   0.85   13.00    0.85   13.00    0.47   -77.90
    6200  0.46   -77.80   0.86   12.20    0.86   12.20    0.46   -77.80
    6250  0.44   -77.60   0.86   11.40    0.86   11.40    0.44   -77.60
    6300  0.44   -78.00   0.86   10.80    0.86   10.80    0.44   -78.00
    6350  0.43   -78.40   0.87   10.20    0.87   10.20    0.43   -78.40
    6400  0.42   -78.00   0.87    9.50    0.87    9.50    0.42   -78.00
    6450  0.41   -77.60   0.87    8.80    0.87    8.80    0.41   -77.60
    6500  0.40   -77.50   0.87    8.10    0.87    8.10    0.40   -77.50
    6550  0.40   -77.50   0.87    7.40    0.87    7.40    0.40   -77.50
    6600  0.39   -76.90   0.87    6.70    0.87    6.70    0.39   -76.90
    6650  0.38   -76.30   0.88    6.00    0.88    6.00    0.38   -76.30
    6700  0.37   -75.80   0.88    5.60    0.88    5.60    0.37   -75.80
    6750  0.37   -75.30   0.88    5.20    0.88    5.20    0.37   -75.30
    6800  0.36   -74.40   0.88    4.60    0.88    4.60    0.36   -74.40
    6850  0.35   -73.50   0.88    3.90    0.88    3.90    0.35   -73.50
    6900  0.34   -73.40   0.88    3.40    0.88    3.40    0.34   -73.40
    6950  0.33   -73.20   0.88    2.90    0.88    2.90    0.33   -73.20
    7000  0.33   -72.60   0.88    2.40    0.88    2.40    0.33   -72.60
    7050  0.32   -72.10   0.88    2.00    0.88    2.00    0.32   -72.10
    7100  0.32   -71.30   0.87    1.70    0.87    1.70    0.32   -71.30
    7150  0.31   -70.50   0.87    1.50    0.87    1.50    0.31   -70.50
    7200  0.31   -71.20   0.88    1.30    0.88    1.30    0.31   -71.20
    7250  0.30   -72.00   0.88    1.10    0.88    1.10    0.30   -72.00
    7300  0.30   -72.20   0.88    0.80    0.88    0.80    0.30   -72.20
    7350  0.30   -72.50   0.89    0.60    0.89    0.60    0.30   -72.50
    7400  0.30   -73.50   0.89    0.20    0.89    0.20    0.30   -73.50
    7450  0.29   -74.40   0.89   -0.10    0.89   -0.10    0.29   -74.40
    7500  0.28   -75.70   0.90   -0.60    0.90   -0.60    0.28   -75.70
    7550  0.28   -76.90   0.91   -1.10    0.91   -1.10    0.28   -76.90
    7600  0.27   -77.20   0.91   -1.60    0.91   -1.60    0.27   -77.20
    7650  0.26   -77.50   0.92   -2.00    0.92   -2.00    0.26   -77.50
    7700  0.25   -78.70   0.92   -2.60    0.92   -2.60    0.25   -78.70
    7750  0.24   -79.80   0.93   -3.10    0.93   -3.10    0.24   -79.80
    7800  0.23   -79.40   0.93   -3.60    0.93   -3.60    0.23   -79.40
    7850  0.22   -78.90   0.93   -4.20    0.93   -4.20    0.22   -78.90
    7900  0.22   -80.00   0.94   -4.90    0.94   -4.90    0.22   -80.00
    7950  0.21   -81.20   0.94   -5.50    0.94   -5.50    0.21   -81.20
    8000  0.20   -80.00   0.94   -6.20    0.94   -6.20    0.20   -80.00
    8050  0.18   -78.90   0.95   -6.80    0.95   -6.80    0.18   -78.90
    8100  0.18   -78.60   0.95   -7.40    0.95   -7.40    0.18   -78.60
    8150  0.17   -78.30   0.95   -7.90    0.95   -7.90    0.17   -78.30
    8200  0.16   -76.70   0.95   -8.60    0.95   -8.60    0.16   -76.70
    8250  0.15   -75.10   0.95   -9.20    0.95   -9.20    0.15   -75.10
    8300  0.14   -73.50   0.96   -9.80    0.96   -9.80    0.14   -73.50
    8350  0.14   -71.90   0.96   -10.40   0.96   -10.40   0.14   -71.90
    8400  0.13   -69.40   0.96   -11.10   0.96   -11.10   0.13   -69.40
    8450  0.13   -66.80   0.96   -11.80   0.96   -11.80   0.13   -66.80
    8500  0.12   -63.60   0.96   -12.40   0.96   -12.40   0.12   -63.60
    8550  0.12   -60.50   0.96   -13.00   0.96   -13.00   0.12   -60.50
    8600  0.12   -57.10   0.96   -13.70   0.96   -13.70   0.12   -57.10
    8650  0.12   -53.80   0.96   -14.40   0.96   -14.40   0.12   -53.80
    8700  0.12   -50.70   0.96   -15.00   0.96   -15.00   0.12   -50.70
    8750  0.11   -47.60   0.96   -15.60   0.96   -15.60   0.11   -47.60
    8800  0.11   -44.90   0.96   -16.00   0.96   -16.00   0.11   -44.90
    8850  0.11   -42.20   0.96   -16.30   0.96   -16.30   0.11   -42.20
    8900  0.11   -39.80   0.96   -17.00   0.96   -17.00   0.11   -39.80
    8950  0.11   -37.40   0.96   -17.70   0.96   -17.70   0.11   -37.40
    9000  0.12   -34.90   0.95   -18.30   0.95   -18.30   0.12   -34.90
    9050  0.12   -32.40   0.95   -18.80   0.95   -18.80   0.12   -32.40
    9100  0.12   -29.90   0.95   -19.50   0.95   -19.50   0.12   -29.90
    9150  0.12   -27.30   0.95   -20.10   0.95   -20.10   0.12   -27.30
    9200  0.12   -26.50   0.95   -20.80   0.95   -20.80   0.12   -26.50
    9250  0.13   -25.70   0.95   -21.40   0.95   -21.40   0.13   -25.70
    9300  0.13   -23.20   0.94   -22.00   0.94   -22.00   0.13   -23.20
    9350  0.13   -20.60   0.94   -22.60   0.94   -22.60   0.13   -20.60
    9400  0.14   -23.10   0.93   -23.20   0.93   -23.20   0.14   -23.10
    9450  0.15   -25.50   0.91   -23.70   0.91   -23.70   0.15   -25.50
    9500  0.13   -29.90   0.90   -23.10   0.90   -23.10   0.13   -29.90
    9550  0.12   -34.30   0.88   -22.50   0.88   -22.50   0.12   -34.30
    9600  0.10   -20.70   0.90   -22.20   0.90   -22.20   0.10   -20.70
    9650  0.09   -7.00    0.92   -21.90   0.92   -21.90   0.09   -7.00
    9700  0.10    0.50    0.93   -22.50   0.93   -22.50   0.10    0.50
    9750  0.11    7.90    0.93   -23.10   0.93   -23.10   0.11    7.90
    9800  0.11   12.60    0.94   -23.60   0.94   -23.60   0.11   12.60
    9850  0.12   17.30    0.94   -24.20   0.94   -24.20   0.12   17.30
    9900  0.13   20.80    0.94   -24.80   0.94   -24.80   0.13   20.80
    9950  0.14   24.40    0.94   -25.30   0.94   -25.30   0.14   24.40
   10000  0.14   25.10    0.94   -25.70   0.94   -25.70   0.14   25.10
   10050  0.14   25.90    0.94   -26.20   0.94   -26.20   0.14   25.90
   10100  0.16   29.90    0.94   -26.60   0.94   -26.60   0.16   29.90
   10150  0.17   33.90    0.94   -27.00   0.94   -27.00   0.17   33.90
   10200  0.17   33.30    0.94   -27.50   0.94   -27.50   0.17   33.30
   10250  0.18   32.70    0.94   -28.10   0.94   -28.10   0.18   32.70
   10300  0.19   35.60    0.94   -28.60   0.94   -28.60   0.19   35.60
   10350  0.19   38.50    0.93   -29.00   0.93   -29.00   0.19   38.50
   10400  0.20   37.70    0.94   -29.50   0.94   -29.50   0.20   37.70
   10450  0.21   36.90    0.94   -30.00   0.94   -30.00   0.21   36.90
   10500  0.21   37.20    0.94   -30.60   0.94   -30.60   0.21   37.20
   10550  0.21   37.50    0.94   -31.20   0.94   -31.20   0.21   37.50
   10600  0.22   38.40    0.94   -31.60   0.94   -31.60   0.22   38.40
   10650  0.24   39.20    0.94   -31.90   0.94   -31.90   0.24   39.20
   10700  0.23   38.30    0.94   -32.60   0.94   -32.60   0.23   38.30
   10750  0.23   37.40    0.94   -33.20   0.94   -33.20   0.23   37.40
   10800  0.24   38.60    0.94   -33.40   0.94   -33.40   0.24   38.60
   10850  0.25   39.90    0.94   -33.70   0.94   -33.70   0.25   39.90
   10900  0.25   38.50    0.94   -34.30   0.94   -34.30   0.25   38.50
   10950  0.25   37.10    0.93   -34.90   0.93   -34.90   0.25   37.10
   11000  0.25   38.00    0.93   -35.60   0.93   -35.60   0.25   38.00
   11050  0.25   38.90    0.93   -36.30   0.93   -36.30   0.25   38.90
   11100  0.26   38.00    0.93   -36.60   0.93   -36.60   0.26   38.00
   11150  0.27   37.00    0.93   -37.00   0.93   -37.00   0.27   37.00
   11200  0.27   36.80    0.93   -37.60   0.93   -37.60   0.27   36.80
   11250  0.27   36.60    0.93   -38.30   0.93   -38.30   0.27   36.60
   11300  0.27   36.30    0.93   -38.90   0.93   -38.90   0.27   36.30
   11350  0.28   36.00    0.93   -39.50   0.93   -39.50   0.28   36.00
   11400  0.28   35.90    0.92   -40.00   0.92   -40.00   0.28   35.90
   11450  0.29   35.80    0.92   -40.50   0.92   -40.50   0.29   35.80
   11500  0.30   36.10    0.92   -41.10   0.92   -41.10   0.30   36.10
   11550  0.31   36.40    0.92   -41.70   0.92   -41.70   0.31   36.40
   11600  0.31   36.50    0.92   -42.30   0.92   -42.30   0.31   36.50
   11650  0.31   36.50    0.92   -42.90   0.92   -42.90   0.31   36.50
   11700  0.32   36.60    0.91   -43.50   0.91   -43.50   0.32   36.60
   11750  0.33   36.80    0.91   -44.20   0.91   -44.20   0.33   36.80
   11800  0.34   37.70    0.91   -44.50   0.91   -44.50   0.34   37.70
   11850  0.35   38.70    0.90   -44.90   0.90   -44.90   0.35   38.70
   11900  0.35   39.20    0.90   -45.60   0.90   -45.60   0.35   39.20
   11950  0.35   39.70    0.89   -46.30   0.89   -46.30   0.35   39.70
   12000  0.35   39.20    0.90   -46.80   0.90   -46.80   0.35   39.20
   12050  0.36   38.70    0.90   -47.20   0.90   -47.20   0.36   38.70
   12100  0.37   38.80    0.89   -48.00   0.89   -48.00   0.37   38.80
   12150  0.37   38.90    0.89   -48.90   0.89   -48.90   0.37   38.90
   12200  0.38   38.50    0.88   -49.40   0.88   -49.40   0.38   38.50
   12250  0.38   38.00    0.88   -49.90   0.88   -49.90   0.38   38.00
   12300  0.38   38.90    0.88   -50.40   0.88   -50.40   0.38   38.90
   12350  0.39   39.70    0.87   -50.90   0.87   -50.90   0.39   39.70
   12400  0.40   38.50    0.87   -51.80   0.87   -51.80   0.40   38.50
   12450  0.41   37.20    0.86   -52.70   0.86   -52.70   0.41   37.20
   12500  0.41   37.70    0.86   -53.00   0.86   -53.00   0.41   37.70
   12550  0.42   38.20    0.85   -53.30   0.85   -53.30   0.42   38.20
   12600  0.42   37.80    0.85   -54.00   0.85   -54.00   0.42   37.80
   12650  0.43   37.50    0.84   -54.60   0.84   -54.60   0.43   37.50
   12700  0.44   36.90    0.84   -55.20   0.84   -55.20   0.44   36.90
   12750  0.45   36.30    0.84   -55.70   0.84   -55.70   0.45   36.30
   12800  0.46   36.10    0.83   -56.40   0.83   -56.40   0.46   36.10
   12850  0.46   35.80    0.82   -57.20   0.82   -57.20   0.46   35.80
   12900  0.47   35.30    0.82   -57.90   0.82   -57.90   0.47   35.30
   12950  0.49   34.70    0.82   -58.60   0.82   -58.60   0.49   34.70
   13000  0.49   34.50    0.81   -59.20   0.81   -59.20   0.49   34.50
   13050  0.50   34.20    0.81   -59.90   0.81   -59.90   0.50   34.20
   13100  0.50   33.20    0.80   -60.60   0.80   -60.60   0.50   33.20
   13150  0.51   32.20    0.80   -61.30   0.80   -61.30   0.51   32.20
   13200  0.52   31.70    0.79   -61.80   0.79   -61.80   0.52   31.70
   13250  0.54   31.30    0.78   -62.30   0.78   -62.30   0.54   31.30
   13300  0.53   31.80    0.77   -63.50   0.77   -63.50   0.53   31.80
   13350  0.52   32.20    0.76   -64.60   0.76   -64.60   0.52   32.20
   13400  0.54   30.00    0.76   -65.30   0.76   -65.30   0.54   30.00
   13450  0.56   27.80    0.75   -65.90   0.75   -65.90   0.56   27.80
   13500  0.57   26.30    0.74   -66.60   0.74   -66.60   0.57   26.30
   13550  0.57   24.90    0.73   -67.30   0.73   -67.30   0.57   24.90
   13600  0.58   23.70    0.72   -68.30   0.72   -68.30   0.58   23.70
   13650  0.59   22.50    0.71   -69.20   0.71   -69.20   0.59   22.50
   13700  0.60   21.00    0.71   -69.60   0.71   -69.60   0.60   21.00
   13750  0.61   19.50    0.70   -70.00   0.70   -70.00   0.61   19.50
   13800  0.62   17.50    0.69   -70.60   0.69   -70.60   0.62   17.50
   13850  0.62   15.60    0.68   -71.20   0.68   -71.20   0.62   15.60
   13900  0.63   14.00    0.67   -71.50   0.67   -71.50   0.63   14.00
   13950  0.64   12.50    0.66   -71.70   0.66   -71.70   0.64   12.50
