# MHZ S MA R 50

50	0.73	143.80	0.60	50.60	0.60	50.60	0.73	143.80
100	0.55	129.90	0.75	36.40	0.75	36.40	0.55	129.90
150	0.37	115.90	0.91	22.10	0.91	22.10	0.37	115.90
200	0.30	111.50	0.94	17.40	0.94	17.40	0.30	111.50
250	0.22	107.20	0.97	12.70	0.97	12.70	0.22	107.20
300	0.19	106.10	0.98	10.00	0.98	10.00	0.19	106.10
350	0.15	105.00	0.98	7.20	0.98	7.20	0.15	105.00
400	0.12	103.90	0.99	5.40	0.99	5.40	0.12	103.90
450	0.10	102.90	0.99	3.70	0.99	3.70	0.10	102.90
500	0.08	104.30	0.99	2.10	0.99	2.10	0.08	104.30
550	0.06	105.80	1.00	0.50	1.00	0.50	0.06	105.80
600	0.05	109.80	1.00	-0.60	1.00	-0.60	0.05	109.80
650	0.04	113.80	1.00	-1.60	1.00	-1.60	0.04	113.80
700	0.03	125.20	1.00	-2.70	1.00	-2.70	0.03	125.20
750	0.02	136.50	1.00	-3.70	1.00	-3.70	0.02	136.50
800	0.02	-20.40	1.00	-4.70	1.00	-4.70	0.02	-20.40
850	0.01	-177.30	1.00	-5.60	1.00	-5.60	0.01	-177.30
900	0.02	-159.80	1.00	-6.50	1.00	-6.50	0.02	-159.80
950	0.03	-142.30	1.00	-7.30	1.00	-7.30	0.03	-142.30
1000	0.03	-132.60	1.00	-8.10	1.00	-8.10	0.03	-132.60
1050	0.04	-122.80	1.00	-9.00	1.00	-9.00	0.04	-122.80
1100	0.04	-121.70	1.00	-9.80	1.00	-9.80	0.04	-121.70
1150	0.05	-120.50	1.00	-10.70	1.00	-10.70	0.05	-120.50
1200	0.06	-119.50	1.00	-11.40	1.00	-11.40	0.06	-119.50
1250	0.06	-118.50	1.00	-12.20	1.00	-12.20	0.06	-118.50
1300	0.07	-118.10	1.00	-12.90	1.00	-12.90	0.07	-118.10
1350	0.08	-117.80	0.99	-13.70	0.99	-13.70	0.08	-117.80
1400	0.08	-117.50	0.99	-14.50	0.99	-14.50	0.08	-117.50
1450	0.09	-117.10	0.99	-15.30	0.99	-15.30	0.09	-117.10
1500	0.10	-117.40	0.99	-16.10	0.99	-16.10	0.10	-117.40
1550	0.10	-117.70	0.99	-16.80	0.99	-16.80	0.10	-117.70
1600	0.11	-118.10	0.99	-17.60	0.99	-17.60	0.11	-118.10
1650	0.12	-118.50	0.99	-18.50	0.99	-18.50	0.12	-118.50
1700	0.12	-118.70	0.99	-19.20	0.99	-19.20	0.12	-118.70
1750	0.13	-119.00	0.99	-19.90	0.99	-19.90	0.13	-119.00
1800	0.14	-119.80	0.99	-20.70	0.99	-20.70	0.14	-119.80
1850	0.14	-120.50	0.99	-21.50	0.99	-21.50	0.14	-120.50
1900	0.15	-121.00	0.99	-22.30	0.99	-22.30	0.15	-121.00
1950	0.15	-121.40	0.99	-23.10	0.99	-23.10	0.15	-121.40
2000	0.16	-122.00	0.98	-23.90	0.98	-23.90	0.16	-122.00
2050	0.17	-122.60	0.98	-24.60	0.98	-24.60	0.17	-122.60
2100	0.17	-123.10	0.98	-25.50	0.98	-25.50	0.17	-123.10
2150	0.18	-123.70	0.98	-26.30	0.98	-26.30	0.18	-123.70
2200	0.19	-124.20	0.98	-27.00	0.98	-27.00	0.19	-124.20
2250	0.19	-124.80	0.98	-27.70	0.98	-27.70	0.19	-124.80
2300	0.20	-125.60	0.98	-28.60	0.98	-28.60	0.20	-125.60
2350	0.20	-126.40	0.98	-29.50	0.98	-29.50	0.20	-126.40
2400	0.21	-126.60	0.97	-30.40	0.97	-30.40	0.21	-126.60
2450	0.22	-126.80	0.96	-31.20	0.96	-31.20	0.22	-126.80
2500	0.23	-127.50	0.96	-31.90	0.96	-31.90	0.23	-127.50
2550	0.24	-128.30	0.96	-32.60	0.96	-32.60	0.24	-128.30
2600	0.24	-128.80	0.96	-33.40	0.96	-33.40	0.24	-128.80
2650	0.25	-129.40	0.96	-34.20	0.96	-34.20	0.25	-129.40
2700	0.26	-130.30	0.96	-35.10	0.96	-35.10	0.26	-130.30
2750	0.27	-131.30	0.95	-36.00	0.95	-36.00	0.27	-131.30
2800	0.27	-131.90	0.95	-36.90	0.95	-36.90	0.27	-131.90
2850	0.28	-132.50	0.95	-37.70	0.95	-37.70	0.28	-132.50
2900	0.29	-133.30	0.95	-38.70	0.95	-38.70	0.29	-133.30
2950	0.30	-134.10	0.94	-39.70	0.94	-39.70	0.30	-134.10
3000	0.31	-134.80	0.94	-40.50	0.94	-40.50	0.31	-134.80
3050	0.31	-135.60	0.94	-41.30	0.94	-41.30	0.31	-135.60
3100	0.32	-136.40	0.94	-42.30	0.94	-42.30	0.32	-136.40
3150	0.34	-137.30	0.94	-43.20	0.94	-43.20	0.34	-137.30
3200	0.35	-138.20	0.93	-44.30	0.93	-44.30	0.35	-138.20
3250	0.35	-139.20	0.92	-45.40	0.92	-45.40	0.35	-139.20
3300	0.37	-140.00	0.92	-46.50	0.92	-46.50	0.37	-140.00
3350	0.38	-140.80	0.91	-47.60	0.91	-47.60	0.38	-140.80
3400	0.39	-142.00	0.90	-48.80	0.90	-48.80	0.39	-142.00
3450	0.41	-143.20	0.90	-50.10	0.90	-50.10	0.41	-143.20
3500	0.42	-144.70	0.89	-51.50	0.89	-51.50	0.42	-144.70
3550	0.43	-146.20	0.88	-53.00	0.88	-53.00	0.43	-146.20
3600	0.46	-147.60	0.86	-54.50	0.86	-54.50	0.46	-147.60
3650	0.48	-149.10	0.85	-56.10	0.85	-56.10	0.48	-149.10
3700	0.50	-152.30	0.82	-58.30	0.82	-58.30	0.50	-152.30
3750	0.53	-155.50	0.79	-60.50	0.79	-60.50	0.53	-155.50
3800	0.56	-160.40	0.74	-63.00	0.74	-63.00	0.56	-160.40
3850	0.60	-165.20	0.68	-65.40	0.68	-65.40	0.60	-165.20
3900	0.63	4.10	0.56	-61.90	0.56	-61.90	0.63	4.10
3950	0.65	173.40	0.45	-58.30	0.45	-58.30	0.65	173.40
4000	0.55	158.10	0.52	-39.90	0.52	-39.90	0.55	158.10
4050	0.46	142.90	0.60	-21.40	0.60	-21.40	0.46	142.90
4100	0.33	145.60	0.73	-26.20	0.73	-26.20	0.33	145.60
4150	0.20	148.30	0.86	-31.00	0.86	-31.00	0.20	148.30
4200	0.19	-12.70	0.89	-35.50	0.89	-35.50	0.19	-12.70
4250	0.17	-173.70	0.92	-40.10	0.92	-40.10	0.17	-173.70
4300	0.20	-166.40	0.93	-42.80	0.93	-42.80	0.20	-166.40
4350	0.23	-159.20	0.93	-45.50	0.93	-45.50	0.23	-159.20
4400	0.25	-157.30	0.93	-47.80	0.93	-47.80	0.25	-157.30
4450	0.27	-155.30	0.93	-50.00	0.93	-50.00	0.27	-155.30
4500	0.29	-155.30	0.93	-51.70	0.93	-51.70	0.29	-155.30
4550	0.31	-155.40	0.93	-53.30	0.93	-53.30	0.31	-155.40
4600	0.32	-155.80	0.92	-54.80	0.92	-54.80	0.32	-155.80
4650	0.34	-156.30	0.92	-56.40	0.92	-56.40	0.34	-156.30
4700	0.35	-156.80	0.92	-57.50	0.92	-57.50	0.35	-156.80
4750	0.36	-157.40	0.91	-58.70	0.91	-58.70	0.36	-157.40
4800	0.37	-158.30	0.91	-59.80	0.91	-59.80	0.37	-158.30
4850	0.38	-159.20	0.90	-61.00	0.90	-61.00	0.38	-159.20
4900	0.40	-160.00	0.90	-62.20	0.90	-62.20	0.40	-160.00
4950	0.41	-160.80	0.89	-63.50	0.89	-63.50	0.41	-160.80
5000	0.42	-161.70	0.89	-64.30	0.89	-64.30	0.42	-161.70
5050	0.43	-162.60	0.88	-65.00	0.88	-65.00	0.43	-162.60
5100	0.44	-163.40	0.88	-66.20	0.88	-66.20	0.44	-163.40
5150	0.45	-164.10	0.87	-67.30	0.87	-67.30	0.45	-164.10
5200	0.46	-164.90	0.87	-68.70	0.87	-68.70	0.46	-164.90
5250	0.47	-165.70	0.88	-70.00	0.88	-70.00	0.47	-165.70
5300	0.48	-166.80	0.86	-71.00	0.86	-71.00	0.48	-166.80
5350	0.49	-168.00	0.85	-72.00	0.85	-72.00	0.49	-168.00
5400	0.50	-168.70	0.84	-72.90	0.84	-72.90	0.50	-168.70
5450	0.51	-169.40	0.84	-73.80	0.84	-73.80	0.51	-169.40
5500	0.52	-170.30	0.83	-75.00	0.83	-75.00	0.52	-170.30
5550	0.53	-171.20	0.82	-76.30	0.82	-76.30	0.53	-171.20
5600	0.54	-172.30	0.81	-77.20	0.81	-77.20	0.54	-172.30
5650	0.55	-173.30	0.80	-78.20	0.80	-78.20	0.55	-173.30
5700	0.56	-174.40	0.80	-79.40	0.80	-79.40	0.56	-174.40
5750	0.58	-175.60	0.79	-80.60	0.79	-80.60	0.58	-175.60
5800	0.59	-176.50	0.78	-81.70	0.78	-81.70	0.59	-176.50
5850	0.60	-177.50	0.77	-82.80	0.77	-82.80	0.60	-177.50
5900	0.61	1.20	0.76	-83.90	0.76	-83.90	0.61	1.20
5950	0.62	180.00	0.75	-85.00	0.75	-85.00	0.62	180.00
6000	0.64	178.60	0.73	-86.30	0.73	-86.30	0.64	178.60
6050	0.67	177.20	0.71	-87.60	0.71	-87.60	0.67	177.20
6100	0.67	175.80	0.70	-89.00	0.70	-89.00	0.67	175.80
6150	0.68	174.50	0.69	-90.30	0.69	-90.30	0.68	174.50
6200	0.70	173.00	0.67	-91.60	0.67	-91.60	0.70	173.00
6250	0.71	171.60	0.65	-92.80	0.65	-92.80	0.71	171.60
6300	0.72	169.90	0.63	-94.00	0.63	-94.00	0.72	169.90
6350	0.74	168.30	0.61	-95.30	0.61	-95.30	0.74	168.30
6400	0.75	166.60	0.59	-96.70	0.59	-96.70	0.75	166.60
6450	0.76	165.00	0.56	-98.10	0.56	-98.10	0.76	165.00
6500	0.77	162.60	0.54	-99.40	0.54	-99.40	0.77	162.60
6550	0.79	160.20	0.50	-100.80	0.50	-100.80	0.79	160.20
6600	0.80	158.00	0.47	-101.60	0.47	-101.60	0.80	158.00
6650	0.82	155.80	0.44	-102.30	0.44	-102.30	0.82	155.80
6700	0.83	152.40	0.39	-101.90	0.39	-101.90	0.83	152.40
6750	0.84	149.00	0.35	-101.50	0.35	-101.50	0.84	149.00
6800	0.84	144.70	0.29	-95.40	0.29	-95.40	0.84	144.70
6850	0.83	140.50	0.24	-89.30	0.24	-89.30	0.83	140.50
6900	0.82	135.40	0.23	-70.60	0.23	-70.60	0.82	135.40
6950	0.80	130.30	0.23	-51.80	0.23	-51.80	0.80	130.30
7000	0.75	124.40	0.30	-41.90	0.30	-41.90	0.75	124.40
7050	0.70	118.60	0.38	-32.10	0.38	-32.10	0.70	118.60
7100	0.62	114.20	0.48	-34.20	0.48	-34.20	0.62	114.20
7150	0.54	109.80	0.58	-36.30	0.58	-36.30	0.54	109.80
7200	0.46	109.60	0.65	-41.80	0.65	-41.80	0.46	109.60
7250	0.38	109.40	0.73	-47.40	0.73	-47.40	0.38	109.40
7300	0.33	116.80	0.76	-52.60	0.76	-52.60	0.33	116.80
7350	0.29	124.10	0.80	-57.80	0.80	-57.80	0.29	124.10
7400	0.28	133.80	0.82	-62.50	0.82	-62.50	0.28	133.80
7450	0.28	143.50	0.84	-67.20	0.84	-67.20	0.28	143.50
7500	0.31	149.30	0.84	-71.10	0.84	-71.10	0.31	149.30
7550	0.33	155.00	0.84	-74.90	0.84	-74.90	0.33	155.00
7600	0.36	156.70	0.83	-78.10	0.83	-78.10	0.36	156.70
7650	0.40	158.40	0.82	-81.30	0.82	-81.30	0.40	158.40
7700	0.42	158.20	0.82	-84.00	0.82	-84.00	0.42	158.20
7750	0.45	158.00	0.81	-86.80	0.81	-86.80	0.45	158.00
7800	0.48	157.10	0.79	-89.60	0.79	-89.60	0.48	157.10
7850	0.51	156.20	0.78	-92.30	0.78	-92.30	0.51	156.20
7900	0.53	154.30	0.76	-94.70	0.76	-94.70	0.53	154.30
7950	0.56	152.40	0.75	-97.10	0.75	-97.10	0.56	152.40
8000	0.58	150.90	0.73	-99.50	0.73	-99.50	0.58	150.90
8050	0.61	149.40	0.71	-101.80	0.71	-101.80	0.61	149.40
8100	0.63	146.90	0.69	-104.20	0.69	-104.20	0.63	146.90
8150	0.65	144.30	0.67	-106.50	0.67	-106.50	0.65	144.30
8200	0.67	142.50	0.65	-108.70	0.65	-108.70	0.67	142.50
8250	0.69	140.70	0.62	-110.80	0.62	-110.80	0.69	140.70
8300	0.71	137.70	0.59	-113.20	0.59	-113.20	0.71	137.70
8350	0.73	134.70	0.57	-115.50	0.57	-115.50	0.73	134.70
8400	0.75	132.60	0.54	-117.40	0.54	-117.40	0.75	132.60
8450	0.77	130.60	0.50	-119.20	0.50	-119.20	0.77	130.60
8500	0.78	127.50	0.47	-121.20	0.47	-121.20	0.78	127.50
8550	0.79	124.40	0.44	-123.10	0.44	-123.10	0.79	124.40
8600	0.81	122.00	0.40	-124.00	0.40	-124.00	0.81	122.00
8650	0.82	119.50	0.37	-124.80	0.37	-124.80	0.82	119.50
8700	0.83	117.00	0.33	-124.60	0.33	-124.60	0.83	117.00
8750	0.84	114.40	0.29	-124.40	0.29	-124.40	0.84	114.40
8800	0.85	111.50	0.26	-121.40	0.26	-121.40	0.85	111.50
8850	0.86	108.50	0.23	-118.40	0.23	-118.40	0.86	108.50
8900	0.85	106.70	0.21	-113.30	0.21	-113.30	0.85	106.70
8950	0.85	104.90	0.18	-108.30	0.18	-108.30	0.85	104.90
9000	0.86	102.90	0.17	-98.80	0.17	-98.80	0.86	102.90
9050	0.87	100.90	0.15	-89.40	0.15	-89.40	0.87	100.90
9100	0.88	98.10	0.15	-75.90	0.15	-75.90	0.88	98.10
9150	0.88	95.30	0.15	-62.50	0.15	-62.50	0.88	95.30
9200	0.87	92.20	0.18	-54.30	0.18	-54.30	0.87	92.20
9250	0.86	89.10	0.20	-46.20	0.20	-46.20	0.86	89.10
9300	0.85	88.00	0.23	-42.60	0.23	-42.60	0.85	88.00
9350	0.83	86.90	0.26	-39.00	0.26	-39.00	0.83	86.90
9400	0.82	84.40	0.30	-38.60	0.30	-38.60	0.82	84.40
9450	0.80	81.80	0.33	-38.30	0.33	-38.30	0.80	81.80
9500	0.78	80.30	0.36	-38.70	0.36	-38.70	0.78	80.30
9550	0.75	78.80	0.39	-39.20	0.39	-39.20	0.75	78.80
9600	0.74	77.00	0.42	-40.50	0.42	-40.50	0.74	77.00
9650	0.73	75.10	0.45	-41.80	0.45	-41.80	0.73	75.10
9700	0.70	73.80	0.48	-43.00	0.48	-43.00	0.70	73.80
9750	0.68	72.50	0.50	-44.20	0.50	-44.20	0.68	72.50
9800	0.66	71.10	0.53	-45.60	0.53	-45.60	0.66	71.10
9850	0.64	69.70	0.56	-47.10	0.56	-47.10	0.64	69.70
9900	0.62	68.30	0.59	-49.10	0.59	-49.10	0.62	68.30
9950	0.60	66.80	0.62	-51.10	0.62	-51.10	0.60	66.80
10000	0.57	64.90	0.64	-52.70	0.64	-52.70	0.57	64.90
10050	0.55	62.90	0.66	-54.30	0.66	-54.30	0.55	62.90
10100	0.51	61.40	0.69	-56.80	0.69	-56.80	0.51	61.40
10150	0.47	60.00	0.72	-59.40	0.72	-59.40	0.47	60.00
10200	0.44	59.30	0.74	-61.80	0.74	-61.80	0.44	59.30
10250	0.41	58.70	0.76	-64.30	0.76	-64.30	0.41	58.70
10300	0.37	58.30	0.78	-67.50	0.78	-67.50	0.37	58.30
10350	0.33	58.00	0.80	-70.70	0.80	-70.70	0.33	58.00
10400	0.28	62.90	0.81	-73.80	0.81	-73.80	0.28	62.90
10450	0.24	67.70	0.82	-77.00	0.82	-77.00	0.24	67.70
10500	0.22	76.70	0.82	-80.60	0.82	-80.60	0.22	76.70
10550	0.20	85.70	0.82	-84.20	0.82	-84.20	0.20	85.70
10600	0.22	100.20	0.81	-87.90	0.81	-87.90	0.22	100.20
10650	0.23	114.70	0.80	-91.50	0.80	-91.50	0.23	114.70
10700	0.27	118.90	0.78	-95.60	0.78	-95.60	0.27	118.90
10750	0.31	123.10	0.75	-99.80	0.75	-99.80	0.31	123.10
10800	0.37	123.80	0.72	-103.50	0.72	-103.50	0.37	123.80
10850	0.43	124.40	0.68	-107.10	0.68	-107.10	0.43	124.40
10900	0.48	121.00	0.62	-110.20	0.62	-110.20	0.48	121.00
10950	0.54	117.50	0.57	-113.30	0.57	-113.30	0.54	117.50
11000	0.59	113.60	0.51	-114.90	0.51	-114.90	0.59	113.60
11050	0.63	109.70	0.46	-116.50	0.46	-116.50	0.63	109.70
11100	0.67	104.60	0.39	-113.60	0.39	-113.60	0.67	104.60
11150	0.71	99.60	0.33	-110.70	0.33	-110.70	0.71	99.60
11200	0.73	94.50	0.30	-101.10	0.30	-101.10	0.73	94.50
11250	0.75	89.30	0.27	-91.60	0.27	-91.60	0.75	89.30
11300	0.75	84.90	0.28	-80.70	0.28	-80.70	0.75	84.90
11350	0.75	80.40	0.30	-69.80	0.30	-69.80	0.75	80.40
11400	0.74	76.10	0.34	-65.20	0.34	-65.20	0.74	76.10
11450	0.73	71.70	0.37	-60.60	0.37	-60.60	0.73	71.70
11500	0.72	67.80	0.42	-59.60	0.42	-59.60	0.72	67.80
11550	0.70	63.90	0.47	-58.50	0.47	-58.50	0.70	63.90
11600	0.68	61.10	0.51	-59.50	0.51	-59.50	0.68	61.10
11650	0.66	58.40	0.54	-60.60	0.54	-60.60	0.66	58.40
11700	0.63	55.90	0.58	-62.50	0.58	-62.50	0.63	55.90
11750	0.59	53.40	0.61	-64.40	0.61	-64.40	0.59	53.40
11800	0.57	52.00	0.64	-66.50	0.64	-66.50	0.57	52.00
11850	0.54	50.50	0.67	-68.70	0.67	-68.70	0.54	50.50
11900	0.51	50.50	0.68	-71.70	0.68	-71.70	0.51	50.50
11950	0.47	50.50	0.69	-74.70	0.69	-74.70	0.47	50.50
12000	0.47	53.70	0.68	-76.40	0.68	-76.40	0.47	53.70
12050	0.47	56.80	0.67	-78.00	0.67	-78.00	0.47	56.80
12100	0.48	56.00	0.66	-77.60	0.66	-77.60	0.48	56.00
12150	0.49	55.20	0.65	-77.20	0.65	-77.20	0.49	55.20
12200	0.50	52.70	0.67	-76.20	0.67	-76.20	0.50	52.70
12250	0.51	50.10	0.69	-75.20	0.69	-75.20	0.51	50.10
12300	0.49	47.20	0.72	-75.70	0.72	-75.70	0.49	47.20
12350	0.48	44.30	0.75	-76.20	0.75	-76.20	0.48	44.30
12400	0.46	41.80	0.77	-77.60	0.77	-77.60	0.46	41.80
12450	0.44	39.20	0.79	-78.90	0.79	-78.90	0.44	39.20
12500	0.42	37.80	0.81	-80.60	0.81	-80.60	0.42	37.80
12550	0.41	36.40	0.82	-82.20	0.82	-82.20	0.41	36.40
12600	0.39	34.60	0.83	-83.70	0.83	-83.70	0.39	34.60
12650	0.37	32.80	0.84	-85.20	0.84	-85.20	0.37	32.80
12700	0.35	31.40	0.85	-86.60	0.85	-86.60	0.35	31.40
12750	0.34	29.90	0.86	-87.90	0.86	-87.90	0.34	29.90
12800	0.32	29.20	0.87	-89.20	0.87	-89.20	0.32	29.20
12850	0.31	28.60	0.87	-90.40	0.87	-90.40	0.31	28.60
12900	0.29	28.20	0.88	-91.90	0.88	-91.90	0.29	28.20
12950	0.28	27.90	0.89	-93.40	0.89	-93.40	0.28	27.90
13000	0.26	26.20	0.89	-94.50	0.89	-94.50	0.26	26.20
13050	0.25	24.60	0.90	-95.60	0.90	-95.60	0.25	24.60
13100	0.24	25.40	0.90	-96.90	0.90	-96.90	0.24	25.40
13150	0.23	26.20	0.91	-98.30	0.91	-98.30	0.23	26.20
13200	0.22	25.30	0.91	-99.60	0.91	-99.60	0.22	25.30
13250	0.22	24.50	0.91	-100.80	0.91	-100.80	0.22	24.50
13300	0.20	25.40	0.92	-102.20	0.92	-102.20	0.20	25.40
13350	0.19	26.20	0.92	-103.60	0.92	-103.60	0.19	26.20
13400	0.19	25.30	0.92	-104.90	0.92	-104.90	0.19	25.30
13450	0.19	24.40	0.93	-106.30	0.93	-106.30	0.19	24.40
13500	0.17	25.50	0.93	-107.60	0.93	-107.60	0.17	25.50
13550	0.16	26.70	0.92	-108.80	0.92	-108.80	0.16	26.70
13600	0.16	27.30	0.93	-110.30	0.93	-110.30	0.16	27.30
13650	0.16	28.00	0.93	-111.80	0.93	-111.80	0.16	28.00
13700	0.15	31.00	0.92	-113.10	0.92	-113.10	0.15	31.00
13750	0.14	34.00	0.92	-114.40	0.92	-114.40	0.14	34.00
13800	0.14	36.20	0.92	-116.20	0.92	-116.20	0.14	36.20
13850	0.15	38.30	0.91	-117.90	0.91	-117.90	0.15	38.30
13900	0.15	43.30	0.90	-119.60	0.90	-119.60	0.15	43.30
13950	0.15	48.40	0.89	-121.40	0.89	-121.40	0.15	48.40
14000	0.17	53.40	0.86	-123.10	0.86	-123.10	0.17	53.40
14050	0.19	58.50	0.84	-124.90	0.84	-124.90	0.19	58.50
14100	0.22	57.70	0.81	-126.30	0.81	-126.30	0.22	57.70
14150	0.25	56.90	0.78	-127.80	0.78	-127.80	0.25	56.90
14200	0.29	53.00	0.73	-127.60	0.73	-127.60	0.29	53.00
14250	0.34	49.10	0.69	-127.40	0.69	-127.40	0.34	49.10
14300	0.37	40.80	0.66	-124.20	0.66	-124.20	0.37	40.80
14350	0.40	32.40	0.63	-121.00	0.63	-121.00	0.40	32.40
14400	0.41	25.00	0.64	-117.40	0.64	-117.40	0.41	25.00
14450	0.41	17.60	0.66	-113.80	0.66	-113.80	0.41	17.60
14500	0.41	11.50	0.69	-113.50	0.69	-113.50	0.41	11.50
14550	0.40	5.40	0.72	-113.10	0.72	-113.10	0.40	5.40
14600	0.38	2.00	0.75	-114.00	0.75	-114.00	0.38	2.00
14650	0.36	-1.40	0.77	-114.80	0.77	-114.80	0.36	-1.40
14700	0.34	-1.30	0.78	-116.30	0.78	-116.30	0.34	-1.30
14750	0.33	-1.20	0.78	-117.80	0.78	-117.80	0.33	-1.20
14800	0.33	0.60	0.77	-118.70	0.77	-118.70	0.33	0.60
14850	0.33	2.40	0.76	-119.60	0.76	-119.60	0.33	2.40
14900	0.35	1.80	0.75	-118.40	0.75	-118.40	0.35	1.80
14950	0.38	1.30	0.75	-117.10	0.75	-117.10	0.38	1.30
15000	0.38	-3.10	0.76	-116.40	0.76	-116.40	0.38	-3.10
15050	0.38	-7.50	0.78	-115.70	0.78	-115.70	0.38	-7.50
15100	0.38	-9.50	0.80	-116.20	0.80	-116.20	0.38	-9.50
15150	0.37	-11.50	0.83	-116.70	0.83	-116.70	0.37	-11.50
15200	0.35	-13.90	0.84	-117.70	0.84	-117.70	0.35	-13.90
15250	0.34	-16.30	0.86	-118.80	0.86	-118.80	0.34	-16.30
15300	0.33	-15.70	0.86	-120.10	0.86	-120.10	0.33	-15.70
15350	0.32	-15.10	0.87	-121.40	0.87	-121.40	0.32	-15.10
15400	0.31	-15.30	0.88	-122.10	0.88	-122.10	0.31	-15.30
15450	0.29	-15.60	0.88	-122.80	0.88	-122.80	0.29	-15.60
15500	0.28	-13.80	0.89	-123.90	0.89	-123.90	0.28	-13.80
15550	0.27	-12.00	0.89	-125.00	0.89	-125.00	0.27	-12.00
15600	0.26	-12.00	0.89	-125.50	0.89	-125.50	0.26	-12.00
15650	0.26	-11.90	0.90	-125.90	0.90	-125.90	0.26	-11.90
15700	0.25	-11.40	0.90	-126.60	0.90	-126.60	0.25	-11.40
15750	0.24	-10.90	0.90	-127.20	0.90	-127.20	0.24	-10.90
15800	0.23	-10.10	0.91	-128.10	0.91	-128.10	0.23	-10.10
15850	0.22	-9.20	0.92	-129.00	0.92	-129.00	0.22	-9.20
15900	0.20	-8.00	0.92	-129.60	0.92	-129.60	0.20	-8.00
15950	0.19	-6.80	0.93	-130.30	0.93	-130.30	0.19	-6.80
16000	0.17	-4.80	0.93	-131.20	0.93	-131.20	0.17	-4.80
16050	0.16	-2.80	0.94	-132.00	0.94	-132.00	0.16	-2.80
16100	0.14	2.10	0.94	-133.00	0.94	-133.00	0.14	2.10
16150	0.13	7.00	0.94	-133.90	0.94	-133.90	0.13	7.00
16200	0.12	12.50	0.94	-134.90	0.94	-134.90	0.12	12.50
16250	0.11	17.90	0.94	-135.90	0.94	-135.90	0.11	17.90
16300	0.11	25.20	0.93	-136.60	0.93	-136.60	0.11	25.20
16350	0.11	32.50	0.93	-137.30	0.93	-137.30	0.11	32.50
16400	0.11	40.20	0.93	-138.00	0.93	-138.00	0.11	40.20
16450	0.12	47.90	0.93	-138.70	0.93	-138.70	0.12	47.90
16500	0.11	49.60	0.93	-139.10	0.93	-139.10	0.11	49.60
16550	0.11	51.40	0.93	-139.50	0.93	-139.50	0.11	51.40
16600	0.12	61.30	0.93	-140.60	0.93	-140.60	0.12	61.30
16650	0.12	71.30	0.94	-141.70	0.94	-141.70	0.12	71.30
16700	0.13	76.10	0.93	-142.70	0.93	-142.70	0.13	76.10
16750	0.13	80.80	0.93	-143.70	0.93	-143.70	0.13	80.80
16800	0.14	82.50	0.92	-144.70	0.92	-144.70	0.14	82.50
16850	0.16	84.20	0.92	-145.60	0.92	-145.60	0.16	84.20
16900	0.17	81.50	0.90	-146.10	0.90	-146.10	0.17	81.50
16950	0.19	78.70	0.89	-146.50	0.89	-146.50	0.19	78.70
17000	0.18	76.40	0.88	-146.20	0.88	-146.20	0.18	76.40
17050	0.18	74.10	0.88	-146.00	0.88	-146.00	0.18	74.10
17100	0.17	74.90	0.89	-146.20	0.89	-146.20	0.17	74.90
17150	0.16	75.70	0.90	-146.40	0.90	-146.40	0.16	75.70
17200	0.16	80.60	0.91	-147.30	0.91	-147.30	0.16	80.60
17250	0.16	85.60	0.92	-148.20	0.92	-148.20	0.16	85.60
17300	0.16	87.00	0.92	-149.50	0.92	-149.50	0.16	87.00
17350	0.17	88.40	0.92	-150.80	0.92	-150.80	0.17	88.40
17400	0.18	90.00	0.92	-151.80	0.92	-151.80	0.18	90.00
17450	0.19	91.70	0.91	-152.80	0.91	-152.80	0.19	91.70
17500	0.20	89.70	0.90	-153.80	0.90	-153.80	0.20	89.70
17550	0.22	87.80	0.90	-154.80	0.90	-154.80	0.22	87.80
17600	0.22	85.60	0.88	-155.70	0.88	-155.70	0.22	85.60
17650	0.22	83.40	0.87	-156.60	0.87	-156.60	0.22	83.40
17700	0.24	77.80	0.85	-156.60	0.85	-156.60	0.24	77.80
17750	0.25	72.10	0.83	-156.50	0.83	-156.50	0.25	72.10
17800	0.24	64.30	0.81	-155.50	0.81	-155.50	0.24	64.30
17850	0.22	56.50	0.80	-154.50	0.80	-154.50	0.22	56.50
17900	0.19	50.30	0.81	-153.00	0.81	-153.00	0.19	50.30
17950	0.17	44.20	0.82	-151.60	0.82	-151.60	0.17	44.20
18000	0.14	35.50	0.85	-151.30	0.85	-151.30	0.14	35.50
18050	0.12	26.80	0.87	-151.00	0.87	-151.00	0.12	26.80
18100	0.09	32.10	0.89	-151.70	0.89	-151.70	0.09	32.10
18150	0.07	37.40	0.91	-152.40	0.91	-152.40	0.07	37.40
18200	0.06	39.00	0.92	-153.40	0.92	-153.40	0.06	39.00
18250	0.05	40.60	0.94	-154.40	0.94	-154.40	0.05	40.60
18300	0.04	54.50	0.94	-155.60	0.94	-155.60	0.04	54.50
18350	0.03	68.30	0.95	-156.80	0.95	-156.80	0.03	68.30
18400	0.03	53.90	0.96	-157.60	0.96	-157.60	0.03	53.90
18450	0.03	39.50	0.96	-158.40	0.96	-158.40	0.03	39.50
18500	0.02	36.70	0.96	-159.40	0.96	-159.40	0.02	36.70
18550	0.01	33.90	0.96	-160.30	0.96	-160.30	0.01	33.90
18600	0.02	27.70	0.97	-161.20	0.97	-161.20	0.02	27.70
18650	0.02	21.50	0.97	-162.10	0.97	-162.10	0.02	21.50
