#	mhz	s	ma	r	50
50	0.39033	108.8741	0.88477	19.42491	0.88477	19.42491	0.39033	108.8741
70	0.3391	102.41118	0.90404	14.50052	0.90404	14.50052	0.3391	102.41118
90	0.28787	95.94826	0.9233	9.57614	0.9233	9.57614	0.28787	95.94826
110	0.23664	89.48535	0.94256	4.65176	0.94256	4.65176	0.23664	89.48535
130	0.18541	83.02243	0.96182	-0.27263	0.96182	-0.27263	0.18541	83.02243
150	0.13418	76.55951	0.98108	-5.19701	0.98108	-5.19701	0.13418	76.55951
170	0.1181	72.25127	0.9824	-7.73857	0.9824	-7.73857	0.1181	72.25127
190	0.10201	67.94303	0.98372	-10.28012	0.98372	-10.28012	0.10201	67.94303
210	0.08592	63.63479	0.98504	-12.82167	0.98504	-12.82167	0.08592	63.63479
230	0.06983	59.32655	0.98636	-15.36323	0.98636	-15.36323	0.06983	59.32655
250	0.05374	55.01831	0.98768	-17.90478	0.98768	-17.90478	0.05374	55.01831
270	0.04638	44.65877	0.98941	-20.0039	0.98941	-20.0039	0.04638	44.65877
290	0.03902	34.29923	0.99114	-22.10302	0.99114	-22.10302	0.03902	34.29923
310	0.03166	23.9397	0.99286	-24.20213	0.99286	-24.20213	0.03166	23.9397
330	0.0243	13.58016	0.99459	-26.30125	0.99459	-26.30125	0.0243	13.58016
350	0.01694	3.22062	0.99631	-28.40036	0.99631	-28.40036	0.01694	3.22062
370	0.01774	-16.59087	0.99591	-30.50334	0.99591	-30.50334	0.01774	-16.59087
390	0.01854	-36.40236	0.9955	-32.60631	0.9955	-32.60631	0.01854	-36.40236
410	0.01934	-56.21385	0.99509	-34.70928	0.99509	-34.70928	0.01934	-56.21385
430	0.02013	-76.02534	0.99468	-36.81226	0.99468	-36.81226	0.02013	-76.02534
450	0.02093	-95.83684	0.99427	-38.91523	0.99427	-38.91523	0.02093	-95.83684
470	0.02384	-107.69043	0.99377	-40.89321	0.99377	-40.89321	0.02384	-107.69043
490	0.02675	-119.54403	0.99327	-42.87119	0.99327	-42.87119	0.02675	-119.54403
510	0.02966	-131.39762	0.99277	-44.84916	0.99277	-44.84916	0.02966	-131.39762
530	0.03257	-143.25122	0.99227	-46.82714	0.99227	-46.82714	0.03257	-143.25122
550	0.03548	-155.10481	0.99176	-48.80512	0.99176	-48.80512	0.03548	-155.10481
570	0.04277	-156.82549	0.99146	-50.74293	0.99146	-50.74293	0.04277	-156.82549
590	0.05006	-158.54616	0.99116	-52.68074	0.99116	-52.68074	0.05006	-158.54616
610	0.05735	-160.26684	0.99085	-54.61856	0.99085	-54.61856	0.05735	-160.26684
630	0.06464	-161.98752	0.99055	-56.55637	0.99055	-56.55637	0.06464	-161.98752
650	0.07193	-163.7082	0.99024	-58.49418	0.99024	-58.49418	0.07193	-163.7082
670	0.07373	-166.73371	0.9907	-60.42819	0.9907	-60.42819	0.07373	-166.73371
690	0.07553	-169.75922	0.99116	-62.3622	0.99116	-62.3622	0.07553	-169.75922
710	0.07733	-172.78474	0.99162	-64.29622	0.99162	-64.29622	0.07733	-172.78474
730	0.07912	-175.81025	0.99208	-66.23023	0.99208	-66.23023	0.07912	-175.81025
750	0.08092	-178.83577	0.99254	-68.16424	0.99254	-68.16424	0.08092	-178.83577
770	0.08696	-109.54451	0.99148	-70.04438	0.99148	-70.04438	0.08696	-109.54451
790	0.09301	-40.25326	0.99042	-71.92452	0.99042	-71.92452	0.09301	-40.25326
810	0.09905	29.038	0.98936	-73.80466	0.98936	-73.80466	0.09905	29.038
830	0.10509	98.32925	0.9883	-75.6848	0.9883	-75.6848	0.10509	98.32925
850	0.11114	167.62051	0.98724	-77.56494	0.98724	-77.56494	0.11114	167.62051
870	0.11246	165.00321	0.98671	-79.47277	0.98671	-79.47277	0.11246	165.00321
890	0.11379	162.38591	0.98618	-81.38059	0.98618	-81.38059	0.11379	162.38591
910	0.11511	159.76862	0.98565	-83.28842	0.98565	-83.28842	0.11511	159.76862
930	0.11643	157.15132	0.98512	-85.19625	0.98512	-85.19625	0.11643	157.15132
950	0.11776	154.53402	0.98459	-87.10407	0.98459	-87.10407	0.11776	154.53402
970	0.12286	151.54283	0.98376	-88.87315	0.98376	-88.87315	0.12286	151.54283
990	0.12797	148.55163	0.98293	-90.64222	0.98293	-90.64222	0.12797	148.55163
1010	0.13308	145.56044	0.9821	-92.4113	0.9821	-92.4113	0.13308	145.56044
1030	0.13818	142.56924	0.98127	-94.18037	0.98127	-94.18037	0.13818	142.56924
1050	0.14329	139.57805	0.98044	-95.94945	0.98044	-95.94945	0.14329	139.57805
1070	0.14597	136.97014	0.97963	-97.88026	0.97963	-97.88026	0.14597	136.97014
1090	0.14865	134.36222	0.97883	-99.81106	0.97883	-99.81106	0.14865	134.36222
1110	0.15133	131.75431	0.97802	-101.74187	0.97802	-101.74187	0.15133	131.75431
1130	0.15402	129.1464	0.97722	-103.67267	0.97722	-103.67267	0.15402	129.1464
1150	0.1567	126.53849	0.97641	-105.60348	0.97641	-105.60348	0.1567	126.53849
1170	0.16197	124.16957	0.97485	-107.56844	0.97485	-107.56844	0.16197	124.16957
1190	0.16725	121.80066	0.97328	-109.53339	0.97328	-109.53339	0.16725	121.80066
1210	0.17253	119.43175	0.97172	-111.49835	0.97172	-111.49835	0.17253	119.43175
1230	0.1778	117.06284	0.97015	-113.46331	0.97015	-113.46331	0.1778	117.06284
1250	0.18308	114.69393	0.96859	-115.42826	0.96859	-115.42826	0.18308	114.69393
1270	0.18488	112.24116	0.9677	-117.31201	0.9677	-117.31201	0.18488	112.24116
1290	0.18669	109.78839	0.96681	-119.19576	0.96681	-119.19576	0.18669	109.78839
1310	0.1885	107.33562	0.96593	-121.07951	0.96593	-121.07951	0.1885	107.33562
1330	0.1903	104.88285	0.96504	-122.96326	0.96504	-122.96326	0.1903	104.88285
1350	0.19211	102.43009	0.96415	-124.84701	0.96415	-124.84701	0.19211	102.43009
1370	0.19712	99.4342	0.96319	-126.74718	0.96319	-126.74718	0.19712	99.4342
1390	0.20213	96.43831	0.96223	-128.64735	0.96223	-128.64735	0.20213	96.43831
1410	0.20713	93.44242	0.96127	-130.54752	0.96127	-130.54752	0.20713	93.44242
1430	0.21214	90.44653	0.9603	-132.44769	0.9603	-132.44769	0.21214	90.44653
1450	0.21715	87.45064	0.95934	-134.34786	0.95934	-134.34786	0.21715	87.45064
1470	0.21979	84.90376	0.95806	-136.26358	0.95806	-136.26358	0.21979	84.90376
1490	0.22242	82.35688	0.95677	-138.17931	0.95677	-138.17931	0.22242	82.35688
1510	0.22506	79.81001	0.95548	-140.09504	0.95548	-140.09504	0.22506	79.81001
1530	0.22769	77.26313	0.9542	-142.01076	0.9542	-142.01076	0.22769	77.26313
1550	0.23033	74.71625	0.95291	-143.92649	0.95291	-143.92649	0.23033	74.71625
1570	0.23522	71.60261	0.9532	-145.91209	0.9532	-145.91209	0.23522	71.60261
1590	0.24011	68.48897	0.95348	-147.89768	0.95348	-147.89768	0.24011	68.48897
1610	0.245	65.37533	0.95377	-149.88328	0.95377	-149.88328	0.245	65.37533
1630	0.2499	62.26169	0.95405	-151.86888	0.95405	-151.86888	0.2499	62.26169
1650	0.25479	59.14805	0.95434	-153.85447	0.95434	-153.85447	0.25479	59.14805
1670	0.25904	56.12316	0.95108	-155.869	0.95108	-155.869	0.25904	56.12316
1690	0.2633	53.09827	0.94782	-157.88352	0.94782	-157.88352	0.2633	53.09827
1710	0.26755	50.07337	0.94456	-159.89805	0.94456	-159.89805	0.26755	50.07337
1730	0.27181	47.04848	0.9413	-161.91257	0.9413	-161.91257	0.27181	47.04848
1750	0.27606	44.02359	0.93803	-163.92709	0.93803	-163.92709	0.27606	44.02359
1770	0.28476	40.19293	0.93237	-166.16213	0.93237	-166.16213	0.28476	40.19293
1790	0.29346	36.36227	0.9267	-168.39717	0.9267	-168.39717	0.29346	36.36227
1810	0.30216	32.53161	0.92103	-170.6322	0.92103	-170.6322	0.30216	32.53161
1830	0.31087	28.70095	0.91536	-172.86724	0.91536	-172.86724	0.31087	28.70095
1850	0.31957	24.8703	0.90969	-175.10228	0.90969	-175.10228	0.31957	24.8703
1870	0.32996	19.56912	0.8913	-105.50311	0.8913	-105.50311	0.32996	19.56912
1890	0.34036	14.26795	0.87291	-35.90395	0.87291	-35.90395	0.34036	14.26795
1910	0.35076	8.96678	0.85452	33.69522	0.85452	33.69522	0.35076	8.96678
1930	0.36115	3.6656	0.83613	103.29438	0.83613	103.29438	0.36115	3.6656
1950	0.37155	-1.63557	0.81774	172.89355	0.81774	172.89355	0.37155	-1.63557
1970	0.34513	-12.87835	0.79793	102.63993	0.79793	102.63993	0.34513	-12.87835
1990	0.3187	-24.12113	0.77812	32.38631	0.77812	32.38631	0.3187	-24.12113
2010	0.29228	-35.36391	0.7583	-37.8673	0.7583	-37.8673	0.29228	-35.36391
2030	0.26585	-46.60669	0.73849	-108.12092	0.73849	-108.12092	0.26585	-46.60669
2050	0.23943	-57.84947	0.71867	-178.37454	0.71867	-178.37454	0.23943	-57.84947
2070	0.21561	-47.58885	0.75843	-108.53056	0.75843	-108.53056	0.21561	-47.58885
2090	0.1918	-37.32822	0.79818	-38.68658	0.79818	-38.68658	0.1918	-37.32822
2110	0.16799	-27.0676	0.83794	31.1574	0.83794	31.1574	0.16799	-27.0676
2130	0.14417	-16.80697	0.87769	101.00138	0.87769	101.00138	0.14417	-16.80697
2150	0.12036	-6.54635	0.91745	170.84536	0.91745	170.84536	0.12036	-6.54635
2170	0.13473	-7.05785	0.92202	168.24446	0.92202	168.24446	0.13473	-7.05785
2190	0.14911	-7.56935	0.9266	165.64356	0.9266	165.64356	0.14911	-7.56935
2210	0.16349	-8.08084	0.93118	163.04266	0.93118	163.04266	0.16349	-8.08084
2230	0.17787	-8.59234	0.93576	160.44176	0.93576	160.44176	0.17787	-8.59234
2250	0.19225	-9.10384	0.94033	157.84086	0.94033	157.84086	0.19225	-9.10384
2270	0.19984	-11.59553	0.94106	155.59807	0.94106	155.59807	0.19984	-11.59553
2290	0.20742	-14.08723	0.94178	153.35528	0.94178	153.35528	0.20742	-14.08723
2310	0.21501	-16.57892	0.9425	151.1125	0.9425	151.1125	0.21501	-16.57892
2330	0.2226	-19.07062	0.94323	148.86971	0.94323	148.86971	0.2226	-19.07062
2350	0.23018	-21.56231	0.94395	146.62692	0.94395	146.62692	0.23018	-21.56231
2370	0.2362	-24.54852	0.94106	144.58916	0.94106	144.58916	0.2362	-24.54852
2390	0.24222	-27.53473	0.93816	142.5514	0.93816	142.5514	0.24222	-27.53473
2410	0.24824	-30.52095	0.93526	140.51364	0.93526	140.51364	0.24824	-30.52095
2430	0.25427	-33.50716	0.93237	138.47587	0.93237	138.47587	0.25427	-33.50716
2450	0.26029	-36.49337	0.92947	136.43811	0.92947	136.43811	0.26029	-36.49337
2470	0.26515	-39.04178	0.92851	134.40602	0.92851	134.40602	0.26515	-39.04178
2490	0.27001	-41.59019	0.92755	132.37392	0.92755	132.37392	0.27001	-41.59019
2510	0.27487	-44.13861	0.92658	130.34182	0.92658	130.34182	0.27487	-44.13861
2530	0.27973	-46.68702	0.92562	128.30972	0.92562	128.30972	0.27973	-46.68702
2550	0.28459	-49.23543	0.92466	126.27763	0.92466	126.27763	0.28459	-49.23543
2570	0.28859	-52.15697	0.92341	124.18968	0.92341	124.18968	0.28859	-52.15697
2590	0.29259	-55.07851	0.92216	122.10174	0.92216	122.10174	0.29259	-55.07851
2610	0.2966	-58.00005	0.92091	120.0138	0.92091	120.0138	0.2966	-58.00005
2630	0.3006	-60.92159	0.91966	117.92585	0.91966	117.92585	0.3006	-60.92159
2650	0.3046	-63.84313	0.91841	115.83791	0.91841	115.83791	0.3046	-63.84313
2670	0.30872	-66.4402	0.9151	114.02325	0.9151	114.02325	0.30872	-66.4402
2690	0.31283	-69.03726	0.91179	112.20859	0.91179	112.20859	0.31283	-69.03726
2710	0.31695	-71.63432	0.90848	110.39393	0.90848	110.39393	0.31695	-71.63432
2730	0.32106	-74.23139	0.90517	108.57927	0.90517	108.57927	0.32106	-74.23139
2750	0.32517	-76.82845	0.90186	106.76461	0.90186	106.76461	0.32517	-76.82845
2770	0.32898	-79.70713	0.90078	104.88053	0.90078	104.88053	0.32898	-79.70713
2790	0.33278	-82.58581	0.8997	102.99645	0.8997	102.99645	0.33278	-82.58581
2810	0.33659	-85.46449	0.89861	101.11237	0.89861	101.11237	0.33659	-85.46449
2830	0.34039	-88.34317	0.89753	99.22829	0.89753	99.22829	0.34039	-88.34317
2850	0.34419	-91.22185	0.89645	97.3442	0.89645	97.3442	0.34419	-91.22185
2870	0.34856	-93.89631	0.89383	95.36449	0.89383	95.36449	0.34856	-93.89631
2890	0.35292	-96.57077	0.8912	93.38477	0.8912	93.38477	0.35292	-96.57077
2910	0.35728	-99.24522	0.88858	91.40505	0.88858	91.40505	0.35728	-99.24522
2930	0.36165	-101.91968	0.88595	89.42533	0.88595	89.42533	0.36165	-101.91968
2950	0.36601	-104.59414	0.88332	87.44562	0.88332	87.44562	0.36601	-104.59414
2970	0.37089	-107.51007	0.88131	85.51119	0.88131	85.51119	0.37089	-107.51007
2990	0.37577	-110.42601	0.8793	83.57677	0.8793	83.57677	0.37577	-110.42601
3010	0.38065	-113.34194	0.87729	81.64235	0.87729	81.64235	0.38065	-113.34194
3030	0.38553	-116.25787	0.87527	79.70793	0.87527	79.70793	0.38553	-116.25787
3050	0.39041	-119.1738	0.87326	77.77351	0.87326	77.77351	0.39041	-119.1738
3070	0.39483	-121.79155	0.87189	75.84878	0.87189	75.84878	0.39483	-121.79155
3090	0.39925	-124.40931	0.87051	73.92405	0.87051	73.92405	0.39925	-124.40931
3110	0.40368	-127.02706	0.86913	71.99933	0.86913	71.99933	0.40368	-127.02706
3130	0.4081	-129.64482	0.86776	70.0746	0.86776	70.0746	0.4081	-129.64482
3150	0.41253	-132.26257	0.86638	68.14987	0.86638	68.14987	0.41253	-132.26257
3170	0.41686	-135.38482	0.86415	66.13373	0.86415	66.13373	0.41686	-135.38482
3190	0.42119	-138.50707	0.86192	64.11759	0.86192	64.11759	0.42119	-138.50707
3210	0.42552	-141.62931	0.85969	62.10145	0.85969	62.10145	0.42552	-141.62931
3230	0.42986	-144.75156	0.85747	60.08531	0.85747	60.08531	0.42986	-144.75156
3250	0.43419	-147.87381	0.85524	58.06917	0.85524	58.06917	0.43419	-147.87381
3270	0.44053	-150.78535	0.85149	55.94857	0.85149	55.94857	0.44053	-150.78535
3290	0.44687	-153.69688	0.84774	53.82797	0.84774	53.82797	0.44687	-153.69688
3310	0.45321	-156.60842	0.84399	51.70738	0.84399	51.70738	0.45321	-156.60842
3330	0.45954	-159.51995	0.84024	49.58678	0.84024	49.58678	0.45954	-159.51995
3350	0.46588	-162.43148	0.83649	47.46618	0.83649	47.46618	0.46588	-162.43148
3370	0.47145	-165.72347	0.831	45.24993	0.831	45.24993	0.47145	-165.72347
3390	0.47702	-169.01546	0.82551	43.03367	0.82551	43.03367	0.47702	-169.01546
3410	0.48258	-172.30744	0.82001	40.81741	0.82001	40.81741	0.48258	-172.30744
3430	0.48815	-175.59943	0.81452	38.60116	0.81452	38.60116	0.48815	-175.59943
3450	0.49371	-178.89142	0.80903	36.3849	0.80903	36.3849	0.49371	-178.89142
3470	0.50084	-110.52746	0.79794	34.19389	0.79794	34.19389	0.50084	-110.52746
3490	0.50796	-42.16351	0.78686	32.00287	0.78686	32.00287	0.50796	-42.16351
3510	0.51509	26.20045	0.77578	29.81186	0.77578	29.81186	0.51509	26.20045
3530	0.52221	94.5644	0.7647	27.62084	0.7647	27.62084	0.52221	94.5644
3550	0.52934	162.92836	0.75362	25.42983	0.75362	25.42983	0.52934	162.92836
3570	0.53345	158.20418	0.73282	23.47704	0.73282	23.47704	0.53345	158.20418
3590	0.53756	153.48001	0.71202	21.52425	0.71202	21.52425	0.53756	153.48001
3610	0.54168	148.75583	0.69122	19.57146	0.69122	19.57146	0.54168	148.75583
3630	0.54579	144.03166	0.67042	17.61867	0.67042	17.61867	0.54579	144.03166
3650	0.5499	139.30748	0.64962	15.66588	0.64962	15.66588	0.5499	139.30748
3670	0.53435	133.27409	0.62977	16.67374	0.62977	16.67374	0.53435	133.27409
3690	0.51881	127.2407	0.60991	17.68159	0.60991	17.68159	0.51881	127.2407
3710	0.50326	121.20731	0.59006	18.68945	0.59006	18.68945	0.50326	121.20731
3730	0.48771	115.17392	0.5702	19.6973	0.5702	19.6973	0.48771	115.17392
3750	0.47216	109.14053	0.55035	20.70516	0.55035	20.70516	0.47216	109.14053
3770	0.42972	106.77005	0.58291	21.23559	0.58291	21.23559	0.42972	106.77005
3790	0.38727	104.39958	0.61548	21.76602	0.61548	21.76602	0.38727	104.39958
3810	0.34482	102.0291	0.64804	22.29645	0.64804	22.29645	0.34482	102.0291
3830	0.30237	99.65862	0.6806	22.82688	0.6806	22.82688	0.30237	99.65862
3850	0.25993	97.28814	0.71317	23.3573	0.71317	23.3573	0.25993	97.28814
3870	0.25877	101.72627	0.73696	20.39204	0.73696	20.39204	0.25877	101.72627
3890	0.25761	106.16441	0.76076	17.42677	0.76076	17.42677	0.25761	106.16441
3910	0.25644	110.60255	0.78455	14.46151	0.78455	14.46151	0.25644	110.60255
3930	0.25528	115.04068	0.80835	11.49624	0.80835	11.49624	0.25528	115.04068
3950	0.25412	119.47882	0.83214	8.53097	0.83214	8.53097	0.25412	119.47882
3970	0.27162	118.75116	0.83641	5.71014	0.83641	5.71014	0.27162	118.75116
3990	0.28912	118.02351	0.84067	2.88931	0.84067	2.88931	0.28912	118.02351
4010	0.30661	117.29585	0.84493	0.06847	0.84493	0.06847	0.30661	117.29585
4030	0.32411	116.56819	0.8492	-2.75236	0.8492	-2.75236	0.32411	116.56819
4050	0.34161	115.84054	0.85346	-5.57319	0.85346	-5.57319	0.34161	115.84054
4070	0.35388	113.37686	0.85191	-8.17235	0.85191	-8.17235	0.35388	113.37686
4090	0.36615	110.91318	0.85037	-10.77151	0.85037	-10.77151	0.36615	110.91318
4110	0.37842	108.4495	0.84882	-13.37066	0.84882	-13.37066	0.37842	108.4495
4130	0.3907	105.98582	0.84727	-15.96982	0.84727	-15.96982	0.3907	105.98582
4150	0.40297	103.52215	0.84572	-18.56898	0.84572	-18.56898	0.40297	103.52215
4170	0.41374	100.83839	0.84177	-20.96334	0.84177	-20.96334	0.41374	100.83839
4190	0.4245	98.15463	0.83781	-23.3577	0.83781	-23.3577	0.4245	98.15463
4210	0.43527	95.47087	0.83386	-25.75206	0.83386	-25.75206	0.43527	95.47087
4230	0.44604	92.78711	0.82991	-28.14643	0.82991	-28.14643	0.44604	92.78711
4250	0.4568	90.10335	0.82595	-30.54079	0.82595	-30.54079	0.4568	90.10335
4270	0.46371	87.32221	0.82277	-32.70836	0.82277	-32.70836	0.46371	87.32221
4290	0.47061	84.54108	0.81959	-34.87592	0.81959	-34.87592	0.47061	84.54108
4310	0.47752	81.75994	0.8164	-37.04349	0.8164	-37.04349	0.47752	81.75994
4330	0.48442	78.9788	0.81322	-39.21106	0.81322	-39.21106	0.48442	78.9788
4350	0.49133	76.19766	0.81004	-41.37863	0.81004	-41.37863	0.49133	76.19766
4370	0.49955	73.49972	0.80408	-43.64179	0.80408	-43.64179	0.49955	73.49972
4390	0.50778	70.80178	0.79811	-45.90495	0.79811	-45.90495	0.50778	70.80178
4410	0.516	68.10384	0.79215	-48.16812	0.79215	-48.16812	0.516	68.10384
4430	0.52422	65.4059	0.78619	-50.43128	0.78619	-50.43128	0.52422	65.4059
4450	0.53245	62.70796	0.78023	-52.69444	0.78023	-52.69444	0.53245	62.70796
4470	0.53718	59.78383	0.77456	-54.74207	0.77456	-54.74207	0.53718	59.78383
4490	0.54192	56.85971	0.76889	-56.78971	0.76889	-56.78971	0.54192	56.85971
4510	0.54665	53.93559	0.76322	-58.83734	0.76322	-58.83734	0.54665	53.93559
4530	0.55139	51.01146	0.75755	-60.88498	0.75755	-60.88498	0.55139	51.01146
4550	0.55613	48.08734	0.75188	-62.93261	0.75188	-62.93261	0.55613	48.08734
4570	0.56219	45.33871	0.74459	-64.92669	0.74459	-64.92669	0.56219	45.33871
4590	0.56825	42.59009	0.7373	-66.92078	0.7373	-66.92078	0.56825	42.59009
4610	0.57431	39.84146	0.73	-68.91486	0.73	-68.91486	0.57431	39.84146
4630	0.58037	37.09284	0.72271	-70.90894	0.72271	-70.90894	0.58037	37.09284
4650	0.58643	34.34421	0.71542	-72.90302	0.71542	-72.90302	0.58643	34.34421
4670	0.58928	31.59141	0.71089	-74.89566	0.71089	-74.89566	0.58928	31.59141
4690	0.59213	28.83862	0.70635	-76.8883	0.70635	-76.8883	0.59213	28.83862
4710	0.59498	26.08582	0.70181	-78.88094	0.70181	-78.88094	0.59498	26.08582
4730	0.59783	23.33303	0.69728	-80.87358	0.69728	-80.87358	0.59783	23.33303
4750	0.60068	20.58023	0.69274	-82.86622	0.69274	-82.86622	0.60068	20.58023
4770	0.60652	17.90765	0.68809	-84.94363	0.68809	-84.94363	0.60652	17.90765
4790	0.61236	15.23506	0.68345	-87.02104	0.68345	-87.02104	0.61236	15.23506
4810	0.61819	12.56247	0.6788	-89.09845	0.6788	-89.09845	0.61819	12.56247
4830	0.62403	9.88988	0.67415	-91.17587	0.67415	-91.17587	0.62403	9.88988
4850	0.62987	7.21729	0.66951	-93.25328	0.66951	-93.25328	0.62987	7.21729
4870	0.63524	4.31839	0.66232	-95.26248	0.66232	-95.26248	0.63524	4.31839
4890	0.64062	1.41948	0.65514	-97.27169	0.65514	-97.27169	0.64062	1.41948
4910	0.646	-1.47943	0.64796	-99.28089	0.64796	-99.28089	0.646	-1.47943
4930	0.65137	-4.37834	0.64078	-101.2901	0.64078	-101.2901	0.65137	-4.37834
4950	0.65675	-7.27725	0.6336	-103.2993	0.6336	-103.2993	0.65675	-7.27725
4970	0.66189	-10.08674	0.62597	-105.34965	0.62597	-105.34965	0.66189	-10.08674
4990	0.66702	-12.89622	0.61833	-107.39999	0.61833	-107.39999	0.66702	-12.89622
5010	0.67216	-15.7057	0.6107	-109.45033	0.6107	-109.45033	0.67216	-15.7057
5030	0.6773	-18.51518	0.60307	-111.50068	0.60307	-111.50068	0.6773	-18.51518
5050	0.68243	-21.32467	0.59543	-113.55102	0.59543	-113.55102	0.68243	-21.32467
5070	0.68566	-24.37043	0.58629	-115.49943	0.58629	-115.49943	0.68566	-24.37043
5090	0.68889	-27.4162	0.57715	-117.44785	0.57715	-117.44785	0.68889	-27.4162
5110	0.69211	-30.46197	0.56801	-119.39626	0.56801	-119.39626	0.69211	-30.46197
5130	0.69534	-33.50774	0.55887	-121.34467	0.55887	-121.34467	0.69534	-33.50774
5150	0.69856	-36.55351	0.54973	-123.29309	0.54973	-123.29309	0.69856	-36.55351
5170	0.70252	-39.69591	0.53784	-125.20618	0.53784	-125.20618	0.70252	-39.69591
5190	0.70648	-42.8383	0.52596	-127.11928	0.52596	-127.11928	0.70648	-42.8383
5210	0.71044	-45.9807	0.51407	-129.03237	0.51407	-129.03237	0.71044	-45.9807
5230	0.7144	-49.12309	0.50218	-130.94546	0.50218	-130.94546	0.7144	-49.12309
5250	0.71836	-52.26549	0.4903	-132.85856	0.4903	-132.85856	0.71836	-52.26549
5270	0.7187	-55.81867	0.47635	-134.18264	0.47635	-134.18264	0.7187	-55.81867
5290	0.71905	-59.37186	0.46241	-135.50672	0.46241	-135.50672	0.71905	-59.37186
5310	0.71939	-62.92504	0.44846	-136.83081	0.44846	-136.83081	0.71939	-62.92504
