# MHZ S MA R 50

      50  0.01   59.80    1.00    0.50    1.00    0.50    0.01   59.80
     100  0.02   69.30    1.00   -0.20    1.00   -0.20    0.02   69.30
     150  0.04   78.80    1.00   -0.90    1.00   -0.90    0.04   78.80
     200  0.05   80.00    0.99   -1.80    0.99   -1.80    0.05   80.00
     250  0.06   81.10    0.99   -2.60    0.99   -2.60    0.06   81.10
     300  0.06   80.70    0.99   -3.40    0.99   -3.40    0.06   80.70
     350  0.07   80.40    0.99   -4.20    0.99   -4.20    0.07   80.40
     400  0.09   78.80    0.99   -4.90    0.99   -4.90    0.09   78.80
     450  0.10   77.30    0.99   -5.60    0.99   -5.60    0.10   77.30
     500  0.12   81.10    0.99   -6.80    0.99   -6.80    0.12   81.10
     550  0.14   84.80    0.99   -8.10    0.99   -8.10    0.14   84.80
     600  0.15   84.50    0.98   -8.90    0.98   -8.90    0.15   84.50
     650  0.16   84.20    0.98   -9.70    0.98   -9.70    0.16   84.20
     700  0.17   83.70    0.98   -10.50   0.98   -10.50   0.17   83.70
     750  0.18   83.20    0.98   -11.30   0.98   -11.30   0.18   83.20
     800  0.19   81.90    0.98   -12.10   0.98   -12.10   0.19   81.90
     850  0.20   80.60    0.97   -13.00   0.97   -13.00   0.20   80.60
     900  0.21   80.10    0.97   -13.80   0.97   -13.80   0.21   80.10
     950  0.23   79.60    0.97   -14.60   0.97   -14.60   0.23   79.60
    1000  0.24   78.80    0.96   -15.40   0.96   -15.40   0.24   78.80
    1050  0.25   78.10    0.96   -16.20   0.96   -16.20   0.25   78.10
    1100  0.26   77.40    0.96   -17.10   0.96   -17.10   0.26   77.40
    1150  0.27   76.70    0.96   -18.00   0.96   -18.00   0.27   76.70
    1200  0.28   75.70    0.95   -18.70   0.95   -18.70   0.28   75.70
    1250  0.29   74.70    0.95   -19.50   0.95   -19.50   0.29   74.70
    1300  0.31   73.80    0.94   -20.40   0.94   -20.40   0.31   73.80
    1350  0.32   72.90    0.94   -21.30   0.94   -21.30   0.32   72.90
    1400  0.33   71.80    0.94   -22.00   0.94   -22.00   0.33   71.80
    1450  0.34   70.70    0.93   -22.80   0.93   -22.80   0.34   70.70
    1500  0.35   69.80    0.93   -23.70   0.93   -23.70   0.35   69.80
    1550  0.36   68.90    0.92   -24.60   0.92   -24.60   0.36   68.90
    1600  0.38   67.50    0.92   -25.40   0.92   -25.40   0.38   67.50
    1650  0.39   66.20    0.91   -26.20   0.91   -26.20   0.39   66.20
    1700  0.40   65.50    0.91   -27.10   0.91   -27.10   0.40   65.50
    1750  0.41   64.80    0.90   -27.90   0.90   -27.90   0.41   64.80
    1800  0.42   63.50    0.90   -28.60   0.90   -28.60   0.42   63.50
    1850  0.43   62.20    0.90   -29.30   0.90   -29.30   0.43   62.20
    1900  0.44   61.00    0.89   -30.10   0.89   -30.10   0.44   61.00
    1950  0.45   59.80    0.88   -30.90   0.88   -30.90   0.45   59.80
    2000  0.46   58.50    0.88   -31.80   0.88   -31.80   0.46   58.50
    2050  0.47   57.30    0.87   -32.70   0.87   -32.70   0.47   57.30
    2100  0.48   56.40    0.87   -33.40   0.87   -33.40   0.48   56.40
    2150  0.49   55.60    0.86   -34.10   0.86   -34.10   0.49   55.60
    2200  0.50   54.40    0.86   -35.00   0.86   -35.00   0.50   54.40
    2250  0.51   53.10    0.85   -36.00   0.85   -36.00   0.51   53.10
    2300  0.52   52.20    0.84   -36.60   0.84   -36.60   0.52   52.20
    2350  0.53   51.30    0.84   -37.20   0.84   -37.20   0.53   51.30
    2400  0.54   50.30    0.83   -38.20   0.83   -38.20   0.54   50.30
    2450  0.55   49.30    0.82   -39.10   0.82   -39.10   0.55   49.30
    2500  0.56   48.10    0.82   -40.10   0.82   -40.10   0.56   48.10
    2550  0.57   47.00    0.81   -41.00   0.81   -41.00   0.57   47.00
    2600  0.58   46.20    0.80   -41.80   0.80   -41.80   0.58   46.20
    2650  0.59   45.30    0.79   -42.60   0.79   -42.60   0.59   45.30
    2700  0.60   44.40    0.79   -43.50   0.79   -43.50   0.60   44.40
    2750  0.61   43.60    0.78   -44.40   0.78   -44.40   0.61   43.60
    2800  0.62   42.40    0.77   -45.20   0.77   -45.20   0.62   42.40
    2850  0.63   41.20    0.76   -46.10   0.76   -46.10   0.63   41.20
    2900  0.64   40.40    0.75   -47.30   0.75   -47.30   0.64   40.40
    2950  0.66   39.70    0.74   -48.50   0.74   -48.50   0.66   39.70
    3000  0.67   38.50    0.73   -49.40   0.73   -49.40   0.67   38.50
    3050  0.68   37.40    0.72   -50.30   0.72   -50.30   0.68   37.40
    3100  0.69   36.10    0.71   -51.50   0.71   -51.50   0.69   36.10
    3150  0.69   34.80    0.70   -52.60   0.70   -52.60   0.69   34.80
    3200  0.71   34.10    0.69   -53.30   0.69   -53.30   0.71   34.10
    3250  0.72   33.40    0.68   -54.00   0.68   -54.00   0.72   33.40
    3300  0.73   32.40    0.67   -55.20   0.67   -55.20   0.73   32.40
    3350  0.74   31.30    0.65   -56.50   0.65   -56.50   0.74   31.30
    3400  0.75   30.30    0.64   -57.20   0.64   -57.20   0.75   30.30
    3450  0.76   29.20    0.63   -58.00   0.63   -58.00   0.76   29.20
    3500  0.77   28.30    0.62   -58.90   0.62   -58.90   0.77   28.30
    3550  0.78   27.30    0.61   -59.80   0.61   -59.80   0.78   27.30
    3600  0.79   26.40    0.59   -60.90   0.59   -60.90   0.79   26.40
    3650  0.80   25.50    0.58   -62.00   0.58   -62.00   0.80   25.50
    3700  0.81   24.10    0.56   -62.90   0.56   -62.90   0.81   24.10
    3750  0.82   22.80    0.55   -63.80   0.55   -63.80   0.82   22.80
    3800  0.83   21.80    0.54   -64.70   0.54   -64.70   0.83   21.80
    3850  0.84   20.80    0.52   -65.60   0.52   -65.60   0.84   20.80
    3900  0.85   19.50    0.51   -66.90   0.51   -66.90   0.85   19.50
    3950  0.86   18.30    0.49   -68.10   0.49   -68.10   0.86   18.30
    4000  0.87   17.10    0.48   -69.00   0.48   -69.00   0.87   17.10
    4050  0.87   15.80    0.46   -69.90   0.46   -69.90   0.87   15.80
    4100  0.88   14.60    0.45   -71.00   0.45   -71.00   0.88   14.60
    4150  0.89   13.30    0.43   -72.10   0.43   -72.10   0.89   13.30
    4200  0.90   12.00    0.41   -72.90   0.41   -72.90   0.90   12.00
    4250  0.91   10.70    0.40   -73.70   0.40   -73.70   0.91   10.70
    4300  0.91    9.40    0.38   -74.70   0.38   -74.70   0.91    9.40
    4350  0.92    8.10    0.37   -75.60   0.37   -75.60   0.92    8.10
    4400  0.92    6.70    0.35   -76.70   0.35   -76.70   0.92    6.70
    4450  0.93    5.30    0.34   -77.80   0.34   -77.80   0.93    5.30
    4500  0.93    4.00    0.32   -78.90   0.32   -78.90   0.93    4.00
    4550  0.94    2.80    0.30   -80.00   0.30   -80.00   0.94    2.80
    4600  0.95    1.30    0.28   -80.90   0.28   -80.90   0.95    1.30
    4650  0.96   -0.20    0.27   -81.80   0.27   -81.80   0.96   -0.20
    4700  0.96   -1.60    0.25   -82.80   0.25   -82.80   0.96   -1.60
    4750  0.96   -3.00    0.24   -83.80   0.24   -83.80   0.96   -3.00
    4800  0.96   -4.60    0.22   -84.90   0.22   -84.90   0.96   -4.60
    4850  0.96   -6.20    0.20   -86.00   0.20   -86.00   0.96   -6.20
    4900  0.97   -7.10    0.19   -86.50   0.19   -86.50   0.97   -7.10
    4950  0.98   -8.00    0.17   -87.00   0.17   -87.00   0.98   -8.00
    5000  0.98   -9.80    0.15   -88.10   0.15   -88.10   0.98   -9.80
    5050  0.98   -11.70   0.13   -89.20   0.13   -89.20   0.98   -11.70
    5100  0.98   -12.80   0.12   -89.40   0.12   -89.40   0.98   -12.80
    5150  0.97   -14.00   0.10   -89.70   0.10   -89.70   0.97   -14.00
    5200  0.97   -14.40   0.08   -88.30   0.08   -88.30   0.97   -14.40
    5250  0.97   -14.80   0.06   -86.90   0.06   -86.90   0.97   -14.80
    5300  0.99   -16.30   0.05   -81.90   0.05   -81.90   0.99   -16.30
    5350  1.00   -17.80   0.03   -76.90   0.03   -76.90   1.00   -17.80
    5400  0.99   -18.80   0.02   -34.30   0.02   -34.30   0.99   -18.80
    5450  0.98   -19.70   0.01    8.30    0.01    8.30    0.98   -19.70
    5500  0.99   -20.60   0.03   31.80    0.03   31.80    0.99   -20.60
    5550  1.00   -21.40   0.04   55.30    0.04   55.30    1.00   -21.40
    5600  0.99   -22.50   0.06   58.20    0.06   58.20    0.99   -22.50
    5650  0.98   -23.50   0.07   61.00    0.07   61.00    0.98   -23.50
    5700  0.98   -24.20   0.09   61.50    0.09   61.50    0.98   -24.20
    5750  0.97   -25.00   0.11   62.00    0.11   62.00    0.97   -25.00
    5800  0.97   -25.70   0.12   61.70    0.12   61.70    0.97   -25.70
    5850  0.97   -26.40   0.14   61.40    0.14   61.40    0.97   -26.40
    5900  0.96   -26.80   0.15   61.20    0.15   61.20    0.96   -26.80
    5950  0.96   -27.20   0.17   60.90    0.17   60.90    0.96   -27.20
    6000  0.96   -29.10   0.19   59.50    0.19   59.50    0.96   -29.10
    6050  0.96   -30.90   0.20   58.10    0.20   58.10    0.96   -30.90
    6100  0.96   -31.40   0.22   57.70    0.22   57.70    0.96   -31.40
    6150  0.95   -31.80   0.23   57.20    0.23   57.20    0.95   -31.80
    6200  0.95   -31.90   0.25   56.20    0.25   56.20    0.95   -31.90
    6250  0.94   -32.10   0.26   55.10    0.26   55.10    0.94   -32.10
    6300  0.94   -32.80   0.28   54.30    0.28   54.30    0.94   -32.80
    6350  0.94   -33.40   0.29   53.40    0.29   53.40    0.94   -33.40
    6400  0.93   -33.60   0.31   52.40    0.31   52.40    0.93   -33.60
    6450  0.92   -33.70   0.32   51.50    0.32   51.50    0.92   -33.70
    6500  0.92   -34.20   0.33   50.50    0.33   50.50    0.92   -34.20
    6550  0.91   -34.70   0.35   49.50    0.35   49.50    0.91   -34.70
    6600  0.91   -34.90   0.36   48.50    0.36   48.50    0.91   -34.90
    6650  0.90   -35.00   0.37   47.50    0.37   47.50    0.90   -35.00
    6700  0.89   -35.30   0.38   46.70    0.38   46.70    0.89   -35.30
    6750  0.88   -35.50   0.40   46.00    0.40   46.00    0.88   -35.50
    6800  0.88   -35.60   0.41   45.10    0.41   45.10    0.88   -35.60
    6850  0.88   -35.70   0.43   44.20    0.43   44.20    0.88   -35.70
    6900  0.87   -36.40   0.43   43.10    0.43   43.10    0.87   -36.40
    6950  0.86   -37.20   0.44   42.10    0.44   42.10    0.86   -37.20
    7000  0.85   -37.30   0.45   41.20    0.45   41.20    0.85   -37.30
    7050  0.84   -37.50   0.46   40.40    0.46   40.40    0.84   -37.50
    7100  0.83   -37.80   0.47   39.60    0.47   39.60    0.83   -37.80
    7150  0.82   -38.20   0.48   38.90    0.48   38.90    0.82   -38.20
    7200  0.81   -38.70   0.49   38.40    0.49   38.40    0.81   -38.70
    7250  0.80   -39.20   0.50   37.90    0.50   37.90    0.80   -39.20
    7300  0.81   -40.00   0.51   37.30    0.51   37.30    0.81   -40.00
    7350  0.81   -40.70   0.52   36.60    0.52   36.60    0.81   -40.70
    7400  0.80   -41.70   0.53   36.00    0.53   36.00    0.80   -41.70
    7450  0.79   -42.70   0.54   35.40    0.54   35.40    0.79   -42.70
    7500  0.78   -43.70   0.55   34.80    0.55   34.80    0.78   -43.70
    7550  0.78   -44.60   0.57   34.20    0.57   34.20    0.78   -44.60
    7600  0.77   -45.90   0.58   33.30    0.58   33.30    0.77   -45.90
    7650  0.76   -47.20   0.59   32.50    0.59   32.50    0.76   -47.20
    7700  0.75   -48.40   0.60   31.90    0.60   31.90    0.75   -48.40
    7750  0.74   -49.50   0.61   31.40    0.61   31.40    0.74   -49.50
    7800  0.73   -50.30   0.62   30.70    0.62   30.70    0.73   -50.30
    7850  0.73   -51.10   0.63   30.00    0.63   30.00    0.73   -51.10
    7900  0.72   -53.00   0.64   29.00    0.64   29.00    0.72   -53.00
    7950  0.71   -54.90   0.65   28.10    0.65   28.10    0.71   -54.90
    8000  0.70   -55.90   0.66   27.10    0.66   27.10    0.70   -55.90
    8050  0.68   -56.90   0.67   26.20    0.67   26.20    0.68   -56.90
    8100  0.67   -58.10   0.68   25.60    0.68   25.60    0.67   -58.10
    8150  0.66   -59.20   0.69   25.10    0.69   25.10    0.66   -59.20
    8200  0.65   -60.40   0.70   23.90    0.70   23.90    0.65   -60.40
    8250  0.64   -61.60   0.71   22.80    0.71   22.80    0.64   -61.60
    8300  0.63   -62.60   0.73   22.10    0.73   22.10    0.63   -62.60
    8350  0.61   -63.60   0.74   21.30    0.74   21.30    0.61   -63.60
    8400  0.60   -64.70   0.75   20.10    0.75   20.10    0.60   -64.70
    8450  0.59   -65.70   0.75   18.80    0.75   18.80    0.59   -65.70
    8500  0.58   -66.50   0.76   17.90    0.76   17.90    0.58   -66.50
    8550  0.57   -67.30   0.77   17.00    0.77   17.00    0.57   -67.30
    8600  0.56   -67.90   0.78   15.80    0.78   15.80    0.56   -67.90
    8650  0.55   -68.60   0.79   14.60    0.79   14.60    0.55   -68.60
    8700  0.54   -69.10   0.79   13.60    0.79   13.60    0.54   -69.10
    8750  0.53   -69.70   0.79   12.60    0.79   12.60    0.53   -69.70
    8800  0.52   -69.90   0.79   12.10    0.79   12.10    0.52   -69.90
    8850  0.51   -70.20   0.80   11.60    0.80   11.60    0.51   -70.20
    8900  0.50   -70.50   0.80   10.70    0.80   10.70    0.50   -70.50
    8950  0.49   -70.80   0.81    9.80    0.81    9.80    0.49   -70.80
    9000  0.49   -71.20   0.81    9.10    0.81    9.10    0.49   -71.20
    9050  0.48   -71.50   0.81    8.50    0.81    8.50    0.48   -71.50
    9100  0.48   -72.10   0.81    7.90    0.81    7.90    0.48   -72.10
    9150  0.47   -72.70   0.82    7.30    0.82    7.30    0.47   -72.70
    9200  0.46   -73.40   0.82    6.90    0.82    6.90    0.46   -73.40
    9250  0.46   -74.00   0.83    6.40    0.83    6.40    0.46   -74.00
    9300  0.44   -74.10   0.84    5.60    0.84    5.60    0.44   -74.10
    9350  0.43   -74.20   0.84    4.80    0.84    4.80    0.43   -74.20
    9400  0.43   -74.30   0.84    4.40    0.84    4.40    0.43   -74.30
    9450  0.42   -74.50   0.85    4.00    0.85    4.00    0.42   -74.50
    9500  0.41   -74.50   0.85    3.10    0.85    3.10    0.41   -74.50
    9550  0.40   -74.50   0.86    2.30    0.86    2.30    0.40   -74.50
    9600  0.39   -74.40   0.86    1.60    0.86    1.60    0.39   -74.40
    9650  0.38   -74.30   0.87    1.00    0.87    1.00    0.38   -74.30
    9700  0.37   -74.50   0.87    0.50    0.87    0.50    0.37   -74.50
    9750  0.36   -74.70   0.87    0.00    0.87    0.00    0.36   -74.70
    9800  0.35   -74.90   0.88   -0.70    0.88   -0.70    0.35   -74.90
    9850  0.34   -75.10   0.88   -1.30    0.88   -1.30    0.34   -75.10
    9900  0.33   -74.40   0.88   -1.70    0.88   -1.70    0.33   -74.40
    9950  0.31   -73.70   0.88   -2.20    0.88   -2.20    0.31   -73.70
   10000  0.31   -75.40   0.89   -2.70    0.89   -2.70    0.31   -75.40
   10050  0.30   -77.00   0.90   -3.30    0.90   -3.30    0.30   -77.00
   10100  0.28   -76.00   0.90   -3.80    0.90   -3.80    0.28   -76.00
   10150  0.26   -75.00   0.90   -4.30    0.90   -4.30    0.26   -75.00
   10200  0.26   -75.50   0.91   -5.00    0.91   -5.00    0.26   -75.50
   10250  0.25   -76.00   0.92   -5.60    0.92   -5.60    0.25   -76.00
   10300  0.24   -77.20   0.92   -6.20    0.92   -6.20    0.24   -77.20
   10350  0.22   -78.50   0.92   -6.80    0.92   -6.80    0.22   -78.50
   10400  0.21   -77.70   0.93   -7.60    0.93   -7.60    0.21   -77.70
   10450  0.20   -76.90   0.93   -8.40    0.93   -8.40    0.20   -76.90
   10500  0.20   -78.50   0.94   -9.00    0.94   -9.00    0.20   -78.50
   10550  0.19   -80.20   0.94   -9.60    0.94   -9.60    0.19   -80.20
   10600  0.17   -78.50   0.94   -10.30   0.94   -10.30   0.17   -78.50
   10650  0.16   -76.70   0.94   -11.10   0.94   -11.10   0.16   -76.70
   10700  0.16   -78.00   0.95   -11.70   0.95   -11.70   0.16   -78.00
   10750  0.16   -79.40   0.95   -12.40   0.95   -12.40   0.16   -79.40
   10800  0.14   -79.00   0.95   -12.80   0.95   -12.80   0.14   -79.00
   10850  0.13   -78.60   0.95   -13.30   0.95   -13.30   0.13   -78.60
   10900  0.13   -78.40   0.95   -14.10   0.95   -14.10   0.13   -78.40
   10950  0.12   -78.20   0.95   -15.00   0.95   -15.00   0.12   -78.20
   11000  0.12   -79.80   0.95   -15.50   0.95   -15.50   0.12   -79.80
   11050  0.11   -81.50   0.95   -16.00   0.95   -16.00   0.11   -81.50
   11100  0.10   -79.20   0.95   -16.60   0.95   -16.60   0.10   -79.20
   11150  0.10   -76.80   0.96   -17.20   0.96   -17.20   0.10   -76.80
   11200  0.10   -77.50   0.96   -17.80   0.96   -17.80   0.10   -77.50
   11250  0.10   -78.20   0.96   -18.40   0.96   -18.40   0.10   -78.20
   11300  0.09   -75.40   0.96   -19.00   0.96   -19.00   0.09   -75.40
   11350  0.08   -72.70   0.96   -19.70   0.96   -19.70   0.08   -72.70
   11400  0.08   -70.80   0.96   -20.20   0.96   -20.20   0.08   -70.80
   11450  0.08   -68.90   0.96   -20.60   0.96   -20.60   0.08   -68.90
   11500  0.07   -64.60   0.96   -21.30   0.96   -21.30   0.07   -64.60
   11550  0.06   -60.30   0.96   -22.00   0.96   -22.00   0.06   -60.30
   11600  0.06   -58.50   0.96   -22.60   0.96   -22.60   0.06   -58.50
   11650  0.05   -56.60   0.96   -23.20   0.96   -23.20   0.05   -56.60
   11700  0.05   -45.80   0.96   -23.80   0.96   -23.80   0.05   -45.80
   11750  0.04   -35.00   0.96   -24.40   0.96   -24.40   0.04   -35.00
   11800  0.04   -20.90   0.96   -24.90   0.96   -24.90   0.04   -20.90
   11850  0.03   -6.80    0.96   -25.30   0.96   -25.30   0.03   -6.80
   11900  0.03   10.30    0.96   -26.00   0.96   -26.00   0.03   10.30
   11950  0.03   27.30    0.96   -26.60   0.96   -26.60   0.03   27.30
   12000  0.03   32.50    0.96   -27.20   0.96   -27.20   0.03   32.50
   12050  0.03   37.70    0.96   -27.80   0.96   -27.80   0.03   37.70
   12100  0.04   46.60    0.96   -28.50   0.96   -28.50   0.04   46.60
   12150  0.05   55.40    0.96   -29.20   0.96   -29.20   0.05   55.40
   12200  0.05   56.00    0.95   -29.70   0.95   -29.70   0.05   56.00
   12250  0.06   56.50    0.95   -30.20   0.95   -30.20   0.06   56.50
   12300  0.06   60.50    0.95   -30.70   0.95   -30.70   0.06   60.50
   12350  0.07   64.50    0.95   -31.30   0.95   -31.30   0.07   64.50
   12400  0.08   61.90    0.95   -31.80   0.95   -31.80   0.08   61.90
   12450  0.08   59.20    0.94   -32.40   0.94   -32.40   0.08   59.20
   12500  0.09   59.80    0.94   -32.80   0.94   -32.80   0.09   59.80
   12550  0.10   60.30    0.94   -33.30   0.94   -33.30   0.10   60.30
   12600  0.10   59.30    0.94   -33.70   0.94   -33.70   0.10   59.30
   12650  0.11   58.30    0.94   -34.20   0.94   -34.20   0.11   58.30
   12700  0.12   55.80    0.94   -34.60   0.94   -34.60   0.12   55.80
   12750  0.12   53.30    0.94   -35.10   0.94   -35.10   0.12   53.30
   12800  0.13   53.70    0.94   -35.70   0.94   -35.70   0.13   53.70
   12850  0.14   54.00    0.94   -36.30   0.94   -36.30   0.14   54.00
   12900  0.14   52.60    0.94   -36.80   0.94   -36.80   0.14   52.60
   12950  0.15   51.10    0.94   -37.30   0.94   -37.30   0.15   51.10
   13000  0.16   51.80    0.94   -37.90   0.94   -37.90   0.16   51.80
   13050  0.16   52.50    0.94   -38.50   0.94   -38.50   0.16   52.50
   13100  0.17   51.30    0.94   -39.10   0.94   -39.10   0.17   51.30
   13150  0.17   50.10    0.93   -39.60   0.93   -39.60   0.17   50.10
   13200  0.19   50.20    0.93   -40.10   0.93   -40.10   0.19   50.20
   13250  0.20   50.20    0.93   -40.50   0.93   -40.50   0.20   50.20
   13300  0.20   51.00    0.93   -41.40   0.93   -41.40   0.20   51.00
   13350  0.20   51.80    0.92   -42.40   0.92   -42.40   0.20   51.80
   13400  0.22   50.00    0.92   -43.00   0.92   -43.00   0.22   50.00
   13450  0.23   48.20    0.92   -43.70   0.92   -43.70   0.23   48.20
   13500  0.24   46.20    0.91   -44.30   0.91   -44.30   0.24   46.20
   13550  0.25   44.20    0.91   -44.90   0.91   -44.90   0.25   44.20
   13600  0.26   43.70    0.91   -45.60   0.91   -45.60   0.26   43.70
   13650  0.27   43.20    0.90   -46.40   0.90   -46.40   0.27   43.20
   13700  0.28   40.70    0.90   -46.90   0.90   -46.90   0.28   40.70
   13750  0.29   38.30    0.89   -47.50   0.89   -47.50   0.29   38.30
   13800  0.30   36.30    0.89   -47.90   0.89   -47.90   0.30   36.30
   13850  0.30   34.20    0.88   -48.40   0.88   -48.40   0.30   34.20
   13900  0.32   31.90    0.88   -48.80   0.88   -48.80   0.32   31.90
   13950  0.33   29.60    0.88   -49.10   0.88   -49.10   0.33   29.60
