# MHZ S MA R 50

 50.00    0.15   76.00    0.97   -7.00    0.97   -7.00    0.15   76.00
 100.00   0.28   69.20    0.93   -15.20   0.93   -15.20   0.28   69.20
 150.00   0.42   62.50    0.89   -23.50   0.89   -23.50   0.42   62.50
 200.00   0.51   55.90    0.83   -30.10   0.83   -30.10   0.51   55.90
 250.00   0.61   49.40    0.77   -36.60   0.77   -36.60   0.61   49.40
 300.00   0.68   44.40    0.71   -42.00   0.71   -42.00   0.68   44.40
 350.00   0.74   39.40    0.64   -47.40   0.64   -47.40   0.74   39.40
 400.00   0.79   35.00    0.59   -51.80   0.59   -51.80   0.79   35.00
 450.00   0.83   30.60    0.53   -56.10   0.53   -56.10   0.83   30.60
 500.00   0.86   26.90    0.47   -60.90   0.47   -60.90   0.86   26.90
 550.00   0.88   23.10    0.40   -65.60   0.40   -65.60   0.88   23.10
 600.00   0.91   20.50    0.36   -68.50   0.36   -68.50   0.91   20.50
 650.00   0.94   17.90    0.32   -71.40   0.32   -71.40   0.94   17.90
 700.00   0.94   15.60    0.29   -73.40   0.29   -73.40   0.94   15.60
 750.00   0.95   13.30    0.25   -75.40   0.25   -75.40   0.95   13.30
 800.00   0.96   11.10    0.22   -77.40   0.22   -77.40   0.96   11.10
 850.00   0.97    8.80    0.19   -79.40   0.19   -79.40   0.97    8.80
 900.00   0.98    7.30    0.16   -80.60   0.16   -80.60   0.98    7.30
 950.00   0.99    5.70    0.13   -81.80   0.13   -81.80   0.99    5.70
1000.00  0.99    4.40    0.11   -83.00   0.11   -83.00   0.99    4.40
1050.00  0.99    3.20    0.08   -84.20   0.08   -84.20   0.99    3.20
1100.00  0.99    1.60    0.06   -84.00   0.06   -84.00   0.99    1.60
1150.00  0.98   -0.10    0.04   -83.70   0.04   -83.70   0.98   -0.10
1200.00  0.99   -1.10    0.02   -23.50   0.02   -23.50   0.99   -1.10
1250.00  1.00   -2.00    0.01   36.70    0.01   36.70    1.00   -2.00
1300.00  0.99   -3.80    0.02   57.60    0.02   57.60    0.99   -3.80
1350.00  0.99   -5.50    0.04   78.60    0.04   78.60    0.99   -5.50
1400.00  0.99   -6.50    0.06   78.90    0.06   78.90    0.99   -6.50
1450.00  0.99   -7.50    0.08   79.20    0.08   79.20    0.99   -7.50
1500.00  0.99   -8.90    0.10   78.40    0.10   78.40    0.99   -8.90
1550.00  0.99   -10.30   0.12   77.60    0.12   77.60    0.99   -10.30
1600.00  0.99   -11.40   0.13   76.60    0.13   76.60    0.99   -11.40
1650.00  0.99   -12.40   0.15   75.60    0.15   75.60    0.99   -12.40
1700.00  0.98   -13.30   0.16   75.00    0.16   75.00    0.98   -13.30
1750.00  0.97   -14.10   0.18   74.40    0.18   74.40    0.97   -14.10
1800.00  0.98   -15.40   0.20   73.20    0.20   73.20    0.98   -15.40
1850.00  0.98   -16.60   0.21   72.00    0.21   72.00    0.98   -16.60
1900.00  0.97   -17.70   0.23   71.10    0.23   71.10    0.97   -17.70
1950.00  0.96   -18.90   0.24   70.30    0.24   70.30    0.96   -18.90
2000.00  0.96   -19.90   0.25   69.40    0.25   69.40    0.96   -19.90
2050.00  0.95   -20.80   0.27   68.40    0.27   68.40    0.95   -20.80
2100.00  0.95   -21.70   0.28   67.50    0.28   67.50    0.95   -21.70
2150.00  0.95   -22.50   0.30   66.60    0.30   66.60    0.95   -22.50
2200.00  0.94   -23.70   0.31   65.70    0.31   65.70    0.94   -23.70
2250.00  0.94   -25.00   0.32   64.70    0.32   64.70    0.94   -25.00
2300.00  0.93   -25.60   0.34   63.90    0.34   63.90    0.93   -25.60
2350.00  0.93   -26.30   0.35   63.10    0.35   63.10    0.93   -26.30
2400.00  0.92   -27.30   0.37   62.00    0.37   62.00    0.92   -27.30
2450.00  0.92   -28.20   0.38   60.90    0.38   60.90    0.92   -28.20
2500.00  0.91   -29.50   0.39   60.00    0.39   60.00    0.91   -29.50
2550.00  0.91   -30.70   0.40   59.00    0.40   59.00    0.91   -30.70
2600.00  0.90   -31.40   0.42   58.30    0.42   58.30    0.90   -31.40
2650.00  0.89   -32.00   0.43   57.50    0.43   57.50    0.89   -32.00
2700.00  0.89   -33.20   0.44   56.40    0.44   56.40    0.89   -33.20
2750.00  0.88   -34.30   0.45   55.30    0.45   55.30    0.88   -34.30
2800.00  0.87   -35.30   0.47   54.40    0.47   54.40    0.87   -35.30
2850.00  0.87   -36.20   0.48   53.60    0.48   53.60    0.87   -36.20
2900.00  0.84   -37.00   0.48   52.80    0.48   52.80    0.84   -37.00
2950.00  0.82   -37.70   0.49   52.00    0.49   52.00    0.82   -37.70
3000.00  0.83   -38.30   0.50   51.20    0.50   51.20    0.83   -38.30
3050.00  0.83   -38.80   0.52   50.50    0.52   50.50    0.83   -38.80
3100.00  0.83   -39.70   0.53   49.80    0.53   49.80    0.83   -39.70
3150.00  0.82   -40.50   0.54   49.10    0.54   49.10    0.82   -40.50
3200.00  0.82   -41.70   0.55   48.00    0.55   48.00    0.82   -41.70
3250.00  0.81   -43.00   0.56   46.90    0.56   46.90    0.81   -43.00
3300.00  0.80   -43.70   0.57   46.00    0.57   46.00    0.80   -43.70
3350.00  0.79   -44.30   0.58   45.20    0.58   45.20    0.79   -44.30
3400.00  0.78   -45.50   0.59   44.40    0.59   44.40    0.78   -45.50
3450.00  0.78   -46.60   0.61   43.60    0.61   43.60    0.78   -46.60
3500.00  0.77   -47.80   0.62   42.60    0.62   42.60    0.77   -47.80
3550.00  0.75   -49.00   0.63   41.50    0.63   41.50    0.75   -49.00
3600.00  0.75   -49.80   0.64   40.60    0.64   40.60    0.75   -49.80
3650.00  0.74   -50.70   0.64   39.70    0.64   39.70    0.74   -50.70
3700.00  0.73   -51.90   0.66   38.80    0.66   38.80    0.73   -51.90
3750.00  0.72   -53.20   0.67   37.80    0.67   37.80    0.72   -53.20
3800.00  0.70   -54.30   0.68   36.70    0.68   36.70    0.70   -54.30
3850.00  0.69   -55.30   0.69   35.60    0.69   35.60    0.69   -55.30
3900.00  0.68   -56.80   0.70   34.50    0.70   34.50    0.68   -56.80
3950.00  0.66   -58.40   0.71   33.40    0.71   33.40    0.66   -58.40
4000.00  0.65   -59.50   0.72   32.20    0.72   32.20    0.65   -59.50
4050.00  0.63   -60.60   0.73   31.00    0.73   31.00    0.63   -60.60
4100.00  0.62   -62.10   0.75   29.60    0.75   29.60    0.62   -62.10
4150.00  0.60   -63.60   0.76   28.20    0.76   28.20    0.60   -63.60
4200.00  0.57   -65.30   0.77   26.50    0.77   26.50    0.57   -65.30
4250.00  0.55   -66.90   0.79   24.90    0.79   24.90    0.55   -66.90
4300.00  0.52   -68.90   0.80   22.70    0.80   22.70    0.52   -68.90
4350.00  0.49   -70.80   0.81   20.60    0.81   20.60    0.49   -70.80
4400.00  0.44   -72.80   0.83   17.20    0.83   17.20    0.44   -72.80
4450.00  0.40   -74.80   0.85   13.90    0.85   13.90    0.40   -74.80
4500.00  0.32   -74.10   0.85    9.20    0.85    9.20    0.32   -74.10
4550.00  0.25   -73.30   0.86    4.50    0.86    4.50    0.25   -73.30
4600.00  0.20   -40.50   0.83   -3.30    0.83   -3.30    0.20   -40.50
4650.00  0.16   -7.70    0.81   -11.10   0.81   -11.10   0.16   -7.70
4700.00  0.33    1.40    0.69   -21.60   0.69   -21.60   0.33    1.40
4750.00  0.50   10.50    0.57   -32.10   0.57   -32.10   0.50   10.50
4800.00  0.64   -1.30    0.39   -27.40   0.39   -27.40   0.64   -1.30
4850.00  0.78   -13.20   0.21   -22.80   0.21   -22.80   0.78   -13.20
4900.00  0.82   -21.90   0.24    8.10    0.24    8.10    0.82   -21.90
4950.00  0.85   -30.50   0.26   39.10    0.26   39.10    0.85   -30.50
5000.00  0.85   -36.60   0.33   41.80    0.33   41.80    0.85   -36.60
5050.00  0.84   -42.70   0.40   44.50    0.40   44.50    0.84   -42.70
5100.00  0.81   -46.10   0.45   43.40    0.45   43.40    0.81   -46.10
5150.00  0.79   -49.50   0.49   42.30    0.49   42.30    0.79   -49.50
5200.00  0.79   -51.60   0.52   41.20    0.52   41.20    0.79   -51.60
5250.00  0.78   -53.70   0.56   40.10    0.56   40.10    0.78   -53.70
5300.00  0.77   -56.20   0.58   38.50    0.58   38.50    0.77   -56.20
5350.00  0.76   -58.80   0.60   36.90    0.60   36.90    0.76   -58.80
5400.00  0.75   -60.00   0.62   36.00    0.62   36.00    0.75   -60.00
5450.00  0.73   -61.10   0.63   35.00    0.63   35.00    0.73   -61.10
5500.00  0.72   -62.40   0.64   33.80    0.64   33.80    0.72   -62.40
5550.00  0.72   -63.70   0.66   32.60    0.66   32.60    0.72   -63.70
5600.00  0.70   -64.80   0.67   31.70    0.67   31.70    0.70   -64.80
5650.00  0.69   -65.80   0.68   30.80    0.68   30.80    0.69   -65.80
5700.00  0.68   -66.50   0.69   30.00    0.69   30.00    0.68   -66.50
5750.00  0.68   -67.20   0.70   29.20    0.70   29.20    0.68   -67.20
5800.00  0.66   -68.00   0.70   28.30    0.70   28.30    0.66   -68.00
5850.00  0.65   -68.70   0.71   27.40    0.71   27.40    0.65   -68.70
5900.00  0.65   -68.90   0.72   27.00    0.72   27.00    0.65   -68.90
5950.00  0.64   -69.20   0.73   26.50    0.73   26.50    0.64   -69.20
6000.00  0.63   -69.90   0.74   24.90    0.74   24.90    0.63   -69.90
6050.00  0.62   -70.60   0.75   23.40    0.75   23.40    0.62   -70.60
6100.00  0.61   -70.80   0.76   22.80    0.76   22.80    0.61   -70.80
6150.00  0.60   -71.00   0.76   22.20    0.76   22.20    0.60   -71.00
6200.00  0.60   -70.90   0.77   21.50    0.77   21.50    0.60   -70.90
6250.00  0.59   -70.80   0.77   20.80    0.77   20.80    0.59   -70.80
6300.00  0.58   -70.80   0.78   20.20    0.78   20.20    0.58   -70.80
6350.00  0.57   -70.80   0.78   19.60    0.78   19.60    0.57   -70.80
6400.00  0.57   -70.60   0.79   18.80    0.79   18.80    0.57   -70.60
6450.00  0.56   -70.40   0.79   18.00    0.79   18.00    0.56   -70.40
6500.00  0.55   -70.30   0.79   17.40    0.79   17.40    0.55   -70.30
6550.00  0.53   -70.20   0.79   16.80    0.79   16.80    0.53   -70.20
6600.00  0.52   -69.50   0.80   16.60    0.80   16.60    0.52   -69.50
6650.00  0.52   -68.80   0.80   16.50    0.80   16.50    0.52   -68.80
6700.00  0.51   -67.70   0.81   15.80    0.81   15.80    0.51   -67.70
6750.00  0.51   -66.60   0.82   15.00    0.82   15.00    0.51   -66.60
6800.00  0.50   -66.30   0.82   14.40    0.82   14.40    0.50   -66.30
6850.00  0.50   -66.00   0.82   13.70    0.82   13.70    0.50   -66.00
6900.00  0.49   -65.50   0.82   13.10    0.82   13.10    0.49   -65.50
6950.00  0.48   -65.10   0.82   12.40    0.82   12.40    0.48   -65.10
7000.00  0.48   -64.50   0.83   11.90    0.83   11.90    0.48   -64.50
7050.00  0.47   -64.00   0.83   11.30    0.83   11.30    0.47   -64.00
7100.00  0.46   -63.50   0.83   10.70    0.83   10.70    0.46   -63.50
7150.00  0.45   -63.10   0.84   10.10    0.84   10.10    0.45   -63.10
7200.00  0.45   -62.60   0.84    9.50    0.84    9.50    0.45   -62.60
7250.00  0.44   -62.10   0.85    8.90    0.85    8.90    0.44   -62.10
7300.00  0.44   -62.10   0.85    8.10    0.85    8.10    0.44   -62.10
7350.00  0.43   -62.20   0.86    7.40    0.86    7.40    0.43   -62.20
7400.00  0.42   -62.10   0.86    6.60    0.86    6.60    0.42   -62.10
7450.00  0.41   -61.90   0.86    5.80    0.86    5.80    0.41   -61.90
7500.00  0.40   -61.70   0.87    5.00    0.87    5.00    0.40   -61.70
7550.00  0.39   -61.50   0.88    4.20    0.88    4.20    0.39   -61.50
7600.00  0.38   -61.50   0.88    3.10    0.88    3.10    0.38   -61.50
7650.00  0.36   -61.60   0.88    2.00    0.88    2.00    0.36   -61.60
7700.00  0.35   -60.60   0.88    1.10    0.88    1.10    0.35   -60.60
7750.00  0.33   -59.70   0.89    0.10    0.89    0.10    0.33   -59.70
7800.00  0.31   -58.90   0.89   -1.30    0.89   -1.30    0.31   -58.90
7850.00  0.30   -58.00   0.89   -2.80    0.89   -2.80    0.30   -58.00
7900.00  0.28   -55.20   0.89   -4.60    0.89   -4.60    0.28   -55.20
7950.00  0.26   -52.40   0.89   -6.40    0.89   -6.40    0.26   -52.40
8000.00  0.24   -47.10   0.89   -8.70    0.89   -8.70    0.24   -47.10
8050.00  0.22   -41.80   0.89   -10.90   0.89   -10.90   0.22   -41.80
8100.00  0.22   -30.80   0.87   -13.80   0.87   -13.80   0.22   -30.80
8150.00  0.22   -19.70   0.85   -16.60   0.85   -16.60   0.22   -19.70
8200.00  0.27   -11.40   0.81   -20.50   0.81   -20.50   0.27   -11.40
8250.00  0.32   -3.00    0.77   -24.30   0.77   -24.30   0.32   -3.00
8300.00  0.40   -3.90    0.67   -27.30   0.67   -27.30   0.40   -3.90
8350.00  0.49   -4.70    0.57   -30.20   0.57   -30.20   0.49   -4.70
8400.00  0.57   -12.70   0.48   -22.00   0.48   -22.00   0.57   -12.70
8450.00  0.64   -20.70   0.38   -13.80   0.38   -13.80   0.64   -20.70
8500.00  0.66   -28.70   0.42   -0.30    0.42   -0.30    0.66   -28.70
8550.00  0.67   -36.60   0.45   13.30    0.45   13.30    0.67   -36.60
8600.00  0.65   -42.50   0.52   15.30    0.52   15.30    0.65   -42.50
8650.00  0.63   -48.30   0.60   17.20    0.60   17.20    0.63   -48.30
8700.00  0.61   -51.60   0.64   15.80    0.64   15.80    0.61   -51.60
8750.00  0.58   -54.90   0.69   14.40    0.69   14.40    0.58   -54.90
8800.00  0.56   -57.80   0.72   13.20    0.72   13.20    0.56   -57.80
8850.00  0.53   -60.60   0.75   12.00    0.75   12.00    0.53   -60.60
8900.00  0.51   -62.00   0.77   10.60    0.77   10.60    0.51   -62.00
8950.00  0.49   -63.50   0.79    9.10    0.79    9.10    0.49   -63.50
9000.00  0.47   -64.40   0.80    8.20    0.80    8.20    0.47   -64.40
9050.00  0.45   -65.40   0.82    7.20    0.82    7.20    0.45   -65.40
9100.00  0.44   -66.70   0.83    6.10    0.83    6.10    0.44   -66.70
9150.00  0.42   -67.90   0.84    5.10    0.84    5.10    0.42   -67.90
9200.00  0.40   -69.20   0.85    4.30    0.85    4.30    0.40   -69.20
9250.00  0.39   -70.50   0.86    3.60    0.86    3.60    0.39   -70.50
9300.00  0.37   -71.10   0.87    2.60    0.87    2.60    0.37   -71.10
9350.00  0.36   -71.80   0.88    1.70    0.88    1.70    0.36   -71.80
9400.00  0.35   -72.90   0.88    1.20    0.88    1.20    0.35   -72.90
9450.00  0.34   -73.90   0.88    0.70    0.88    0.70    0.34   -73.90
9500.00  0.32   -75.00   0.89   -0.30    0.89   -0.30    0.32   -75.00
9550.00  0.31   -76.10   0.90   -1.30    0.90   -1.30    0.31   -76.10
9600.00  0.30   -76.30   0.90   -2.10    0.90   -2.10    0.30   -76.30
9650.00  0.29   -76.50   0.90   -2.80    0.90   -2.80    0.29   -76.50
9700.00  0.27   -77.90   0.91   -3.50    0.91   -3.50    0.27   -77.90
9750.00  0.26   -79.40   0.92   -4.30    0.92   -4.30    0.26   -79.40
9800.00  0.25   -79.20   0.92   -5.00    0.92   -5.00    0.25   -79.20
9850.00  0.24   -79.00   0.92   -5.80    0.92   -5.80    0.24   -79.00
9900.00  0.23   -80.00   0.92   -6.50    0.92   -6.50    0.23   -80.00
9950.00  0.22   -81.00   0.93   -7.20    0.93   -7.20    0.22   -81.00
10000.0  0.21   -82.80   0.93   -7.70    0.93   -7.70    0.21   -82.80
10050.0  0.20   -84.50   0.93   -8.30    0.93   -8.30    0.20   -84.50
10100.0  0.19   -86.40   0.92   -8.90    0.92   -8.90    0.19   -86.40
10150.0  0.19   -88.30   0.92   -9.50    0.92   -9.50    0.19   -88.30
10200.0  0.17   -90.70   0.92   -9.50    0.92   -9.50    0.17   -90.70
10250.0  0.15   -93.10   0.93   -9.60    0.93   -9.60    0.15   -93.10
10300.0  0.15   -91.30   0.93   -10.20   0.93   -10.20   0.15   -91.30
10350.0  0.14   -89.40   0.94   -10.90   0.94   -10.90   0.14   -89.40
10400.0  0.13   -90.10   0.94   -11.70   0.94   -11.70   0.13   -90.10
10450.0  0.12   -90.90   0.95   -12.50   0.95   -12.50   0.12   -90.90
10500.0  0.11   -88.10   0.95   -13.00   0.95   -13.00   0.11   -88.10
10550.0  0.10   -85.30   0.95   -13.60   0.95   -13.60   0.10   -85.30
10600.0  0.09   -86.80   0.95   -14.40   0.95   -14.40   0.09   -86.80
10650.0  0.09   -88.30   0.95   -15.30   0.95   -15.30   0.09   -88.30
10700.0  0.08   -83.70   0.95   -15.90   0.95   -15.90   0.08   -83.70
10750.0  0.07   -79.00   0.95   -16.60   0.95   -16.60   0.07   -79.00
10800.0  0.07   -76.20   0.95   -17.30   0.95   -17.30   0.07   -76.20
10850.0  0.06   -73.40   0.95   -18.00   0.95   -18.00   0.06   -73.40
10900.0  0.05   -66.50   0.96   -18.90   0.96   -18.90   0.05   -66.50
10950.0  0.04   -59.60   0.96   -19.70   0.96   -19.70   0.04   -59.60
11000.0  0.04   -49.30   0.96   -20.40   0.96   -20.40   0.04   -49.30
11050.0  0.04   -39.00   0.96   -21.20   0.96   -21.20   0.04   -39.00
11100.0  0.04   -26.50   0.96   -22.00   0.96   -22.00   0.04   -26.50
11150.0  0.04   -13.90   0.95   -22.70   0.95   -22.70   0.04   -13.90
11200.0  0.05   -7.10    0.95   -23.50   0.95   -23.50   0.05   -7.10
11250.0  0.06   -0.20    0.95   -24.20   0.95   -24.20   0.06   -0.20
11300.0  0.06    3.50    0.95   -25.10   0.95   -25.10   0.06    3.50
11350.0  0.07    7.30    0.95   -26.10   0.95   -26.10   0.07    7.30
11400.0  0.09    9.40    0.94   -27.10   0.94   -27.10   0.09    9.40
11450.0  0.10   11.60    0.94   -28.10   0.94   -28.10   0.10   11.60
11500.0  0.12   11.10    0.94   -29.30   0.94   -29.30   0.12   11.10
11550.0  0.13   10.70    0.93   -30.50   0.93   -30.50   0.13   10.70
11600.0  0.16   12.40    0.92   -31.70   0.92   -31.70   0.16   12.40
11650.0  0.18   14.10    0.91   -32.90   0.91   -32.90   0.18   14.10
11700.0  0.20   12.60    0.90   -34.40   0.90   -34.40   0.20   12.60
11750.0  0.22   11.10    0.88   -35.90   0.88   -35.90   0.22   11.10
11800.0  0.25   10.50    0.87   -37.40   0.87   -37.40   0.25   10.50
11850.0  0.28   10.00    0.85   -38.90   0.85   -38.90   0.28   10.00
11900.0  0.31    6.50    0.81   -40.90   0.81   -40.90   0.31    6.50
11950.0  0.34    3.10    0.78   -42.90   0.78   -42.90   0.34    3.10
12000.0  0.39   -1.00    0.73   -44.20   0.73   -44.20   0.39   -1.00
12050.0  0.43   -5.10    0.68   -45.40   0.68   -45.40   0.43   -5.10
12100.0  0.46   -13.00   0.60   -43.50   0.60   -43.50   0.46   -13.00
12150.0  0.49   -20.80   0.53   -41.60   0.53   -41.60   0.49   -20.80
12200.0  0.50   -29.70   0.50   -32.70   0.50   -32.70   0.50   -29.70
12250.0  0.52   -38.70   0.47   -23.70   0.47   -23.70   0.52   -38.70
12300.0  0.49   -46.30   0.52   -17.00   0.52   -17.00   0.49   -46.30
12350.0  0.47   -53.80   0.57   -10.30   0.57   -10.30   0.47   -53.80
12400.0  0.43   -59.80   0.63   -9.50    0.63   -9.50    0.43   -59.80
12450.0  0.38   -65.80   0.68   -8.80    0.68   -8.80    0.38   -65.80
12500.0  0.35   -68.40   0.73   -10.30   0.73   -10.30   0.35   -68.40
12550.0  0.31   -71.10   0.77   -11.90   0.77   -11.90   0.31   -71.10
12600.0  0.29   -72.40   0.79   -13.30   0.79   -13.30   0.29   -72.40
12650.0  0.26   -73.80   0.82   -14.70   0.82   -14.70   0.26   -73.80
12700.0  0.23   -72.70   0.83   -16.10   0.83   -16.10   0.23   -72.70
12750.0  0.21   -71.50   0.85   -17.50   0.85   -17.50   0.21   -71.50
12800.0  0.19   -67.80   0.86   -18.60   0.86   -18.60   0.19   -67.80
12850.0  0.17   -64.00   0.87   -19.60   0.87   -19.60   0.17   -64.00
12900.0  0.16   -60.90   0.87   -20.90   0.87   -20.90   0.16   -60.90
12950.0  0.15   -57.80   0.88   -22.20   0.88   -22.20   0.15   -57.80
13000.0  0.14   -53.20   0.88   -23.00   0.88   -23.00   0.14   -53.20
13050.0  0.14   -48.50   0.89   -23.70   0.89   -23.70   0.14   -48.50
13100.0  0.14   -43.90   0.89   -24.70   0.89   -24.70   0.14   -43.90
13150.0  0.14   -39.20   0.90   -25.70   0.90   -25.70   0.14   -39.20
13200.0  0.14   -34.70   0.89   -26.60   0.89   -26.60   0.14   -34.70
13250.0  0.13   -30.20   0.89   -27.50   0.89   -27.50   0.13   -30.20
13300.0  0.13   -26.60   0.89   -28.50   0.89   -28.50   0.13   -26.60
13350.0  0.13   -23.00   0.90   -29.40   0.90   -29.40   0.13   -23.00
13400.0  0.13   -16.90   0.89   -30.40   0.89   -30.40   0.13   -16.90
13450.0  0.14   -10.80   0.89   -31.40   0.89   -31.40   0.14   -10.80
13500.0  0.13   -5.50    0.89   -32.20   0.89   -32.20   0.13   -5.50
13550.0  0.13   -0.10    0.88   -33.00   0.88   -33.00   0.13   -0.10
13600.0  0.15    7.40    0.87   -33.70   0.87   -33.70   0.15    7.40
13650.0  0.16   15.00    0.86   -34.30   0.86   -34.30   0.16   15.00
13700.0  0.19   16.40    0.86   -33.90   0.86   -33.90   0.19   16.40
13750.0  0.21   17.90    0.85   -33.40   0.85   -33.40   0.21   17.90
13800.0  0.23   15.80    0.86   -33.70   0.86   -33.70   0.23   15.80
13850.0  0.24   13.80    0.87   -34.00   0.87   -34.00   0.24   13.80
13900.0  0.24   11.90    0.88   -34.70   0.88   -34.70   0.24   11.90
13950.0  0.25   10.00    0.88   -35.50   0.88   -35.50   0.25   10.00
14000.0  0.25   10.80    0.88   -36.30   0.88   -36.30   0.25   10.80
14050.0  0.26   11.70    0.88   -37.10   0.88   -37.10   0.26   11.70
14100.0  0.26   10.20    0.89   -37.90   0.89   -37.90   0.26   10.20
