! P/N: L-15CR18JE								
! Measured by Marlon								
! Oct. 14, 2003								
! Measure with Series-through-Fixture								
#	mhz	s	ma	r	50
0	0.00000	90.0000	0.99999	0.00000	0.99999	0.00000	0.00000	90.0000			
50	0.47345	56.80366	0.83154	-26.62712	0.83154	-26.62712	0.47345	56.80366
70	0.59546	48.50329	0.75088	-36.43086	0.75088	-36.43086	0.59546	48.50329
90	0.68791	42.39678	0.66967	-43.38608	0.66967	-43.38608	0.68791	42.39678
110	0.76526	36.78347	0.59746	-49.38961	0.59746	-49.38961	0.76526	36.78347
130	0.82764	31.39101	0.53283	-55.0031	0.53283	-55.0031	0.82764	31.39101
150	0.8608	27.37538	0.46334	-59.45304	0.46334	-59.45304	0.8608	27.37538
170	0.89943	24.21417	0.41365	-62.85529	0.41365	-62.85529	0.89943	24.21417
190	0.92176	20.88205	0.36431	-66.3516	0.36431	-66.3516	0.92176	20.88205
210	0.93837	18.15485	0.3180	-69.13538	0.3180	-69.13538	0.93837	18.15485
230	0.95496	15.88696	0.27666	-71.33768	0.27666	-71.33768	0.95496	15.88696
250	0.97241	13.01133	0.24143	-74.02725	0.24143	-74.02725	0.97241	13.01133
270	0.96934	11.0877	0.2047	-76.07447	0.2047	-76.07447	0.96934	11.0877
290	0.97821	9.56802	0.17392	-77.46321	0.17392	-77.46321	0.97821	9.56802
310	0.98698	7.73053	0.14553	-78.94949	0.14553	-78.94949	0.98698	7.73053
330	0.98988	5.67683	0.11787	-80.42913	0.11787	-80.42913	0.98988	5.67683
350	0.98744	4.33189	0.09116	-80.93775	0.09116	-80.93775	0.98744	4.33189
370	0.99642	2.69898	0.06826	-81.45612	0.06826	-81.45612	0.99642	2.69898
390	0.99649	1.25159	0.04572	-80.08983	0.04572	-80.08983	0.99649	1.25159
410	0.99746	0.09076	0.02449	-68.87486	0.02449	-68.87486	0.99746	0.09076
430	0.99999	-1.00586	0.01113	-29.10566	0.01113	-29.10566	0.99999	-1.00586
450	0.99999	-2.58398	0.0178	68.66479	0.0178	68.66479	0.99999	-2.58398
470	0.99978	-3.39606	0.03606	76.12073	0.03606	76.12073	0.99978	-3.39606
490	0.99999	-3.54358	0.05098	78.76782	0.05098	78.76782	0.99999	-3.54358
510	0.99999	-3.75244	0.06571	79.01211	0.06571	79.01211	0.99999	-3.75244
530	0.99999	-4.21687	0.08105	78.5425	0.08105	78.5425	0.99999	-4.21687
550	0.99558	-4.59941	0.09543	78.33074	0.09543	78.33074	0.99558	-4.59941
570	0.98951	-5.45793	0.11038	77.76475	0.11038	77.76475	0.98951	-5.45793
590	0.98714	-6.0924	0.12461	77.17859	0.12461	77.17859	0.98714	-6.0924
610	0.98679	-6.99064	0.13877	76.65235	0.13877	76.65235	0.98679	-6.99064
630	0.98618	-8.2414	0.15265	76.12527	0.15265	76.12527	0.98618	-8.2414
650	0.98238	-9.5343	0.16518	75.39571	0.16518	75.39571	0.98238	-9.5343
670	0.98452	-9.62286	0.17667	74.90716	0.17667	74.90716	0.98452	-9.62286
690	0.98945	-10.33877	0.18902	74.05574	0.18902	74.05574	0.98945	-10.33877
710	0.98873	-11.06807	0.20056	73.1854	0.20056	73.1854	0.98873	-11.06807
730	0.98196	-11.56046	0.2118	72.44917	0.2118	72.44917	0.98196	-11.56046
750	0.97678	-11.92922	0.22542	71.80911	0.22542	71.80911	0.97678	-11.92922
770	0.97012	-12.62478	0.23622	70.71773	0.23622	70.71773	0.97012	-12.62478
790	0.96539	-13.44243	0.24764	70.04344	0.24764	70.04344	0.96539	-13.44243
810	0.96349	-14.32119	0.25929	69.50687	0.25929	69.50687	0.96349	-14.32119
830	0.96192	-15.15193	0.27035	68.88461	0.27035	68.88461	0.96192	-15.15193
850	0.9547	-15.77734	0.27954	68.00926	0.27954	68.00926	0.9547	-15.77734
870	0.95808	-16.04944	0.28983	67.80183	0.28983	67.80183	0.95808	-16.04944
890	0.95891	-16.81802	0.30143	66.87928	0.30143	66.87928	0.95891	-16.81802
910	0.95231	-17.36927	0.31125	66.01495	0.31125	66.01495	0.95231	-17.36927
930	0.94192	-17.56838	0.31966	65.50128	0.31966	65.50128	0.94192	-17.56838
950	0.93985	-17.85956	0.33041	65.14983	0.33041	65.14983	0.93985	-17.85956
970	0.93579	-19.18827	0.34178	64.29709	0.34178	64.29709	0.93579	-19.18827
990	0.9291	-19.93811	0.35065	63.69586	0.35065	63.69586	0.9291	-19.93811
1010	0.92408	-20.61164	0.35979	63.14857	0.35979	63.14857	0.92408	-20.61164
1030	0.92153	-21.27429	0.36945	62.55899	0.36945	62.55899	0.92153	-21.27429
1050	0.91881	-21.55439	0.37729	61.93215	0.37729	61.93215	0.91881	-21.55439
1070	0.9176	-22.18272	0.38728	61.26893	0.38728	61.26893	0.9176	-22.18272
1090	0.90947	-22.72391	0.39526	60.49809	0.39526	60.49809	0.90947	-22.72391
1110	0.90093	-23.18315	0.40392	59.80253	0.40392	59.80253	0.90093	-23.18315
1130	0.89395	-23.7126	0.4139	59.17961	0.4139	59.17961	0.89395	-23.7126
1150	0.88593	-24.61138	0.42379	58.44115	0.42379	58.44115	0.88593	-24.61138
1170	0.87906	-25.53685	0.43141	58.00146	0.43141	58.00146	0.87906	-25.53685
1190	0.8751	-26.59756	0.4409	57.41498	0.4409	57.41498	0.8751	-26.59756
1210	0.87287	-27.61319	0.44851	56.81021	0.44851	56.81021	0.87287	-27.61319
1230	0.87192	-28.40543	0.45456	56.31901	0.45456	56.31901	0.87192	-28.40543
1250	0.87253	-28.79806	0.46344	56.07658	0.46344	56.07658	0.87253	-28.79806
1270	0.87467	-29.75515	0.47359	55.33266	0.47359	55.33266	0.87467	-29.75515
1290	0.86793	-30.2162	0.48009	54.6057	0.48009	54.6057	0.86793	-30.2162
1310	0.86224	-30.36013	0.48656	54.05566	0.48656	54.05566	0.86224	-30.36013
1330	0.86037	-30.51829	0.49464	53.51948	0.49464	53.51948	0.86037	-30.51829
1350	0.85796	-31.17451	0.50399	52.51116	0.50399	52.51116	0.85796	-31.17451
1370	0.84591	-31.74791	0.50918	52.03016	0.50918	52.03016	0.84591	-31.74791
1390	0.84002	-32.57093	0.51824	51.5302	0.51824	51.5302	0.84002	-32.57093
1410	0.83491	-33.33135	0.52734	50.9258	0.52734	50.9258	0.83491	-33.33135
1430	0.82946	-33.95217	0.53494	50.29337	0.53494	50.29337	0.82946	-33.95217
1450	0.82679	-34.59163	0.54178	49.87129	0.54178	49.87129	0.82679	-34.59163
1470	0.82443	-35.2028	0.54987	49.12566	0.54987	49.12566	0.82443	-35.2028
1490	0.81933	-35.55882	0.55549	48.4316	0.55549	48.4316	0.81933	-35.55882
1510	0.81237	-35.74527	0.56178	47.8913	0.56178	47.8913	0.81237	-35.74527
1530	0.80445	-35.96349	0.56973	47.38139	0.56973	47.38139	0.80445	-35.96349
1550	0.79646	-36.53049	0.5781	46.5529	0.5781	46.5529	0.79646	-36.53049
1570	0.78465	-37.23364	0.58458	45.75267	0.58458	45.75267	0.78465	-37.23364
1590	0.77224	-37.9712	0.59222	44.94358	0.59222	44.94358	0.77224	-37.9712
1610	0.7626	-38.81854	0.60067	44.2274	0.60067	44.2274	0.7626	-38.81854
1630	0.75579	-39.82312	0.60932	43.58577	0.60932	43.58577	0.75579	-39.82312
1650	0.74852	-41.00441	0.61724	42.88024	0.61724	42.88024	0.74852	-41.00441
1670	0.7416	-41.55105	0.62433	41.96637	0.62433	41.96637	0.7416	-41.55105
1690	0.73379	-41.94617	0.63335	41.32661	0.63335	41.32661	0.73379	-41.94617
1710	0.72514	-42.47632	0.64222	40.52135	0.64222	40.52135	0.72514	-42.47632
1730	0.71458	-43.17162	0.65026	39.52977	0.65026	39.52977	0.71458	-43.17162
1750	0.69992	-43.80577	0.65826	38.74983	0.65826	38.74983	0.69992	-43.80577
1770	0.68561	-44.60598	0.66675	38.04188	0.66675	38.04188	0.68561	-44.60598
1790	0.67143	-45.77839	0.67688	36.76871	0.67688	36.76871	0.67143	-45.77839
1810	0.6568	-46.92179	0.68521	35.50691	0.68521	35.50691	0.6568	-46.92179
1830	0.64211	-47.93714	0.6928	34.39547	0.6928	34.39547	0.64211	-47.93714
1850	0.62876	-49.02755	0.70523	33.13581	0.70523	33.13581	0.62876	-49.02755
1870	0.61106	-49.95589	0.71451	31.28237	0.71451	31.28237	0.61106	-49.95589
1890	0.58964	-50.27779	0.71832	29.69875	0.71832	29.69875	0.58964	-50.27779
1910	0.56499	-50.39695	0.72315	27.70062	0.72315	27.70062	0.56499	-50.39695
1930	0.53492	-50.3533	0.729	25.08798	0.729	25.08798	0.53492	-50.3533
1950	0.49458	-49.82302	0.72944	22.14505	0.72944	22.14505	0.49458	-49.82302
1970	0.45181	-47.27316	0.72525	18.81232	0.72525	18.81232	0.45181	-47.27316
1990	0.41105	-41.99222	0.70948	14.71284	0.70948	14.71284	0.41105	-41.99222
2010	0.3876	-33.625	0.67665	10.01601	0.67665	10.01601	0.3876	-33.625
2030	0.39602	-23.29553	0.62301	5.30771	0.62301	5.30771	0.39602	-23.29553
2050	0.45006	-13.60703	0.54651	1.59034	0.54651	1.59034	0.45006	-13.60703
2070	0.5438	-11.07822	0.45338	2.53864	0.45338	2.53864	0.5438	-11.07822
2090	0.62954	-12.73172	0.38397	9.21506	0.38397	9.21506	0.62954	-12.73172
2110	0.69702	-16.40398	0.35059	19.31828	0.35059	19.31828	0.69702	-16.40398
2130	0.74202	-20.61632	0.35393	29.90689	0.35393	29.90689	0.74202	-20.61632
2150	0.76638	-24.575	0.38307	37.39938	0.38307	37.39938	0.76638	-24.575
2170	0.77666	-27.88947	0.42044	40.73265	0.42044	40.73265	0.77666	-27.88947
2190	0.77864	-30.81507	0.45502	42.50991	0.45502	42.50991	0.77864	-30.81507
2210	0.77665	-33.40272	0.48592	43.30311	0.48592	43.30311	0.77665	-33.40272
2230	0.77347	-35.68128	0.51294	43.41692	0.51294	43.41692	0.77347	-35.68128
2250	0.77031	-37.65758	0.53656	42.8888	0.53656	42.8888	0.77031	-37.65758
2270	0.76295	-39.22749	0.55518	42.64429	0.55518	42.64429	0.76295	-39.22749
2290	0.75711	-40.36894	0.57578	42.2994	0.57578	42.2994	0.75711	-40.36894
2310	0.75001	-41.73773	0.5931	41.52942	0.5931	41.52942	0.75001	-41.73773
2330	0.74031	-43.23079	0.60534	40.58778	0.60534	40.58778	0.74031	-43.23079
2350	0.72817	-43.98628	0.61415	40.30607	0.61415	40.30607	0.72817	-43.98628
2370	0.72149	-44.66946	0.62788	40.02	0.62788	40.02	0.72149	-44.66946
2390	0.71445	-45.89212	0.6408	39.31327	0.6408	39.31327	0.71445	-45.89212
2410	0.70673	-47.09879	0.64973	38.64088	0.64973	38.64088	0.70673	-47.09879
2430	0.6996	-48.08888	0.65556	38.19858	0.65556	38.19858	0.6996	-48.08888
2450	0.69593	-49.01663	0.66328	37.92284	0.66328	37.92284	0.69593	-49.01663
2470	0.69279	-49.75751	0.67365	37.14668	0.67365	37.14668	0.69279	-49.75751
2490	0.68619	-50.44694	0.67941	36.64715	0.67941	36.64715	0.68619	-50.44694
2510	0.67862	-51.01371	0.68551	36.11961	0.68551	36.11961	0.67862	-51.01371
2530	0.67131	-51.52811	0.69244	35.5361	0.69244	35.5361	0.67131	-51.52811
2550	0.66425	-52.2019	0.69623	35.1453	0.69623	35.1453	0.66425	-52.2019
2570	0.65726	-52.60474	0.70239	34.32393	0.70239	34.32393	0.65726	-52.60474
2590	0.64937	-53.16022	0.70997	33.99066	0.70997	33.99066	0.64937	-53.16022
2610	0.64021	-53.92672	0.71749	33.62117	0.71749	33.62117	0.64021	-53.92672
2630	0.63218	-54.84379	0.72184	33.07134	0.72184	33.07134	0.63218	-54.84379
2650	0.63039	-55.73219	0.71823	32.57725	0.71823	32.57725	0.63039	-55.73219
2670	0.62747	-56.11886	0.73334	32.31367	0.73334	32.31367	0.62747	-56.11886
2690	0.62195	-56.50542	0.73958	31.74826	0.73958	31.74826	0.62195	-56.50542
2710	0.61602	-57.07675	0.74254	31.26333	0.74254	31.26333	0.61602	-57.07675
2730	0.61016	-57.62797	0.74646	30.9241	0.74646	30.9241	0.61016	-57.62797
2750	0.60312	-57.56438	0.75425	30.47871	0.75425	30.47871	0.60312	-57.56438
2770	0.59954	-58.3772	0.75802	30.01327	0.75802	30.01327	0.59954	-58.3772
2790	0.59414	-58.8746	0.76116	29.5866	0.76116	29.5866	0.59414	-58.8746
2810	0.58927	-59.26802	0.7656	29.23063	0.7656	29.23063	0.58927	-59.26802
2830	0.58499	-59.57693	0.77025	28.92151	0.77025	28.92151	0.58499	-59.57693
2850	0.57909	-59.62891	0.77101	28.57969	0.77101	28.57969	0.57909	-59.62891
2870	0.57222	-60.20317	0.77556	27.82178	0.77556	27.82178	0.57222	-60.20317
2890	0.56342	-60.83552	0.77873	27.40576	0.77873	27.40576	0.56342	-60.83552
2910	0.55606	-61.46056	0.78169	27.08417	0.78169	27.08417	0.55606	-61.46056
2930	0.55092	-62.04325	0.78525	26.74795	0.78525	26.74795	0.55092	-62.04325
2950	0.54624	-62.57885	0.7898	26.42644	0.7898	26.42644	0.54624	-62.57885
2970	0.54122	-63.09226	0.79479	25.92749	0.79479	25.92749	0.54122	-63.09226
2990	0.53444	-63.84427	0.79702	25.44247	0.79702	25.44247	0.53444	-63.84427
3010	0.52799	-64.32499	0.79734	25.10671	0.79734	25.10671	0.52799	-64.32499
3030	0.52328	-64.53385	0.79906	24.87358	0.79906	24.87358	0.52328	-64.53385
3050	0.521	-64.97956	0.80787	24.51453	0.80787	24.51453	0.521	-64.97956
3070	0.51236	-65.46639	0.80919	23.79078	0.80919	23.79078	0.51236	-65.46639
3090	0.50433	-65.70203	0.80966	23.5407	0.80966	23.5407	0.50433	-65.70203
3110	0.49814	-66.06568	0.81275	23.21146	0.81275	23.21146	0.49814	-66.06568
3130	0.49351	-66.68923	0.81825	22.66503	0.81825	22.66503	0.49351	-66.68923
3150	0.48864	-67.45734	0.82218	22.17816	0.82218	22.17816	0.48864	-67.45734
3170	0.47951	-67.76513	0.8186	21.90408	0.8186	21.90408	0.47951	-67.76513
3190	0.47555	-67.96133	0.82702	21.56302	0.82702	21.56302	0.47555	-67.96133
3210	0.47009	-68.35778	0.83184	21.09009	0.83184	21.09009	0.47009	-68.35778
3230	0.46162	-68.83276	0.82963	20.61137	0.82963	20.61137	0.46162	-68.83276
3250	0.45381	-68.83109	0.82914	20.44399	0.82914	20.44399	0.45381	-68.83109
3270	0.44703	-69.39289	0.83302	19.9125	0.83302	19.9125	0.44703	-69.39289
3290	0.43987	-70.1812	0.83644	19.31881	0.83644	19.31881	0.43987	-70.1812
3310	0.43324	-70.71505	0.83968	18.89493	0.83968	18.89493	0.43324	-70.71505
3330	0.42792	-71.05192	0.84338	18.54224	0.84338	18.54224	0.42792	-71.05192
3350	0.42465	-71.78771	0.8485	17.8315	0.8485	17.8315	0.42465	-71.78771
3370	0.41675	-71.91673	0.8495	17.42301	0.8495	17.42301	0.41675	-71.91673
3390	0.40833	-72.08773	0.84922	16.99336	0.84922	16.99336	0.40833	-72.08773
3410	0.40016	-72.22412	0.84996	16.41067	0.84996	16.41067	0.40016	-72.22412
3430	0.39131	-72.38755	0.85262	15.74966	0.85262	15.74966	0.39131	-72.38755
3450	0.3791	-72.77791	0.85675	15.29163	0.85675	15.29163	0.3791	-72.77791
3470	0.36622	-73.16592	0.85344	14.54437	0.85344	14.54437	0.36622	-73.16592
3490	0.35674	-73.28605	0.85319	14.07653	0.85319	14.07653	0.35674	-73.28605
3510	0.3475	-73.62293	0.85547	13.46258	0.85547	13.46258	0.3475	-73.62293
3530	0.33694	-74.07115	0.85702	12.67182	0.85702	12.67182	0.33694	-74.07115
3550	0.32506	-73.93527	0.85183	12.06838	0.85183	12.06838	0.32506	-73.93527
3570	0.31601	-73.54232	0.85154	11.25091	0.85154	11.25091	0.31601	-73.54232
3590	0.30415	-72.59968	0.84761	10.18133	0.84761	10.18133	0.30415	-72.59968
3610	0.29035	-70.87241	0.84163	9.17993	0.84163	9.17993	0.29035	-70.87241
3630	0.27608	-68.35649	0.83369	8.26573	0.83369	8.26573	0.27608	-68.35649
3650	0.2634	-65.27887	0.82235	7.1564	0.82235	7.1564	0.2634	-65.27887
3670	0.25453	-60.76612	0.80733	5.99785	0.80733	5.99785	0.25453	-60.76612
3690	0.25189	-55.1034	0.78581	4.98624	0.78581	4.98624	0.25189	-55.1034
3710	0.25916	-49.01876	0.76016	4.2847	0.76016	4.2847	0.25916	-49.01876
3730	0.27775	-43.44665	0.73087	4.06265	0.73087	4.06265	0.27775	-43.44665
3750	0.30679	-39.52791	0.69651	4.49575	0.69651	4.49575	0.30679	-39.52791
3770	0.3462	-38.36097	0.66868	6.42559	0.66868	6.42559	0.3462	-38.36097
3790	0.38662	-39.74854	0.65175	8.66306	0.65175	8.66306	0.38662	-39.74854
3810	0.41876	-42.29645	0.64423	11.59112	0.64423	11.59112	0.41876	-42.29645
3830	0.44067	-45.36757	0.64659	14.79742	0.64659	14.79742	0.44067	-45.36757
3850	0.45778	-49.08177	0.66126	17.07435	0.66126	17.07435	0.45778	-49.08177
3870	0.46374	-52.64606	0.67717	18.75251	0.67717	18.75251	0.46374	-52.64606
3890	0.46896	-55.87206	0.70203	19.64416	0.70203	19.64416	0.46896	-55.87206
3910	0.47109	-58.97951	0.72415	19.86651	0.72415	19.86651	0.47109	-58.97951
3930	0.46911	-61.87474	0.74025	19.74341	0.74025	19.74341	0.46911	-61.87474
3950	0.46329	-64.15062	0.75541	19.80532	0.75541	19.80532	0.46329	-64.15062
3970	0.45972	-66.01565	0.77154	19.85725	0.77154	19.85725	0.45972	-66.01565
3990	0.45541	-67.97948	0.78439	19.24332	0.78439	19.24332	0.45541	-67.97948
4010	0.45	-69.42535	0.7935	18.73514	0.7935	18.73514	0.45	-69.42535
4030	0.44375	-70.41668	0.80047	18.4539	0.80047	18.4539	0.44375	-70.41668
4050	0.43754	-71.69711	0.80893	17.87034	0.80893	17.87034	0.43754	-71.69711
4070	0.43025	-72.61475	0.81632	17.62455	0.81632	17.62455	0.43025	-72.61475
4090	0.42197	-73.66272	0.82388	17.03508	0.82388	17.03508	0.42197	-73.66272
4110	0.41355	-74.7515	0.82852	16.65708	0.82852	16.65708	0.41355	-74.7515
4130	0.40678	-75.75565	0.83206	16.48916	0.83206	16.48916	0.40678	-75.75565
4150	0.40435	-76.51385	0.84126	15.97337	0.84126	15.97337	0.40435	-76.51385
4170	0.40017	-78.05412	0.84955	15.4659	0.84955	15.4659	0.40017	-78.05412
4190	0.39592	-78.96591	0.84971	15.21299	0.84971	15.21299	0.39592	-78.96591
4210	0.39305	-79.57604	0.85004	14.90639	0.85004	14.90639	0.39305	-79.57604
4230	0.39048	-80.13077	0.85326	14.4538	0.85326	14.4538	0.39048	-80.13077
4250	0.38464	-80.79589	0.85654	13.97881	0.85654	13.97881	0.38464	-80.79589
4270	0.37819	-81.00184	0.85927	14.02081	0.85927	14.02081	0.37819	-81.00184
4290	0.37312	-81.80294	0.86161	13.59834	0.86161	13.59834	0.37312	-81.80294
4310	0.36824	-82.62434	0.86437	13.2324	0.86437	13.2324	0.36824	-82.62434
4330	0.36387	-83.32718	0.86789	13.08002	0.86789	13.08002	0.36387	-83.32718
4350	0.36186	-84.20863	0.87204	12.9342	0.87204	12.9342	0.36186	-84.20863
4370	0.35858	-84.98389	0.87248	12.18875	0.87248	12.18875	0.35858	-84.98389
4390	0.35595	-85.4009	0.87142	11.93005	0.87142	11.93005	0.35595	-85.4009
4410	0.35416	-85.67025	0.87682	11.66577	0.87682	11.66577	0.35416	-85.67025
4430	0.35203	-85.90646	0.88525	11.32661	0.88525	11.32661	0.35203	-85.90646
4450	0.34708	-86.12795	0.88192	11.26638	0.88192	11.26638	0.34708	-86.12795
4470	0.34019	-86.47563	0.88432	10.87155	0.88432	10.87155	0.34019	-86.47563
4490	0.33398	-87.26807	0.88281	10.47927	0.88281	10.47927	0.33398	-87.26807
4510	0.32844	-87.89418	0.88247	10.23574	0.88247	10.23574	0.32844	-87.89418
4530	0.32411	-88.34267	0.88522	10.07318	0.88522	10.07318	0.32411	-88.34267
4550	0.32214	-89.20209	0.88988	9.70976	0.88988	9.70976	0.32214	-89.20209
4570	0.31796	-90.39878	0.88814	9.22426	0.88814	9.22426	0.31796	-90.39878
4590	0.31568	-90.6024	0.89016	9.17775	0.89016	9.17775	0.31568	-90.6024
4610	0.31413	-90.59246	0.89292	9.06704	0.89292	9.06704	0.31413	-90.59246
4630	0.3118	-90.81543	0.89409	8.7062	0.89409	8.7062	0.3118	-90.81543
4650	0.30685	-91.38482	0.89193	8.22658	0.89193	8.22658	0.30685	-91.38482
4670	0.30123	-91.6278	0.89309	7.99129	0.89309	7.99129	0.30123	-91.6278
4690	0.29771	-92.17007	0.89831	7.71732	0.89831	7.71732	0.29771	-92.17007
4710	0.29457	-92.78413	0.90044	7.42677	0.90044	7.42677	0.29457	-92.78413
4730	0.29096	-93.35955	0.89837	7.16319	0.89837	7.16319	0.29096	-93.35955
4750	0.28694	-93.90305	0.89705	6.99156	0.89705	6.99156	0.28694	-93.90305
4770	0.28455	-94.34831	0.89848	6.83928	0.89848	6.83928	0.28455	-94.34831
4790	0.28243	-94.82237	0.90156	6.55384	0.90156	6.55384	0.28243	-94.82237
4810	0.27912	-95.14087	0.90387	6.21899	0.90387	6.21899	0.27912	-95.14087
4830	0.2748	-95.27562	0.90495	5.90525	0.90495	5.90525	0.2748	-95.27562
4850	0.27126	-95.35462	0.90629	5.66989	0.90629	5.66989	0.27126	-95.35462
4870	0.2663	-95.75755	0.90756	5.39107	0.90756	5.39107	0.2663	-95.75755
4890	0.26194	-96.4671	0.90606	5.06781	0.90606	5.06781	0.26194	-96.4671
4910	0.25802	-97.10515	0.90454	4.82904	0.90454	4.82904	0.25802	-97.10515
4930	0.25469	-97.53233	0.90479	4.57352	0.90479	4.57352	0.25469	-97.53233
4950	0.25244	-97.84799	0.90763	3.96977	0.90763	3.96977	0.25244	-97.84799
4970	0.25013	-98.30039	0.9072	3.86501	0.9072	3.86501	0.25013	-98.30039
4990	0.24896	-98.4082	0.90947	3.61302	0.90947	3.61302	0.24896	-98.4082
5010	0.24646	-98.2483	0.91094	3.34137	0.91094	3.34137	0.24646	-98.2483
5030	0.24238	-97.87734	0.91082	3.07229	0.91082	3.07229	0.24238	-97.87734
5050	0.23866	-97.33175	0.911	2.72266	0.911	2.72266	0.23866	-97.33175
5070	0.23401	-96.95512	0.91135	2.25771	0.91135	2.25771	0.23401	-96.95512
5090	0.2292	-96.85097	0.90978	2.04485	0.90978	2.04485	0.2292	-96.85097
5110	0.22255	-96.83072	0.90737	1.81097	0.90737	1.81097	0.22255	-96.83072
5130	0.21533	-96.79448	0.90603	1.50062	0.90603	1.50062	0.21533	-96.79448
5150	0.21168	-96.73107	0.90858	1.27602	0.90858	1.27602	0.21168	-96.73107
5170	0.20855	-97.33016	0.90975	0.67791	0.90975	0.67791	0.20855	-97.33016
5190	0.20307	-96.74857	0.90724	0.33766	0.90724	0.33766	0.20307	-96.74857
5210	0.19738	-95.94365	0.90487	-0.06477	0.90487	-0.06477	0.19738	-95.94365
5230	0.19257	-95.1242	0.90413	-0.56355	0.90413	-0.56355	0.19257	-95.1242
5250	0.18872	-93.75044	0.9042	-0.90699	0.9042	-0.90699	0.18872	-93.75044
5270	0.18066	-93.28255	0.90071	-1.36919	0.90071	-1.36919	0.18066	-93.28255
5290	0.17423	-92.65547	0.89733	-1.76077	0.89733	-1.76077	0.17423	-92.65547
5310	0.16958	-91.45414	0.89914	-2.12847	0.89914	-2.12847	0.16958	-91.45414
5330	0.16572	-89.86889	0.90152	-2.54814	0.90152	-2.54814	0.16572	-89.86889
5350	0.16051	-88.69539	0.89015	-3.12481	0.89015	-3.12481	0.16051	-88.69539
5370	0.15596	-86.30933	0.88558	-3.3263	0.88558	-3.3263	0.15596	-86.30933
5390	0.15159	-83.35395	0.88156	-3.7678	0.88156	-3.7678	0.15159	-83.35395
5410	0.14844	-80.15745	0.87494	-4.13445	0.87494	-4.13445	0.14844	-80.15745
