#	ghz	s	ma	r	50
0.050	0.01	20.20	0.99	1.20	0.99	1.20	0.01	20.20
0.100	0.01	37.10	0.99	0.70	0.99	0.70	0.01	37.10
0.150	0.01	54.10	0.99	0.30	0.99	0.30	0.01	54.10
0.200	0.02	55.00	0.99	-0.10	0.99	-0.10	0.02	55.00
0.250	0.02	55.80	0.99	-0.40	0.99	-0.40	0.02	55.80
0.300	0.03	61.40	0.99	-0.90	0.99	-0.90	0.03	61.40
0.350	0.03	67.00	0.99	-1.30	0.99	-1.30	0.03	67.00
0.400	0.03	64.00	0.99	-1.70	0.99	-1.70	0.03	64.00
0.450	0.04	61.00	0.99	-2.10	0.99	-2.10	0.04	61.00
0.500	0.04	67.20	0.99	-2.60	0.99	-2.60	0.04	67.20
0.550	0.05	73.40	0.99	-3.10	0.99	-3.10	0.05	73.40
0.600	0.05	72.60	0.99	-3.50	0.99	-3.50	0.05	72.60
0.650	0.05	71.90	0.99	-3.80	0.99	-3.80	0.05	71.90
0.700	0.06	73.80	0.99	-4.30	0.99	-4.30	0.06	73.80
0.750	0.06	75.70	0.99	-4.70	0.99	-4.70	0.06	75.70
0.800	0.06	72.40	0.99	-5.10	0.99	-5.10	0.06	72.40
0.850	0.07	69.00	0.98	-5.60	0.98	-5.60	0.07	69.00
0.900	0.07	71.20	0.98	-5.90	0.98	-5.90	0.07	71.20
0.950	0.08	73.40	0.98	-6.30	0.98	-6.30	0.08	73.40
1.000	0.08	71.60	0.98	-6.70	0.98	-6.70	0.08	71.60
1.050	0.09	69.80	0.98	-7.10	0.98	-7.10	0.09	69.80
1.100	0.09	71.30	0.98	-7.50	0.98	-7.50	0.09	71.30
1.150	0.10	72.80	0.98	-7.90	0.98	-7.90	0.10	72.80
1.200	0.10	72.50	0.98	-8.30	0.98	-8.30	0.10	72.50
1.250	0.10	72.20	0.98	-8.60	0.98	-8.60	0.10	72.20
1.300	0.11	72.40	0.98	-9.00	0.98	-9.00	0.11	72.40
1.350	0.11	72.70	0.98	-9.40	0.98	-9.40	0.11	72.70
1.400	0.12	71.80	0.98	-9.80	0.98	-9.80	0.12	71.80
1.450	0.12	70.90	0.98	-10.20	0.98	-10.20	0.12	70.90
1.500	0.12	70.90	0.98	-10.50	0.98	-10.50	0.12	70.90
1.550	0.13	70.80	0.98	-10.90	0.98	-10.90	0.13	70.80
1.600	0.13	70.40	0.98	-11.30	0.98	-11.30	0.13	70.40
1.650	0.14	69.90	0.98	-11.80	0.98	-11.80	0.14	69.90
1.700	0.14	70.10	0.98	-12.10	0.98	-12.10	0.14	70.10
1.750	0.15	70.20	0.98	-12.40	0.98	-12.40	0.15	70.20
1.800	0.15	69.90	0.98	-12.80	0.98	-12.80	0.15	69.90
1.850	0.16	69.50	0.98	-13.20	0.98	-13.20	0.16	69.50
1.900	0.16	69.50	0.97	-13.60	0.97	-13.60	0.16	69.50
1.950	0.16	69.50	0.97	-14.00	0.97	-14.00	0.16	69.50
2.000	0.17	68.80	0.97	-14.40	0.97	-14.40	0.17	68.80
2.050	0.17	68.00	0.97	-14.70	0.97	-14.70	0.17	68.00
2.100	0.18	68.30	0.97	-15.10	0.97	-15.10	0.18	68.30
2.150	0.18	68.60	0.97	-15.50	0.97	-15.50	0.18	68.60
2.200	0.19	67.80	0.97	-15.80	0.97	-15.80	0.19	67.80
2.250	0.19	67.00	0.97	-16.20	0.97	-16.20	0.19	67.00
2.300	0.19	67.40	0.97	-16.50	0.97	-16.50	0.19	67.40
2.350	0.20	67.80	0.96	-16.90	0.96	-16.90	0.20	67.80
2.400	0.20	67.80	0.96	-17.30	0.96	-17.30	0.20	67.80
2.450	0.21	67.70	0.96	-17.60	0.96	-17.60	0.21	67.70
2.500	0.21	67.60	0.96	-18.00	0.96	-18.00	0.21	67.60
2.550	0.22	67.50	0.96	-18.40	0.96	-18.40	0.22	67.50
2.600	0.22	67.20	0.96	-18.70	0.96	-18.70	0.22	67.20
2.650	0.23	66.80	0.96	-19.00	0.96	-19.00	0.23	66.80
2.700	0.23	66.90	0.96	-19.40	0.96	-19.40	0.23	66.90
2.750	0.24	67.00	0.96	-19.80	0.96	-19.80	0.24	67.00
2.800	0.24	66.80	0.96	-20.10	0.96	-20.10	0.24	66.80
2.850	0.25	66.50	0.96	-20.50	0.96	-20.50	0.25	66.50
2.900	0.25	66.20	0.95	-20.90	0.95	-20.90	0.25	66.20
2.950	0.25	65.90	0.95	-21.40	0.95	-21.40	0.25	65.90
3.000	0.26	66.00	0.95	-21.70	0.95	-21.70	0.26	66.00
3.050	0.26	66.00	0.95	-22.00	0.95	-22.00	0.26	66.00
3.100	0.27	65.70	0.95	-22.30	0.95	-22.30	0.27	65.70
3.150	0.28	65.40	0.95	-22.70	0.95	-22.70	0.28	65.40
3.200	0.28	65.60	0.94	-23.00	0.94	-23.00	0.28	65.60
3.250	0.28	65.80	0.94	-23.40	0.94	-23.40	0.28	65.80
3.300	0.29	65.60	0.94	-23.80	0.94	-23.80	0.29	65.60
3.350	0.29	65.40	0.94	-24.20	0.94	-24.20	0.29	65.40
3.400	0.30	65.30	0.94	-24.50	0.94	-24.50	0.30	65.30
3.450	0.30	65.10	0.94	-24.90	0.94	-24.90	0.30	65.10
3.500	0.30	65.20	0.94	-25.20	0.94	-25.20	0.30	65.20
3.550	0.31	65.20	0.94	-25.40	0.94	-25.40	0.31	65.20
3.600	0.31	64.80	0.93	-25.90	0.93	-25.90	0.31	64.80
3.650	0.31	64.40	0.93	-26.40	0.93	-26.40	0.31	64.40
3.700	0.32	64.40	0.93	-26.70	0.93	-26.70	0.32	64.40
3.750	0.32	64.30	0.93	-27.00	0.93	-27.00	0.32	64.30
3.800	0.33	64.00	0.93	-27.60	0.93	-27.60	0.33	64.00
3.850	0.34	63.70	0.93	-28.10	0.93	-28.10	0.34	63.70
3.900	0.34	63.60	0.93	-28.30	0.93	-28.30	0.34	63.60
3.950	0.34	63.50	0.92	-28.60	0.92	-28.60	0.34	63.50
4.000	0.35	63.20	0.92	-29.00	0.92	-29.00	0.35	63.20
4.050	0.35	62.90	0.92	-29.50	0.92	-29.50	0.35	62.90
4.100	0.36	62.70	0.92	-29.90	0.92	-29.90	0.36	62.70
4.150	0.36	62.50	0.92	-30.30	0.92	-30.30	0.36	62.50
4.200	0.37	61.80	0.92	-30.60	0.92	-30.60	0.37	61.80
4.250	0.37	61.10	0.91	-31.00	0.91	-31.00	0.37	61.10
4.300	0.37	60.90	0.91	-31.30	0.91	-31.30	0.37	60.90
4.350	0.38	60.60	0.91	-31.60	0.91	-31.60	0.38	60.60
4.400	0.38	59.80	0.91	-32.20	0.91	-32.20	0.38	59.80
4.450	0.39	59.00	0.91	-32.80	0.91	-32.80	0.39	59.00
4.500	0.39	58.70	0.90	-33.30	0.90	-33.30	0.39	58.70
4.550	0.39	58.30	0.90	-33.80	0.90	-33.80	0.39	58.30
4.600	0.40	57.50	0.90	-34.10	0.90	-34.10	0.40	57.50
4.650	0.41	56.80	0.90	-34.40	0.90	-34.40	0.41	56.80
4.700	0.41	56.20	0.89	-34.80	0.89	-34.80	0.41	56.20
4.750	0.41	55.60	0.89	-35.30	0.89	-35.30	0.41	55.60
4.800	0.42	54.70	0.89	-35.70	0.89	-35.70	0.42	54.70
4.850	0.43	53.80	0.89	-36.10	0.89	-36.10	0.43	53.80
4.900	0.43	53.20	0.88	-36.50	0.88	-36.50	0.43	53.20
4.950	0.44	52.70	0.88	-36.90	0.88	-36.90	0.44	52.70
5.000	0.44	51.60	0.88	-37.20	0.88	-37.20	0.44	51.60
5.050	0.45	50.60	0.88	-37.40	0.88	-37.40	0.45	50.60
5.100	0.45	49.80	0.88	-38.20	0.88	-38.20	0.45	49.80
5.150	0.45	49.00	0.88	-38.90	0.88	-38.90	0.45	49.00
5.200	0.46	48.20	0.87	-39.50	0.87	-39.50	0.46	48.20
5.250	0.46	47.50	0.87	-40.00	0.87	-40.00	0.46	47.50
5.300	0.47	46.70	0.87	-40.10	0.87	-40.10	0.47	46.70
5.350	0.47	45.80	0.86	-40.30	0.86	-40.30	0.47	45.80
5.400	0.48	44.70	0.86	-40.90	0.86	-40.90	0.48	44.70
5.450	0.48	43.50	0.86	-41.50	0.86	-41.50	0.48	43.50
5.500	0.49	42.90	0.85	-41.90	0.85	-41.90	0.49	42.90
5.550	0.49	42.20	0.85	-42.40	0.85	-42.40	0.49	42.20
5.600	0.50	41.00	0.85	-42.80	0.85	-42.80	0.50	41.00
5.650	0.50	39.80	0.85	-43.30	0.85	-43.30	0.50	39.80
5.700	0.51	38.90	0.84	-44.00	0.84	-44.00	0.51	38.90
5.750	0.52	38.00	0.84	-44.80	0.84	-44.80	0.52	38.00
5.800	0.51	37.30	0.84	-45.10	0.84	-45.10	0.51	37.30
5.850	0.51	36.60	0.83	-45.50	0.83	-45.50	0.51	36.60
5.900	0.52	35.90	0.83	-45.80	0.83	-45.80	0.52	35.90
5.950	0.53	35.20	0.82	-46.10	0.82	-46.10	0.53	35.20
6.000	0.53	35.60	0.83	-46.20	0.83	-46.20	0.53	35.60
6.050	0.52	36.10	0.83	-46.40	0.83	-46.40	0.52	36.10
6.100	0.53	35.50	0.83	-46.90	0.83	-46.90	0.53	35.50
6.150	0.53	34.90	0.82	-47.30	0.82	-47.30	0.53	34.90
6.200	0.54	35.00	0.82	-47.60	0.82	-47.60	0.54	35.00
6.250	0.54	35.10	0.82	-47.90	0.82	-47.90	0.54	35.10
6.300	0.55	35.00	0.82	-48.30	0.82	-48.30	0.55	35.00
6.350	0.55	35.00	0.81	-48.70	0.81	-48.70	0.55	35.00
6.400	0.56	34.80	0.81	-49.20	0.81	-49.20	0.56	34.80
6.450	0.56	34.60	0.81	-49.70	0.81	-49.70	0.56	34.60
6.500	0.56	34.50	0.80	-50.20	0.80	-50.20	0.56	34.50
6.550	0.57	34.50	0.80	-50.70	0.80	-50.70	0.57	34.50
6.600	0.57	34.40	0.80	-51.10	0.80	-51.10	0.57	34.40
6.650	0.57	34.30	0.79	-51.50	0.79	-51.50	0.57	34.30
6.700	0.58	34.30	0.79	-51.90	0.79	-51.90	0.58	34.30
6.750	0.59	34.20	0.79	-52.40	0.79	-52.40	0.59	34.20
6.800	0.59	34.30	0.78	-52.70	0.78	-52.70	0.59	34.30
6.850	0.59	34.30	0.78	-53.00	0.78	-53.00	0.59	34.30
6.900	0.60	34.10	0.78	-53.60	0.78	-53.60	0.60	34.10
6.950	0.60	33.90	0.77	-54.20	0.77	-54.20	0.60	33.90
7.000	0.60	33.80	0.77	-54.50	0.77	-54.50	0.60	33.80
7.050	0.61	33.70	0.77	-54.80	0.77	-54.80	0.61	33.70
7.100	0.61	33.70	0.76	-55.30	0.76	-55.30	0.61	33.70
7.150	0.62	33.80	0.76	-55.80	0.76	-55.80	0.62	33.80
7.200	0.62	33.80	0.75	-56.20	0.75	-56.20	0.62	33.80
7.250	0.62	33.80	0.75	-56.50	0.75	-56.50	0.62	33.80
7.300	0.63	33.70	0.75	-56.70	0.75	-56.70	0.63	33.70
7.350	0.64	33.60	0.75	-56.90	0.75	-56.90	0.64	33.60
7.400	0.64	33.20	0.74	-57.50	0.74	-57.50	0.64	33.20
7.450	0.64	32.80	0.74	-58.20	0.74	-58.20	0.64	32.80
7.500	0.65	32.70	0.74	-58.30	0.74	-58.30	0.65	32.70
7.550	0.66	32.60	0.73	-58.40	0.73	-58.40	0.66	32.60
7.600	0.66	31.90	0.73	-59.00	0.73	-59.00	0.66	31.90
7.650	0.66	31.30	0.73	-59.60	0.73	-59.60	0.66	31.30
7.700	0.67	30.70	0.73	-60.00	0.73	-60.00	0.67	30.70
7.750	0.67	30.10	0.72	-60.40	0.72	-60.40	0.67	30.10
7.800	0.67	29.70	0.72	-60.80	0.72	-60.80	0.67	29.70
7.850	0.68	29.30	0.71	-61.20	0.71	-61.20	0.68	29.30
7.900	0.69	28.50	0.71	-61.70	0.71	-61.70	0.69	28.50
7.950	0.69	27.80	0.71	-62.20	0.71	-62.20	0.69	27.80
8.000	0.70	26.70	0.71	-62.70	0.71	-62.70	0.70	26.70
8.050	0.70	25.70	0.70	-63.20	0.70	-63.20	0.70	25.70
8.100	0.70	25.10	0.69	-63.50	0.69	-63.50	0.70	25.10
8.150	0.70	24.50	0.69	-63.80	0.69	-63.80	0.70	24.50
8.200	0.70	23.90	0.68	-64.00	0.68	-64.00	0.70	23.90
8.250	0.70	23.30	0.68	-64.10	0.68	-64.10	0.70	23.30
8.300	0.70	22.60	0.68	-64.50	0.68	-64.50	0.70	22.60
8.350	0.70	22.00	0.67	-64.90	0.67	-64.90	0.70	22.00
8.400	0.71	21.30	0.67	-65.10	0.67	-65.10	0.71	21.30
8.450	0.72	20.70	0.66	-65.40	0.66	-65.40	0.72	20.70
8.500	0.72	20.30	0.66	-65.50	0.66	-65.50	0.72	20.30
8.550	0.72	19.90	0.65	-65.70	0.65	-65.70	0.72	19.90
8.600	0.73	19.30	0.65	-65.90	0.65	-65.90	0.73	19.30
8.650	0.73	18.70	0.65	-66.10	0.65	-66.10	0.73	18.70
8.700	0.74	18.60	0.64	-66.40	0.64	-66.40	0.74	18.60
8.750	0.75	18.50	0.64	-66.80	0.64	-66.80	0.75	18.50
8.800	0.75	17.30	0.64	-67.00	0.64	-67.00	0.75	17.30
8.850	0.75	16.20	0.63	-67.20	0.63	-67.20	0.75	16.20
8.900	0.75	16.30	0.63	-67.30	0.63	-67.30	0.75	16.30
8.950	0.75	16.50	0.63	-67.40	0.63	-67.40	0.75	16.50
9.000	0.75	16.40	0.63	-67.70	0.63	-67.70	0.75	16.40
9.050	0.75	16.30	0.63	-67.90	0.63	-67.90	0.75	16.30
9.100	0.76	15.70	0.63	-68.40	0.63	-68.40	0.76	15.70
9.150	0.77	15.20	0.62	-69.00	0.62	-69.00	0.77	15.20
9.200	0.76	15.20	0.62	-69.20	0.62	-69.20	0.76	15.20
9.250	0.76	15.20	0.61	-69.30	0.61	-69.30	0.76	15.20
9.300	0.76	15.90	0.61	-69.20	0.61	-69.20	0.76	15.90
9.350	0.77	16.60	0.61	-69.10	0.61	-69.10	0.77	16.60
9.400	0.77	16.10	0.61	-69.40	0.61	-69.40	0.77	16.10
9.450	0.77	15.60	0.60	-69.70	0.60	-69.70	0.77	15.60
9.500	0.77	15.90	0.60	-69.80	0.60	-69.80	0.77	15.90
9.550	0.77	16.20	0.60	-70.00	0.60	-70.00	0.77	16.20
9.600	0.77	15.90	0.60	-70.50	0.60	-70.50	0.77	15.90
9.650	0.78	15.60	0.59	-71.00	0.59	-71.00	0.78	15.60
9.700	0.78	15.70	0.59	-71.00	0.59	-71.00	0.78	15.70
9.750	0.78	15.80	0.59	-71.00	0.59	-71.00	0.78	15.80
9.800	0.78	15.90	0.59	-71.30	0.59	-71.30	0.78	15.90
9.850	0.79	16.00	0.59	-71.70	0.59	-71.70	0.79	16.00
9.900	0.79	15.60	0.59	-72.50	0.59	-72.50	0.79	15.60
9.950	0.80	15.10	0.59	-73.30	0.59	-73.30	0.80	15.10
10.000	0.79	15.10	0.58	-73.00	0.58	-73.00	0.79	15.10
10.050	0.79	15.20	0.58	-72.70	0.58	-72.70	0.79	15.20
10.100	0.80	14.40	0.58	-73.60	0.58	-73.60	0.80	14.40
10.150	0.80	13.60	0.58	-74.50	0.58	-74.50	0.80	13.60
10.200	0.80	13.60	0.57	-74.60	0.57	-74.60	0.80	13.60
10.250	0.80	13.60	0.57	-74.60	0.57	-74.60	0.80	13.60
10.300	0.80	12.80	0.56	-75.10	0.56	-75.10	0.80	12.80
10.350	0.81	11.90	0.56	-75.60	0.56	-75.60	0.81	11.90
10.400	0.80	11.40	0.56	-75.80	0.56	-75.80	0.80	11.40
10.450	0.80	10.80	0.56	-76.10	0.56	-76.10	0.80	10.80
10.500	0.81	10.50	0.55	-76.50	0.55	-76.50	0.81	10.50
10.550	0.81	10.20	0.54	-76.80	0.54	-76.80	0.81	10.20
10.600	0.81	9.00	0.55	-77.20	0.55	-77.20	0.81	9.00
10.650	0.81	7.90	0.55	-77.70	0.55	-77.70	0.81	7.90
10.700	0.82	7.60	0.54	-78.10	0.54	-78.10	0.82	7.60
10.750	0.82	7.30	0.53	-78.50	0.53	-78.50	0.82	7.30
10.800	0.83	6.50	0.53	-78.90	0.53	-78.90	0.83	6.50
10.850	0.83	5.60	0.53	-79.40	0.53	-79.40	0.83	5.60
10.900	0.84	4.70	0.53	-79.80	0.53	-79.80	0.84	4.70
10.950	0.84	3.80	0.53	-80.10	0.53	-80.10	0.84	3.80
11.000	0.83	3.10	0.52	-81.20	0.52	-81.20	0.83	3.10
11.050	0.82	2.40	0.51	-82.20	0.51	-82.20	0.82	2.40
11.100	0.83	2.00	0.51	-82.10	0.51	-82.10	0.83	2.00
11.150	0.85	1.50	0.51	-82.00	0.51	-82.00	0.85	1.50
11.200	0.84	0.60	0.50	-82.70	0.50	-82.70	0.84	0.60
11.250	0.83	-0.30	0.50	-83.40	0.50	-83.40	0.83	-0.30
11.300	0.84	-1.20	0.49	-83.80	0.49	-83.80	0.84	-1.20
11.350	0.84	-2.20	0.49	-84.20	0.49	-84.20	0.84	-2.20
11.400	0.84	-2.20	0.48	-84.40	0.48	-84.40	0.84	-2.20
11.450	0.84	-2.10	0.47	-84.60	0.47	-84.60	0.84	-2.10
11.500	0.85	-3.50	0.47	-85.30	0.47	-85.30	0.85	-3.50
11.550	0.86	-4.90	0.48	-86.00	0.48	-86.00	0.86	-4.90
11.600	0.86	-4.30	0.47	-86.10	0.47	-86.10	0.86	-4.30
11.650	0.86	-3.70	0.46	-86.10	0.46	-86.10	0.86	-3.70
11.700	0.87	-4.70	0.46	-86.80	0.46	-86.80	0.87	-4.70
11.750	0.87	-5.60	0.46	-87.50	0.46	-87.50	0.87	-5.60
11.800	0.87	-5.50	0.46	-87.80	0.46	-87.80	0.87	-5.50
11.850	0.88	-5.30	0.46	-88.00	0.46	-88.00	0.88	-5.30
11.900	0.87	-5.80	0.45	-88.60	0.45	-88.60	0.87	-5.80
11.950	0.86	-6.20	0.44	-89.30	0.44	-89.30	0.86	-6.20
12.000	0.87	-6.30	0.44	-89.90	0.44	-89.90	0.87	-6.30
12.050	0.89	-6.40	0.45	-90.60	0.45	-90.60	0.89	-6.40
12.100	0.88	-7.00	0.44	-91.50	0.44	-91.50	0.88	-7.00
12.150	0.86	-7.70	0.43	-92.30	0.43	-92.30	0.86	-7.70
12.200	0.87	-7.70	0.42	-93.10	0.42	-93.10	0.87	-7.70
12.250	0.87	-7.80	0.42	-93.90	0.42	-93.90	0.87	-7.80
12.300	0.87	-7.50	0.42	-94.20	0.42	-94.20	0.87	-7.50
12.350	0.87	-7.20	0.41	-94.50	0.41	-94.50	0.87	-7.20
12.400	0.86	-7.90	0.40	-95.40	0.40	-95.40	0.86	-7.90
12.450	0.85	-8.50	0.39	-96.20	0.39	-96.20	0.85	-8.50
12.500	0.86	-8.10	0.39	-96.60	0.39	-96.60	0.86	-8.10
12.550	0.86	-7.80	0.38	-97.00	0.38	-97.00	0.86	-7.80
12.600	0.87	-7.80	0.38	-97.30	0.38	-97.30	0.87	-7.80
12.650	0.87	-7.90	0.37	-97.70	0.37	-97.70	0.87	-7.90
12.700	0.87	-8.10	0.36	-98.10	0.36	-98.10	0.87	-8.10
12.750	0.88	-8.30	0.36	-98.40	0.36	-98.40	0.88	-8.30
12.800	0.88	-7.70	0.35	-98.20	0.35	-98.20	0.88	-7.70
12.850	0.88	-7.10	0.35	-98.00	0.35	-98.00	0.88	-7.10
12.900	0.88	-7.60	0.34	-98.80	0.34	-98.80	0.88	-7.60
12.950	0.89	-8.20	0.34	-99.50	0.34	-99.50	0.89	-8.20
13.000	0.89	-7.80	0.34	-99.10	0.34	-99.10	0.89	-7.80
13.050	0.89	-7.40	0.33	-98.70	0.33	-98.70	0.89	-7.40
13.100	0.89	-8.00	0.33	-99.50	0.33	-99.50	0.89	-8.00
13.150	0.90	-8.70	0.32	-100.30	0.32	-100.30	0.90	-8.70
13.200	0.91	-8.80	0.32	-100.80	0.32	-100.80	0.91	-8.80
13.250	0.92	-9.00	0.31	-101.20	0.31	-101.20	0.92	-9.00
13.300	0.91	-9.20	0.31	-101.80	0.31	-101.80	0.91	-9.20
13.350	0.90	-9.30	0.30	-102.30	0.30	-102.30	0.90	-9.30
13.400	0.91	-9.80	0.30	-102.80	0.30	-102.80	0.91	-9.80
13.450	0.93	-10.30	0.30	-103.30	0.30	-103.30	0.93	-10.30
13.500	0.92	-10.60	0.29	-103.60	0.29	-103.60	0.92	-10.60
13.550	0.91	-10.90	0.29	-103.80	0.29	-103.80	0.91	-10.90
13.600	0.92	-11.40	0.28	-104.40	0.28	-104.40	0.92	-11.40
13.650	0.92	-11.90	0.28	-104.90	0.28	-104.90	0.92	-11.90
13.700	0.92	-12.00	0.27	-104.50	0.27	-104.50	0.92	-12.00
13.750	0.92	-12.00	0.27	-104.10	0.27	-104.10	0.92	-12.00
13.800	0.92	-12.80	0.26	-104.40	0.26	-104.40	0.92	-12.80
13.850	0.92	-13.50	0.26	-104.60	0.26	-104.60	0.92	-13.50
13.900	0.92	-14.00	0.25	-104.30	0.25	-104.30	0.92	-14.00
13.950	0.91	-14.40	0.25	-104.10	0.25	-104.10	0.91	-14.40
14.000	0.91	-14.20	0.25	-104.10	0.25	-104.10	0.91	-14.20
14.050	0.91	-14.10	0.25	-104.10	0.25	-104.10	0.91	-14.10
14.100	0.92	-15.40	0.25	-104.60	0.25	-104.60	0.92	-15.40
14.150	0.93	-16.70	0.25	-105.20	0.25	-105.20	0.93	-16.70
14.200	0.93	-17.10	0.24	-105.40	0.24	-105.40	0.93	-17.10
14.250	0.94	-17.50	0.24	-105.60	0.24	-105.60	0.94	-17.50
14.300	0.93	-18.30	0.23	-106.00	0.23	-106.00	0.93	-18.30
14.350	0.93	-19.00	0.23	-106.40	0.23	-106.40	0.93	-19.00
14.400	0.94	-19.40	0.23	-106.30	0.23	-106.30	0.94	-19.40
14.450	0.95	-19.70	0.22	-106.20	0.22	-106.20	0.95	-19.70
14.500	0.94	-20.00	0.22	-106.50	0.22	-106.50	0.94	-20.00
14.550	0.94	-20.30	0.22	-106.80	0.22	-106.80	0.94	-20.30
14.600	0.95	-20.80	0.21	-107.10	0.21	-107.10	0.95	-20.80
14.650	0.96	-21.30	0.21	-107.30	0.21	-107.30	0.96	-21.30
14.700	0.95	-21.30	0.21	-107.30	0.21	-107.30	0.95	-21.30
14.750	0.95	-21.30	0.20	-107.30	0.20	-107.30	0.95	-21.30
14.800	0.95	-22.00	0.20	-107.50	0.20	-107.50	0.95	-22.00
14.850	0.94	-22.60	0.20	-107.70	0.20	-107.70	0.94	-22.60
14.900	0.95	-22.00	0.19	-107.50	0.19	-107.50	0.95	-22.00
14.950	0.96	-21.50	0.19	-107.30	0.19	-107.30	0.96	-21.50
15.000	0.95	-22.50	0.19	-107.50	0.19	-107.50	0.95	-22.50
15.050	0.94	-23.50	0.18	-107.70	0.18	-107.70	0.94	-23.50
15.100	0.94	-22.70	0.18	-107.50	0.18	-107.50	0.94	-22.70
15.150	0.94	-21.90	0.18	-107.20	0.18	-107.20	0.94	-21.90
15.200	0.95	-22.20	0.18	-107.40	0.18	-107.40	0.95	-22.20
15.250	0.95	-22.60	0.17	-107.50	0.17	-107.50	0.95	-22.60
15.300	0.96	-22.90	0.17	-108.10	0.17	-108.10	0.96	-22.90
15.350	0.96	-23.20	0.17	-108.70	0.17	-108.70	0.96	-23.20
15.400	0.95	-22.50	0.16	-108.20	0.16	-108.20	0.95	-22.50
15.450	0.94	-21.80	0.16	-107.60	0.16	-107.60	0.94	-21.80
15.500	0.95	-22.00	0.16	-108.40	0.16	-108.40	0.95	-22.00
15.550	0.96	-22.10	0.16	-109.10	0.16	-109.10	0.96	-22.10
15.600	0.96	-22.10	0.15	-109.00	0.15	-109.00	0.96	-22.10
15.650	0.97	-22.20	0.15	-108.90	0.15	-108.90	0.97	-22.20
15.700	0.96	-22.30	0.14	-109.00	0.14	-109.00	0.96	-22.30
15.750	0.96	-22.40	0.14	-109.00	0.14	-109.00	0.96	-22.40
15.800	0.96	-22.40	0.14	-109.00	0.14	-109.00	0.96	-22.40
15.850	0.96	-22.30	0.14	-109.10	0.14	-109.10	0.96	-22.30
15.900	0.96	-22.70	0.13	-108.40	0.13	-108.40	0.96	-22.70
15.950	0.96	-23.20	0.13	-107.70	0.13	-107.70	0.96	-23.20
16.000	0.96	-22.60	0.12	-107.20	0.12	-107.20	0.96	-22.60
16.050	0.95	-22.10	0.12	-106.70	0.12	-106.70	0.95	-22.10
16.100	0.95	-22.50	0.12	-105.80	0.12	-105.80	0.95	-22.50
16.150	0.94	-23.00	0.11	-104.80	0.11	-104.80	0.94	-23.00
16.200	0.94	-23.20	0.11	-103.40	0.11	-103.40	0.94	-23.20
16.250	0.93	-23.50	0.11	-102.00	0.11	-102.00	0.93	-23.50
16.300	0.94	-23.80	0.11	-100.50	0.11	-100.50	0.94	-23.80
16.350	0.94	-24.10	0.11	-98.90	0.11	-98.90	0.94	-24.10
16.400	0.93	-24.40	0.11	-97.70	0.11	-97.70	0.93	-24.40
16.450	0.91	-24.70	0.10	-96.50	0.10	-96.50	0.91	-24.70
16.500	0.92	-24.90	0.11	-95.10	0.11	-95.10	0.92	-24.90
16.550	0.92	-25.10	0.11	-93.60	0.11	-93.60	0.92	-25.10
16.600	0.91	-25.60	0.11	-94.60	0.11	-94.60	0.91	-25.60
16.650	0.91	-26.10	0.11	-95.60	0.11	-95.60	0.91	-26.10
16.700	0.91	-26.40	0.11	-97.40	0.11	-97.40	0.91	-26.40
16.750	0.91	-26.70	0.11	-99.30	0.11	-99.30	0.91	-26.70
16.800	0.92	-27.20	0.11	-101.10	0.11	-101.10	0.92	-27.20
16.850	0.93	-27.80	0.11	-102.80	0.11	-102.80	0.93	-27.80
16.900	0.93	-28.40	0.10	-104.00	0.10	-104.00	0.93	-28.40
16.950	0.93	-29.00	0.10	-105.20	0.10	-105.20	0.93	-29.00
17.000	0.94	-29.60	0.10	-106.30	0.10	-106.30	0.94	-29.60
17.050	0.94	-30.20	0.09	-107.50	0.09	-107.50	0.94	-30.20
17.100	0.94	-30.80	0.09	-108.00	0.09	-108.00	0.94	-30.80
17.150	0.94	-31.30	0.08	-108.50	0.08	-108.50	0.94	-31.30
17.200	0.95	-32.00	0.08	-108.80	0.08	-108.80	0.95	-32.00
17.250	0.95	-32.70	0.08	-109.00	0.08	-109.00	0.95	-32.70
17.300	0.96	-32.80	0.07	-108.70	0.07	-108.70	0.96	-32.80
17.350	0.96	-33.00	0.07	-108.40	0.07	-108.40	0.96	-33.00
17.400	0.97	-33.60	0.07	-107.90	0.07	-107.90	0.97	-33.60
17.450	0.98	-34.20	0.06	-107.40	0.06	-107.40	0.98	-34.20
17.500	0.97	-34.90	0.06	-107.80	0.06	-107.80	0.97	-34.90
17.550	0.96	-35.70	0.06	-108.20	0.06	-108.20	0.96	-35.70
17.600	0.96	-36.00	0.05	-107.90	0.05	-107.90	0.96	-36.00
17.650	0.96	-36.30	0.05	-107.60	0.05	-107.60	0.96	-36.30
17.700	0.96	-36.60	0.05	-107.30	0.05	-107.30	0.96	-36.60
17.750	0.97	-37.00	0.05	-107.00	0.05	-107.00	0.97	-37.00
17.800	0.96	-37.60	0.04	-106.70	0.04	-106.70	0.96	-37.60
17.850	0.95	-38.20	0.04	-106.50	0.04	-106.50	0.95	-38.20
17.900	0.94	-37.70	0.04	-105.60	0.04	-105.60	0.94	-37.70
17.950	0.94	-37.10	0.03	-104.70	0.03	-104.70	0.94	-37.10
18.000	0.95	-36.90	0.03	-103.80	0.03	-103.80	0.95	-36.90
18.050	0.96	-36.80	0.03	-102.80	0.03	-102.80	0.96	-36.80
18.100	0.95	-36.90	0.02	-101.80	0.02	-101.80	0.95	-36.90
18.150	0.94	-37.00	0.02	-100.70	0.02	-100.70	0.94	-37.00
18.200	0.94	-36.50	0.02	-97.50	0.02	-97.50	0.94	-36.50
18.250	0.95	-36.10	0.01	-94.40	0.01	-94.40	0.95	-36.10
18.300	0.96	-36.60	0.01	-86.50	0.01	-86.50	0.96	-36.60
18.350	0.96	-37.20	0.01	-78.60	0.01	-78.60	0.96	-37.20
18.400	0.96	-36.70	0.01	-42.80	0.01	-42.80	0.96	-36.70
18.450	0.95	-36.20	0.00	-7.00	0.00	-7.00	0.95	-36.20
18.500	0.97	-35.90	0.01	11.70	0.01	11.70	0.97	-35.90
18.550	0.99	-35.70	0.01	30.30	0.01	30.30	0.99	-35.70
18.600	0.98	-36.60	0.01	34.20	0.01	34.20	0.98	-36.60
18.650	0.97	-37.50	0.02	38.10	0.02	38.10	0.97	-37.50
18.700	0.97	-37.90	0.02	40.00	0.02	40.00	0.97	-37.90
18.750	0.97	-38.30	0.02	41.80	0.02	41.80	0.97	-38.30
