# MHZ S MA R 50

50	0.80	150.20	0.51	56.80	0.51	56.80	0.80	150.20
100	0.63	135.70	0.69	42.30	0.69	42.30	0.63	135.70
150	0.47	121.10	0.87	27.70	0.87	27.70	0.47	121.10
200	0.38	115.90	0.91	22.30	0.91	22.30	0.38	115.90
250	0.29	110.70	0.95	16.90	0.95	16.90	0.29	110.70
300	0.25	108.70	0.96	13.80	0.96	13.80	0.25	108.70
350	0.21	106.70	0.97	10.60	0.97	10.60	0.21	106.70
400	0.18	105.00	0.98	8.60	0.98	8.60	0.18	105.00
450	0.15	103.40	0.98	6.60	0.98	6.60	0.15	103.40
500	0.13	103.10	0.99	4.70	0.99	4.70	0.13	103.10
550	0.11	102.80	1.00	2.90	1.00	2.90	0.11	102.80
600	0.09	103.30	1.00	1.80	1.00	1.80	0.09	103.30
650	0.08	103.90	1.00	0.60	1.00	0.60	0.08	103.90
700	0.07	105.60	1.00	-0.40	1.00	-0.40	0.07	105.60
750	0.06	107.40	1.00	-1.40	1.00	-1.40	0.06	107.40
800	0.05	108.70	1.00	-2.40	1.00	-2.40	0.05	108.70
850	0.04	110.10	1.00	-3.40	1.00	-3.40	0.04	110.10
900	0.04	118.50	1.00	-4.20	1.00	-4.20	0.04	118.50
950	0.03	127.00	1.00	-5.00	1.00	-5.00	0.03	127.00
1000	0.02	139.30	1.00	-5.90	1.00	-5.90	0.02	139.30
1050	0.02	151.50	1.00	-6.70	1.00	-6.70	0.02	151.50
1100	0.02	-11.60	1.00	-7.50	1.00	-7.50	0.02	-11.60
1150	0.02	-174.80	1.00	-8.30	1.00	-8.30	0.02	-174.80
1200	0.02	-161.30	1.00	-9.00	1.00	-9.00	0.02	-161.30
1250	0.02	-147.80	1.00	-9.70	1.00	-9.70	0.02	-147.80
1300	0.03	-141.10	1.00	-10.40	1.00	-10.40	0.03	-141.10
1350	0.04	-134.50	1.00	-11.20	1.00	-11.20	0.04	-134.50
1400	0.04	-130.90	1.00	-11.90	1.00	-11.90	0.04	-130.90
1450	0.04	-127.30	1.00	-12.60	1.00	-12.60	0.04	-127.30
1500	0.05	-126.00	1.00	-13.30	1.00	-13.30	0.05	-126.00
1550	0.05	-124.70	1.00	-14.00	1.00	-14.00	0.05	-124.70
1600	0.06	-123.90	1.00	-14.80	1.00	-14.80	0.06	-123.90
1650	0.06	-123.00	1.00	-15.50	1.00	-15.50	0.06	-123.00
1700	0.07	-122.50	1.00	-16.10	1.00	-16.10	0.07	-122.50
1750	0.07	-121.90	1.00	-16.70	1.00	-16.70	0.07	-121.90
1800	0.08	-122.20	1.00	-17.50	1.00	-17.50	0.08	-122.20
1850	0.08	-122.40	0.99	-18.20	0.99	-18.20	0.08	-122.40
1900	0.09	-122.40	0.99	-18.90	0.99	-18.90	0.09	-122.40
1950	0.09	-122.40	0.99	-19.60	0.99	-19.60	0.09	-122.40
2000	0.10	-122.60	0.99	-20.30	0.99	-20.30	0.10	-122.60
2050	0.10	-122.80	0.99	-21.00	0.99	-21.00	0.10	-122.80
2100	0.11	-123.00	0.99	-21.70	0.99	-21.70	0.11	-123.00
2150	0.11	-123.20	0.99	-22.50	0.99	-22.50	0.11	-123.20
2200	0.12	-123.40	0.99	-23.10	0.99	-23.10	0.12	-123.40
2250	0.12	-123.60	0.99	-23.70	0.99	-23.70	0.12	-123.60
2300	0.13	-124.30	0.99	-24.50	0.99	-24.50	0.13	-124.30
2350	0.13	-124.90	0.99	-25.30	0.99	-25.30	0.13	-124.90
2400	0.14	-124.80	0.99	-26.00	0.99	-26.00	0.14	-124.80
2450	0.14	-124.70	0.98	-26.60	0.98	-26.60	0.14	-124.70
2500	0.15	-125.80	0.98	-27.30	0.98	-27.30	0.15	-125.80
2550	0.15	-126.80	0.98	-28.00	0.98	-28.00	0.15	-126.80
2600	0.16	-126.70	0.98	-28.70	0.98	-28.70	0.16	-126.70
2650	0.16	-126.50	0.98	-29.30	0.98	-29.30	0.16	-126.50
2700	0.17	-127.40	0.98	-30.10	0.98	-30.10	0.17	-127.40
2750	0.17	-128.30	0.98	-30.80	0.98	-30.80	0.17	-128.30
2800	0.18	-128.60	0.98	-31.60	0.98	-31.60	0.18	-128.60
2850	0.18	-128.90	0.98	-32.30	0.98	-32.30	0.18	-128.90
2900	0.18	-128.20	0.97	-33.20	0.97	-33.20	0.18	-128.20
2950	0.18	-127.60	0.96	-34.00	0.96	-34.00	0.18	-127.60
3000	0.19	-128.40	0.97	-34.40	0.97	-34.40	0.19	-128.40
3050	0.21	-129.20	0.97	-34.80	0.97	-34.80	0.21	-129.20
3100	0.21	-130.00	0.97	-35.50	0.97	-35.50	0.21	-130.00
3150	0.22	-130.80	0.97	-36.20	0.97	-36.20	0.22	-130.80
3200	0.22	-131.60	0.97	-37.10	0.97	-37.10	0.22	-131.60
3250	0.23	-132.40	0.96	-37.90	0.96	-37.90	0.23	-132.40
3300	0.23	-132.70	0.96	-38.70	0.96	-38.70	0.23	-132.70
3350	0.24	-133.10	0.96	-39.40	0.96	-39.40	0.24	-133.10
3400	0.25	-133.80	0.96	-40.20	0.96	-40.20	0.25	-133.80
3450	0.26	-134.50	0.96	-41.00	0.96	-41.00	0.26	-134.50
3500	0.26	-135.20	0.96	-41.80	0.96	-41.80	0.26	-135.20
3550	0.27	-135.90	0.96	-42.70	0.96	-42.70	0.27	-135.90
3600	0.27	-136.10	0.95	-43.40	0.95	-43.40	0.27	-136.10
3650	0.28	-136.30	0.95	-44.20	0.95	-44.20	0.28	-136.30
3700	0.29	-137.40	0.95	-45.20	0.95	-45.20	0.29	-137.40
3750	0.29	-138.50	0.95	-46.10	0.95	-46.10	0.29	-138.50
3800	0.30	-139.20	0.94	-47.10	0.94	-47.10	0.30	-139.20
3850	0.31	-139.80	0.94	-48.10	0.94	-48.10	0.31	-139.80
3900	0.32	-140.90	0.94	-49.00	0.94	-49.00	0.32	-140.90
3950	0.33	-142.00	0.93	-49.90	0.93	-49.90	0.33	-142.00
4000	0.34	-142.80	0.93	-51.00	0.93	-51.00	0.34	-142.80
4050	0.35	-143.60	0.92	-52.00	0.92	-52.00	0.35	-143.60
4100	0.36	-144.80	0.91	-53.20	0.91	-53.20	0.36	-144.80
4150	0.38	-146.00	0.91	-54.50	0.91	-54.50	0.38	-146.00
4200	0.40	-147.80	0.89	-56.20	0.89	-56.20	0.40	-147.80
4250	0.41	-149.60	0.88	-57.80	0.88	-57.80	0.41	-149.60
4300	0.44	-152.20	0.86	-59.80	0.86	-59.80	0.44	-152.20
4350	0.47	-154.90	0.84	-61.70	0.84	-61.70	0.47	-154.90
4400	0.51	-159.80	0.78	-64.90	0.78	-64.90	0.51	-159.80
4450	0.56	-164.80	0.73	-68.20	0.73	-68.20	0.56	-164.80
4500	0.61	3.40	0.59	-66.60	0.59	-66.60	0.61	3.40
4550	0.67	171.60	0.46	-65.00	0.46	-65.00	0.67	171.60
4600	0.57	152.30	0.54	-43.40	0.54	-43.40	0.57	152.30
4650	0.47	132.90	0.62	-21.80	0.62	-21.80	0.47	132.90
4700	0.34	132.00	0.75	-27.60	0.75	-27.60	0.34	132.00
4750	0.20	131.00	0.88	-33.30	0.88	-33.30	0.20	131.00
4800	0.17	148.70	0.91	-37.60	0.91	-37.60	0.17	148.70
4850	0.14	166.30	0.94	-41.80	0.94	-41.80	0.14	166.30
4900	0.15	-2.20	0.95	-44.50	0.95	-44.50	0.15	-2.20
4950	0.17	-170.60	0.95	-47.10	0.95	-47.10	0.17	-170.60
5000	0.18	-167.10	0.96	-48.70	0.96	-48.70	0.18	-167.10
5050	0.20	-163.70	0.96	-50.30	0.96	-50.30	0.20	-163.70
5100	0.21	-162.40	0.96	-51.80	0.96	-51.80	0.21	-162.40
5150	0.23	-161.20	0.95	-53.40	0.95	-53.40	0.23	-161.20
5200	0.24	-160.70	0.96	-54.70	0.96	-54.70	0.24	-160.70
5250	0.25	-160.10	0.96	-56.10	0.96	-56.10	0.25	-160.10
5300	0.26	-160.40	0.95	-57.10	0.95	-57.10	0.26	-160.40
5350	0.27	-160.60	0.94	-58.10	0.94	-58.10	0.27	-160.60
5400	0.28	-160.70	0.95	-59.00	0.95	-59.00	0.28	-160.70
5450	0.29	-160.80	0.95	-59.90	0.95	-59.90	0.29	-160.80
5500	0.30	-161.00	0.94	-61.00	0.94	-61.00	0.30	-161.00
5550	0.31	-161.20	0.93	-62.00	0.93	-62.00	0.31	-161.20
5600	0.32	-161.80	0.93	-62.80	0.93	-62.80	0.32	-161.80
5650	0.32	-162.30	0.93	-63.60	0.93	-63.60	0.32	-162.30
5700	0.33	-162.70	0.93	-64.70	0.93	-64.70	0.33	-162.70
5750	0.34	-163.20	0.93	-65.70	0.93	-65.70	0.34	-163.20
5800	0.35	-163.50	0.92	-66.60	0.92	-66.60	0.35	-163.50
5850	0.36	-163.80	0.92	-67.40	0.92	-67.40	0.36	-163.80
5900	0.36	-164.40	0.92	-68.10	0.92	-68.10	0.36	-164.40
5950	0.37	-165.00	0.92	-68.80	0.92	-68.80	0.37	-165.00
6000	0.39	-166.20	0.91	-69.80	0.91	-69.80	0.39	-166.20
6050	0.41	-167.30	0.90	-70.90	0.90	-70.90	0.41	-167.30
6100	0.42	-168.00	0.89	-71.80	0.89	-71.80	0.42	-168.00
6150	0.42	-168.60	0.89	-72.60	0.89	-72.60	0.42	-168.60
6200	0.43	-169.50	0.89	-73.40	0.89	-73.40	0.43	-169.50
6250	0.44	-170.40	0.88	-74.20	0.88	-74.20	0.44	-170.40
6300	0.44	-171.30	0.88	-74.90	0.88	-74.90	0.44	-171.30
6350	0.45	-172.20	0.88	-75.60	0.88	-75.60	0.45	-172.20
6400	0.46	-172.80	0.87	-76.50	0.87	-76.50	0.46	-172.80
6450	0.46	-173.30	0.86	-77.40	0.86	-77.40	0.46	-173.30
6500	0.46	-173.80	0.86	-78.20	0.86	-78.20	0.46	-173.80
6550	0.47	-174.20	0.85	-78.90	0.85	-78.90	0.47	-174.20
6600	0.48	-174.50	0.85	-79.40	0.85	-79.40	0.48	-174.50
6650	0.49	-174.90	0.85	-79.90	0.85	-79.90	0.49	-174.90
6700	0.50	-175.80	0.85	-80.80	0.85	-80.80	0.50	-175.80
6750	0.50	-176.80	0.85	-81.70	0.85	-81.70	0.50	-176.80
6800	0.51	-177.70	0.84	-82.70	0.84	-82.70	0.51	-177.70
6850	0.52	-178.70	0.83	-83.70	0.83	-83.70	0.52	-178.70
6900	0.52	0.50	0.83	-84.40	0.83	-84.40	0.52	0.50
6950	0.53	179.60	0.82	-85.20	0.82	-85.20	0.53	179.60
7000	0.54	178.60	0.82	-86.30	0.82	-86.30	0.54	178.60
7050	0.55	177.60	0.81	-87.40	0.81	-87.40	0.55	177.60
7100	0.56	176.50	0.81	-88.40	0.81	-88.40	0.56	176.50
7150	0.56	175.40	0.80	-89.40	0.80	-89.40	0.56	175.40
7200	0.57	174.00	0.79	-90.80	0.79	-90.80	0.57	174.00
7250	0.58	172.50	0.79	-92.20	0.79	-92.20	0.58	172.50
7300	0.59	170.80	0.77	-93.50	0.77	-93.50	0.59	170.80
7350	0.60	169.10	0.75	-94.80	0.75	-94.80	0.60	169.10
7400	0.62	167.30	0.74	-96.20	0.74	-96.20	0.62	167.30
7450	0.63	165.60	0.73	-97.60	0.73	-97.60	0.63	165.60
7500	0.64	163.40	0.71	-99.40	0.71	-99.40	0.64	163.40
7550	0.66	161.30	0.69	-101.10	0.69	-101.10	0.66	161.30
7600	0.68	158.90	0.66	-102.60	0.66	-102.60	0.68	158.90
7650	0.69	156.40	0.63	-104.20	0.63	-104.20	0.69	156.40
7700	0.71	152.90	0.59	-105.80	0.59	-105.80	0.71	152.90
7750	0.73	149.30	0.55	-107.40	0.55	-107.40	0.73	149.30
7800	0.75	144.80	0.49	-108.10	0.49	-108.10	0.75	144.80
7850	0.77	140.40	0.44	-108.70	0.44	-108.70	0.77	140.40
7900	0.78	133.80	0.37	-102.20	0.37	-102.20	0.78	133.80
7950	0.79	127.30	0.30	-95.60	0.30	-95.60	0.79	127.30
8000	0.76	119.70	0.31	-75.90	0.31	-75.90	0.76	119.70
8050	0.74	112.00	0.32	-56.10	0.32	-56.10	0.74	112.00
8100	0.66	103.90	0.43	-52.00	0.43	-52.00	0.66	103.90
8150	0.58	95.90	0.55	-47.80	0.55	-47.80	0.58	95.90
8200	0.49	92.80	0.64	-52.00	0.64	-52.00	0.49	92.80
8250	0.39	89.70	0.73	-56.30	0.73	-56.30	0.39	89.70
8300	0.33	93.20	0.79	-61.50	0.79	-61.50	0.33	93.20
8350	0.26	96.80	0.84	-66.60	0.84	-66.60	0.26	96.80
8400	0.24	108.00	0.86	-70.80	0.86	-70.80	0.24	108.00
8450	0.21	119.20	0.88	-74.90	0.88	-74.90	0.21	119.20
8500	0.22	127.80	0.89	-78.40	0.89	-78.40	0.22	127.80
8550	0.23	136.30	0.90	-81.90	0.90	-81.90	0.23	136.30
8600	0.26	141.20	0.89	-84.70	0.89	-84.70	0.26	141.20
8650	0.28	146.10	0.89	-87.50	0.89	-87.50	0.28	146.10
8700	0.31	147.50	0.89	-90.20	0.89	-90.20	0.31	147.50
8750	0.33	148.90	0.88	-92.90	0.88	-92.90	0.33	148.90
8800	0.36	149.50	0.87	-95.00	0.87	-95.00	0.36	149.50
8850	0.39	150.00	0.87	-97.10	0.87	-97.10	0.39	150.00
8900	0.41	149.60	0.85	-99.40	0.85	-99.40	0.41	149.60
8950	0.43	149.10	0.84	-101.80	0.84	-101.80	0.43	149.10
9000	0.45	148.60	0.83	-103.50	0.83	-103.50	0.45	148.60
9050	0.47	148.10	0.82	-105.30	0.82	-105.30	0.47	148.10
9100	0.50	146.90	0.80	-107.30	0.80	-107.30	0.50	146.90
9150	0.53	145.80	0.79	-109.30	0.79	-109.30	0.53	145.80
9200	0.55	143.70	0.77	-111.50	0.77	-111.50	0.55	143.70
9250	0.57	141.60	0.76	-113.80	0.76	-113.80	0.57	141.60
9300	0.59	141.20	0.73	-115.20	0.73	-115.20	0.59	141.20
9350	0.61	140.90	0.70	-116.60	0.70	-116.60	0.61	140.90
9400	0.63	139.10	0.68	-118.20	0.68	-118.20	0.63	139.10
9450	0.64	137.30	0.66	-119.80	0.66	-119.80	0.64	137.30
9500	0.65	135.80	0.63	-121.30	0.63	-121.30	0.65	135.80
9550	0.66	134.30	0.61	-122.70	0.61	-122.70	0.66	134.30
9600	0.68	132.80	0.58	-123.70	0.58	-123.70	0.68	132.80
9650	0.69	131.40	0.56	-124.70	0.56	-124.70	0.69	131.40
9700	0.70	129.60	0.53	-125.40	0.53	-125.40	0.70	129.60
9750	0.71	127.80	0.50	-126.00	0.50	-126.00	0.71	127.80
9800	0.71	126.50	0.48	-126.10	0.48	-126.10	0.71	126.50
9850	0.72	125.30	0.46	-126.10	0.46	-126.10	0.72	125.30
9900	0.73	124.00	0.44	-126.00	0.44	-126.00	0.73	124.00
9950	0.75	122.60	0.41	-125.80	0.41	-125.80	0.75	122.60
10000	0.74	119.90	0.39	-124.40	0.39	-124.40	0.74	119.90
10050	0.74	117.20	0.36	-122.90	0.36	-122.90	0.74	117.20
10100	0.73	118.30	0.36	-121.50	0.36	-121.50	0.73	118.30
10150	0.72	119.40	0.36	-120.10	0.36	-120.10	0.72	119.40
10200	0.75	118.40	0.34	-121.50	0.34	-121.50	0.75	118.40
10250	0.78	117.50	0.31	-123.00	0.31	-123.00	0.78	117.50
10300	0.80	114.30	0.28	-121.20	0.28	-121.20	0.80	114.30
10350	0.81	111.20	0.25	-119.40	0.25	-119.40	0.81	111.20
10400	0.81	108.90	0.23	-113.00	0.23	-113.00	0.81	108.90
10450	0.81	106.70	0.21	-106.50	0.21	-106.50	0.81	106.70
10500	0.81	103.60	0.21	-99.10	0.21	-99.10	0.81	103.60
10550	0.81	100.60	0.21	-91.70	0.21	-91.70	0.81	100.60
10600	0.79	99.30	0.22	-85.80	0.22	-85.80	0.79	99.30
10650	0.78	98.00	0.22	-79.90	0.22	-79.90	0.78	98.00
10700	0.78	95.50	0.23	-76.30	0.23	-76.30	0.78	95.50
10750	0.78	93.10	0.24	-72.80	0.24	-72.80	0.78	93.10
10800	0.79	90.80	0.25	-66.70	0.25	-66.70	0.79	90.80
10850	0.80	88.60	0.25	-60.50	0.25	-60.50	0.80	88.60
10900	0.79	85.10	0.28	-55.10	0.28	-55.10	0.79	85.10
10950	0.79	81.50	0.31	-49.60	0.31	-49.60	0.79	81.50
11000	0.78	77.50	0.37	-48.90	0.37	-48.90	0.78	77.50
11050	0.76	73.50	0.42	-48.30	0.42	-48.30	0.76	73.50
11100	0.74	70.30	0.46	-49.20	0.46	-49.20	0.74	70.30
11150	0.72	67.10	0.50	-50.20	0.50	-50.20	0.72	67.10
11200	0.69	63.70	0.55	-52.80	0.55	-52.80	0.69	63.70
11250	0.65	60.30	0.60	-55.40	0.60	-55.40	0.65	60.30
11300	0.62	57.90	0.63	-58.00	0.63	-58.00	0.62	57.90
11350	0.58	55.50	0.67	-60.60	0.67	-60.60	0.58	55.50
11400	0.55	53.50	0.70	-63.70	0.70	-63.70	0.55	53.50
11450	0.51	51.60	0.72	-66.80	0.72	-66.80	0.51	51.60
11500	0.47	49.90	0.75	-69.70	0.75	-69.70	0.47	49.90
11550	0.44	48.10	0.79	-72.60	0.79	-72.60	0.44	48.10
11600	0.40	48.80	0.80	-75.60	0.80	-75.60	0.40	48.80
11650	0.37	49.50	0.81	-78.60	0.81	-78.60	0.37	49.50
11700	0.33	51.80	0.83	-81.80	0.83	-81.80	0.33	51.80
11750	0.29	54.10	0.84	-85.00	0.84	-85.00	0.29	54.10
11800	0.28	59.70	0.85	-88.00	0.85	-88.00	0.28	59.70
11850	0.25	65.30	0.86	-91.10	0.86	-91.10	0.25	65.30
11900	0.25	74.00	0.85	-94.70	0.85	-94.70	0.25	74.00
11950	0.24	82.70	0.85	-98.30	0.85	-98.30	0.24	82.70
12000	0.27	90.40	0.84	-101.50	0.84	-101.50	0.27	90.40
12050	0.30	98.20	0.83	-104.80	0.83	-104.80	0.30	98.20
12100	0.33	101.40	0.80	-108.60	0.80	-108.60	0.33	101.40
12150	0.37	104.60	0.77	-112.30	0.77	-112.30	0.37	104.60
12200	0.42	104.10	0.73	-115.60	0.73	-115.60	0.42	104.10
12250	0.48	103.60	0.69	-119.00	0.69	-119.00	0.48	103.60
12300	0.52	100.60	0.62	-121.10	0.62	-121.10	0.52	100.60
12350	0.57	97.70	0.56	-123.10	0.56	-123.10	0.57	97.70
12400	0.61	92.70	0.50	-121.60	0.50	-121.60	0.61	92.70
12450	0.65	87.60	0.43	-120.20	0.43	-120.20	0.65	87.60
12500	0.67	82.00	0.39	-112.60	0.39	-112.60	0.67	82.00
12550	0.69	76.40	0.35	-105.00	0.35	-105.00	0.69	76.40
12600	0.68	70.70	0.36	-95.40	0.36	-95.40	0.68	70.70
12650	0.68	65.10	0.38	-85.90	0.38	-85.90	0.68	65.10
12700	0.66	60.00	0.43	-81.70	0.43	-81.70	0.66	60.00
12750	0.65	54.90	0.48	-77.60	0.48	-77.60	0.65	54.90
12800	0.62	50.80	0.52	-77.40	0.52	-77.40	0.62	50.80
12850	0.59	46.60	0.57	-77.20	0.57	-77.20	0.59	46.60
12900	0.57	43.30	0.61	-78.60	0.61	-78.60	0.57	43.30
12950	0.54	40.10	0.65	-80.00	0.65	-80.00	0.54	40.10
13000	0.51	36.70	0.68	-81.50	0.68	-81.50	0.51	36.70
13050	0.48	33.40	0.71	-82.90	0.71	-82.90	0.48	33.40
13100	0.46	31.30	0.74	-84.90	0.74	-84.90	0.46	31.30
13150	0.44	29.20	0.76	-86.90	0.76	-86.90	0.44	29.20
13200	0.41	26.90	0.78	-88.70	0.78	-88.70	0.41	26.90
13250	0.39	24.70	0.79	-90.40	0.79	-90.40	0.39	24.70
13300	0.37	23.30	0.81	-92.50	0.81	-92.50	0.37	23.30
13350	0.34	21.90	0.82	-94.50	0.82	-94.50	0.34	21.90
13400	0.33	20.40	0.83	-96.40	0.83	-96.40	0.33	20.40
13450	0.31	19.00	0.84	-98.40	0.84	-98.40	0.31	19.00
13500	0.29	20.40	0.83	-100.20	0.83	-100.20	0.29	20.40
13550	0.26	21.80	0.83	-102.00	0.83	-102.00	0.26	21.80
13600	0.27	25.70	0.81	-103.10	0.81	-103.10	0.27	25.70
13650	0.28	29.60	0.80	-104.20	0.80	-104.20	0.28	29.60
13700	0.30	28.40	0.79	-102.90	0.79	-102.90	0.30	28.40
13750	0.33	27.30	0.79	-101.60	0.79	-101.60	0.33	27.30
13800	0.34	21.30	0.81	-101.90	0.81	-101.90	0.34	21.30
13850	0.35	15.30	0.83	-102.20	0.83	-102.20	0.35	15.30
13900	0.34	10.90	0.85	-103.10	0.85	-103.10	0.34	10.90
13950	0.33	6.50	0.86	-104.10	0.86	-104.10	0.33	6.50
14000	0.32	4.50	0.87	-105.20	0.87	-105.20	0.32	4.50
14050	0.31	2.40	0.88	-106.20	0.88	-106.20	0.31	2.40
14100	0.31	-1.90	0.89	-107.40	0.89	-107.40	0.31	-1.90
14150	0.30	-6.20	0.90	-108.70	0.90	-108.70	0.30	-6.20
14200	0.29	-7.60	0.91	-109.80	0.91	-109.80	0.29	-7.60
14250	0.29	-9.00	0.91	-110.80	0.91	-110.80	0.29	-9.00
14300	0.28	-11.70	0.91	-112.00	0.91	-112.00	0.28	-11.70
14350	0.28	-14.30	0.92	-113.10	0.92	-113.10	0.28	-14.30
14400	0.27	-16.20	0.92	-114.00	0.92	-114.00	0.27	-16.20
14450	0.26	-18.10	0.92	-114.90	0.92	-114.90	0.26	-18.10
14500	0.26	-19.30	0.92	-116.00	0.92	-116.00	0.26	-19.30
14550	0.26	-20.50	0.93	-117.20	0.93	-117.20	0.26	-20.50
14600	0.25	-21.60	0.93	-118.00	0.93	-118.00	0.25	-21.60
14650	0.25	-22.70	0.93	-118.90	0.93	-118.90	0.25	-22.70
14700	0.24	-22.90	0.93	-119.80	0.93	-119.80	0.24	-22.90
14750	0.24	-23.20	0.93	-120.60	0.93	-120.60	0.24	-23.20
14800	0.23	-24.10	0.94	-121.50	0.94	-121.50	0.23	-24.10
14850	0.22	-25.10	0.94	-122.40	0.94	-122.40	0.22	-25.10
14900	0.22	-24.60	0.94	-123.30	0.94	-123.30	0.22	-24.60
14950	0.21	-24.10	0.94	-124.20	0.94	-124.20	0.21	-24.10
15000	0.20	-24.90	0.94	-125.00	0.94	-125.00	0.20	-24.90
15050	0.19	-25.60	0.94	-125.80	0.94	-125.80	0.19	-25.60
15100	0.19	-23.90	0.94	-126.80	0.94	-126.80	0.19	-23.90
15150	0.18	-22.10	0.94	-127.70	0.94	-127.70	0.18	-22.10
15200	0.17	-22.10	0.94	-128.60	0.94	-128.60	0.17	-22.10
15250	0.17	-22.20	0.94	-129.60	0.94	-129.60	0.17	-22.20
15300	0.16	-17.40	0.94	-130.70	0.94	-130.70	0.16	-17.40
15350	0.15	-12.50	0.94	-131.80	0.94	-131.80	0.15	-12.50
15400	0.14	-10.10	0.94	-132.50	0.94	-132.50	0.14	-10.10
15450	0.13	-7.80	0.94	-133.20	0.94	-133.20	0.13	-7.80
15500	0.12	-0.40	0.94	-134.30	0.94	-134.30	0.12	-0.40
15550	0.12	7.00	0.94	-135.40	0.94	-135.40	0.12	7.00
15600	0.12	11.40	0.94	-136.20	0.94	-136.20	0.12	11.40
15650	0.12	15.80	0.94	-137.10	0.94	-137.10	0.12	15.80
15700	0.12	23.70	0.93	-138.20	0.93	-138.20	0.12	23.70
15750	0.12	31.70	0.92	-139.20	0.92	-139.20	0.12	31.70
15800	0.13	34.50	0.91	-140.30	0.91	-140.30	0.13	34.50
15850	0.14	37.40	0.90	-141.30	0.90	-141.30	0.14	37.40
15900	0.14	38.80	0.89	-141.30	0.89	-141.30	0.14	38.80
15950	0.14	40.20	0.88	-141.20	0.88	-141.20	0.14	40.20
16000	0.13	43.80	0.89	-141.20	0.89	-141.20	0.13	43.80
16050	0.12	47.40	0.89	-141.30	0.89	-141.30	0.12	47.40
16100	0.12	61.50	0.90	-142.30	0.90	-142.30	0.12	61.50
16150	0.12	75.60	0.90	-143.40	0.90	-143.40	0.12	75.60
16200	0.14	82.10	0.90	-144.90	0.90	-144.90	0.14	82.10
16250	0.16	88.60	0.90	-146.40	0.90	-146.40	0.16	88.60
16300	0.18	90.40	0.88	-147.70	0.88	-147.70	0.18	90.40
16350	0.21	92.20	0.88	-149.10	0.88	-149.10	0.21	92.20
16400	0.24	92.80	0.86	-150.60	0.86	-150.60	0.24	92.80
16450	0.28	93.40	0.84	-152.10	0.84	-152.10	0.28	93.40
16500	0.31	90.30	0.81	-153.30	0.81	-153.30	0.31	90.30
16550	0.34	87.10	0.78	-154.40	0.78	-154.40	0.34	87.10
16600	0.38	83.00	0.73	-154.80	0.73	-154.80	0.38	83.00
16650	0.41	78.90	0.69	-155.20	0.69	-155.20	0.41	78.90
16700	0.43	71.10	0.64	-151.50	0.64	-151.50	0.43	71.10
16750	0.44	63.40	0.60	-147.80	0.60	-147.80	0.44	63.40
16800	0.42	54.10	0.61	-141.70	0.61	-141.70	0.42	54.10
16850	0.41	44.70	0.63	-135.50	0.63	-135.50	0.41	44.70
16900	0.36	37.90	0.69	-133.70	0.69	-133.70	0.36	37.90
16950	0.32	31.20	0.74	-131.80	0.74	-131.80	0.32	31.20
17000	0.27	28.70	0.79	-133.10	0.79	-133.10	0.27	28.70
17050	0.22	26.10	0.84	-134.40	0.84	-134.40	0.22	26.10
17100	0.19	28.30	0.86	-136.20	0.86	-136.20	0.19	28.30
17150	0.15	30.40	0.89	-138.10	0.89	-138.10	0.15	30.40
17200	0.13	37.90	0.90	-139.70	0.90	-139.70	0.13	37.90
17250	0.11	45.30	0.92	-141.40	0.92	-141.40	0.11	45.30
17300	0.11	53.00	0.93	-143.00	0.93	-143.00	0.11	53.00
17350	0.10	60.60	0.94	-144.70	0.94	-144.70	0.10	60.60
17400	0.10	70.70	0.94	-145.80	0.94	-145.80	0.10	70.70
17450	0.10	80.80	0.95	-147.00	0.95	-147.00	0.10	80.80
17500	0.11	84.50	0.95	-148.20	0.95	-148.20	0.11	84.50
17550	0.11	88.10	0.95	-149.40	0.95	-149.40	0.11	88.10
17600	0.11	93.00	0.95	-150.40	0.95	-150.40	0.11	93.00
17650	0.11	98.00	0.96	-151.50	0.96	-151.50	0.11	98.00
17700	0.13	98.10	0.96	-152.40	0.96	-152.40	0.13	98.10
17750	0.14	98.20	0.96	-153.20	0.96	-153.20	0.14	98.20
17800	0.13	100.90	0.96	-154.20	0.96	-154.20	0.13	100.90
17850	0.13	103.70	0.96	-155.30	0.96	-155.30	0.13	103.70
17900	0.14	106.60	0.96	-156.20	0.96	-156.20	0.14	106.60
17950	0.14	109.50	0.96	-157.10	0.96	-157.10	0.14	109.50
18000	0.14	107.50	0.96	-157.80	0.96	-157.80	0.14	107.50
18050	0.13	105.40	0.96	-158.50	0.96	-158.50	0.13	105.40
18100	0.14	106.80	0.96	-159.20	0.96	-159.20	0.14	106.80
18150	0.14	108.30	0.96	-159.90	0.96	-159.90	0.14	108.30
18200	0.14	107.60	0.96	-160.60	0.96	-160.60	0.14	107.60
18250	0.13	106.90	0.97	-161.40	0.97	-161.40	0.13	106.90
18300	0.13	108.50	0.96	-162.20	0.96	-162.20	0.13	108.50
18350	0.13	110.20	0.96	-163.10	0.96	-163.10	0.13	110.20
18400	0.12	106.30	0.97	-163.80	0.97	-163.80	0.12	106.30
18450	0.11	102.50	0.97	-164.60	0.97	-164.60	0.11	102.50
18500	0.11	102.60	0.97	-165.40	0.97	-165.40	0.11	102.60
