# MHZ S MA R 50

      50  0.01   51.40    1.00    0.60    1.00    0.60    0.01   51.40
     100  0.02   65.00    1.00    0.10    1.00    0.10    0.02   65.00
     150  0.03   78.50    1.00   -0.50    1.00   -0.50    0.03   78.50
     200  0.03   80.10    1.00   -1.10    1.00   -1.10    0.03   80.10
     250  0.04   81.70    1.00   -1.80    1.00   -1.80    0.04   81.70
     300  0.05   81.60    1.00   -2.40    1.00   -2.40    0.05   81.60
     350  0.05   81.50    1.00   -3.10    1.00   -3.10    0.05   81.50
     400  0.06   79.60    0.99   -3.60    0.99   -3.60    0.06   79.60
     450  0.07   77.80    0.99   -4.20    0.99   -4.20    0.07   77.80
     500  0.09   82.30    0.99   -5.10    0.99   -5.10    0.09   82.30
     550  0.10   86.80    0.99   -6.10    0.99   -6.10    0.10   86.80
     600  0.11   86.80    0.99   -6.70    0.99   -6.70    0.11   86.80
     650  0.12   86.80    0.99   -7.40    0.99   -7.40    0.12   86.80
     700  0.12   86.40    0.99   -8.00    0.99   -8.00    0.12   86.40
     750  0.13   85.90    0.99   -8.70    0.99   -8.70    0.13   85.90
     800  0.14   84.70    0.99   -9.30    0.99   -9.30    0.14   84.70
     850  0.15   83.60    0.98   -10.00   0.98   -10.00   0.15   83.60
     900  0.16   83.30    0.98   -10.60   0.98   -10.60   0.16   83.30
     950  0.17   83.00    0.98   -11.20   0.98   -11.20   0.17   83.00
    1000  0.18   82.50    0.98   -11.90   0.98   -11.90   0.18   82.50
    1050  0.18   82.00    0.98   -12.50   0.98   -12.50   0.18   82.00
    1100  0.19   81.50    0.98   -13.20   0.98   -13.20   0.19   81.50
    1150  0.20   81.00    0.97   -13.90   0.97   -13.90   0.20   81.00
    1200  0.21   80.10    0.97   -14.50   0.97   -14.50   0.21   80.10
    1250  0.22   79.30    0.97   -15.10   0.97   -15.10   0.22   79.30
    1300  0.23   78.60    0.97   -15.80   0.97   -15.80   0.23   78.60
    1350  0.24   78.00    0.97   -16.40   0.97   -16.40   0.24   78.00
    1400  0.25   77.00    0.96   -17.00   0.96   -17.00   0.25   77.00
    1450  0.25   76.00    0.96   -17.60   0.96   -17.60   0.25   76.00
    1500  0.26   75.30    0.96   -18.30   0.96   -18.30   0.26   75.30
    1550  0.27   74.60    0.95   -19.00   0.95   -19.00   0.27   74.60
    1600  0.28   73.40    0.95   -19.70   0.95   -19.70   0.28   73.40
    1650  0.29   72.10    0.95   -20.30   0.95   -20.30   0.29   72.10
    1700  0.30   71.70    0.95   -20.90   0.95   -20.90   0.30   71.70
    1750  0.30   71.30    0.94   -21.60   0.94   -21.60   0.30   71.30
    1800  0.31   70.10    0.94   -22.10   0.94   -22.10   0.31   70.10
    1850  0.32   69.00    0.94   -22.70   0.94   -22.70   0.32   69.00
    1900  0.33   67.90    0.94   -23.20   0.94   -23.20   0.33   67.90
    1950  0.33   66.90    0.94   -23.80   0.94   -23.80   0.33   66.90
    2000  0.34   65.80    0.93   -24.50   0.93   -24.50   0.34   65.80
    2050  0.35   64.70    0.93   -25.20   0.93   -25.20   0.35   64.70
    2100  0.36   64.00    0.93   -25.70   0.93   -25.70   0.36   64.00
    2150  0.37   63.30    0.92   -26.20   0.92   -26.20   0.37   63.30
    2200  0.37   62.30    0.92   -26.90   0.92   -26.90   0.37   62.30
    2250  0.38   61.40    0.92   -27.60   0.92   -27.60   0.38   61.40
    2300  0.39   60.50    0.91   -28.10   0.91   -28.10   0.39   60.50
    2350  0.39   59.70    0.91   -28.50   0.91   -28.50   0.39   59.70
    2400  0.40   59.10    0.90   -29.20   0.90   -29.20   0.40   59.10
    2450  0.41   58.40    0.90   -29.90   0.90   -29.90   0.41   58.40
    2500  0.42   57.40    0.90   -30.60   0.90   -30.60   0.42   57.40
    2550  0.43   56.50    0.89   -31.30   0.89   -31.30   0.43   56.50
    2600  0.43   55.90    0.89   -31.90   0.89   -31.90   0.43   55.90
    2650  0.44   55.40    0.89   -32.40   0.89   -32.40   0.44   55.40
    2700  0.45   54.80    0.88   -33.10   0.88   -33.10   0.45   54.80
    2750  0.46   54.10    0.88   -33.70   0.88   -33.70   0.46   54.10
    2800  0.46   53.30    0.88   -34.30   0.88   -34.30   0.46   53.30
    2850  0.47   52.40    0.88   -34.90   0.88   -34.90   0.47   52.40
    2900  0.48   51.90    0.87   -35.80   0.87   -35.80   0.48   51.90
    2950  0.49   51.40    0.86   -36.70   0.86   -36.70   0.49   51.40
    3000  0.50   50.50    0.86   -37.30   0.86   -37.30   0.50   50.50
    3050  0.50   49.70    0.86   -37.90   0.86   -37.90   0.50   49.70
    3100  0.51   48.70    0.85   -38.80   0.85   -38.80   0.51   48.70
    3150  0.52   47.80    0.84   -39.70   0.84   -39.70   0.52   47.80
    3200  0.53   47.30    0.83   -40.10   0.83   -40.10   0.53   47.30
    3250  0.54   46.80    0.83   -40.50   0.83   -40.50   0.54   46.80
    3300  0.55   46.20    0.82   -41.40   0.82   -41.40   0.55   46.20
    3350  0.56   45.50    0.82   -42.40   0.82   -42.40   0.56   45.50
    3400  0.57   44.70    0.81   -42.90   0.81   -42.90   0.57   44.70
    3450  0.58   43.90    0.81   -43.40   0.81   -43.40   0.58   43.90
    3500  0.58   43.30    0.80   -44.00   0.80   -44.00   0.58   43.30
    3550  0.59   42.70    0.79   -44.60   0.79   -44.60   0.59   42.70
    3600  0.60   42.20    0.79   -45.40   0.79   -45.40   0.60   42.20
    3650  0.61   41.60    0.78   -46.20   0.78   -46.20   0.61   41.60
    3700  0.62   40.50    0.77   -46.90   0.77   -46.90   0.62   40.50
    3750  0.63   39.50    0.76   -47.60   0.76   -47.60   0.63   39.50
    3800  0.64   38.80    0.76   -48.20   0.76   -48.20   0.64   38.80
    3850  0.65   38.10    0.75   -48.80   0.75   -48.80   0.65   38.10
    3900  0.66   37.20    0.74   -49.70   0.74   -49.70   0.66   37.20
    3950  0.67   36.30    0.74   -50.60   0.74   -50.60   0.67   36.30
    4000  0.68   35.40    0.73   -51.30   0.73   -51.30   0.68   35.40
    4050  0.68   34.50    0.72   -51.90   0.72   -51.90   0.68   34.50
    4100  0.69   33.50    0.71   -52.80   0.71   -52.80   0.69   33.50
    4150  0.70   32.60    0.70   -53.60   0.70   -53.60   0.70   32.60
    4200  0.71   31.60    0.69   -54.20   0.69   -54.20   0.71   31.60
    4250  0.72   30.60    0.68   -54.70   0.68   -54.70   0.72   30.60
    4300  0.73   29.50    0.67   -55.50   0.67   -55.50   0.73   29.50
    4350  0.74   28.50    0.67   -56.20   0.67   -56.20   0.74   28.50
    4400  0.74   27.50    0.66   -56.90   0.66   -56.90   0.74   27.50
    4450  0.75   26.50    0.65   -57.70   0.65   -57.70   0.75   26.50
    4500  0.76   25.30    0.64   -58.70   0.64   -58.70   0.76   25.30
    4550  0.76   24.20    0.63   -59.70   0.63   -59.70   0.76   24.20
    4600  0.77   23.10    0.62   -60.40   0.62   -60.40   0.77   23.10
    4650  0.78   22.00    0.61   -61.00   0.61   -61.00   0.78   22.00
    4700  0.79   21.00    0.60   -61.90   0.60   -61.90   0.79   21.00
    4750  0.79   19.90    0.59   -62.70   0.59   -62.70   0.79   19.90
    4800  0.80   18.70    0.58   -63.70   0.58   -63.70   0.80   18.70
    4850  0.80   17.40    0.57   -64.60   0.57   -64.60   0.80   17.40
    4900  0.81   16.70    0.56   -65.30   0.56   -65.30   0.81   16.70
    4950  0.82   16.00    0.55   -65.90   0.55   -65.90   0.82   16.00
    5000  0.83   14.60    0.55   -67.00   0.55   -67.00   0.83   14.60
    5050  0.84   13.30    0.54   -68.10   0.54   -68.10   0.84   13.30
    5100  0.84   12.30    0.52   -69.10   0.52   -69.10   0.84   12.30
    5150  0.84   11.20    0.51   -70.20   0.51   -70.20   0.84   11.20
    5200  0.84   11.00    0.50   -70.60   0.50   -70.60   0.84   11.00
    5250  0.84   10.80    0.48   -71.10   0.48   -71.10   0.84   10.80
    5300  0.87    9.80    0.48   -72.00   0.48   -72.00   0.87    9.80
    5350  0.89    8.90    0.47   -72.80   0.47   -72.80   0.89    8.90
    5400  0.88    8.00    0.46   -74.00   0.46   -74.00   0.88    8.00
    5450  0.88    7.20    0.44   -75.10   0.44   -75.10   0.88    7.20
    5500  0.89    6.70    0.43   -75.80   0.43   -75.80   0.89    6.70
    5550  0.90    6.20    0.42   -76.60   0.42   -76.60   0.90    6.20
    5600  0.91    5.30    0.41   -77.60   0.41   -77.60   0.91    5.30
    5650  0.91    4.40    0.40   -78.70   0.40   -78.70   0.91    4.40
    5700  0.91    3.80    0.39   -79.60   0.39   -79.60   0.91    3.80
    5750  0.92    3.30    0.38   -80.50   0.38   -80.50   0.92    3.30
    5800  0.92    2.70    0.36   -81.30   0.36   -81.30   0.92    2.70
    5850  0.93    2.10    0.35   -82.10   0.35   -82.10   0.93    2.10
    5900  0.93    2.00    0.33   -82.80   0.33   -82.80   0.93    2.00
    5950  0.93    1.80    0.32   -83.40   0.32   -83.40   0.93    1.80
    6000  0.94    0.50    0.31   -84.30   0.31   -84.30   0.94    0.50
    6050  0.94   -0.70    0.31   -85.30   0.31   -85.30   0.94   -0.70
    6100  0.95   -1.10    0.29   -85.90   0.29   -85.90   0.95   -1.10
    6150  0.95   -1.50    0.28   -86.40   0.28   -86.40   0.95   -1.50
    6200  0.95   -1.40    0.26   -87.30   0.26   -87.30   0.95   -1.40
    6250  0.96   -1.20    0.25   -88.20   0.25   -88.20   0.96   -1.20
    6300  0.96   -1.80    0.24   -89.00   0.24   -89.00   0.96   -1.80
    6350  0.97   -2.30    0.23   -89.70   0.23   -89.70   0.97   -2.30
    6400  0.97   -2.30    0.21   -90.50   0.21   -90.50   0.97   -2.30
    6450  0.97   -2.30    0.20   -91.30   0.20   -91.30   0.97   -2.30
    6500  0.97   -2.80    0.19   -91.90   0.19   -91.90   0.97   -2.80
    6550  0.98   -3.20    0.17   -92.60   0.17   -92.60   0.98   -3.20
    6600  0.98   -3.40    0.16   -93.20   0.16   -93.20   0.98   -3.40
    6650  0.98   -3.60    0.14   -93.90   0.14   -93.90   0.98   -3.60
    6700  0.98   -3.90    0.13   -94.10   0.13   -94.10   0.98   -3.90
    6750  0.98   -4.10    0.12   -94.20   0.12   -94.20   0.98   -4.10
    6800  0.99   -4.20    0.10   -94.00   0.10   -94.00   0.99   -4.20
    6850  0.99   -4.20    0.09   -93.80   0.09   -93.80   0.99   -4.20
    6900  0.99   -5.20    0.08   -93.20   0.08   -93.20   0.99   -5.20
    6950  0.99   -6.10    0.06   -92.70   0.06   -92.70   0.99   -6.10
    7000  0.98   -6.20    0.05   -89.30   0.05   -89.30   0.98   -6.20
    7050  0.98   -6.40    0.04   -85.90   0.04   -85.90   0.98   -6.40
    7100  0.98   -7.10    0.03   -69.10   0.03   -69.10   0.98   -7.10
    7150  0.98   -7.80    0.02   -52.30   0.02   -52.30   0.98   -7.80
    7200  0.97   -8.30    0.02   -9.40    0.02   -9.40    0.97   -8.30
    7250  0.96   -8.70    0.02   33.50    0.02   33.50    0.96   -8.70
    7300  0.98   -9.50    0.03   42.90    0.03   42.90    0.98   -9.50
    7350  0.99   -10.30   0.05   52.30    0.05   52.30    0.99   -10.30
    7400  0.98   -11.50   0.06   54.40    0.06   54.40    0.98   -11.50
    7450  0.97   -12.70   0.07   56.50    0.07   56.50    0.97   -12.70
    7500  0.97   -13.40   0.09   57.40    0.09   57.40    0.97   -13.40
    7550  0.98   -14.20   0.10   58.20    0.10   58.20    0.98   -14.20
    7600  0.98   -15.70   0.11   58.00    0.11   58.00    0.98   -15.70
    7650  0.97   -17.30   0.12   57.80    0.12   57.80    0.97   -17.30
    7700  0.96   -18.50   0.14   57.60    0.14   57.60    0.96   -18.50
    7750  0.96   -19.70   0.15   57.50    0.15   57.50    0.96   -19.70
    7800  0.96   -20.50   0.16   57.20    0.16   57.20    0.96   -20.50
    7850  0.96   -21.30   0.18   57.00    0.18   57.00    0.96   -21.30
    7900  0.96   -23.30   0.19   56.20    0.19   56.20    0.96   -23.30
    7950  0.96   -25.30   0.21   55.40    0.21   55.40    0.96   -25.30
    8000  0.95   -26.50   0.22   54.60    0.22   54.60    0.95   -26.50
    8050  0.94   -27.80   0.23   53.80    0.23   53.80    0.94   -27.80
    8100  0.93   -29.10   0.25   53.30    0.25   53.30    0.93   -29.10
    8150  0.92   -30.30   0.26   52.90    0.26   52.90    0.92   -30.30
    8200  0.92   -31.70   0.28   51.80    0.28   51.80    0.92   -31.70
    8250  0.92   -33.10   0.29   50.80    0.29   50.80    0.92   -33.10
    8300  0.91   -34.30   0.31   50.10    0.31   50.10    0.91   -34.30
    8350  0.90   -35.50   0.32   49.30    0.32   49.30    0.90   -35.50
    8400  0.90   -36.90   0.34   47.90    0.34   47.90    0.90   -36.90
    8450  0.90   -38.40   0.35   46.60    0.35   46.60    0.90   -38.40
    8500  0.89   -39.50   0.37   45.60    0.37   45.60    0.89   -39.50
    8550  0.88   -40.60   0.38   44.50    0.38   44.50    0.88   -40.60
    8600  0.87   -41.80   0.39   42.90    0.39   42.90    0.87   -41.80
    8650  0.86   -43.00   0.41   41.40    0.41   41.40    0.86   -43.00
    8700  0.86   -44.00   0.42   39.90    0.42   39.90    0.86   -44.00
    8750  0.85   -45.00   0.43   38.50    0.43   38.50    0.85   -45.00
    8800  0.84   -45.80   0.44   37.50    0.44   37.50    0.84   -45.80
    8850  0.82   -46.60   0.44   36.60    0.44   36.60    0.82   -46.60
    8900  0.82   -47.10   0.45   35.60    0.45   35.60    0.82   -47.10
    8950  0.82   -47.50   0.46   34.70    0.46   34.70    0.82   -47.50
    9000  0.81   -48.30   0.47   34.10    0.47   34.10    0.81   -48.30
    9050  0.81   -49.00   0.47   33.40    0.47   33.40    0.81   -49.00
    9100  0.80   -49.80   0.48   32.80    0.48   32.80    0.80   -49.80
    9150  0.80   -50.60   0.49   32.30    0.49   32.30    0.80   -50.60
    9200  0.79   -51.50   0.50   32.00    0.50   32.00    0.79   -51.50
    9250  0.79   -52.40   0.51   31.80    0.51   31.80    0.79   -52.40
    9300  0.78   -52.80   0.53   30.90    0.53   30.90    0.78   -52.80
    9350  0.77   -53.10   0.54   30.10    0.54   30.10    0.77   -53.10
    9400  0.76   -53.70   0.55   29.60    0.55   29.60    0.76   -53.70
    9450  0.76   -54.40   0.56   29.20    0.56   29.20    0.76   -54.40
    9500  0.75   -54.80   0.57   28.30    0.57   28.30    0.75   -54.80
    9550  0.75   -55.30   0.58   27.40    0.58   27.40    0.75   -55.30
    9600  0.74   -55.60   0.59   26.60    0.59   26.60    0.74   -55.60
    9650  0.73   -56.00   0.60   25.80    0.60   25.80    0.73   -56.00
    9700  0.72   -56.60   0.61   25.20    0.61   25.20    0.72   -56.60
    9750  0.71   -57.30   0.63   24.70    0.63   24.70    0.71   -57.30
    9800  0.70   -57.80   0.64   23.80    0.64   23.80    0.70   -57.80
    9850  0.69   -58.30   0.65   22.90    0.65   22.90    0.69   -58.30
    9900  0.68   -58.30   0.65   22.30    0.65   22.30    0.68   -58.30
    9950  0.67   -58.40   0.66   21.70    0.66   21.70    0.67   -58.40
   10000  0.66   -59.80   0.67   21.10    0.67   21.10    0.66   -59.80
   10050  0.65   -61.30   0.69   20.50    0.69   20.50    0.65   -61.30
   10100  0.63   -61.10   0.70   19.70    0.70   19.70    0.63   -61.10
   10150  0.61   -61.00   0.70   18.80    0.70   18.80    0.61   -61.00
   10200  0.61   -62.00   0.72   18.10    0.72   18.10    0.61   -62.00
   10250  0.60   -63.10   0.73   17.40    0.73   17.40    0.60   -63.10
   10300  0.59   -64.10   0.74   16.80    0.74   16.80    0.59   -64.10
   10350  0.57   -65.10   0.75   16.10    0.75   16.10    0.57   -65.10
   10400  0.56   -66.10   0.76   14.90    0.76   14.90    0.56   -66.10
   10450  0.55   -67.00   0.78   13.60    0.78   13.60    0.55   -67.00
   10500  0.54   -68.20   0.78   13.00    0.78   13.00    0.54   -68.20
   10550  0.54   -69.40   0.79   12.30    0.79   12.30    0.54   -69.40
   10600  0.51   -70.10   0.80   11.10    0.80   11.10    0.51   -70.10
   10650  0.49   -70.90   0.81    9.80    0.81    9.80    0.49   -70.90
   10700  0.49   -71.90   0.82    9.10    0.82    9.10    0.49   -71.90
   10750  0.49   -72.90   0.82    8.30    0.82    8.30    0.49   -72.90
   10800  0.47   -73.50   0.83    7.50    0.83    7.50    0.47   -73.50
   10850  0.45   -74.20   0.84    6.70    0.84    6.70    0.45   -74.20
   10900  0.44   -75.60   0.84    5.50    0.84    5.50    0.44   -75.60
   10950  0.44   -77.00   0.85    4.20    0.85    4.20    0.44   -77.00
   11000  0.42   -77.80   0.85    3.60    0.85    3.60    0.42   -77.80
   11050  0.40   -78.60   0.85    3.00    0.85    3.00    0.40   -78.60
   11100  0.40   -79.10   0.86    2.10    0.86    2.10    0.40   -79.10
   11150  0.40   -79.50   0.87    1.10    0.87    1.10    0.40   -79.50
   11200  0.39   -80.10   0.87    0.40    0.87    0.40    0.39   -80.10
   11250  0.38   -80.60   0.87   -0.30    0.87   -0.30    0.38   -80.60
   11300  0.37   -81.10   0.87   -1.20    0.87   -1.20    0.37   -81.10
   11350  0.36   -81.50   0.88   -2.20    0.88   -2.20    0.36   -81.50
   11400  0.36   -81.20   0.88   -2.70    0.88   -2.70    0.36   -81.20
   11450  0.36   -81.00   0.88   -3.10    0.88   -3.10    0.36   -81.00
   11500  0.34   -81.80   0.89   -4.10    0.89   -4.10    0.34   -81.80
   11550  0.32   -82.70   0.89   -5.10    0.89   -5.10    0.32   -82.70
   11600  0.32   -83.10   0.90   -5.70    0.90   -5.70    0.32   -83.10
   11650  0.32   -83.40   0.90   -6.40    0.90   -6.40    0.32   -83.40
   11700  0.30   -83.70   0.91   -7.20    0.91   -7.20    0.30   -83.70
   11750  0.29   -84.00   0.91   -8.00    0.91   -8.00    0.29   -84.00
   11800  0.28   -85.20   0.91   -8.70    0.91   -8.70    0.28   -85.20
   11850  0.27   -86.30   0.91   -9.40    0.91   -9.40    0.27   -86.30
   11900  0.25   -87.20   0.92   -10.20   0.92   -10.20   0.25   -87.20
   11950  0.24   -88.10   0.92   -10.90   0.92   -10.90   0.24   -88.10
   12000  0.23   -89.50   0.92   -11.90   0.92   -11.90   0.23   -89.50
   12050  0.23   -90.80   0.92   -12.90   0.92   -12.90   0.23   -90.80
   12100  0.22   -91.70   0.92   -13.60   0.92   -13.60   0.22   -91.70
   12150  0.20   -92.50   0.92   -14.30   0.92   -14.30   0.20   -92.50
   12200  0.19   -93.10   0.92   -15.00   0.92   -15.00   0.19   -93.10
   12250  0.19   -93.60   0.93   -15.80   0.93   -15.80   0.19   -93.60
   12300  0.17   -94.40   0.93   -16.50   0.93   -16.50   0.17   -94.40
   12350  0.16   -95.20   0.93   -17.30   0.93   -17.30   0.16   -95.20
   12400  0.16   -94.40   0.92   -17.90   0.92   -17.90   0.16   -94.40
   12450  0.15   -93.50   0.92   -18.50   0.92   -18.50   0.15   -93.50
   12500  0.14   -92.70   0.93   -19.10   0.93   -19.10   0.14   -92.70
   12550  0.13   -91.90   0.93   -19.70   0.93   -19.70   0.13   -91.90
   12600  0.12   -89.80   0.93   -20.30   0.93   -20.30   0.12   -89.80
   12650  0.12   -87.80   0.93   -20.80   0.93   -20.80   0.12   -87.80
   12700  0.11   -83.70   0.93   -21.50   0.93   -21.50   0.11   -83.70
   12750  0.11   -79.50   0.93   -22.10   0.93   -22.10   0.11   -79.50
   12800  0.10   -77.30   0.93   -22.80   0.93   -22.80   0.10   -77.30
   12850  0.09   -75.10   0.94   -23.50   0.94   -23.50   0.09   -75.10
   12900  0.09   -68.70   0.94   -24.10   0.94   -24.10   0.09   -68.70
   12950  0.08   -62.40   0.94   -24.80   0.94   -24.80   0.08   -62.40
   13000  0.08   -59.50   0.94   -25.50   0.94   -25.50   0.08   -59.50
   13050  0.07   -56.60   0.94   -26.10   0.94   -26.10   0.07   -56.60
   13100  0.07   -50.00   0.94   -26.80   0.94   -26.80   0.07   -50.00
   13150  0.06   -43.40   0.94   -27.60   0.94   -27.60   0.06   -43.40
   13200  0.06   -29.60   0.94   -28.10   0.94   -28.10   0.06   -29.60
   13250  0.06   -15.80   0.94   -28.70   0.94   -28.70   0.06   -15.80
   13300  0.06   -8.20    0.94   -29.70   0.94   -29.70   0.06   -8.20
   13350  0.06   -0.50    0.94   -30.70   0.94   -30.70   0.06   -0.50
   13400  0.07    8.50    0.94   -31.60   0.94   -31.60   0.07    8.50
   13450  0.08   17.50    0.94   -32.40   0.94   -32.40   0.08   17.50
   13500  0.09   18.60    0.93   -33.10   0.93   -33.10   0.09   18.60
   13550  0.10   19.70    0.93   -33.90   0.93   -33.90   0.10   19.70
   13600  0.11   23.30    0.93   -34.80   0.93   -34.80   0.11   23.30
   13650  0.12   26.80    0.93   -35.70   0.93   -35.70   0.12   26.80
   13700  0.14   25.60    0.92   -36.40   0.92   -36.40   0.14   25.60
   13750  0.15   24.40    0.92   -37.10   0.92   -37.10   0.15   24.40
   13800  0.16   23.40    0.92   -37.80   0.92   -37.80   0.16   23.40
   13850  0.17   22.40    0.91   -38.40   0.91   -38.40   0.17   22.40
   13900  0.19   20.90    0.91   -39.00   0.91   -39.00   0.19   20.90
   13950  0.21   19.40    0.91   -39.60   0.91   -39.60   0.21   19.40
